Time [s],Packet ID,MOSI,MISO
0.567148750000000,0,0x00,0x00
0.567222875000000,0,0x6F,0x01
0.567297000000000,0,0xE0,0x01
0.567376500000000,1,0x01,0x01
0.567450500000000,1,0x56,0x81
0.567524625000000,1,0x81,0x01
0.567604125000000,2,0x02,0x01
0.567678250000000,2,0x66,0x01
0.567752375000000,2,0x17,0x01
0.567831875000000,3,0x04,0x01
0.567906000000000,3,0x9C,0x01
0.567980000000000,3,0xC9,0x01
0.568059500000000,4,0x05,0x01
0.568133625000000,4,0x66,0x01
0.568207750000000,4,0x37,0x01
0.568286250000000,5,0x07,0x01
0.568360375000000,5,0x00,0x01
0.568434500000000,5,0x00,0x01
0.568513875000000,6,0x08,0x81
0.568588000000000,6,0x6C,0x01
0.568662125000000,6,0x90,0x01
0.568741125000000,7,0x09,0x01
0.568815250000000,7,0x48,0x01
0.568889375000000,7,0x00,0x01
0.568968875000000,8,0x0A,0x01
0.569042875000000,8,0x7F,0x81
0.569117000000000,8,0xFD,0x01
0.569196000000000,9,0x0B,0x01
0.569270125000000,9,0x00,0x01
0.569344250000000,9,0x08,0x00
0.569422750000000,10,0x0C,0x01
0.569496875000000,10,0x00,0x01
0.569571000000000,10,0x00,0x01
0.569650500000000,11,0x0D,0x01
0.569724500000000,11,0x48,0x01
0.569798625000000,11,0xBD,0x01
0.569877625000000,12,0x16,0x01
0.569951750000000,12,0x00,0x01
0.570025875000000,12,0xFF,0x01
0.570105375000000,13,0x17,0x01
0.570179500000000,13,0x80,0x01
0.570253625000000,13,0x05,0x01
0.570332500000000,14,0x18,0x01
0.570406625000000,14,0x00,0x01
0.570480750000000,14,0x67,0x01
0.570560250000000,15,0x19,0x01
0.570634375000000,15,0x16,0x01
0.570708500000000,15,0x59,0x01
0.570787875000000,16,0x1A,0x01
0.570862000000000,16,0x19,0x01
0.570936125000000,16,0xE0,0x01
0.571015125000000,17,0x1B,0x01
0.571089250000000,17,0x13,0x01
0.571163375000000,17,0x00,0x01
0.571242375000000,18,0x1C,0x01
0.571316375000000,18,0x18,0x01
0.571390500000000,18,0x00,0x01
0.571469500000000,19,0x20,0x01
0.571543625000000,19,0x48,0x01
0.571617750000000,19,0x00,0x01
0.571697250000000,20,0x21,0x01
0.571771375000000,20,0x3F,0x01
0.571845375000000,20,0xC7,0x81
0.571924375000000,21,0x22,0x01
0.571998500000000,21,0x20,0x01
0.572072625000000,21,0x00,0x01
0.572151625000000,22,0x23,0x00
0.572225750000000,22,0x03,0x01
0.572299875000000,22,0x00,0x01
0.572379375000000,23,0x24,0x01
0.572453375000000,23,0x22,0x01
0.572527500000000,23,0x11,0x01
0.572607000000000,24,0x25,0x01
0.572681125000000,24,0x06,0x01
0.572755250000000,24,0x8C,0x01
0.572834250000000,25,0x26,0x01
0.572908375000000,25,0x5A,0x01
0.572982500000000,25,0x5A,0x01
0.573061375000000,26,0x27,0x01
0.573135500000000,26,0x00,0x01
0.573209625000000,26,0x33,0x01
0.573289125000000,27,0x28,0x01
0.573363250000000,27,0x44,0x01
0.573437375000000,27,0x02,0x01
0.573516375000000,28,0x29,0x01
0.573590375000000,28,0xB0,0x81
0.573664500000000,28,0x00,0x01
0.573744000000000,29,0x2A,0x01
0.573818125000000,29,0xFD,0x00
0.573892250000000,29,0xB0,0x01
0.573971250000000,30,0x2B,0x01
0.574045375000000,30,0x00,0x01
0.574119500000000,30,0x0F,0x01
0.574198000000000,31,0x32,0x01
0.574272000000000,31,0x00,0x01
0.574346125000000,31,0x00,0x01
0.586131875000000,32,0xA8,0x01
0.586213375000000,32,0xFF,0x44
0.586295250000000,32,0xFF,0x03
0.586390375000000,33,0x34,0x01
0.586464375000000,33,0x80,0x01
0.586538500000000,33,0x80,0x01
0.586621000000000,34,0x32,0x01
0.586695000000000,34,0x0A,0x01
0.586769125000000,34,0x00,0x01
0.586848625000000,35,0x32,0x01
0.586922750000000,35,0x11,0x01
0.586996875000000,35,0x22,0x01
0.587076375000000,36,0x32,0x01
0.587150500000000,36,0x33,0x01
0.587224625000000,36,0x06,0x01
0.587304000000000,37,0x32,0x01
0.587378125000000,37,0xAB,0x01
0.587452250000000,37,0xFC,0x01
0.587532250000000,38,0x32,0x01
0.587606375000000,38,0xAD,0x01
0.587680500000000,38,0x00,0x01
0.587761875000000,39,0x07,0x01
0.587836000000000,39,0x01,0x01
0.587910125000000,39,0x00,0x01
0.588240125000000,40,0x07,0x0D
0.588313250000000,40,0x00,0x81
0.588387375000000,40,0x28,0x01
0.588465875000000,41,0x32,0x01
0.588540000000000,41,0x00,0x01
0.588614125000000,41,0x00,0x01
0.588697000000000,42,0x34,0x01
0.588771125000000,42,0x80,0x01
0.588845250000000,42,0x80,0x01
0.588927625000000,43,0x32,0x01
0.589001750000000,43,0x0A,0x01
0.589075875000000,43,0x00,0x01
0.589155375000000,44,0x32,0x01
0.589229500000000,44,0x11,0x01
0.589303625000000,44,0x22,0x01
0.589383125000000,45,0x32,0x01
0.589457125000000,45,0x33,0x01
0.589531250000000,45,0x06,0x01
0.589610750000000,46,0x32,0x01
0.589684875000000,46,0xAB,0x01
0.589759000000000,46,0xFC,0x01
0.589839000000000,47,0x32,0x01
0.589913000000000,47,0xAD,0x01
0.589987125000000,47,0x00,0x01
0.590068625000000,48,0x07,0x01
0.590142750000000,48,0x01,0x01
0.590216875000000,48,0x28,0x01
0.590547875000000,49,0x07,0x0F
0.590620500000000,49,0x00,0x01
0.590694625000000,49,0x0A,0x01
0.590773125000000,50,0x32,0x01
0.590847250000000,50,0x00,0x01
0.590921375000000,50,0x00,0x01
0.591004250000000,51,0x34,0x01
0.591078375000000,51,0x80,0x01
0.591152500000000,51,0x80,0x01
0.591234875000000,52,0x32,0x00
0.591309000000000,52,0x0A,0x01
0.591383125000000,52,0x00,0x01
0.591462625000000,53,0x32,0x01
0.591536750000000,53,0x11,0x01
0.591610750000000,53,0x22,0x01
0.591690250000000,54,0x32,0x01
0.591764375000000,54,0x33,0x01
0.591838500000000,54,0x06,0x01
0.591918000000000,55,0x32,0x01
0.591992125000000,55,0xAB,0x01
0.592066250000000,55,0xFC,0x01
0.592146125000000,56,0x32,0x01
0.592220250000000,56,0xAD,0x01
0.592294375000000,56,0x00,0x00
0.592375750000000,57,0x07,0x01
0.592449875000000,57,0x01,0x01
0.592524000000000,57,0x0A,0x01
0.592856000000000,58,0x07,0x0F
0.592928625000000,58,0x00,0x81
0.593002750000000,58,0x32,0x01
0.593081250000000,59,0x32,0x01
0.593155375000000,59,0x00,0x01
0.593229500000000,59,0x00,0x01
0.593312375000000,60,0x34,0x01
0.593386500000000,60,0x80,0x01
0.593460625000000,60,0x80,0x01
0.593543000000000,61,0x32,0x01
0.593617125000000,61,0x0A,0x01
0.593691250000000,61,0x00,0x01
0.593770750000000,62,0x32,0x01
0.593844875000000,62,0x11,0x01
0.593919000000000,62,0x22,0x01
0.593998500000000,63,0x32,0x01
0.594072500000000,63,0x33,0x01
0.594146625000000,63,0x06,0x01
0.594226125000000,64,0x32,0x01
0.594300250000000,64,0xAB,0x00
0.594374375000000,64,0xFC,0x01
0.594454375000000,65,0x32,0x01
0.594528500000000,65,0xAD,0x01
0.594602500000000,65,0x00,0x01
0.594684000000000,66,0x07,0x01
0.594758125000000,66,0x01,0x01
0.594832250000000,66,0x32,0x01
0.595165250000000,67,0x07,0x0F
0.595237875000000,67,0x00,0x01
0.595312000000000,67,0x14,0x01
0.595390500000000,68,0x32,0x01
0.595464625000000,68,0x00,0x01
0.595538625000000,68,0x00,0x01
0.595621625000000,69,0x34,0x01
0.595695625000000,69,0x80,0x01
0.595769750000000,69,0x80,0x01
0.595852250000000,70,0x32,0x01
0.595926250000000,70,0x0A,0x01
0.596000375000000,70,0x00,0x01
0.596079875000000,71,0x32,0x01
0.596154000000000,71,0x11,0x01
0.596228125000000,71,0x22,0x01
0.596307625000000,72,0x32,0x01
0.596381750000000,72,0x33,0x01
0.596455750000000,72,0x06,0x81
0.596535250000000,73,0x32,0x01
0.596609375000000,73,0xAB,0x01
0.596683500000000,73,0xFC,0x01
0.596763500000000,74,0x32,0x01
0.596837625000000,74,0xAD,0x01
0.596911750000000,74,0x00,0x01
0.596993125000000,75,0x07,0x00
0.597067250000000,75,0x01,0x01
0.597141375000000,75,0x14,0x01
0.597475375000000,76,0x07,0x0F
0.597548000000000,76,0x00,0x01
0.597622125000000,76,0x3C,0x01
0.597700625000000,77,0x32,0x01
0.597774750000000,77,0x00,0x01
0.597848875000000,77,0x00,0x01
0.597931750000000,78,0x34,0x01
0.598005750000000,78,0x80,0x81
0.598079875000000,78,0x80,0x01
0.598162375000000,79,0x32,0x01
0.598236375000000,79,0x0A,0x81
0.598310500000000,79,0x00,0x01
0.598390000000000,80,0x32,0x01
0.598464125000000,80,0x11,0x01
0.598538250000000,80,0x22,0x00
0.598617750000000,81,0x32,0x01
0.598691875000000,81,0x33,0x01
0.598766000000000,81,0x06,0x01
0.598845375000000,82,0x32,0x01
0.598919500000000,82,0xAB,0x01
0.598993625000000,82,0xFC,0x01
0.599073625000000,83,0x32,0x01
0.599147750000000,83,0xAD,0x01
0.599221875000000,83,0x00,0x01
0.599306250000000,84,0x07,0x01
0.599380250000000,84,0x01,0x01
0.599454375000000,84,0x3C,0x01
0.599789375000000,85,0x07,0x0D
0.599862500000000,85,0x00,0x00
0.599936625000000,85,0x1E,0x01
0.600015125000000,86,0x32,0x01
0.600089250000000,86,0x00,0x01
0.600163375000000,86,0x00,0x01
0.600246250000000,87,0x34,0x01
0.600320375000000,87,0x80,0x01
0.600394500000000,87,0x80,0x01
0.600476875000000,88,0x32,0x01
0.600551000000000,88,0x0A,0x01
0.600625125000000,88,0x00,0x01
0.600704500000000,89,0x32,0x01
0.600778625000000,89,0x11,0x01
0.600852750000000,89,0x22,0x01
0.600932250000000,90,0x32,0x01
0.601006375000000,90,0x33,0x01
0.601080500000000,90,0x06,0x01
0.601160000000000,91,0x32,0x01
0.601234000000000,91,0xAB,0x01
0.601308125000000,91,0xFC,0x01
0.601388125000000,92,0x32,0x00
0.601462250000000,92,0xAD,0x01
0.601536375000000,92,0x00,0x01
0.601617750000000,93,0x07,0x01
0.601691875000000,93,0x01,0x01
0.601766000000000,93,0x1E,0x01
0.602101875000000,94,0x07,0x0F
0.602174500000000,94,0x00,0x81
0.602248625000000,94,0x46,0x01
0.602327125000000,95,0x32,0x01
0.602401250000000,95,0x00,0x01
0.602475375000000,95,0x00,0x01
0.602558250000000,96,0x34,0x01
0.602632375000000,96,0x80,0x01
0.602706500000000,96,0x80,0x01
0.602788875000000,97,0x32,0x01
0.602863000000000,97,0x0A,0x01
0.602937125000000,97,0x00,0x01
0.603016625000000,98,0x32,0x01
0.603090750000000,98,0x11,0x01
0.603164875000000,98,0x22,0x01
0.603244375000000,99,0x32,0x01
0.603318375000000,99,0x33,0x01
0.603392500000000,99,0x06,0x01
0.603472000000000,100,0x32,0x01
0.603546125000000,100,0xAB,0x01
0.603620250000000,100,0xFC,0x00
0.603700250000000,101,0x32,0x01
0.603774375000000,101,0xAD,0x01
0.603848500000000,101,0x00,0x01
0.603929875000000,102,0x07,0x01
0.604004000000000,102,0x01,0x01
0.604078125000000,102,0x46,0x01
0.604407125000000,103,0x07,0x8D
0.604480375000000,103,0x00,0x01
0.604554500000000,103,0x00,0x01
0.604633000000000,104,0x32,0x01
0.604707000000000,104,0x00,0x01
0.604781125000000,104,0x00,0x01
0.604864000000000,105,0x34,0x01
0.604938125000000,105,0x80,0x01
0.605012250000000,105,0x80,0x01
0.605094625000000,106,0x32,0x01
0.605168750000000,106,0x0A,0x01
0.605242875000000,106,0x00,0x01
0.605322375000000,107,0x32,0x01
0.605396500000000,107,0x11,0x01
0.605470625000000,107,0x22,0x01
0.605550125000000,108,0x32,0x01
0.605624250000000,108,0x33,0x01
0.605698375000000,108,0x06,0x01
0.605777750000000,109,0x32,0x01
0.605851875000000,109,0xAB,0x01
0.605926000000000,109,0xFC,0x01
0.606006000000000,110,0x32,0x01
0.606080125000000,110,0xAD,0x01
0.606154250000000,110,0x00,0x01
0.606235625000000,111,0x07,0x01
0.606309750000000,111,0x01,0x01
0.606383875000000,111,0x00,0x01
0.606714000000000,112,0x07,0x0D
0.606787125000000,112,0x00,0x01
0.606861250000000,112,0x28,0x01
0.606939625000000,113,0x32,0x81
0.607013750000000,113,0x00,0x01
0.607087875000000,113,0x00,0x01
0.607170750000000,114,0x34,0x01
0.607244875000000,114,0x80,0x01
0.607319000000000,114,0x80,0x01
0.607401375000000,115,0x32,0x01
0.607475500000000,115,0x0A,0x01
0.607549625000000,115,0x00,0x01
0.607629125000000,116,0x32,0x01
0.607703250000000,116,0x11,0x01
0.607777375000000,116,0x22,0x01
0.607856875000000,117,0x32,0x01
0.607930875000000,117,0x33,0x81
0.608005000000000,117,0x06,0x01
0.608084500000000,118,0x32,0x01
0.608158625000000,118,0xAB,0x01
0.608232750000000,118,0xFC,0x01
0.608312750000000,119,0x32,0x01
0.608386875000000,119,0xAD,0x01
0.608460875000000,119,0x00,0x01
0.608545250000000,120,0x07,0x01
0.608619375000000,120,0x01,0x01
0.608693500000000,120,0x28,0x01
0.609024500000000,121,0x07,0x8F
0.609097250000000,121,0x00,0x01
0.609171375000000,121,0x0A,0x01
0.609249875000000,122,0x32,0x01
0.609323875000000,122,0x00,0x81
0.609398000000000,122,0x00,0x01
0.609480875000000,123,0x34,0x81
0.609555000000000,123,0x80,0x01
0.609629125000000,123,0x80,0x01
0.609711500000000,124,0x32,0x81
0.609785625000000,124,0x0A,0x01
0.609859750000000,124,0x00,0x01
0.609939250000000,125,0x32,0x01
0.610013375000000,125,0x11,0x01
0.610087500000000,125,0x22,0x01
0.610167000000000,126,0x32,0x01
0.610241125000000,126,0x33,0x01
0.610315125000000,126,0x06,0x01
0.610394625000000,127,0x32,0x01
0.610468750000000,127,0xAB,0x01
0.610542875000000,127,0xFC,0x00
0.610622875000000,128,0x32,0x01
0.610697000000000,128,0xAD,0x01
0.610771125000000,128,0x00,0x01
0.610852500000000,129,0x07,0x01
0.610926625000000,129,0x01,0x01
0.611000750000000,129,0x0A,0x01
0.611332750000000,130,0x07,0x0F
0.611405375000000,130,0x00,0x01
0.611479500000000,130,0x32,0x01
0.611558000000000,131,0x32,0x01
0.611632125000000,131,0x00,0x01
0.611706250000000,131,0x00,0x01
0.611789125000000,132,0x34,0x01
0.611863250000000,132,0x80,0x01
0.611937375000000,132,0x80,0x01
0.612019750000000,133,0x32,0x01
0.612093875000000,133,0x0A,0x01
0.612167875000000,133,0x00,0x81
0.612247375000000,134,0x32,0x01
0.612321500000000,134,0x11,0x01
0.612395625000000,134,0x22,0x01
0.612475125000000,135,0x32,0x01
0.612549250000000,135,0x33,0x01
0.612623375000000,135,0x06,0x01
0.612702750000000,136,0x32,0x81
0.612776875000000,136,0xAB,0x01
0.612851000000000,136,0xFC,0x01
0.612931000000000,137,0x32,0x01
0.613005125000000,137,0xAD,0x01
0.613079250000000,137,0x00,0x01
0.613160625000000,138,0x07,0x01
0.613234750000000,138,0x01,0x01
0.613308875000000,138,0x32,0x01
0.613641875000000,139,0x07,0x0F
0.613714500000000,139,0x00,0x01
0.613788625000000,139,0x14,0x01
0.613867125000000,140,0x32,0x01
0.613941250000000,140,0x00,0x00
0.614015375000000,140,0x00,0x01
0.614098250000000,141,0x34,0x00
0.614172375000000,141,0x80,0x01
0.614246500000000,141,0x80,0x01
0.614328875000000,142,0x32,0x01
0.614403000000000,142,0x0A,0x01
0.614477125000000,142,0x00,0x01
0.614556625000000,143,0x32,0x01
0.614630625000000,143,0x11,0x81
0.614704750000000,143,0x22,0x01
0.614784250000000,144,0x32,0x01
0.614858375000000,144,0x33,0x01
0.614932500000000,144,0x06,0x00
0.615012000000000,145,0x32,0x01
0.615086125000000,145,0xAB,0x01
0.615160250000000,145,0xFC,0x01
0.615240125000000,146,0x32,0x01
0.615314250000000,146,0xAD,0x01
0.615388375000000,146,0x00,0x01
0.615469750000000,147,0x07,0x81
0.615543875000000,147,0x01,0x01
0.615618000000000,147,0x14,0x01
0.615952000000000,148,0x07,0x0F
0.616024625000000,148,0x00,0x01
0.616098750000000,148,0x3C,0x01
0.616177250000000,149,0x32,0x01
0.616251375000000,149,0x00,0x01
0.616325500000000,149,0x00,0x01
0.616408375000000,150,0x34,0x01
0.616482500000000,150,0x80,0x01
0.616556625000000,150,0x80,0x01
0.616639000000000,151,0x32,0x01
0.616713125000000,151,0x0A,0x01
0.616787250000000,151,0x00,0x01
0.616866750000000,152,0x32,0x01
0.616940875000000,152,0x11,0x01
0.617015000000000,152,0x22,0x01
0.617094375000000,153,0x32,0x01
0.617168500000000,153,0x33,0x01
0.617242625000000,153,0x06,0x01
0.617322125000000,154,0x32,0x01
0.617396250000000,154,0xAB,0x01
0.617470375000000,154,0xFC,0x01
0.617550250000000,155,0x32,0x81
0.617624375000000,155,0xAD,0x01
0.617698500000000,155,0x00,0x01
0.617782875000000,156,0x07,0x01
0.617857000000000,156,0x01,0x01
0.617931125000000,156,0x3C,0x01
0.618266000000000,157,0x07,0x8D
0.618339250000000,157,0x00,0x01
0.618413375000000,157,0x1E,0x01
0.618491875000000,158,0x32,0x01
0.618565875000000,158,0x00,0x01
0.618640000000000,158,0x00,0x01
0.618722875000000,159,0x34,0x01
0.618797000000000,159,0x80,0x01
0.618871125000000,159,0x80,0x01
0.618953500000000,160,0x32,0x81
0.619027625000000,160,0x0A,0x01
0.619101750000000,160,0x00,0x01
0.619181250000000,161,0x32,0x01
0.619255375000000,161,0x11,0x00
0.619329500000000,161,0x22,0x01
0.619409000000000,162,0x32,0x01
0.619483125000000,162,0x33,0x01
0.619557250000000,162,0x06,0x01
0.619636625000000,163,0x32,0x01
0.619710750000000,163,0xAB,0x01
0.619784875000000,163,0xFC,0x01
0.619864875000000,164,0x32,0x01
0.619939000000000,164,0xAD,0x01
0.620013125000000,164,0x00,0x01
0.620094500000000,165,0x07,0x01
0.620168625000000,165,0x01,0x01
0.620242750000000,165,0x1E,0x01
0.620578625000000,166,0x07,0x0F
0.620651250000000,166,0x00,0x81
0.620725375000000,166,0x46,0x01
0.620803875000000,167,0x32,0x01
0.620878000000000,167,0x00,0x01
0.620952125000000,167,0x00,0x01
0.621035000000000,168,0x34,0x01
0.621109125000000,168,0x80,0x01
0.621183250000000,168,0x80,0x01
0.621265625000000,169,0x32,0x01
0.621339750000000,169,0x0A,0x01
0.621413875000000,169,0x00,0x01
0.621493375000000,170,0x32,0x01
0.621567500000000,170,0x11,0x01
0.621641625000000,170,0x22,0x01
0.621721000000000,171,0x32,0x01
0.621795125000000,171,0x33,0x01
0.621869250000000,171,0x06,0x01
0.621948750000000,172,0x32,0x01
0.622022875000000,172,0xAB,0x01
0.622097000000000,172,0xFC,0x01
0.622177000000000,173,0x32,0x01
0.622251000000000,173,0xAD,0x01
0.622325125000000,173,0x00,0x01
0.622406625000000,174,0x07,0x01
0.622480750000000,174,0x01,0x01
0.622554875000000,174,0x46,0x01
0.622883875000000,175,0x07,0x0D
0.622957000000000,175,0x00,0x01
0.623031125000000,175,0x00,0x01
0.623109625000000,176,0x32,0x01
0.623183750000000,176,0x00,0x01
0.623257875000000,176,0x00,0x01
0.623340750000000,177,0x34,0x01
0.623414875000000,177,0x80,0x01
0.623489000000000,177,0x80,0x01
0.623571375000000,178,0x32,0x01
0.623645500000000,178,0x0A,0x01
0.623719625000000,178,0x00,0x01
0.623799125000000,179,0x32,0x01
0.623873250000000,179,0x11,0x01
0.623947375000000,179,0x22,0x01
0.624026750000000,180,0x32,0x01
0.624100875000000,180,0x33,0x01
0.624175000000000,180,0x06,0x01
0.624254500000000,181,0x32,0x01
0.624328625000000,181,0xAB,0x01
0.624402750000000,181,0xFC,0x01
0.624482625000000,182,0x32,0x01
0.624556750000000,182,0xAD,0x01
0.624630875000000,182,0x00,0x01
0.624712375000000,183,0x07,0x01
0.624786500000000,183,0x01,0x01
0.624860500000000,183,0x00,0x81
0.625190625000000,184,0x07,0x0D
0.625263750000000,184,0x00,0x01
0.625337875000000,184,0x28,0x01
0.625416375000000,185,0x32,0x01
0.625490500000000,185,0x00,0x01
0.625564625000000,185,0x00,0x01
0.625647500000000,186,0x34,0x01
0.625721625000000,186,0x80,0x01
0.625795750000000,186,0x80,0x01
0.625878125000000,187,0x32,0x00
0.625952250000000,187,0x0A,0x01
0.626026375000000,187,0x00,0x01
0.626105875000000,188,0x32,0x01
0.626180000000000,188,0x11,0x01
0.626254000000000,188,0x22,0x01
0.626333500000000,189,0x32,0x01
0.626407625000000,189,0x33,0x01
0.626481750000000,189,0x06,0x01
0.626561250000000,190,0x32,0x01
0.626635375000000,190,0xAB,0x01
0.626709500000000,190,0xFC,0x01
0.626789375000000,191,0x32,0x01
0.626863500000000,191,0xAD,0x01
0.626937625000000,191,0x00,0x01
0.627022000000000,192,0x07,0x01
0.627096125000000,192,0x01,0x01
0.627170250000000,192,0x28,0x01
0.627501250000000,193,0x07,0x0D
0.627574375000000,193,0x00,0x01
0.627648500000000,193,0x0A,0x01
0.627727000000000,194,0x32,0x01
0.627801125000000,194,0x00,0x01
0.627875250000000,194,0x00,0x01
0.627958125000000,195,0x34,0x01
0.628032250000000,195,0x80,0x01
0.628106375000000,195,0x80,0x01
0.628188750000000,196,0x32,0x01
0.628262875000000,196,0x0A,0x01
0.628337000000000,196,0x00,0x01
0.628416500000000,197,0x32,0x01
0.628490625000000,197,0x11,0x01
0.628564750000000,197,0x22,0x01
0.628644125000000,198,0x32,0x81
0.628718250000000,198,0x33,0x01
0.628792375000000,198,0x06,0x01
0.628871875000000,199,0x32,0x01
0.628946000000000,199,0xAB,0x01
0.629020125000000,199,0xFC,0x01
0.629100125000000,200,0x32,0x01
0.629174125000000,200,0xAD,0x01
0.629248250000000,200,0x00,0x01
0.629329750000000,201,0x07,0x01
0.629403875000000,201,0x01,0x01
0.629478000000000,201,0x0A,0x01
0.629810000000000,202,0x07,0x0F
0.629882625000000,202,0x00,0x01
0.629956750000000,202,0x32,0x01
0.630035250000000,203,0x32,0x01
0.630109375000000,203,0x00,0x01
0.630183500000000,203,0x00,0x01
0.630266375000000,204,0x34,0x01
0.630340500000000,204,0x80,0x01
0.630414625000000,204,0x80,0x01
0.630497000000000,205,0x32,0x01
0.630571125000000,205,0x0A,0x01
0.630645250000000,205,0x00,0x01
0.630724625000000,206,0x32,0x01
0.630798750000000,206,0x11,0x01
0.630872875000000,206,0x22,0x01
0.630952375000000,207,0x32,0x01
0.631026500000000,207,0x33,0x01
0.631100625000000,207,0x06,0x01
0.631180125000000,208,0x32,0x01
0.631254250000000,208,0xAB,0x01
0.631328250000000,208,0xFC,0x01
0.631408250000000,209,0x32,0x01
0.631482375000000,209,0xAD,0x01
0.631556500000000,209,0x00,0x01
0.631637875000000,210,0x07,0x01
0.631712000000000,210,0x01,0x01
0.631786125000000,210,0x32,0x01
0.632119125000000,211,0x07,0x0F
