Time [s],Packet ID,MOSI,MISO
0.567179875000000,0,0x00,0x01
0.567254000000000,0,0x6F,0x01
0.567328125000000,0,0xE0,0x01
0.567407500000000,1,0x01,0x01
0.567481625000000,1,0x56,0x01
0.567555750000000,1,0x81,0x01
0.567635250000000,2,0x02,0x01
0.567709375000000,2,0x66,0x01
0.567783500000000,2,0x17,0x01
0.567863000000000,3,0x04,0x01
0.567937125000000,3,0x9C,0x01
0.568011125000000,3,0xC9,0x01
0.568090625000000,4,0x05,0x01
0.568164750000000,4,0x66,0x01
0.568238875000000,4,0x37,0x01
0.568317375000000,5,0x07,0x01
0.568391500000000,5,0x00,0x00
0.568465625000000,5,0x00,0x01
0.568545125000000,6,0x08,0x01
0.568619250000000,6,0x6C,0x01
0.568693375000000,6,0x90,0x01
0.568772250000000,7,0x09,0x01
0.568846375000000,7,0x48,0x01
0.568920500000000,7,0x00,0x01
0.569000000000000,8,0x0A,0x01
0.569074125000000,8,0x7F,0x00
0.569148250000000,8,0xFD,0x01
0.569227250000000,9,0x0B,0x01
0.569301375000000,9,0x00,0x01
0.569375500000000,9,0x08,0x01
0.569454000000000,10,0x0C,0x01
0.569528125000000,10,0x00,0x01
0.569602125000000,10,0x00,0x01
0.569681625000000,11,0x0D,0x01
0.569755750000000,11,0x48,0x01
0.569829875000000,11,0xBD,0x01
0.569908875000000,12,0x16,0x00
0.569983000000000,12,0x00,0x01
0.570057125000000,12,0xFF,0x01
0.570136625000000,13,0x17,0x01
0.570210750000000,13,0x80,0x01
0.570284750000000,13,0x05,0x81
0.570363750000000,14,0x18,0x01
0.570437875000000,14,0x00,0x01
0.570512000000000,14,0x67,0x01
0.570591500000000,15,0x19,0x01
0.570665625000000,15,0x16,0x01
0.570739750000000,15,0x59,0x01
0.570819250000000,16,0x1A,0x01
0.570893375000000,16,0x19,0x01
0.570967375000000,16,0xE0,0x01
0.571046375000000,17,0x1B,0x01
0.571120500000000,17,0x13,0x01
0.571194625000000,17,0x00,0x01
0.571273625000000,18,0x1C,0x01
0.571347750000000,18,0x18,0x01
0.571421875000000,18,0x00,0x01
0.571500875000000,19,0x20,0x01
0.571575000000000,19,0x48,0x01
0.571649125000000,19,0x00,0x01
0.571728500000000,20,0x21,0x01
0.571802625000000,20,0x3F,0x01
0.571876750000000,20,0xC7,0x01
0.571955750000000,21,0x22,0x01
0.572029875000000,21,0x20,0x00
0.572104000000000,21,0x00,0x01
0.572183000000000,22,0x23,0x01
0.572257125000000,22,0x03,0x01
0.572331250000000,22,0x00,0x01
0.572410625000000,23,0x24,0x01
0.572484750000000,23,0x22,0x01
0.572558875000000,23,0x11,0x01
0.572638375000000,24,0x25,0x01
0.572712500000000,24,0x06,0x00
0.572786625000000,24,0x8C,0x01
0.572865625000000,25,0x26,0x01
0.572939750000000,25,0x5A,0x01
0.573013875000000,25,0x5A,0x01
0.573092875000000,26,0x27,0x01
0.573166875000000,26,0x00,0x01
0.573241000000000,26,0x33,0x01
0.573320500000000,27,0x28,0x01
0.573394625000000,27,0x44,0x01
0.573468750000000,27,0x02,0x01
0.573547750000000,28,0x29,0x01
0.573621875000000,28,0xB0,0x01
0.573696000000000,28,0x00,0x01
0.573775375000000,29,0x2A,0x01
0.573849500000000,29,0xFD,0x01
0.573923625000000,29,0xB0,0x01
0.574002625000000,30,0x2B,0x01
0.574076750000000,30,0x00,0x01
0.574150875000000,30,0x0F,0x01
0.574229375000000,31,0x32,0x01
0.574303500000000,31,0x00,0x01
0.574377625000000,31,0x00,0x01
0.586163625000000,32,0xA8,0x01
0.586245125000000,32,0xFF,0x44
0.586327000000000,32,0xFF,0x02
0.586422125000000,33,0x34,0x01
0.586496250000000,33,0x80,0x01
0.586570250000000,33,0x80,0x81
0.586652750000000,34,0x32,0x01
0.586726875000000,34,0x0A,0x01
0.586801000000000,34,0x00,0x01
0.586880375000000,35,0x32,0x01
0.586954500000000,35,0x11,0x01
0.587028625000000,35,0x22,0x01
0.587108125000000,36,0x32,0x01
0.587182250000000,36,0x33,0x01
0.587256375000000,36,0x06,0x01
0.587335875000000,37,0x32,0x01
0.587410000000000,37,0xAB,0x01
0.587484125000000,37,0xFC,0x01
0.587564000000000,38,0x32,0x01
0.587638125000000,38,0xAD,0x01
0.587712250000000,38,0x00,0x01
0.587793625000000,39,0x07,0x81
0.587867750000000,39,0x01,0x01
0.587941875000000,39,0x00,0x01
0.588272000000000,40,0x07,0x0D
0.588345125000000,40,0x00,0x01
0.588419250000000,40,0x28,0x01
0.588497750000000,41,0x32,0x00
0.588571875000000,41,0x00,0x01
0.588646000000000,41,0x00,0x01
0.588728875000000,42,0x34,0x00
0.588803000000000,42,0x80,0x01
0.588877125000000,42,0x80,0x01
0.588959500000000,43,0x32,0x01
0.589033625000000,43,0x0A,0x01
0.589107750000000,43,0x00,0x01
0.589187250000000,44,0x32,0x01
0.589261375000000,44,0x11,0x01
0.589335375000000,44,0x22,0x01
0.589414875000000,45,0x32,0x01
0.589489000000000,45,0x33,0x01
0.589563125000000,45,0x06,0x01
0.589642625000000,46,0x32,0x01
0.589716750000000,46,0xAB,0x01
0.589790875000000,46,0xFC,0x01
0.589870750000000,47,0x32,0x81
0.589944875000000,47,0xAD,0x01
0.590019000000000,47,0x00,0x01
0.590100500000000,48,0x07,0x01
0.590174625000000,48,0x01,0x01
0.590248750000000,48,0x28,0x01
0.590579750000000,49,0x07,0x0F
0.590652375000000,49,0x00,0x01
0.590726500000000,49,0x0A,0x01
0.590805000000000,50,0x32,0x01
0.590879125000000,50,0x00,0x01
0.590953250000000,50,0x00,0x01
0.591036125000000,51,0x34,0x01
0.591110250000000,51,0x80,0x00
0.591184375000000,51,0x80,0x01
0.591266750000000,52,0x32,0x01
0.591340875000000,52,0x0A,0x01
0.591415000000000,52,0x00,0x01
0.591494500000000,53,0x32,0x01
0.591568625000000,53,0x11,0x01
0.591642750000000,53,0x22,0x01
0.591722250000000,54,0x32,0x01
0.591796250000000,54,0x33,0x01
0.591870375000000,54,0x06,0x01
0.591949875000000,55,0x32,0x01
0.592024000000000,55,0xAB,0x01
0.592098125000000,55,0xFC,0x01
0.592178125000000,56,0x32,0x01
0.592252250000000,56,0xAD,0x01
0.592326375000000,56,0x00,0x01
0.592407750000000,57,0x07,0x01
0.592481875000000,57,0x01,0x01
0.592556000000000,57,0x0A,0x01
0.592888000000000,58,0x07,0x0F
0.592960625000000,58,0x00,0x81
0.593034750000000,58,0x32,0x01
0.593113250000000,59,0x32,0x81
0.593187375000000,59,0x00,0x01
0.593261500000000,59,0x00,0x01
0.593344375000000,60,0x34,0x01
0.593418500000000,60,0x80,0x01
0.593492625000000,60,0x80,0x01
0.593575125000000,61,0x32,0x01
0.593649125000000,61,0x0A,0x81
0.593723250000000,61,0x00,0x01
0.593802750000000,62,0x32,0x01
0.593876875000000,62,0x11,0x01
0.593951000000000,62,0x22,0x01
0.594030500000000,63,0x32,0x01
0.594104625000000,63,0x33,0x01
0.594178750000000,63,0x06,0x01
0.594258250000000,64,0x32,0x01
0.594332250000000,64,0xAB,0x01
0.594406375000000,64,0xFC,0x01
0.594486375000000,65,0x32,0x01
0.594560500000000,65,0xAD,0x01
0.594634625000000,65,0x00,0x00
0.594716000000000,66,0x07,0x01
0.594790125000000,66,0x01,0x01
0.594864250000000,66,0x32,0x01
0.595197250000000,67,0x07,0x0F
0.595269875000000,67,0x00,0x81
0.595344000000000,67,0x14,0x01
0.595422500000000,68,0x32,0x01
0.595496625000000,68,0x00,0x01
0.595570750000000,68,0x00,0x01
0.595653625000000,69,0x34,0x01
0.595727750000000,69,0x80,0x01
0.595801875000000,69,0x80,0x01
0.595884250000000,70,0x32,0x01
0.595958375000000,70,0x0A,0x01
0.596032500000000,70,0x00,0x01
0.596112000000000,71,0x32,0x01
0.596186125000000,71,0x11,0x01
0.596260250000000,71,0x22,0x01
0.596339750000000,72,0x32,0x01
0.596413750000000,72,0x33,0x81
0.596487875000000,72,0x06,0x01
0.596567375000000,73,0x32,0x01
0.596641500000000,73,0xAB,0x01
0.596715625000000,73,0xFC,0x01
0.596795625000000,74,0x32,0x01
0.596869750000000,74,0xAD,0x01
0.596943875000000,74,0x00,0x01
0.597025250000000,75,0x07,0x00
0.597099375000000,75,0x01,0x01
0.597173500000000,75,0x14,0x01
0.597507500000000,76,0x07,0x0F
0.597580125000000,76,0x00,0x01
0.597654250000000,76,0x3C,0x01
0.597732750000000,77,0x32,0x01
0.597806875000000,77,0x00,0x01
0.597881000000000,77,0x00,0x01
0.597963875000000,78,0x34,0x01
0.598038000000000,78,0x80,0x01
0.598112125000000,78,0x80,0x01
0.598194500000000,79,0x32,0x01
0.598268625000000,79,0x0A,0x01
0.598342750000000,79,0x00,0x01
0.598422250000000,80,0x32,0x01
0.598496375000000,80,0x11,0x01
0.598570375000000,80,0x22,0x01
0.598649875000000,81,0x32,0x01
0.598724000000000,81,0x33,0x01
0.598798125000000,81,0x06,0x01
0.598877625000000,82,0x32,0x01
0.598951750000000,82,0xAB,0x01
0.599025875000000,82,0xFC,0x01
0.599105875000000,83,0x32,0x01
0.599180000000000,83,0xAD,0x01
0.599254000000000,83,0x00,0x01
0.599338375000000,84,0x07,0x01
0.599412500000000,84,0x01,0x01
0.599486625000000,84,0x3C,0x01
0.599821625000000,85,0x07,0x0D
0.599894750000000,85,0x00,0x01
0.599968875000000,85,0x1E,0x01
0.600047375000000,86,0x32,0x01
0.600121500000000,86,0x00,0x01
0.600195625000000,86,0x00,0x01
0.600278500000000,87,0x34,0x01
0.600352625000000,87,0x80,0x01
0.600426750000000,87,0x80,0x01
0.600509125000000,88,0x32,0x01
0.600583250000000,88,0x0A,0x01
0.600657375000000,88,0x00,0x01
0.600736875000000,89,0x32,0x01
0.600810875000000,89,0x11,0x81
0.600885000000000,89,0x22,0x01
0.600964500000000,90,0x32,0x01
0.601038625000000,90,0x33,0x01
0.601112750000000,90,0x06,0x01
0.601192250000000,91,0x32,0x01
0.601266375000000,91,0xAB,0x01
0.601340500000000,91,0xFC,0x01
0.601420375000000,92,0x32,0x01
0.601494500000000,92,0xAD,0x01
0.601568625000000,92,0x00,0x01
0.601650125000000,93,0x07,0x01
0.601724125000000,93,0x01,0x81
0.601798250000000,93,0x1E,0x01
0.602134250000000,94,0x07,0x0F
0.602206875000000,94,0x00,0x01
0.602281000000000,94,0x46,0x00
0.602359500000000,95,0x32,0x01
0.602433625000000,95,0x00,0x01
0.602507750000000,95,0x00,0x01
0.602590625000000,96,0x34,0x00
0.602664750000000,96,0x80,0x01
0.602738875000000,96,0x80,0x01
0.602821250000000,97,0x32,0x01
0.602895375000000,97,0x0A,0x00
0.602969500000000,97,0x00,0x01
0.603049000000000,98,0x32,0x01
0.603123125000000,98,0x11,0x01
0.603197250000000,98,0x22,0x01
0.603276625000000,99,0x32,0x01
0.603350750000000,99,0x33,0x01
0.603424875000000,99,0x06,0x01
0.603504375000000,100,0x32,0x00
0.603578500000000,100,0xAB,0x01
0.603652625000000,100,0xFC,0x01
0.603732625000000,101,0x32,0x01
0.603806625000000,101,0xAD,0x81
0.603880750000000,101,0x00,0x01
0.603962250000000,102,0x07,0x01
0.604036375000000,102,0x01,0x01
0.604110500000000,102,0x46,0x01
0.604439500000000,103,0x07,0x0D
0.604512750000000,103,0x00,0x01
0.604586750000000,103,0x00,0x01
0.604665250000000,104,0x32,0x01
0.604739375000000,104,0x00,0x01
0.604813500000000,104,0x00,0x01
0.604896375000000,105,0x34,0x01
0.604970500000000,105,0x80,0x01
0.605044625000000,105,0x80,0x01
0.605127000000000,106,0x32,0x81
0.605201125000000,106,0x0A,0x01
0.605275250000000,106,0x00,0x01
0.605354750000000,107,0x32,0x01
0.605428875000000,107,0x11,0x01
0.605503000000000,107,0x22,0x01
0.605582500000000,108,0x32,0x01
0.605656625000000,108,0x33,0x01
0.605730750000000,108,0x06,0x01
0.605810250000000,109,0x32,0x01
0.605884250000000,109,0xAB,0x81
0.605958375000000,109,0xFC,0x01
0.606038375000000,110,0x32,0x01
0.606112500000000,110,0xAD,0x01
0.606186625000000,110,0x00,0x00
0.606268000000000,111,0x07,0x01
0.606342125000000,111,0x01,0x01
0.606416250000000,111,0x00,0x01
0.606746375000000,112,0x07,0x0D
0.606819500000000,112,0x00,0x01
0.606893625000000,112,0x28,0x01
0.606972125000000,113,0x32,0x00
0.607046250000000,113,0x00,0x01
0.607120375000000,113,0x00,0x01
0.607203250000000,114,0x34,0x01
0.607277375000000,114,0x80,0x01
0.607351500000000,114,0x80,0x01
0.607433875000000,115,0x32,0x01
0.607508000000000,115,0x0A,0x01
0.607582125000000,115,0x00,0x01
0.607661625000000,116,0x32,0x01
0.607735750000000,116,0x11,0x01
0.607809750000000,116,0x22,0x81
0.607889250000000,117,0x32,0x01
0.607963375000000,117,0x33,0x01
0.608037500000000,117,0x06,0x01
0.608117000000000,118,0x32,0x00
0.608191125000000,118,0xAB,0x01
0.608265250000000,118,0xFC,0x01
0.608345250000000,119,0x32,0x01
0.608419250000000,119,0xAD,0x01
0.608493375000000,119,0x00,0x01
0.608577750000000,120,0x07,0x01
0.608651875000000,120,0x01,0x01
0.608726000000000,120,0x28,0x01
0.609057125000000,121,0x07,0x0F
0.609129750000000,121,0x00,0x01
0.609203875000000,121,0x0A,0x01
0.609282375000000,122,0x32,0x01
0.609356500000000,122,0x00,0x01
0.609430625000000,122,0x00,0x01
0.609513500000000,123,0x34,0x01
0.609587625000000,123,0x80,0x01
0.609661625000000,123,0x80,0x81
0.609744125000000,124,0x32,0x01
0.609818250000000,124,0x0A,0x01
0.609892375000000,124,0x00,0x01
0.609971750000000,125,0x32,0x01
0.610045875000000,125,0x11,0x01
0.610120000000000,125,0x22,0x01
0.610199500000000,126,0x32,0x01
0.610273625000000,126,0x33,0x00
0.610347750000000,126,0x06,0x01
0.610427250000000,127,0x32,0x01
0.610501375000000,127,0xAB,0x01
0.610575500000000,127,0xFC,0x01
0.610655375000000,128,0x32,0x01
0.610729500000000,128,0xAD,0x01
0.610803625000000,128,0x00,0x01
0.610885125000000,129,0x07,0x01
0.610959250000000,129,0x01,0x01
0.611033250000000,129,0x0A,0x01
0.611365375000000,130,0x07,0x0F
0.611438000000000,130,0x00,0x01
0.611512125000000,130,0x32,0x01
0.611590625000000,131,0x32,0x01
0.611664750000000,131,0x00,0x01
0.611738875000000,131,0x00,0x01
0.611821750000000,132,0x34,0x01
0.611895875000000,132,0x80,0x01
0.611970000000000,132,0x80,0x01
0.612052375000000,133,0x32,0x01
0.612126500000000,133,0x0A,0x01
0.612200625000000,133,0x00,0x01
0.612280125000000,134,0x32,0x01
0.612354250000000,134,0x11,0x01
0.612428250000000,134,0x22,0x81
0.612507750000000,135,0x32,0x01
0.612581875000000,135,0x33,0x01
0.612656000000000,135,0x06,0x01
0.612735500000000,136,0x32,0x00
0.612809625000000,136,0xAB,0x01
0.612883750000000,136,0xFC,0x01
0.612963750000000,137,0x32,0x01
0.613037750000000,137,0xAD,0x01
0.613111875000000,137,0x00,0x01
0.613193375000000,138,0x07,0x01
0.613267500000000,138,0x01,0x01
0.613341625000000,138,0x32,0x01
0.613674625000000,139,0x07,0x0F
0.613747250000000,139,0x00,0x01
0.613821375000000,139,0x14,0x01
0.613899875000000,140,0x32,0x01
0.613974000000000,140,0x00,0x01
0.614048125000000,140,0x00,0x01
0.614131000000000,141,0x34,0x01
0.614205125000000,141,0x80,0x01
0.614279250000000,141,0x80,0x01
0.614361625000000,142,0x32,0x01
0.614435750000000,142,0x0A,0x01
0.614509875000000,142,0x00,0x01
0.614589375000000,143,0x32,0x01
0.614663375000000,143,0x11,0x01
0.614737500000000,143,0x22,0x01
0.614817000000000,144,0x32,0x01
0.614891125000000,144,0x33,0x01
0.614965250000000,144,0x06,0x00
0.615044750000000,145,0x32,0x01
0.615118875000000,145,0xAB,0x01
0.615193000000000,145,0xFC,0x01
0.615272875000000,146,0x32,0x01
0.615347000000000,146,0xAD,0x01
0.615421125000000,146,0x00,0x01
0.615502625000000,147,0x07,0x01
0.615576750000000,147,0x01,0x01
0.615650875000000,147,0x14,0x01
0.615984750000000,148,0x07,0x0F
0.616057500000000,148,0x00,0x01
0.616131625000000,148,0x3C,0x01
0.616210125000000,149,0x32,0x01
0.616284125000000,149,0x00,0x81
0.616358250000000,149,0x00,0x01
0.616441250000000,150,0x34,0x01
0.616515250000000,150,0x80,0x01
0.616589375000000,150,0x80,0x01
0.616671875000000,151,0x32,0x01
0.616745875000000,151,0x0A,0x01
0.616820000000000,151,0x00,0x01
0.616899500000000,152,0x32,0x01
0.616973625000000,152,0x11,0x01
0.617047750000000,152,0x22,0x01
0.617127250000000,153,0x32,0x01
0.617201375000000,153,0x33,0x01
0.617275500000000,153,0x06,0x01
0.617355000000000,154,0x32,0x01
0.617429000000000,154,0xAB,0x81
0.617503125000000,154,0xFC,0x01
0.617583125000000,155,0x32,0x01
0.617657250000000,155,0xAD,0x01
0.617731375000000,155,0x00,0x00
0.617815750000000,156,0x07,0x01
0.617889875000000,156,0x01,0x01
0.617964000000000,156,0x3C,0x01
0.618298875000000,157,0x07,0x0D
0.618372000000000,157,0x00,0x81
0.618446125000000,157,0x1E,0x01
0.618524625000000,158,0x32,0x81
0.618598750000000,158,0x00,0x01
0.618672875000000,158,0x00,0x01
0.618755750000000,159,0x34,0x81
0.618829875000000,159,0x80,0x01
0.618904000000000,159,0x80,0x01
0.618986500000000,160,0x32,0x01
0.619060625000000,160,0x0A,0x01
0.619134625000000,160,0x00,0x01
0.619214125000000,161,0x32,0x01
0.619288250000000,161,0x11,0x01
0.619362375000000,161,0x22,0x01
0.619441875000000,162,0x32,0x01
0.619516000000000,162,0x33,0x01
0.619590125000000,162,0x06,0x01
0.619669625000000,163,0x32,0x01
0.619743750000000,163,0xAB,0x01
0.619817875000000,163,0xFC,0x01
0.619897750000000,164,0x32,0x01
0.619971875000000,164,0xAD,0x01
0.620046000000000,164,0x00,0x01
0.620127500000000,165,0x07,0x01
0.620201625000000,165,0x01,0x01
0.620275750000000,165,0x1E,0x01
0.620611625000000,166,0x07,0x0F
0.620684250000000,166,0x00,0x01
0.620758375000000,166,0x46,0x01
0.620836875000000,167,0x32,0x01
0.620911000000000,167,0x00,0x01
0.620985125000000,167,0x00,0x01
0.621068000000000,168,0x34,0x01
0.621142125000000,168,0x80,0x01
0.621216250000000,168,0x80,0x01
0.621298625000000,169,0x32,0x01
0.621372750000000,169,0x0A,0x01
0.621446875000000,169,0x00,0x01
0.621526375000000,170,0x32,0x01
0.621600500000000,170,0x11,0x01
0.621674625000000,170,0x22,0x01
0.621754125000000,171,0x32,0x01
0.621828250000000,171,0x33,0x01
0.621902250000000,171,0x06,0x01
0.621981750000000,172,0x32,0x01
0.622055875000000,172,0xAB,0x01
0.622130000000000,172,0xFC,0x01
0.622210000000000,173,0x32,0x01
0.622284125000000,173,0xAD,0x01
0.622358250000000,173,0x00,0x01
0.622439625000000,174,0x07,0x01
0.622513750000000,174,0x01,0x00
0.622587875000000,174,0x46,0x01
0.622917000000000,175,0x07,0x0D
0.622990125000000,175,0x00,0x01
0.623064250000000,175,0x00,0x01
0.623142750000000,176,0x32,0x01
0.623216875000000,176,0x00,0x01
0.623291000000000,176,0x00,0x01
0.623373875000000,177,0x34,0x01
0.623448000000000,177,0x80,0x01
0.623522125000000,177,0x80,0x01
0.623604500000000,178,0x32,0x01
0.623678625000000,178,0x0A,0x01
0.623752750000000,178,0x00,0x01
0.623832250000000,179,0x32,0x01
0.623906250000000,179,0x11,0x01
0.623980375000000,179,0x22,0x01
0.624059875000000,180,0x32,0x01
0.624134000000000,180,0x33,0x01
0.624208125000000,180,0x06,0x01
0.624287625000000,181,0x32,0x01
0.624361750000000,181,0xAB,0x01
0.624435875000000,181,0xFC,0x01
0.624515750000000,182,0x32,0x01
0.624589875000000,182,0xAD,0x01
0.624664000000000,182,0x00,0x01
0.624745500000000,183,0x07,0x01
0.624819625000000,183,0x01,0x01
0.624893750000000,183,0x00,0x01
0.625223750000000,184,0x07,0x0D
0.625296875000000,184,0x00,0x01
0.625371000000000,184,0x28,0x01
0.625449500000000,185,0x32,0x01
0.625523625000000,185,0x00,0x01
0.625597750000000,185,0x00,0x01
0.625680625000000,186,0x34,0x01
0.625754750000000,186,0x80,0x01
0.625828875000000,186,0x80,0x00
0.625911250000000,187,0x32,0x01
0.625985375000000,187,0x0A,0x01
0.626059500000000,187,0x00,0x01
0.626139000000000,188,0x32,0x01
0.626213125000000,188,0x11,0x01
0.626287250000000,188,0x22,0x01
0.626366750000000,189,0x32,0x01
0.626440750000000,189,0x33,0x01
0.626514875000000,189,0x06,0x01
0.626594375000000,190,0x32,0x01
0.626668500000000,190,0xAB,0x01
0.626742625000000,190,0xFC,0x00
0.626822625000000,191,0x32,0x01
0.626896750000000,191,0xAD,0x01
0.626970875000000,191,0x00,0x01
0.627055125000000,192,0x07,0x01
0.627129250000000,192,0x01,0x01
0.627203375000000,192,0x28,0x01
0.627534500000000,193,0x07,0x0D
0.627607625000000,193,0x00,0x01
0.627681750000000,193,0x0A,0x01
0.627760250000000,194,0x32,0x01
0.627834375000000,194,0x00,0x01
0.627908500000000,194,0x00,0x01
0.627991375000000,195,0x34,0x01
0.628065500000000,195,0x80,0x01
0.628139625000000,195,0x80,0x01
0.628222000000000,196,0x32,0x01
0.628296125000000,196,0x0A,0x01
0.628370250000000,196,0x00,0x01
0.628449750000000,197,0x32,0x01
0.628523875000000,197,0x11,0x01
0.628597875000000,197,0x22,0x01
0.628677375000000,198,0x32,0x01
0.628751500000000,198,0x33,0x01
0.628825625000000,198,0x06,0x01
0.628905125000000,199,0x32,0x01
0.628979250000000,199,0xAB,0x01
0.629053375000000,199,0xFC,0x01
0.629133250000000,200,0x32,0x81
0.629207375000000,200,0xAD,0x01
0.629281500000000,200,0x00,0x01
0.629363000000000,201,0x07,0x01
0.629437125000000,201,0x01,0x01
0.629511250000000,201,0x0A,0x01
0.629843250000000,202,0x07,0x0F
0.629915875000000,202,0x00,0x01
0.629990000000000,202,0x32,0x00
0.630068500000000,203,0x32,0x01
0.630142625000000,203,0x00,0x01
0.630216750000000,203,0x00,0x01
0.630299625000000,204,0x34,0x00
0.630373750000000,204,0x80,0x01
0.630447875000000,204,0x80,0x01
0.630530250000000,205,0x32,0x01
0.630604375000000,205,0x0A,0x01
0.630678500000000,205,0x00,0x01
0.630758000000000,206,0x32,0x01
0.630832125000000,206,0x11,0x01
0.630906250000000,206,0x22,0x01
0.630985625000000,207,0x32,0x01
0.631059750000000,207,0x33,0x01
0.631133875000000,207,0x06,0x01
0.631213375000000,208,0x32,0x00
0.631287500000000,208,0xAB,0x01
0.631361625000000,208,0xFC,0x01
0.631441625000000,209,0x32,0x01
0.631515625000000,209,0xAD,0x01
0.631589750000000,209,0x00,0x01
0.631671250000000,210,0x07,0x01
0.631745375000000,210,0x01,0x01
0.631819500000000,210,0x32,0x01
0.632152500000000,211,0x07,0x0F
