Time [s],Packet ID,MOSI,MISO
0.000044500000000,0,0x32,0x01
0.000118875000000,0,0x20,0x01
0.000193250000000,0,0x20,0x01
0.000273000000000,1,0x32,0x01
0.000347375000000,1,0x20,0x01
0.000421750000000,1,0xC0,0x01
0.000503000000000,2,0x07,0x01
0.000577375000000,2,0x01,0x01
0.000651750000000,2,0x0A,0x01
0.000985000000000,3,0x07,0x0F
0.001057875000000,3,0x00,0x01
0.001132250000000,3,0x32,0x01
0.001211000000000,4,0x32,0x01
0.001285375000000,4,0x00,0x01
0.001359750000000,4,0x00,0x01
0.001442000000000,5,0x34,0x01
0.001516375000000,5,0x80,0x01
0.001590750000000,5,0x80,0x01
0.001673500000000,6,0x32,0x01
0.001747875000000,6,0x0A,0x01
0.001822250000000,6,0x22,0x01
0.001902000000000,7,0x32,0x01
0.001976375000000,7,0x00,0x01
0.002050750000000,7,0x20,0x01
0.002130500000000,8,0x32,0x00
0.002204875000000,8,0x20,0x00
0.002279250000000,8,0x20,0x01
0.002359000000000,9,0x32,0x01
0.002433375000000,9,0x20,0x01
0.002507750000000,9,0x20,0x01
0.002587625000000,10,0x32,0x01
0.002662000000000,10,0x20,0x01
0.002736375000000,10,0xC0,0x01
0.002817500000000,11,0x07,0x81
0.002891875000000,11,0x01,0x81
0.002966250000000,11,0x32,0x81
0.003300500000000,12,0x07,0x0F
0.003373375000000,12,0x00,0x01
0.003447750000000,12,0x14,0x01
0.003526625000000,13,0x32,0x01
0.003601000000000,13,0x00,0x01
0.003675375000000,13,0x00,0x01
0.003757500000000,14,0x34,0x01
0.003831875000000,14,0x80,0x01
0.003906250000000,14,0x80,0x81
0.003989000000000,15,0x32,0x01
0.004063375000000,15,0x0A,0x01
0.004137750000000,15,0x22,0x01
0.004217500000000,16,0x32,0x01
0.004291875000000,16,0x00,0x01
0.004366250000000,16,0x20,0x01
0.004446125000000,17,0x32,0x01
0.004520500000000,17,0x20,0x01
0.004594875000000,17,0x20,0x01
0.004674625000000,18,0x32,0x01
0.004749000000000,18,0x20,0x01
0.004823375000000,18,0x20,0x01
0.004903125000000,19,0x32,0x01
0.004977500000000,19,0x20,0x01
0.005051875000000,19,0xC0,0x01
0.005133125000000,20,0x07,0x01
0.005207500000000,20,0x01,0x01
0.005281875000000,20,0x14,0x01
0.005617000000000,21,0x07,0x0F
0.005690000000000,21,0x00,0x01
0.005764375000000,21,0x3C,0x01
0.005843125000000,22,0x32,0x01
0.005917500000000,22,0x00,0x01
0.005991875000000,22,0x00,0x01
0.006074125000000,23,0x34,0x01
0.006148500000000,23,0x80,0x01
0.006222875000000,23,0x80,0x01
0.006305500000000,24,0x32,0x01
0.006380000000000,24,0x0A,0x01
0.006454375000000,24,0x22,0x01
0.006534125000000,25,0x32,0x01
0.006608500000000,25,0x00,0x01
0.006682875000000,25,0x20,0x01
0.006762625000000,26,0x32,0x01
0.006837000000000,26,0x20,0x01
0.006911375000000,26,0x20,0x01
0.006991125000000,27,0x32,0x01
0.007065500000000,27,0x20,0x01
0.007139875000000,27,0x20,0x00
0.007219625000000,28,0x32,0x01
0.007294000000000,28,0x20,0x01
0.007368375000000,28,0xC0,0x01
0.007449625000000,29,0x07,0x01
0.007524000000000,29,0x01,0x01
0.007598375000000,29,0x3C,0x01
0.007934625000000,30,0x07,0x0D
0.008008000000000,30,0x00,0x01
0.008082375000000,30,0x1E,0x01
0.008161125000000,31,0x32,0x01
0.008235500000000,31,0x00,0x01
0.008309875000000,31,0x00,0x01
0.008392125000000,32,0x34,0x01
0.008466500000000,32,0x80,0x01
0.008540875000000,32,0x80,0x01
0.008623500000000,33,0x32,0x01
0.008697875000000,33,0x0A,0x01
0.008772250000000,33,0x22,0x81
0.008852125000000,34,0x32,0x01
0.008926500000000,34,0x00,0x01
0.009000875000000,34,0x20,0x01
0.009080625000000,35,0x32,0x01
0.009155000000000,35,0x20,0x01
0.009229375000000,35,0x20,0x01
0.009309125000000,36,0x32,0x01
0.009383500000000,36,0x20,0x01
0.009457875000000,36,0x20,0x01
0.009537625000000,37,0x32,0x01
0.009612000000000,37,0x20,0x01
0.009686375000000,37,0xC0,0x01
0.009767625000000,38,0x07,0x01
0.009842000000000,38,0x01,0x01
0.009916375000000,38,0x1E,0x01
0.010253500000000,39,0x07,0x0F
0.010326375000000,39,0x00,0x01
0.010400750000000,39,0x46,0x00
0.010479500000000,40,0x32,0x81
0.010554000000000,40,0x00,0x01
0.010628375000000,40,0x00,0x01
0.010710500000000,41,0x34,0x01
0.010784875000000,41,0x80,0x01
0.010859250000000,41,0x80,0x01
0.010942000000000,42,0x32,0x01
0.011016375000000,42,0x0A,0x01
0.011090750000000,42,0x22,0x01
0.011170500000000,43,0x32,0x01
0.011244875000000,43,0x00,0x01
0.011319250000000,43,0x20,0x01
0.011399000000000,44,0x32,0x01
0.011473375000000,44,0x20,0x01
0.011547750000000,44,0x20,0x01
0.011627500000000,45,0x32,0x01
0.011701875000000,45,0x20,0x00
0.011776250000000,45,0x20,0x00
0.011856000000000,46,0x32,0x01
0.011930375000000,46,0x20,0x01
0.012004750000000,46,0xC0,0x01
0.012086000000000,47,0x07,0x01
0.012160375000000,47,0x01,0x01
0.012234750000000,47,0x46,0x01
0.012565000000000,48,0x07,0x0D
0.012638500000000,48,0x00,0x09
0.012712375000000,48,0x00,0x01
0.012791125000000,49,0x32,0x01
0.012865500000000,49,0x00,0x01
0.012939875000000,49,0x00,0x01
0.013022125000000,50,0x34,0x01
0.013096500000000,50,0x80,0x01
0.013170875000000,50,0x80,0x01
0.013253500000000,51,0x32,0x00
0.013327875000000,51,0x0A,0x01
0.013402250000000,51,0x22,0x01
0.013482000000000,52,0x32,0x01
0.013556375000000,52,0x00,0x01
0.013630750000000,52,0x20,0x81
0.013710625000000,53,0x32,0x01
0.013785000000000,53,0x20,0x01
0.013859375000000,53,0x20,0x01
0.013939125000000,54,0x32,0x01
0.014013500000000,54,0x20,0x01
0.014087875000000,54,0x20,0x01
0.014167625000000,55,0x32,0x01
0.014242000000000,55,0x20,0x01
0.014316375000000,55,0xC0,0x01
0.014397625000000,56,0x07,0x01
0.014472000000000,56,0x01,0x01
0.014546375000000,56,0x00,0x01
0.014877625000000,57,0x07,0x0F
0.014950500000000,57,0x00,0x01
0.015024875000000,57,0x28,0x00
0.015103625000000,58,0x32,0x81
0.015178125000000,58,0x00,0x01
0.015252500000000,58,0x00,0x01
0.015334625000000,59,0x34,0x01
0.015409000000000,59,0x80,0x00
0.015483375000000,59,0x80,0x00
0.015566125000000,60,0x32,0x01
0.015640500000000,60,0x0A,0x01
0.015714875000000,60,0x22,0x01
0.015794625000000,61,0x32,0x01
0.015869000000000,61,0x00,0x01
0.015943375000000,61,0x20,0x01
0.016023125000000,62,0x32,0x01
0.016097500000000,62,0x20,0x01
0.016171875000000,62,0x20,0x01
0.016251625000000,63,0x32,0x01
0.016326000000000,63,0x20,0x01
0.016400375000000,63,0x20,0x00
0.016480125000000,64,0x32,0x01
0.016554500000000,64,0x20,0x01
0.016628875000000,64,0xC0,0x01
0.016710125000000,65,0x07,0x01
0.016784500000000,65,0x01,0x01
0.016858875000000,65,0x28,0x01
0.017191125000000,66,0x07,0x0F
0.017264000000000,66,0x00,0x00
0.017338375000000,66,0x0A,0x00
0.017417125000000,67,0x32,0x81
0.017491625000000,67,0x00,0x01
0.017566000000000,67,0x00,0x01
0.017648125000000,68,0x34,0x01
0.017722500000000,68,0x80,0x01
0.017796875000000,68,0x80,0x01
0.017879625000000,69,0x32,0x01
0.017954000000000,69,0x0A,0x01
0.018028375000000,69,0x22,0x01
0.018108125000000,70,0x32,0x01
0.018182500000000,70,0x00,0x01
0.018256875000000,70,0x20,0x01
0.018336625000000,71,0x32,0x01
0.018411000000000,71,0x20,0x01
0.018485375000000,71,0x20,0x01
0.018565125000000,72,0x32,0x01
0.018639500000000,72,0x20,0x01
0.018713875000000,72,0x20,0x01
0.018793625000000,73,0x32,0x01
0.018868000000000,73,0x20,0x01
0.018942375000000,73,0xC0,0x01
0.019023625000000,74,0x07,0x01
0.019098000000000,74,0x01,0x01
0.019172375000000,74,0x0A,0x01
0.019505625000000,75,0x07,0x0F
0.019578500000000,75,0x00,0x01
0.019652875000000,75,0x32,0x01
0.019731625000000,76,0x32,0x01
0.019806000000000,76,0x00,0x01
0.019880375000000,76,0x00,0x01
0.019962625000000,77,0x34,0x01
0.020037000000000,77,0x80,0x01
0.020111375000000,77,0x80,0x01
0.020194125000000,78,0x32,0x01
0.020268500000000,78,0x0A,0x01
0.020342875000000,78,0x22,0x01
0.020422625000000,79,0x32,0x01
0.020497000000000,79,0x00,0x01
0.020571375000000,79,0x20,0x01
0.020651125000000,80,0x32,0x01
0.020725500000000,80,0x20,0x01
0.020799875000000,80,0x20,0x01
0.020879625000000,81,0x32,0x01
0.020954000000000,81,0x20,0x01
0.021028375000000,81,0x20,0x01
0.021108125000000,82,0x32,0x01
0.021182500000000,82,0x20,0x01
0.021256875000000,82,0xC0,0x01
0.021338125000000,83,0x07,0x01
0.021412500000000,83,0x01,0x01
0.021486875000000,83,0x32,0x01
0.021821000000000,84,0x07,0x0F
0.021894000000000,84,0x00,0x01
0.021968375000000,84,0x14,0x01
0.022047125000000,85,0x32,0x01
0.022121500000000,85,0x00,0x01
0.022195875000000,85,0x00,0x01
0.022278125000000,86,0x34,0x01
0.022352500000000,86,0x80,0x01
0.022426875000000,86,0x80,0x01
0.022509500000000,87,0x32,0x01
0.022583875000000,87,0x0A,0x01
0.022658250000000,87,0x22,0x01
0.022738000000000,88,0x32,0x01
0.022812375000000,88,0x00,0x01
0.022886750000000,88,0x20,0x01
0.022966500000000,89,0x32,0x01
0.023040875000000,89,0x20,0x81
0.023115375000000,89,0x20,0x01
0.023195125000000,90,0x32,0x01
0.023269500000000,90,0x20,0x01
0.023343875000000,90,0x20,0x01
0.023423625000000,91,0x32,0x01
0.023498000000000,91,0x20,0x01
0.023572375000000,91,0xC0,0x01
0.023653625000000,92,0x07,0x01
0.023728000000000,92,0x01,0x01
0.023802375000000,92,0x14,0x01
0.024137500000000,93,0x07,0x0F
0.024210375000000,93,0x00,0x01
0.024284750000000,93,0x3C,0x01
0.024363500000000,94,0x32,0x01
0.024437875000000,94,0x00,0x01
0.024512250000000,94,0x00,0x01
0.024594500000000,95,0x34,0x01
0.024668875000000,95,0x80,0x01
0.024743250000000,95,0x80,0x01
0.024826000000000,96,0x32,0x01
0.024900375000000,96,0x0A,0x01
0.024974750000000,96,0x22,0x01
0.025054500000000,97,0x32,0x01
0.025128875000000,97,0x00,0x01
0.025203250000000,97,0x20,0x01
0.025283000000000,98,0x32,0x01
0.025357375000000,98,0x20,0x01
0.025431750000000,98,0x20,0x01
0.025511500000000,99,0x32,0x01
0.025585875000000,99,0x20,0x01
0.025660250000000,99,0x20,0x01
0.025740000000000,100,0x32,0x01
0.025814375000000,100,0x20,0x01
0.025888750000000,100,0xC0,0x01
0.025970000000000,101,0x07,0x01
0.026044375000000,101,0x01,0x01
0.026118750000000,101,0x3C,0x01
0.026454875000000,102,0x07,0x0C
0.026528250000000,102,0x00,0x01
0.026602625000000,102,0x1E,0x01
0.026681500000000,103,0x32,0x01
0.026755875000000,103,0x00,0x01
0.026830250000000,103,0x00,0x01
0.026912375000000,104,0x34,0x01
0.026986750000000,104,0x80,0x01
0.027061125000000,104,0x80,0x01
0.027143875000000,105,0x32,0x01
0.027218250000000,105,0x0A,0x01
0.027292625000000,105,0x22,0x01
0.027372375000000,106,0x32,0x01
0.027446750000000,106,0x00,0x01
0.027521125000000,106,0x20,0x01
0.027600875000000,107,0x32,0x01
0.027675250000000,107,0x20,0x01
0.027749625000000,107,0x20,0x01
0.027829375000000,108,0x32,0x01
0.027903750000000,108,0x20,0x01
0.027978125000000,108,0x20,0x01
0.028057875000000,109,0x32,0x01
0.028132250000000,109,0x20,0x01
0.028206625000000,109,0xC0,0x00
0.028287875000000,110,0x07,0x01
0.028362250000000,110,0x01,0x01
0.028436625000000,110,0x1E,0x01
0.028773750000000,111,0x07,0x0F
0.028846625000000,111,0x00,0x00
0.028921000000000,111,0x46,0x00
0.028999750000000,112,0x32,0x81
0.029074250000000,112,0x00,0x01
0.029148625000000,112,0x00,0x01
0.029230750000000,113,0x34,0x01
0.029305125000000,113,0x80,0x01
0.029379500000000,113,0x80,0x01
0.029462250000000,114,0x32,0x01
0.029536625000000,114,0x0A,0x01
0.029611000000000,114,0x22,0x01
0.029690750000000,115,0x32,0x01
0.029765125000000,115,0x00,0x01
0.029839500000000,115,0x20,0x01
0.029919250000000,116,0x32,0x01
0.029993625000000,116,0x20,0x01
0.030068000000000,116,0x20,0x01
0.030147750000000,117,0x32,0x01
0.030222125000000,117,0x20,0x01
0.030296500000000,117,0x20,0x01
0.030376250000000,118,0x32,0x01
0.030450625000000,118,0x20,0x01
0.030525000000000,118,0xC0,0x01
0.030606250000000,119,0x07,0x01
0.030680625000000,119,0x01,0x01
0.030755000000000,119,0x46,0x01
0.031085250000000,120,0x07,0x0D
0.031158750000000,120,0x00,0x09
0.031232625000000,120,0x00,0x01
0.031311375000000,121,0x32,0x01
0.031385750000000,121,0x00,0x01
0.031460125000000,121,0x00,0x01
0.031542375000000,122,0x34,0x01
0.031616750000000,122,0x80,0x01
0.031691125000000,122,0x80,0x01
0.031773750000000,123,0x32,0x01
0.031848125000000,123,0x0A,0x01
0.031922500000000,123,0x22,0x01
0.032002250000000,124,0x32,0x01
0.032076625000000,124,0x00,0x81
0.032151000000000,124,0x20,0x81
0.032230875000000,125,0x32,0x01
0.032305250000000,125,0x20,0x01
0.032379625000000,125,0x20,0x01
0.032459375000000,126,0x32,0x01
0.032533750000000,126,0x20,0x01
0.032608125000000,126,0x20,0x01
0.032687875000000,127,0x32,0x01
0.032762250000000,127,0x20,0x01
0.032836625000000,127,0xC0,0x01
0.032917875000000,128,0x07,0x01
0.032992250000000,128,0x01,0x01
0.033066625000000,128,0x00,0x01
0.033397875000000,129,0x07,0x0F
0.033470750000000,129,0x00,0x01
0.033545125000000,129,0x28,0x01
0.033623875000000,130,0x32,0x01
0.033698250000000,130,0x00,0x01
0.033772625000000,130,0x00,0x01
0.033854875000000,131,0x34,0x01
0.033929250000000,131,0x80,0x01
0.034003625000000,131,0x80,0x01
0.034086375000000,132,0x32,0x01
0.034160750000000,132,0x0A,0x01
0.034235125000000,132,0x22,0x01
0.034314875000000,133,0x32,0x01
0.034389250000000,133,0x00,0x01
0.034463625000000,133,0x20,0x01
0.034543375000000,134,0x32,0x01
0.034617750000000,134,0x20,0x01
0.034692125000000,134,0x20,0x01
0.034771875000000,135,0x32,0x01
0.034846250000000,135,0x20,0x01
0.034920625000000,135,0x20,0x01
0.035000375000000,136,0x32,0x01
0.035074750000000,136,0x20,0x01
0.035149125000000,136,0xC0,0x01
0.035230375000000,137,0x07,0x01
0.035304750000000,137,0x01,0x01
0.035379125000000,137,0x28,0x01
0.035711375000000,138,0x07,0x0F
0.035784250000000,138,0x00,0x01
0.035858625000000,138,0x0A,0x01
0.035937375000000,139,0x32,0x01
0.036011750000000,139,0x00,0x01
0.036086125000000,139,0x00,0x01
0.036168375000000,140,0x34,0x01
0.036242750000000,140,0x80,0x01
0.036317125000000,140,0x80,0x01
0.036399875000000,141,0x32,0x01
0.036474250000000,141,0x0A,0x01
0.036548625000000,141,0x22,0x01
0.036628375000000,142,0x32,0x01
0.036702750000000,142,0x00,0x01
0.036777125000000,142,0x20,0x01
0.036856875000000,143,0x32,0x01
0.036931250000000,143,0x20,0x01
0.037005625000000,143,0x20,0x01
0.037085375000000,144,0x32,0x01
0.037159750000000,144,0x20,0x01
0.037234125000000,144,0x20,0x01
0.037313875000000,145,0x32,0x01
0.037388250000000,145,0x20,0x00
0.037462625000000,145,0xC0,0x01
0.037543875000000,146,0x07,0x01
0.037618250000000,146,0x01,0x01
0.037692625000000,146,0x0A,0x01
0.038025875000000,147,0x07,0x0F
0.038098750000000,147,0x00,0x01
0.038173125000000,147,0x32,0x01
0.038251875000000,148,0x32,0x01
0.038326250000000,148,0x00,0x01
0.038400625000000,148,0x00,0x01
0.038482875000000,149,0x34,0x01
0.038557250000000,149,0x80,0x01
0.038631625000000,149,0x80,0x01
0.038714375000000,150,0x32,0x01
0.038788750000000,150,0x0A,0x01
0.038863125000000,150,0x22,0x01
0.038942875000000,151,0x32,0x01
0.039017250000000,151,0x00,0x01
0.039091625000000,151,0x20,0x01
0.039171375000000,152,0x32,0x01
0.039245750000000,152,0x20,0x01
0.039320125000000,152,0x20,0x01
0.039399875000000,153,0x32,0x01
0.039474250000000,153,0x20,0x01
0.039548625000000,153,0x20,0x01
0.039628375000000,154,0x32,0x01
0.039702750000000,154,0x20,0x81
0.039777250000000,154,0xC0,0x01
0.039858375000000,155,0x07,0x01
0.039932750000000,155,0x01,0x01
0.040007125000000,155,0x32,0x01
0.040341375000000,156,0x07,0x0F
0.040414250000000,156,0x00,0x01
0.040488625000000,156,0x14,0x01
0.040567375000000,157,0x32,0x01
0.040641750000000,157,0x00,0x01
0.040716125000000,157,0x00,0x01
0.040798375000000,158,0x34,0x01
0.040872750000000,158,0x80,0x01
0.040947125000000,158,0x80,0x01
0.041029875000000,159,0x32,0x01
0.041104250000000,159,0x0A,0x01
0.041178625000000,159,0x22,0x01
0.041258375000000,160,0x32,0x01
0.041332750000000,160,0x00,0x01
0.041407125000000,160,0x20,0x01
0.041486875000000,161,0x32,0x01
0.041561250000000,161,0x20,0x01
0.041635625000000,161,0x20,0x01
0.041715375000000,162,0x32,0x01
0.041789750000000,162,0x20,0x01
0.041864125000000,162,0x20,0x01
0.041943875000000,163,0x32,0x01
0.042018250000000,163,0x20,0x01
0.042092625000000,163,0xC0,0x01
0.042173875000000,164,0x07,0x01
0.042248250000000,164,0x01,0x01
0.042322625000000,164,0x14,0x01
0.042657875000000,165,0x07,0x0F
0.042730750000000,165,0x00,0x01
0.042805125000000,165,0x3C,0x01
0.042883875000000,166,0x32,0x01
0.042958250000000,166,0x00,0x01
0.043032625000000,166,0x00,0x01
0.043114875000000,167,0x34,0x01
0.043189250000000,167,0x80,0x01
0.043263625000000,167,0x80,0x01
0.043346250000000,168,0x32,0x01
0.043420625000000,168,0x0A,0x81
0.043495000000000,168,0x22,0x81
0.043574875000000,169,0x32,0x01
0.043649250000000,169,0x00,0x01
0.043723625000000,169,0x20,0x01
0.043803375000000,170,0x32,0x01
0.043877750000000,170,0x20,0x01
0.043952125000000,170,0x20,0x01
0.044031875000000,171,0x32,0x01
0.044106250000000,171,0x20,0x01
0.044180625000000,171,0x20,0x01
0.044260375000000,172,0x32,0x01
0.044334750000000,172,0x20,0x01
0.044409125000000,172,0xC0,0x01
0.044490375000000,173,0x07,0x01
0.044564750000000,173,0x01,0x01
0.044639125000000,173,0x3C,0x01
0.044975250000000,174,0x07,0x0D
0.045048625000000,174,0x00,0x01
0.045123000000000,174,0x1E,0x01
0.045201750000000,175,0x32,0x81
0.045276125000000,175,0x00,0x81
0.045350625000000,175,0x00,0x01
0.045432750000000,176,0x34,0x01
0.045507125000000,176,0x80,0x01
0.045581500000000,176,0x80,0x01
0.045664250000000,177,0x32,0x01
0.045738625000000,177,0x0A,0x01
0.045813000000000,177,0x22,0x01
0.045892750000000,178,0x32,0x01
0.045967125000000,178,0x00,0x01
0.046041500000000,178,0x20,0x01
0.046121250000000,179,0x32,0x01
0.046195625000000,179,0x20,0x01
0.046270000000000,179,0x20,0x01
0.046349750000000,180,0x32,0x00
0.046424125000000,180,0x20,0x00
0.046498500000000,180,0x20,0x00
0.046578250000000,181,0x32,0x01
0.046652625000000,181,0x20,0x01
0.046727000000000,181,0xC0,0x01
0.046808250000000,182,0x07,0x01
0.046882625000000,182,0x01,0x01
0.046957000000000,182,0x1E,0x01
0.047294125000000,183,0x07,0x0F
0.047367000000000,183,0x00,0x01
0.047441375000000,183,0x46,0x01
0.047520250000000,184,0x32,0x01
0.047594625000000,184,0x00,0x01
0.047669000000000,184,0x00,0x01
0.047751125000000,185,0x34,0x01
0.047825500000000,185,0x80,0x01
0.047899875000000,185,0x80,0x01
0.047982625000000,186,0x32,0x01
0.048057000000000,186,0x0A,0x01
0.048131375000000,186,0x22,0x01
0.048211125000000,187,0x32,0x01
0.048285500000000,187,0x00,0x01
0.048359875000000,187,0x20,0x00
0.048439625000000,188,0x32,0x01
0.048514000000000,188,0x20,0x01
0.048588375000000,188,0x20,0x01
0.048668250000000,189,0x32,0x01
0.048742625000000,189,0x20,0x01
0.048817000000000,189,0x20,0x01
0.048896750000000,190,0x32,0x01
0.048971125000000,190,0x20,0x01
0.049045500000000,190,0xC0,0x01
0.049126750000000,191,0x07,0x01
0.049201125000000,191,0x01,0x01
0.049275500000000,191,0x46,0x01
0.049605750000000,192,0x07,0x0D
0.049679125000000,192,0x00,0x09
0.049753000000000,192,0x00,0x01
0.049831750000000,193,0x32,0x01
0.049906125000000,193,0x00,0x01
0.049980500000000,193,0x00,0x01
0.050062750000000,194,0x34,0x01
0.050137125000000,194,0x80,0x01
0.050211500000000,194,0x80,0x01
0.050294250000000,195,0x32,0x01
0.050368625000000,195,0x0A,0x01
0.050443000000000,195,0x22,0x01
0.050522750000000,196,0x32,0x01
0.050597125000000,196,0x00,0x01
0.050671500000000,196,0x20,0x01
0.050751250000000,197,0x32,0x01
0.050825625000000,197,0x20,0x01
0.050900000000000,197,0x20,0x01
0.050979750000000,198,0x32,0x01
0.051054125000000,198,0x20,0x00
0.051128500000000,198,0x20,0x01
0.051208250000000,199,0x32,0x01
0.051282625000000,199,0x20,0x01
0.051357000000000,199,0xC0,0x01
0.051438250000000,200,0x07,0x01
0.051512625000000,200,0x01,0x01
0.051587000000000,200,0x00,0x01
0.051918250000000,201,0x07,0x0D
0.051991750000000,201,0x00,0x01
0.052066125000000,201,0x28,0x01
0.052144875000000,202,0x32,0x01
0.052219250000000,202,0x00,0x01
0.052293625000000,202,0x00,0x01
0.052375875000000,203,0x34,0x01
0.052450250000000,203,0x80,0x01
0.052524625000000,203,0x80,0x01
0.052607250000000,204,0x32,0x01
0.052681625000000,204,0x0A,0x01
0.052756000000000,204,0x22,0x00
0.052835750000000,205,0x32,0x01
0.052910125000000,205,0x00,0x01
0.052984500000000,205,0x20,0x01
0.053064250000000,206,0x32,0x01
0.053138625000000,206,0x20,0x01
0.053213000000000,206,0x20,0x81
0.053292875000000,207,0x32,0x01
0.053367250000000,207,0x20,0x01
0.053441625000000,207,0x20,0x01
0.053521375000000,208,0x32,0x01
0.053595750000000,208,0x20,0x01
0.053670125000000,208,0xC0,0x01
0.053751375000000,209,0x07,0x01
0.053825750000000,209,0x01,0x01
0.053900125000000,209,0x28,0x01
0.054232250000000,210,0x07,0x8F
0.054305250000000,210,0x00,0x01
0.054379625000000,210,0x0A,0x01
0.054458375000000,211,0x32,0x01
