Time [s],Packet ID,MOSI,MISO
0.000217375000000,0,0x32,0x01
0.000291750000000,0,0x00,0x00
0.000366125000000,0,0x00,0x01
0.000448375000000,1,0x34,0x01
0.000522750000000,1,0x80,0x01
0.000597125000000,1,0x80,0x01
0.000679875000000,2,0x32,0x01
0.000754250000000,2,0x0A,0x01
0.000828625000000,2,0x22,0x01
0.000908500000000,3,0x32,0x01
0.000982875000000,3,0x00,0x01
0.001057250000000,3,0x20,0x01
0.001137000000000,4,0x32,0x01
0.001211375000000,4,0x20,0x01
0.001285875000000,4,0x20,0x01
0.001365625000000,5,0x32,0x01
0.001440000000000,5,0x20,0x01
0.001514375000000,5,0x20,0x01
0.001594125000000,6,0x32,0x01
0.001668500000000,6,0x20,0x81
0.001743000000000,6,0xC0,0x01
0.001824250000000,7,0x07,0x01
0.001898625000000,7,0x01,0x01
0.001973000000000,7,0x28,0x01
0.002305250000000,8,0x07,0x0F
0.002378250000000,8,0x00,0x01
0.002452625000000,8,0x0A,0x01
0.002531375000000,9,0x32,0x01
0.002605750000000,9,0x00,0x01
0.002680250000000,9,0x00,0x01
0.002762375000000,10,0x34,0x01
0.002836875000000,10,0x80,0x01
0.002911250000000,10,0x80,0x01
0.002993875000000,11,0x32,0x01
0.003068375000000,11,0x0A,0x01
0.003142750000000,11,0x22,0x01
0.003222500000000,12,0x32,0x01
0.003296875000000,12,0x00,0x00
0.003371250000000,12,0x20,0x01
0.003451125000000,13,0x32,0x01
0.003525500000000,13,0x20,0x01
0.003599875000000,13,0x20,0x01
0.003679625000000,14,0x32,0x01
0.003754000000000,14,0x20,0x01
0.003828375000000,14,0x20,0x01
0.003908250000000,15,0x32,0x01
0.003982625000000,15,0x20,0x01
0.004057000000000,15,0xC0,0x01
0.004138250000000,16,0x07,0x01
0.004212625000000,16,0x01,0x01
0.004287000000000,16,0x0A,0x01
0.004620375000000,17,0x07,0x07
0.004693250000000,17,0x00,0x01
0.004767625000000,17,0x32,0x00
0.004846500000000,18,0x32,0x01
0.004920875000000,18,0x00,0x01
0.004995250000000,18,0x00,0x01
0.005077500000000,19,0x34,0x01
0.005151875000000,19,0x80,0x01
0.005226250000000,19,0x80,0x01
0.005309000000000,20,0x32,0x01
0.005383375000000,20,0x0A,0x01
0.005457750000000,20,0x22,0x01
0.005537500000000,21,0x32,0x01
0.005611875000000,21,0x00,0x01
0.005686375000000,21,0x20,0x01
0.005766125000000,22,0x32,0x01
0.005840500000000,22,0x20,0x01
0.005914875000000,22,0x20,0x01
0.005994625000000,23,0x32,0x01
0.006069125000000,23,0x20,0x01
0.006143500000000,23,0x20,0x01
0.006223250000000,24,0x32,0x01
0.006297625000000,24,0x20,0x01
0.006372000000000,24,0xC0,0x01
0.006453250000000,25,0x07,0x01
0.006527750000000,25,0x01,0x01
0.006602125000000,25,0x32,0x01
0.006936375000000,26,0x07,0x0F
0.007009250000000,26,0x00,0x01
0.007083625000000,26,0x14,0x01
0.007162500000000,27,0x32,0x01
0.007236875000000,27,0x00,0x01
0.007311250000000,27,0x00,0x01
0.007393500000000,28,0x34,0x01
0.007467875000000,28,0x80,0x01
0.007542250000000,28,0x80,0x01
0.007625000000000,29,0x32,0x01
0.007699375000000,29,0x0A,0x01
0.007773750000000,29,0x22,0x01
0.007853625000000,30,0x32,0x01
0.007928000000000,30,0x00,0x01
0.008002375000000,30,0x20,0x01
0.008082125000000,31,0x32,0x01
0.008156500000000,31,0x20,0x01
0.008231000000000,31,0x20,0x01
0.008310750000000,32,0x32,0x01
0.008385125000000,32,0x20,0x01
0.008459500000000,32,0x20,0x01
0.008539250000000,33,0x32,0x81
0.008613750000000,33,0x20,0x01
0.008688125000000,33,0xC0,0x01
0.008769375000000,34,0x07,0x01
0.008843750000000,34,0x01,0x01
0.008918125000000,34,0x14,0x00
0.009253375000000,35,0x07,0x0F
0.009326250000000,35,0x00,0x81
0.009400750000000,35,0x3C,0x01
0.009479500000000,36,0x32,0x01
0.009553875000000,36,0x00,0x01
0.009628250000000,36,0x00,0x01
0.009710500000000,37,0x34,0x01
0.009784875000000,37,0x80,0x01
0.009859375000000,37,0x80,0x01
0.009942000000000,38,0x32,0x01
0.010016375000000,38,0x0A,0x01
0.010090875000000,38,0x22,0x01
0.010170625000000,39,0x32,0x01
0.010245000000000,39,0x00,0x01
0.010319375000000,39,0x20,0x01
0.010399125000000,40,0x32,0x81
0.010473625000000,40,0x20,0x01
0.010548000000000,40,0x20,0x01
0.010627750000000,41,0x32,0x01
0.010702125000000,41,0x20,0x01
0.010776500000000,41,0x20,0x01
0.010856375000000,42,0x32,0x01
0.010930750000000,42,0x20,0x01
0.011005125000000,42,0xC0,0x01
0.011086375000000,43,0x07,0x01
0.011160750000000,43,0x01,0x00
0.011235125000000,43,0x3C,0x01
0.011571375000000,44,0x07,0x0C
0.011644750000000,44,0x00,0x01
0.011719125000000,44,0x1E,0x01
0.011798000000000,45,0x32,0x01
0.011872375000000,45,0x00,0x01
0.011946750000000,45,0x00,0x01
0.012029000000000,46,0x34,0x01
0.012103375000000,46,0x80,0x01
0.012177750000000,46,0x80,0x01
0.012260500000000,47,0x32,0x00
0.012334875000000,47,0x0A,0x01
0.012409250000000,47,0x22,0x81
0.012489125000000,48,0x32,0x01
0.012563500000000,48,0x00,0x01
0.012637875000000,48,0x20,0x01
0.012717625000000,49,0x32,0x01
0.012792000000000,49,0x20,0x01
0.012866500000000,49,0x20,0x01
0.012946250000000,50,0x32,0x01
0.013020625000000,50,0x20,0x01
0.013095000000000,50,0x20,0x01
0.013174750000000,51,0x32,0x01
0.013249250000000,51,0x20,0x01
0.013323625000000,51,0xC0,0x01
0.013404875000000,52,0x07,0x01
0.013479250000000,52,0x01,0x01
0.013553625000000,52,0x1E,0x01
0.013890875000000,53,0x07,0x0F
0.013963750000000,53,0x00,0x01
0.014038125000000,53,0x46,0x01
0.014117000000000,54,0x32,0x01
0.014191375000000,54,0x00,0x01
0.014265750000000,54,0x00,0x01
0.014348000000000,55,0x34,0x01
0.014422375000000,55,0x80,0x01
0.014496750000000,55,0x80,0x01
0.014579500000000,56,0x32,0x01
0.014653875000000,56,0x0A,0x01
0.014728250000000,56,0x22,0x01
0.014808000000000,57,0x32,0x01
0.014882500000000,57,0x00,0x01
0.014956875000000,57,0x20,0x01
0.015036625000000,58,0x32,0x01
0.015111000000000,58,0x20,0x00
0.015185375000000,58,0x20,0x01
0.015265250000000,59,0x32,0x01
0.015339625000000,59,0x20,0x01
0.015414000000000,59,0x20,0x01
0.015493750000000,60,0x32,0x01
0.015568125000000,60,0x20,0x01
0.015642500000000,60,0xC0,0x81
0.015723750000000,61,0x07,0x81
0.015798250000000,61,0x01,0x01
0.015872625000000,61,0x46,0x01
0.016203000000000,62,0x07,0x0D
0.016276375000000,62,0x00,0x09
0.016350250000000,62,0x00,0x01
0.016429000000000,63,0x32,0x81
0.016503500000000,63,0x00,0x01
0.016577875000000,63,0x00,0x01
0.016660125000000,64,0x34,0x01
0.016734500000000,64,0x80,0x01
0.016808875000000,64,0x80,0x01
0.016891625000000,65,0x32,0x01
0.016966000000000,65,0x0A,0x01
0.017040375000000,65,0x22,0x01
0.017120125000000,66,0x32,0x01
0.017194500000000,66,0x00,0x01
0.017269000000000,66,0x20,0x01
0.017348750000000,67,0x32,0x01
0.017423125000000,67,0x20,0x01
0.017497500000000,67,0x20,0x00
0.017577250000000,68,0x32,0x01
0.017651750000000,68,0x20,0x01
0.017726125000000,68,0x20,0x01
0.017805875000000,69,0x32,0x01
0.017880250000000,69,0x20,0x01
0.017954625000000,69,0xC0,0x01
0.018035875000000,70,0x07,0x01
0.018110250000000,70,0x01,0x81
0.018184750000000,70,0x00,0x01
0.018516000000000,71,0x07,0x0D
0.018589500000000,71,0x00,0x01
0.018663875000000,71,0x28,0x01
0.018742625000000,72,0x32,0x01
0.018817000000000,72,0x00,0x01
0.018891375000000,72,0x00,0x81
0.018973625000000,73,0x34,0x01
0.019048000000000,73,0x80,0x81
0.019122500000000,73,0x80,0x01
0.019205125000000,74,0x32,0x01
0.019279625000000,74,0x0A,0x01
0.019354000000000,74,0x22,0x01
0.019433750000000,75,0x32,0x01
0.019508125000000,75,0x00,0x01
0.019582500000000,75,0x20,0x01
0.019662375000000,76,0x32,0x01
0.019736750000000,76,0x20,0x01
0.019811125000000,76,0x20,0x01
0.019890875000000,77,0x32,0x01
0.019965250000000,77,0x20,0x01
0.020039750000000,77,0x20,0x01
0.020119500000000,78,0x32,0x01
0.020193875000000,78,0x20,0x01
0.020268250000000,78,0xC0,0x01
0.020349500000000,79,0x07,0x01
0.020423875000000,79,0x01,0x01
0.020498375000000,79,0x28,0x01
0.020830625000000,80,0x07,0x0F
0.020903500000000,80,0x00,0x01
0.020978000000000,80,0x0A,0x01
0.021056750000000,81,0x32,0x01
0.021131125000000,81,0x00,0x01
0.021205500000000,81,0x00,0x01
0.021287750000000,82,0x34,0x01
0.021362125000000,82,0x80,0x01
0.021436500000000,82,0x80,0x01
0.021519250000000,83,0x32,0x01
0.021593625000000,83,0x0A,0x01
0.021668000000000,83,0x22,0x01
0.021747875000000,84,0x32,0x01
0.021822250000000,84,0x00,0x01
0.021896625000000,84,0x20,0x01
0.021976375000000,85,0x32,0x01
0.022050750000000,85,0x20,0x01
0.022125250000000,85,0x20,0x01
0.022205000000000,86,0x32,0x01
0.022279375000000,86,0x20,0x01
0.022353750000000,86,0x20,0x01
0.022433500000000,87,0x32,0x01
0.022508000000000,87,0x20,0x01
0.022582375000000,87,0xC0,0x01
0.022663625000000,88,0x07,0x01
0.022738000000000,88,0x01,0x01
0.022812375000000,88,0x0A,0x01
0.023145625000000,89,0x07,0x0F
0.023218625000000,89,0x00,0x01
0.023293000000000,89,0x32,0x01
0.023371750000000,90,0x32,0x01
0.023446250000000,90,0x00,0x01
0.023520625000000,90,0x00,0x01
0.023602750000000,91,0x34,0x81
0.023677250000000,91,0x80,0x01
0.023751625000000,91,0x80,0x01
0.023834250000000,92,0x32,0x81
0.023908750000000,92,0x0A,0x01
0.023983125000000,92,0x22,0x01
0.024062875000000,93,0x32,0x01
0.024137250000000,93,0x00,0x01
0.024211625000000,93,0x20,0x01
0.024291500000000,94,0x32,0x01
0.024365875000000,94,0x20,0x01
0.024440250000000,94,0x20,0x00
0.024520000000000,95,0x32,0x01
0.024594500000000,95,0x20,0x01
0.024668875000000,95,0x20,0x01
0.024748625000000,96,0x32,0x01
0.024823000000000,96,0x20,0x01
0.024897375000000,96,0xC0,0x01
0.024978625000000,97,0x07,0x01
0.025053000000000,97,0x01,0x81
0.025127500000000,97,0x32,0x01
0.025461750000000,98,0x07,0x0F
0.025534625000000,98,0x00,0x01
0.025609000000000,98,0x14,0x01
0.025687875000000,99,0x32,0x01
0.025762250000000,99,0x00,0x01
0.025836625000000,99,0x00,0x01
0.025918875000000,100,0x34,0x01
0.025993250000000,100,0x80,0x01
0.026067625000000,100,0x80,0x01
0.026150375000000,101,0x32,0x01
0.026224750000000,101,0x0A,0x00
0.026299125000000,101,0x22,0x01
0.026379000000000,102,0x32,0x01
0.026453375000000,102,0x00,0x01
0.026527750000000,102,0x20,0x01
0.026607500000000,103,0x32,0x00
0.026681875000000,103,0x20,0x01
0.026756250000000,103,0x20,0x01
0.026836125000000,104,0x32,0x01
0.026910500000000,104,0x20,0x01
0.026984875000000,104,0x20,0x01
0.027064625000000,105,0x32,0x01
0.027139000000000,105,0x20,0x01
0.027213500000000,105,0xC0,0x01
0.027294750000000,106,0x07,0x01
0.027369125000000,106,0x01,0x01
0.027443500000000,106,0x14,0x01
0.027778750000000,107,0x07,0x0F
0.027851625000000,107,0x00,0x01
0.027926125000000,107,0x3C,0x01
0.028004875000000,108,0x32,0x01
0.028079250000000,108,0x00,0x01
0.028153625000000,108,0x00,0x01
0.028235875000000,109,0x34,0x01
0.028310250000000,109,0x80,0x01
0.028384750000000,109,0x80,0x01
0.028467375000000,110,0x32,0x01
0.028541750000000,110,0x0A,0x01
0.028616250000000,110,0x22,0x01
0.028696000000000,111,0x32,0x01
0.028770375000000,111,0x00,0x01
0.028844750000000,111,0x20,0x01
0.028924625000000,112,0x32,0x01
0.028999000000000,112,0x20,0x01
0.029073375000000,112,0x20,0x01
0.029153125000000,113,0x32,0x01
0.029227500000000,113,0x20,0x01
0.029302000000000,113,0x20,0x01
0.029381750000000,114,0x32,0x01
0.029456125000000,114,0x20,0x01
0.029530500000000,114,0xC0,0x01
0.029611750000000,115,0x07,0x01
0.029686125000000,115,0x01,0x01
0.029760625000000,115,0x3C,0x01
0.030096750000000,116,0x07,0x0D
0.030170250000000,116,0x00,0x01
0.030244625000000,116,0x1E,0x01
0.030323375000000,117,0x32,0x01
0.030397750000000,117,0x00,0x01
0.030472250000000,117,0x00,0x01
0.030554375000000,118,0x34,0x01
0.030628875000000,118,0x80,0x01
0.030703250000000,118,0x80,0x01
0.030785875000000,119,0x32,0x81
0.030860375000000,119,0x0A,0x01
0.030934750000000,119,0x22,0x01
0.031014500000000,120,0x32,0x00
0.031088875000000,120,0x00,0x01
0.031163250000000,120,0x20,0x81
0.031243125000000,121,0x32,0x01
0.031317500000000,121,0x20,0x01
0.031391875000000,121,0x20,0x00
0.031471625000000,122,0x32,0x01
0.031546125000000,122,0x20,0x01
0.031620500000000,122,0x20,0x01
0.031700250000000,123,0x32,0x01
0.031774625000000,123,0x20,0x01
0.031849000000000,123,0xC0,0x01
0.031930250000000,124,0x07,0x01
0.032004750000000,124,0x01,0x01
0.032079125000000,124,0x1E,0x01
0.032416250000000,125,0x07,0x0F
0.032489250000000,125,0x00,0x01
0.032563625000000,125,0x46,0x01
0.032642375000000,126,0x32,0x01
0.032716875000000,126,0x00,0x01
0.032791250000000,126,0x00,0x01
0.032873500000000,127,0x34,0x01
0.032947875000000,127,0x80,0x01
0.033022250000000,127,0x80,0x01
0.033105000000000,128,0x32,0x01
0.033179375000000,128,0x0A,0x01
0.033253750000000,128,0x22,0x01
0.033333500000000,129,0x32,0x00
0.033407875000000,129,0x00,0x01
0.033482250000000,129,0x20,0x01
0.033562125000000,130,0x32,0x01
0.033636500000000,130,0x20,0x01
0.033710875000000,130,0x20,0x01
0.033790625000000,131,0x32,0x01
0.033865000000000,131,0x20,0x81
0.033939500000000,131,0x20,0x01
0.034019250000000,132,0x32,0x01
0.034093625000000,132,0x20,0x01
0.034168000000000,132,0xC0,0x01
0.034249250000000,133,0x07,0x01
0.034323625000000,133,0x01,0x01
0.034398125000000,133,0x46,0x01
0.034728375000000,134,0x07,0x0F
0.034801875000000,134,0x00,0x09
0.034875750000000,134,0x00,0x01
0.034954500000000,135,0x32,0x01
0.035029000000000,135,0x00,0x01
0.035103375000000,135,0x00,0x01
0.035185625000000,136,0x34,0x01
0.035260000000000,136,0x80,0x01
0.035334375000000,136,0x80,0x01
0.035417125000000,137,0x32,0x01
0.035491500000000,137,0x0A,0x01
0.035565875000000,137,0x22,0x01
0.035645625000000,138,0x32,0x01
0.035720000000000,138,0x00,0x01
0.035794500000000,138,0x20,0x01
0.035874250000000,139,0x32,0x01
0.035948625000000,139,0x20,0x01
0.036023000000000,139,0x20,0x01
0.036102750000000,140,0x32,0x81
0.036177250000000,140,0x20,0x01
0.036251625000000,140,0x20,0x01
0.036331375000000,141,0x32,0x01
0.036405750000000,141,0x20,0x01
0.036480125000000,141,0xC0,0x01
0.036561375000000,142,0x07,0x01
0.036635875000000,142,0x01,0x01
0.036710250000000,142,0x00,0x01
0.037041500000000,143,0x07,0x0D
0.037115000000000,143,0x00,0x01
0.037189375000000,143,0x28,0x01
0.037268125000000,144,0x32,0x01
0.037342500000000,144,0x00,0x01
0.037417000000000,144,0x00,0x01
0.037499125000000,145,0x34,0x01
0.037573625000000,145,0x80,0x01
0.037648000000000,145,0x80,0x01
0.037730750000000,146,0x32,0x01
0.037805125000000,146,0x0A,0x01
0.037879500000000,146,0x22,0x01
0.037959250000000,147,0x32,0x00
0.038033625000000,147,0x00,0x01
0.038108000000000,147,0x20,0x01
0.038187875000000,148,0x32,0x01
0.038262250000000,148,0x20,0x01
0.038336625000000,148,0x20,0x01
0.038416375000000,149,0x32,0x01
0.038490750000000,149,0x20,0x01
0.038565250000000,149,0x20,0x01
0.038645000000000,150,0x32,0x01
0.038719375000000,150,0x20,0x00
0.038793750000000,150,0xC0,0x01
0.038875000000000,151,0x07,0x01
0.038949375000000,151,0x01,0x81
0.039023875000000,151,0x28,0x01
0.039356125000000,152,0x07,0x0F
0.039429125000000,152,0x00,0x01
0.039503500000000,152,0x0A,0x01
0.039582250000000,153,0x32,0x01
0.039656625000000,153,0x00,0x01
0.039731000000000,153,0x00,0x81
0.039813250000000,154,0x34,0x01
0.039887750000000,154,0x80,0x01
0.039962125000000,154,0x80,0x01
0.040044750000000,155,0x32,0x01
0.040119250000000,155,0x0A,0x01
0.040193625000000,155,0x22,0x01
0.040273375000000,156,0x32,0x01
0.040347750000000,156,0x00,0x01
0.040422125000000,156,0x20,0x01
0.040502000000000,157,0x32,0x01
0.040576375000000,157,0x20,0x01
0.040650750000000,157,0x20,0x01
0.040730500000000,158,0x32,0x01
0.040804875000000,158,0x20,0x01
0.040879375000000,158,0x20,0x01
0.040959125000000,159,0x32,0x01
0.041033500000000,159,0x20,0x01
0.041107875000000,159,0xC0,0x01
0.041189125000000,160,0x07,0x00
0.041263500000000,160,0x01,0x01
0.041337875000000,160,0x0A,0x01
0.041671250000000,161,0x07,0x0F
0.041744125000000,161,0x00,0x01
0.041818500000000,161,0x32,0x01
0.041897375000000,162,0x32,0x01
0.041971750000000,162,0x00,0x01
0.042046125000000,162,0x00,0x01
0.042128375000000,163,0x34,0x01
0.042202750000000,163,0x80,0x01
0.042277125000000,163,0x80,0x01
0.042359875000000,164,0x32,0x01
0.042434250000000,164,0x0A,0x00
0.042508625000000,164,0x22,0x01
0.042588500000000,165,0x32,0x01
0.042662875000000,165,0x00,0x01
0.042737250000000,165,0x20,0x01
0.042817000000000,166,0x32,0x01
0.042891375000000,166,0x20,0x01
0.042965875000000,166,0x20,0x01
0.043045625000000,167,0x32,0x01
0.043120000000000,167,0x20,0x01
0.043194375000000,167,0x20,0x01
0.043274125000000,168,0x32,0x01
0.043348625000000,168,0x20,0x01
0.043423000000000,168,0xC0,0x01
0.043504250000000,169,0x07,0x01
0.043578625000000,169,0x01,0x01
0.043653000000000,169,0x32,0x01
0.043987250000000,170,0x07,0x0F
0.044060250000000,170,0x00,0x01
0.044134625000000,170,0x14,0x01
0.044213375000000,171,0x32,0x01
0.044287875000000,171,0x00,0x01
0.044362250000000,171,0x00,0x01
0.044444500000000,172,0x34,0x01
0.044518875000000,172,0x80,0x01
0.044593250000000,172,0x80,0x01
0.044676000000000,173,0x32,0x01
0.044750375000000,173,0x0A,0x01
0.044824750000000,173,0x22,0x01
0.044904500000000,174,0x32,0x01
0.044978875000000,174,0x00,0x01
0.045053375000000,174,0x20,0x01
0.045133125000000,175,0x32,0x01
0.045207500000000,175,0x20,0x01
0.045281875000000,175,0x20,0x00
0.045361625000000,176,0x32,0x01
0.045436125000000,176,0x20,0x01
0.045510500000000,176,0x20,0x01
0.045590250000000,177,0x32,0x01
0.045664625000000,177,0x20,0x01
0.045739000000000,177,0xC0,0x01
0.045820250000000,178,0x07,0x01
0.045894625000000,178,0x01,0x01
0.045969125000000,178,0x14,0x01
0.046304375000000,179,0x07,0x0F
0.046377250000000,179,0x00,0x01
0.046451625000000,179,0x3C,0x01
0.046530500000000,180,0x32,0x01
0.046604875000000,180,0x00,0x01
0.046679250000000,180,0x00,0x01
0.046761500000000,181,0x34,0x01
0.046835875000000,181,0x80,0x01
0.046910250000000,181,0x80,0x01
0.046993000000000,182,0x32,0x01
0.047067375000000,182,0x0A,0x01
0.047141750000000,182,0x22,0x01
0.047221500000000,183,0x32,0x01
0.047296000000000,183,0x00,0x01
0.047370375000000,183,0x20,0x01
0.047450125000000,184,0x32,0x01
0.047524500000000,184,0x20,0x01
0.047598875000000,184,0x20,0x01
0.047678750000000,185,0x32,0x01
0.047753125000000,185,0x20,0x01
0.047827500000000,185,0x20,0x01
0.047907250000000,186,0x32,0x01
0.047981625000000,186,0x20,0x01
0.048056125000000,186,0xC0,0x01
0.048137375000000,187,0x07,0x01
0.048211750000000,187,0x01,0x01
0.048286125000000,187,0x3C,0x01
0.048622375000000,188,0x07,0x0D
0.048695750000000,188,0x00,0x01
0.048770125000000,188,0x1E,0x01
0.048849000000000,189,0x32,0x01
0.048923375000000,189,0x00,0x01
0.048997750000000,189,0x00,0x01
0.049080000000000,190,0x34,0x01
0.049154375000000,190,0x80,0x01
0.049228750000000,190,0x80,0x01
0.049311500000000,191,0x32,0x01
0.049385875000000,191,0x0A,0x01
0.049460250000000,191,0x22,0x01
0.049540000000000,192,0x32,0x81
0.049614500000000,192,0x00,0x01
0.049688875000000,192,0x20,0x01
0.049768625000000,193,0x32,0x01
0.049843000000000,193,0x20,0x01
0.049917375000000,193,0x20,0x01
0.049997250000000,194,0x32,0x01
0.050071625000000,194,0x20,0x01
0.050146000000000,194,0x20,0x01
0.050225750000000,195,0x32,0x01
0.050300250000000,195,0x20,0x01
0.050374625000000,195,0xC0,0x01
0.050455875000000,196,0x07,0x01
0.050530250000000,196,0x01,0x01
0.050604625000000,196,0x1E,0x01
0.050941875000000,197,0x07,0x0F
0.051014750000000,197,0x00,0x01
0.051089125000000,197,0x46,0x01
0.051168000000000,198,0x32,0x01
0.051242375000000,198,0x00,0x01
0.051316750000000,198,0x00,0x01
0.051399000000000,199,0x34,0x01
0.051473375000000,199,0x80,0x01
0.051547750000000,199,0x80,0x00
0.051630500000000,200,0x32,0x01
0.051704875000000,200,0x0A,0x01
0.051779250000000,200,0x22,0x01
0.051859000000000,201,0x32,0x01
0.051933500000000,201,0x00,0x01
0.052007875000000,201,0x20,0x01
0.052087625000000,202,0x32,0x01
0.052162000000000,202,0x20,0x01
0.052236375000000,202,0x20,0x01
0.052316250000000,203,0x32,0x01
0.052390625000000,203,0x20,0x01
0.052465000000000,203,0x20,0x01
0.052544750000000,204,0x32,0x01
0.052619125000000,204,0x20,0x01
0.052693625000000,204,0xC0,0x01
0.052774875000000,205,0x07,0x01
0.052849250000000,205,0x01,0x01
0.052923625000000,205,0x46,0x01
0.053254000000000,206,0x07,0x0D
0.053327375000000,206,0x00,0x08
0.053401250000000,206,0x00,0x01
0.053480125000000,207,0x32,0x01
0.053554500000000,207,0x00,0x01
0.053628875000000,207,0x00,0x01
0.053711125000000,208,0x34,0x01
0.053785500000000,208,0x80,0x01
0.053859875000000,208,0x80,0x01
0.053942625000000,209,0x32,0x01
0.054017000000000,209,0x0A,0x01
0.054091375000000,209,0x22,0x01
0.054171125000000,210,0x32,0x81
0.054245625000000,210,0x00,0x01
0.054320000000000,210,0x20,0x01
0.054399750000000,211,0x32,0x01
