Time [s],Packet ID,MOSI,MISO
0.000193125000000,0,0x32,0x01
0.000267500000000,0,0x20,0x01
0.000341750000000,0,0x20,0x01
0.000421500000000,1,0x32,0x01
0.000495875000000,1,0x20,0x01
0.000570125000000,1,0x20,0x01
0.000649875000000,2,0x32,0x01
0.000724250000000,2,0x20,0x01
0.000798500000000,2,0xC0,0x01
0.000879750000000,3,0x07,0x01
0.000954000000000,3,0x01,0x01
0.001028375000000,3,0x1E,0x01
0.001365250000000,4,0x07,0x0F
0.001438125000000,4,0x00,0x01
0.001512500000000,4,0x46,0x01
0.001591250000000,5,0x32,0x00
0.001665500000000,5,0x00,0x01
0.001739875000000,5,0x00,0x01
0.001822000000000,6,0x34,0x01
0.001896375000000,6,0x80,0x01
0.001970625000000,6,0x80,0x01
0.002053375000000,7,0x32,0x01
0.002127625000000,7,0x0A,0x01
0.002202000000000,7,0x00,0x01
0.002281750000000,8,0x32,0x01
0.002356000000000,8,0x00,0x01
0.002430375000000,8,0x20,0x01
0.002510125000000,9,0x32,0x01
0.002584375000000,9,0x20,0x01
0.002658750000000,9,0x20,0x01
0.002738500000000,10,0x32,0x01
0.002812750000000,10,0x20,0x01
0.002887125000000,10,0x20,0x01
0.002966875000000,11,0x32,0x01
0.003041125000000,11,0x20,0x01
0.003115500000000,11,0xC0,0x01
0.003196625000000,12,0x07,0x01
0.003271000000000,12,0x01,0x01
0.003345375000000,12,0x46,0x01
0.003675375000000,13,0x07,0x0D
0.003748750000000,13,0x00,0x09
0.003822625000000,13,0x00,0x01
0.003901375000000,14,0x32,0x01
0.003975625000000,14,0x00,0x01
0.004050000000000,14,0x00,0x01
0.004132125000000,15,0x34,0x01
0.004206500000000,15,0x80,0x01
0.004280750000000,15,0x80,0x01
0.004363500000000,16,0x32,0x01
0.004437750000000,16,0x0A,0x01
0.004512125000000,16,0x00,0x01
0.004591875000000,17,0x32,0x01
0.004666125000000,17,0x00,0x01
0.004740500000000,17,0x20,0x01
0.004820250000000,18,0x32,0x01
0.004894500000000,18,0x20,0x01
0.004968875000000,18,0x20,0x01
0.005048625000000,19,0x32,0x01
0.005122875000000,19,0x20,0x01
0.005197250000000,19,0x20,0x01
0.005277000000000,20,0x32,0x00
0.005351250000000,20,0x20,0x01
0.005425625000000,20,0xC0,0x01
0.005506750000000,21,0x07,0x01
0.005581125000000,21,0x01,0x01
0.005655500000000,21,0x00,0x00
0.005986500000000,22,0x07,0x0F
0.006059375000000,22,0x00,0x01
0.006133625000000,22,0x28,0x01
0.006212375000000,23,0x32,0x01
0.006286750000000,23,0x00,0x01
0.006361125000000,23,0x00,0x01
0.006443250000000,24,0x34,0x01
0.006517500000000,24,0x80,0x81
0.006591875000000,24,0x80,0x01
0.006674500000000,25,0x32,0x01
0.006748875000000,25,0x0A,0x01
0.006823250000000,25,0x00,0x01
0.006902875000000,26,0x32,0x01
0.006977250000000,26,0x00,0x01
0.007051625000000,26,0x20,0x01
0.007131250000000,27,0x32,0x01
0.007205625000000,27,0x20,0x01
0.007280000000000,27,0x20,0x01
0.007359625000000,28,0x32,0x01
0.007434000000000,28,0x20,0x01
0.007508375000000,28,0x20,0x01
0.007588000000000,29,0x32,0x81
0.007662375000000,29,0x20,0x01
0.007736750000000,29,0xC0,0x01
0.007817875000000,30,0x07,0x01
0.007892250000000,30,0x01,0x01
0.007966625000000,30,0x28,0x01
0.008298625000000,31,0x07,0x0F
0.008371500000000,31,0x00,0x01
0.008445750000000,31,0x0A,0x01
0.008524500000000,32,0x32,0x01
0.008598875000000,32,0x00,0x01
0.008673125000000,32,0x00,0x01
0.008755375000000,33,0x34,0x01
0.008829625000000,33,0x80,0x01
0.008904000000000,33,0x80,0x01
0.008986625000000,34,0x32,0x01
0.009061000000000,34,0x0A,0x01
0.009135250000000,34,0x00,0x81
0.009215000000000,35,0x32,0x01
0.009289375000000,35,0x00,0x01
0.009363625000000,35,0x20,0x81
0.009443375000000,36,0x32,0x01
0.009517750000000,36,0x20,0x01
0.009592000000000,36,0x20,0x81
0.009671750000000,37,0x32,0x01
0.009746125000000,37,0x20,0x01
0.009820375000000,37,0x20,0x81
0.009900125000000,38,0x32,0x01
0.009974500000000,38,0x20,0x01
0.010048875000000,38,0xC0,0x00
0.010130000000000,39,0x07,0x01
0.010204375000000,39,0x01,0x01
0.010278625000000,39,0x0A,0x01
0.010611625000000,40,0x07,0x0F
0.010684500000000,40,0x00,0x01
0.010758875000000,40,0x32,0x01
0.010837625000000,41,0x32,0x01
0.010911875000000,41,0x00,0x01
0.010986250000000,41,0x00,0x01
0.011068375000000,42,0x34,0x01
0.011142750000000,42,0x80,0x01
0.011217125000000,42,0x80,0x01
0.011299750000000,43,0x32,0x01
0.011374000000000,43,0x0A,0x01
0.011448375000000,43,0x00,0x01
0.011528125000000,44,0x32,0x01
0.011602375000000,44,0x00,0x01
0.011676750000000,44,0x20,0x01
0.011756500000000,45,0x32,0x01
0.011830750000000,45,0x20,0x01
0.011905125000000,45,0x20,0x01
0.011984875000000,46,0x32,0x01
0.012059125000000,46,0x20,0x01
0.012133500000000,46,0x20,0x01
0.012213250000000,47,0x32,0x01
0.012287500000000,47,0x20,0x01
0.012361875000000,47,0xC0,0x01
0.012443000000000,48,0x07,0x01
0.012517375000000,48,0x01,0x01
0.012591750000000,48,0x32,0x01
0.012925625000000,49,0x07,0x0F
0.012998500000000,49,0x00,0x01
0.013072875000000,49,0x14,0x01
0.013151625000000,50,0x32,0x01
0.013226000000000,50,0x00,0x01
0.013300250000000,50,0x00,0x01
0.013382375000000,51,0x34,0x01
0.013456750000000,51,0x80,0x01
0.013531125000000,51,0x80,0x01
0.013613750000000,52,0x32,0x01
0.013688125000000,52,0x0A,0x01
0.013762375000000,52,0x00,0x01
0.013842125000000,53,0x32,0x01
0.013916375000000,53,0x00,0x81
0.013990750000000,53,0x20,0x01
0.014070500000000,54,0x32,0x01
0.014144750000000,54,0x20,0x81
0.014219125000000,54,0x20,0x01
0.014298875000000,55,0x32,0x01
0.014373250000000,55,0x20,0x01
0.014447500000000,55,0x20,0x01
0.014527250000000,56,0x32,0x01
0.014601500000000,56,0x20,0x81
0.014675875000000,56,0xC0,0x01
0.014757125000000,57,0x07,0x01
0.014831375000000,57,0x01,0x01
0.014905750000000,57,0x14,0x01
0.015240750000000,58,0x07,0x0F
0.015313500000000,58,0x00,0x01
0.015387875000000,58,0x3C,0x01
0.015466625000000,59,0x32,0x01
0.015541000000000,59,0x00,0x00
0.015615250000000,59,0x00,0x01
0.015697375000000,60,0x34,0x01
0.015771750000000,60,0x80,0x01
0.015846125000000,60,0x80,0x01
0.015928750000000,61,0x32,0x01
0.016003125000000,61,0x0A,0x00
0.016077375000000,61,0x00,0x01
0.016157125000000,62,0x32,0x01
0.016231500000000,62,0x00,0x00
0.016305750000000,62,0x20,0x01
0.016385500000000,63,0x32,0x01
0.016459875000000,63,0x20,0x01
0.016534125000000,63,0x20,0x01
0.016613875000000,64,0x32,0x01
0.016688250000000,64,0x20,0x01
0.016762500000000,64,0x20,0x01
0.016842250000000,65,0x32,0x01
0.016916625000000,65,0x20,0x01
0.016990875000000,65,0xC0,0x01
0.017072125000000,66,0x07,0x00
0.017146375000000,66,0x01,0x01
0.017220750000000,66,0x3C,0x01
0.017556625000000,67,0x07,0x0D
0.017630000000000,67,0x00,0x01
0.017704375000000,67,0x1E,0x01
0.017783125000000,68,0x32,0x00
0.017857375000000,68,0x00,0x01
0.017931750000000,68,0x00,0x01
0.018013875000000,69,0x34,0x01
0.018088250000000,69,0x80,0x01
0.018162500000000,69,0x80,0x01
0.018245250000000,70,0x32,0x00
0.018319500000000,70,0x0A,0x01
0.018393875000000,70,0x00,0x01
0.018473625000000,71,0x32,0x00
0.018547875000000,71,0x00,0x01
0.018622250000000,71,0x20,0x01
0.018702000000000,72,0x32,0x01
0.018776250000000,72,0x20,0x01
0.018850625000000,72,0x20,0x01
0.018930250000000,73,0x32,0x81
0.019004625000000,73,0x20,0x01
0.019079000000000,73,0x20,0x01
0.019158625000000,74,0x32,0x81
0.019233000000000,74,0x20,0x01
0.019307375000000,74,0xC0,0x01
0.019388500000000,75,0x07,0x01
0.019462875000000,75,0x01,0x01
0.019537125000000,75,0x1E,0x01
0.019874125000000,76,0x07,0x0F
0.019947000000000,76,0x00,0x01
0.020021250000000,76,0x46,0x01
0.020100000000000,77,0x32,0x01
0.020174375000000,77,0x00,0x01
0.020248625000000,77,0x00,0x01
0.020330875000000,78,0x34,0x01
0.020405125000000,78,0x80,0x01
0.020479500000000,78,0x80,0x01
0.020562125000000,79,0x32,0x01
0.020636500000000,79,0x0A,0x01
0.020710750000000,79,0x00,0x01
0.020790500000000,80,0x32,0x01
0.020864875000000,80,0x00,0x01
0.020939125000000,80,0x20,0x01
0.021018875000000,81,0x32,0x01
0.021093250000000,81,0x20,0x01
0.021167500000000,81,0x20,0x01
0.021247250000000,82,0x32,0x01
0.021321625000000,82,0x20,0x01
0.021395875000000,82,0x20,0x01
0.021475625000000,83,0x32,0x01
0.021550000000000,83,0x20,0x01
0.021624250000000,83,0xC0,0x01
0.021705500000000,84,0x07,0x01
0.021779750000000,84,0x01,0x81
0.021854125000000,84,0x46,0x01
0.022184250000000,85,0x07,0x0D
0.022257500000000,85,0x00,0x09
0.022331375000000,85,0x00,0x01
0.022410125000000,86,0x32,0x01
0.022484500000000,86,0x00,0x01
0.022558750000000,86,0x00,0x01
0.022641000000000,87,0x34,0x01
0.022715250000000,87,0x80,0x01
0.022789625000000,87,0x80,0x01
0.022872250000000,88,0x32,0x01
0.022946625000000,88,0x0A,0x00
0.023020875000000,88,0x00,0x01
0.023100625000000,89,0x32,0x01
0.023175000000000,89,0x00,0x00
0.023249250000000,89,0x20,0x01
0.023329000000000,90,0x32,0x01
0.023403375000000,90,0x20,0x00
0.023477625000000,90,0x20,0x01
0.023557375000000,91,0x32,0x01
0.023631750000000,91,0x20,0x01
0.023706000000000,91,0x20,0x01
0.023785750000000,92,0x32,0x01
0.023860000000000,92,0x20,0x81
0.023934375000000,92,0xC0,0x01
0.024015625000000,93,0x07,0x01
0.024089875000000,93,0x01,0x01
0.024164250000000,93,0x00,0x01
0.024495250000000,94,0x07,0x0F
0.024568125000000,94,0x00,0x01
0.024642500000000,94,0x28,0x01
0.024721125000000,95,0x32,0x01
0.024795500000000,95,0x00,0x01
0.024869875000000,95,0x00,0x01
0.024952000000000,96,0x34,0x01
0.025026375000000,96,0x80,0x00
0.025100625000000,96,0x80,0x01
0.025183250000000,97,0x32,0x01
0.025257625000000,97,0x0A,0x01
0.025332000000000,97,0x00,0x01
0.025411625000000,98,0x32,0x01
0.025486000000000,98,0x00,0x01
0.025560375000000,98,0x20,0x01
0.025640000000000,99,0x32,0x01
0.025714375000000,99,0x20,0x01
0.025788750000000,99,0x20,0x00
0.025868375000000,100,0x32,0x01
0.025942750000000,100,0x20,0x01
0.026017125000000,100,0x20,0x01
0.026096750000000,101,0x32,0x01
0.026171125000000,101,0x20,0x01
0.026245375000000,101,0xC0,0x81
0.026326625000000,102,0x07,0x01
0.026401000000000,102,0x01,0x01
0.026475250000000,102,0x28,0x01
0.026807250000000,103,0x07,0x0F
0.026880125000000,103,0x00,0x01
0.026954500000000,103,0x0A,0x01
0.027033250000000,104,0x32,0x01
0.027107500000000,104,0x00,0x01
0.027181875000000,104,0x00,0x01
0.027264000000000,105,0x34,0x01
0.027338375000000,105,0x80,0x01
0.027412625000000,105,0x80,0x01
0.027495375000000,106,0x32,0x01
0.027569625000000,106,0x0A,0x01
0.027644000000000,106,0x00,0x01
0.027723750000000,107,0x32,0x01
0.027798000000000,107,0x00,0x01
0.027872375000000,107,0x20,0x01
0.027952000000000,108,0x32,0x81
0.028026375000000,108,0x20,0x01
0.028100750000000,108,0x20,0x01
0.028180375000000,109,0x32,0x01
0.028254750000000,109,0x20,0x01
0.028329125000000,109,0x20,0x01
0.028408750000000,110,0x32,0x01
0.028483125000000,110,0x20,0x01
0.028557500000000,110,0xC0,0x01
0.028638625000000,111,0x07,0x01
0.028713000000000,111,0x01,0x01
0.028787250000000,111,0x0A,0x01
0.029120250000000,112,0x07,0x0F
0.029193125000000,112,0x00,0x01
0.029267500000000,112,0x32,0x01
0.029346125000000,113,0x32,0x01
0.029420500000000,113,0x00,0x01
0.029494875000000,113,0x00,0x01
0.029577000000000,114,0x34,0x01
0.029651375000000,114,0x80,0x01
0.029725625000000,114,0x80,0x01
0.029808250000000,115,0x32,0x01
0.029882625000000,115,0x0A,0x01
0.029957000000000,115,0x00,0x01
0.030036625000000,116,0x32,0x01
0.030111000000000,116,0x00,0x01
0.030185375000000,116,0x20,0x01
0.030265000000000,117,0x32,0x01
0.030339375000000,117,0x20,0x01
0.030413750000000,117,0x20,0x01
0.030493375000000,118,0x32,0x01
0.030567750000000,118,0x20,0x01
0.030642125000000,118,0x20,0x01
0.030721750000000,119,0x32,0x01
0.030796125000000,119,0x20,0x01
0.030870375000000,119,0xC0,0x81
0.030951625000000,120,0x07,0x01
0.031026000000000,120,0x01,0x01
0.031100250000000,120,0x32,0x01
0.031434250000000,121,0x07,0x0F
0.031507125000000,121,0x00,0x01
0.031581375000000,121,0x14,0x01
0.031660125000000,122,0x32,0x01
0.031734500000000,122,0x00,0x01
0.031808875000000,122,0x00,0x01
0.031891000000000,123,0x34,0x01
0.031965250000000,123,0x80,0x01
0.032039625000000,123,0x80,0x01
0.032122250000000,124,0x32,0x01
0.032196625000000,124,0x0A,0x01
0.032270875000000,124,0x00,0x01
0.032350625000000,125,0x32,0x01
0.032425000000000,125,0x00,0x01
0.032499250000000,125,0x20,0x01
0.032579000000000,126,0x32,0x01
0.032653375000000,126,0x20,0x01
0.032727625000000,126,0x20,0x01
0.032807375000000,127,0x32,0x01
0.032881750000000,127,0x20,0x01
0.032956000000000,127,0x20,0x01
0.033035750000000,128,0x32,0x01
0.033110125000000,128,0x20,0x01
0.033184375000000,128,0xC0,0x01
0.033265625000000,129,0x07,0x01
0.033339875000000,129,0x01,0x01
0.033414250000000,129,0x14,0x01
0.033749250000000,130,0x07,0x0F
0.033822000000000,130,0x00,0x81
0.033896375000000,130,0x3C,0x01
0.033975125000000,131,0x32,0x01
0.034049500000000,131,0x00,0x00
0.034123750000000,131,0x00,0x01
0.034205875000000,132,0x34,0x01
0.034280250000000,132,0x80,0x01
0.034354625000000,132,0x80,0x01
0.034437250000000,133,0x32,0x01
0.034511500000000,133,0x0A,0x01
0.034585875000000,133,0x00,0x01
0.034665625000000,134,0x32,0x01
0.034739875000000,134,0x00,0x01
0.034814250000000,134,0x20,0x01
0.034894000000000,135,0x32,0x01
0.034968250000000,135,0x20,0x01
0.035042625000000,135,0x20,0x01
0.035122375000000,136,0x32,0x01
0.035196625000000,136,0x20,0x01
0.035271000000000,136,0x20,0x01
0.035350750000000,137,0x32,0x00
0.035425000000000,137,0x20,0x01
0.035499375000000,137,0xC0,0x01
0.035580500000000,138,0x07,0x01
0.035654875000000,138,0x01,0x01
0.035729250000000,138,0x3C,0x01
0.036065125000000,139,0x07,0x0D
0.036138500000000,139,0x00,0x01
0.036212750000000,139,0x1E,0x01
0.036291500000000,140,0x32,0x01
0.036365875000000,140,0x00,0x01
0.036440125000000,140,0x00,0x81
0.036522375000000,141,0x34,0x01
0.036596625000000,141,0x80,0x01
0.036671000000000,141,0x80,0x01
0.036753625000000,142,0x32,0x01
0.036828000000000,142,0x0A,0x01
0.036902250000000,142,0x00,0x01
0.036982000000000,143,0x32,0x01
0.037056375000000,143,0x00,0x01
0.037130625000000,143,0x20,0x01
0.037210375000000,144,0x32,0x01
0.037284750000000,144,0x20,0x01
0.037359000000000,144,0x20,0x01
0.037438750000000,145,0x32,0x01
0.037513125000000,145,0x20,0x01
0.037587375000000,145,0x20,0x01
0.037667125000000,146,0x32,0x01
0.037741500000000,146,0x20,0x01
0.037815750000000,146,0xC0,0x01
0.037897000000000,147,0x07,0x01
0.037971250000000,147,0x01,0x01
0.038045625000000,147,0x1E,0x01
0.038382500000000,148,0x07,0x0F
0.038455375000000,148,0x00,0x01
0.038529750000000,148,0x46,0x01
0.038608375000000,149,0x32,0x01
0.038682750000000,149,0x00,0x01
0.038757125000000,149,0x00,0x01
0.038839250000000,150,0x34,0x01
0.038913625000000,150,0x80,0x01
0.038987875000000,150,0x80,0x01
0.039070500000000,151,0x32,0x01
0.039144875000000,151,0x0A,0x01
0.039219250000000,151,0x00,0x01
0.039298875000000,152,0x32,0x01
0.039373250000000,152,0x00,0x01
0.039447625000000,152,0x20,0x01
0.039527250000000,153,0x32,0x01
0.039601625000000,153,0x20,0x01
0.039676000000000,153,0x20,0x01
0.039755625000000,154,0x32,0x01
0.039830000000000,154,0x20,0x01
0.039904375000000,154,0x20,0x01
0.039984000000000,155,0x32,0x01
0.040058375000000,155,0x20,0x01
0.040132750000000,155,0xC0,0x01
0.040213875000000,156,0x07,0x01
0.040288250000000,156,0x01,0x01
0.040362500000000,156,0x46,0x01
0.040692625000000,157,0x07,0x0D
0.040766000000000,157,0x00,0x09
0.040839750000000,157,0x00,0x01
0.040918500000000,158,0x32,0x01
0.040992875000000,158,0x00,0x01
0.041067125000000,158,0x00,0x01
0.041149375000000,159,0x34,0x01
0.041223625000000,159,0x80,0x01
0.041298000000000,159,0x80,0x01
0.041380625000000,160,0x32,0x01
0.041455000000000,160,0x0A,0x01
0.041529250000000,160,0x00,0x01
0.041609000000000,161,0x32,0x01
0.041683375000000,161,0x00,0x01
0.041757625000000,161,0x20,0x01
0.041837375000000,162,0x32,0x01
0.041911750000000,162,0x20,0x01
0.041986000000000,162,0x20,0x01
0.042065750000000,163,0x32,0x01
0.042140125000000,163,0x20,0x00
0.042214375000000,163,0x20,0x01
0.042294125000000,164,0x32,0x01
0.042368375000000,164,0x20,0x81
0.042442750000000,164,0xC0,0x01
0.042524000000000,165,0x07,0x01
0.042598250000000,165,0x01,0x01
0.042672625000000,165,0x00,0x01
0.043003625000000,166,0x07,0x0F
0.043076500000000,166,0x00,0x01
0.043150875000000,166,0x28,0x01
0.043229500000000,167,0x32,0x81
0.043303875000000,167,0x00,0x01
0.043378250000000,167,0x00,0x01
0.043460375000000,168,0x34,0x01
0.043534750000000,168,0x80,0x01
0.043609000000000,168,0x80,0x01
0.043691625000000,169,0x32,0x01
0.043766000000000,169,0x0A,0x01
0.043840375000000,169,0x00,0x01
0.043920000000000,170,0x32,0x01
0.043994375000000,170,0x00,0x01
0.044068750000000,170,0x20,0x01
0.044148375000000,171,0x32,0x01
0.044222750000000,171,0x20,0x01
0.044297125000000,171,0x20,0x01
0.044376750000000,172,0x32,0x01
0.044451125000000,172,0x20,0x01
0.044525500000000,172,0x20,0x01
0.044605125000000,173,0x32,0x01
0.044679500000000,173,0x20,0x01
0.044753875000000,173,0xC0,0x01
0.044835000000000,174,0x07,0x01
0.044909375000000,174,0x01,0x01
0.044983625000000,174,0x28,0x01
0.045315750000000,175,0x07,0x0F
0.045388500000000,175,0x00,0x01
0.045462875000000,175,0x0A,0x01
0.045541625000000,176,0x32,0x01
0.045615875000000,176,0x00,0x81
0.045690250000000,176,0x00,0x01
0.045772375000000,177,0x34,0x01
0.045846750000000,177,0x80,0x01
0.045921125000000,177,0x80,0x01
0.046003750000000,178,0x32,0x01
0.046078000000000,178,0x0A,0x81
0.046152375000000,178,0x00,0x01
0.046232125000000,179,0x32,0x01
0.046306375000000,179,0x00,0x81
0.046380750000000,179,0x20,0x01
0.046460500000000,180,0x32,0x01
0.046534750000000,180,0x20,0x81
0.046609125000000,180,0x20,0x01
0.046688875000000,181,0x32,0x01
0.046763250000000,181,0x20,0x00
0.046837500000000,181,0x20,0x01
0.046917250000000,182,0x32,0x01
0.046991625000000,182,0x20,0x00
0.047065875000000,182,0xC0,0x01
0.047147125000000,183,0x07,0x01
0.047221375000000,183,0x01,0x01
0.047295750000000,183,0x0A,0x01
0.047628750000000,184,0x07,0x07
0.047701625000000,184,0x00,0x01
0.047775875000000,184,0x32,0x01
0.047854625000000,185,0x32,0x01
0.047929000000000,185,0x00,0x01
0.048003375000000,185,0x00,0x01
0.048085500000000,186,0x34,0x01
0.048159750000000,186,0x80,0x01
0.048234125000000,186,0x80,0x01
0.048316750000000,187,0x32,0x01
0.048391125000000,187,0x0A,0x01
0.048465375000000,187,0x00,0x81
0.048545125000000,188,0x32,0x01
0.048619500000000,188,0x00,0x01
0.048693750000000,188,0x20,0x01
0.048773500000000,189,0x32,0x01
0.048847875000000,189,0x20,0x01
0.048922125000000,189,0x20,0x01
0.049001875000000,190,0x32,0x01
0.049076250000000,190,0x20,0x01
0.049150500000000,190,0x20,0x01
0.049230250000000,191,0x32,0x01
0.049304625000000,191,0x20,0x01
0.049378875000000,191,0xC0,0x01
0.049460125000000,192,0x07,0x01
0.049534375000000,192,0x01,0x01
0.049608750000000,192,0x32,0x01
0.049942750000000,193,0x07,0x0F
0.050015625000000,193,0x00,0x00
0.050089875000000,193,0x14,0x01
0.050168625000000,194,0x32,0x01
0.050243000000000,194,0x00,0x01
0.050317250000000,194,0x00,0x01
0.050399500000000,195,0x34,0x00
0.050473750000000,195,0x80,0x01
0.050548125000000,195,0x80,0x01
0.050630750000000,196,0x32,0x01
0.050705125000000,196,0x0A,0x00
0.050779375000000,196,0x00,0x01
0.050859125000000,197,0x32,0x01
0.050933375000000,197,0x00,0x81
0.051007750000000,197,0x20,0x01
0.051087500000000,198,0x32,0x01
0.051161750000000,198,0x20,0x81
0.051236125000000,198,0x20,0x01
0.051315875000000,199,0x32,0x01
0.051390125000000,199,0x20,0x81
0.051464500000000,199,0x20,0x01
0.051544250000000,200,0x32,0x01
0.051618500000000,200,0x20,0x01
0.051692875000000,200,0xC0,0x01
0.051774000000000,201,0x07,0x01
0.051848375000000,201,0x01,0x01
0.051922750000000,201,0x14,0x01
0.052257625000000,202,0x07,0x0F
0.052330500000000,202,0x00,0x01
0.052404875000000,202,0x3C,0x01
0.052483625000000,203,0x32,0x01
0.052557875000000,203,0x00,0x01
0.052632250000000,203,0x00,0x01
0.052714375000000,204,0x34,0x01
0.052788750000000,204,0x80,0x01
0.052863000000000,204,0x80,0x01
0.052945750000000,205,0x32,0x00
0.053020000000000,205,0x0A,0x01
0.053094375000000,205,0x00,0x01
0.053174125000000,206,0x32,0x01
0.053248375000000,206,0x00,0x01
0.053322750000000,206,0x20,0x01
0.053402500000000,207,0x32,0x01
0.053476750000000,207,0x20,0x01
0.053551125000000,207,0x20,0x01
0.053630875000000,208,0x32,0x00
0.053705125000000,208,0x20,0x01
0.053779500000000,208,0x20,0x01
0.053859250000000,209,0x32,0x01
0.053933500000000,209,0x20,0x01
0.054007875000000,209,0xC0,0x01
0.054089000000000,210,0x07,0x01
0.054163375000000,210,0x01,0x01
0.054237625000000,210,0x3C,0x81
0.054573625000000,211,0x07,0x0D
