Time [s],Packet ID,MOSI,MISO
0.000034750000000,0,0x32,0x81
0.000109250000000,0,0x00,0x01
0.000183625000000,0,0x00,0x01
0.000265875000000,1,0x34,0x01
0.000340250000000,1,0x80,0x01
0.000414625000000,1,0x80,0x01
0.000497375000000,2,0x32,0x01
0.000571750000000,2,0x0A,0x01
0.000646125000000,2,0x22,0x01
0.000726000000000,3,0x32,0x01
0.000800375000000,3,0x18,0x01
0.000874750000000,3,0x20,0x00
0.000954500000000,4,0x32,0x01
0.001029000000000,4,0x20,0x01
0.001103375000000,4,0x20,0x01
0.001183125000000,5,0x32,0x00
0.001257500000000,5,0x20,0x01
0.001332000000000,5,0x20,0x01
0.001411750000000,6,0x32,0x01
0.001486125000000,6,0x20,0x01
0.001560500000000,6,0xD8,0x01
0.001641750000000,7,0x07,0x01
0.001716250000000,7,0x01,0x01
0.001790625000000,7,0x46,0x01
0.002121000000000,8,0x07,0x0D
0.002194375000000,8,0x00,0x09
0.002268250000000,8,0x00,0x01
0.002347125000000,9,0x32,0x01
0.002421500000000,9,0x00,0x01
0.002495875000000,9,0x00,0x01
0.002578125000000,10,0x34,0x01
0.002652500000000,10,0x80,0x01
0.002727000000000,10,0x80,0x01
0.002809625000000,11,0x32,0x01
0.002884125000000,11,0x0A,0x01
0.002958500000000,11,0x22,0x01
0.003038250000000,12,0x32,0x01
0.003112625000000,12,0x18,0x01
0.003187125000000,12,0x20,0x01
0.003266875000000,13,0x32,0x01
0.003341250000000,13,0x20,0x00
0.003415625000000,13,0x20,0x01
0.003495500000000,14,0x32,0x01
0.003569875000000,14,0x20,0x01
0.003644250000000,14,0x20,0x00
0.003724000000000,15,0x32,0x01
0.003798500000000,15,0x20,0x01
0.003872875000000,15,0xD8,0x01
0.003954125000000,16,0x07,0x01
0.004028500000000,16,0x01,0x00
0.004102875000000,16,0x00,0x01
0.004434250000000,17,0x07,0x0F
0.004507250000000,17,0x00,0x01
0.004581625000000,17,0x28,0x01
0.004660375000000,18,0x32,0x01
0.004734875000000,18,0x00,0x01
0.004809250000000,18,0x00,0x01
0.004891500000000,19,0x34,0x01
0.004965875000000,19,0x80,0x01
0.005040250000000,19,0x80,0x00
0.005123000000000,20,0x32,0x01
0.005197375000000,20,0x0A,0x01
0.005271750000000,20,0x22,0x01
0.005351625000000,21,0x32,0x01
0.005426000000000,21,0x18,0x01
0.005500375000000,21,0x20,0x00
0.005580125000000,22,0x32,0x01
0.005654625000000,22,0x20,0x01
0.005729000000000,22,0x20,0x01
0.005808750000000,23,0x32,0x01
0.005883125000000,23,0x20,0x01
0.005957625000000,23,0x20,0x01
0.006037375000000,24,0x32,0x01
0.006111750000000,24,0x20,0x00
0.006186125000000,24,0xD8,0x01
0.006267375000000,25,0x07,0x01
0.006341875000000,25,0x01,0x01
0.006416250000000,25,0x28,0x01
0.006748500000000,26,0x07,0x8F
0.006821500000000,26,0x00,0x01
0.006895875000000,26,0x0A,0x01
0.006974750000000,27,0x32,0x01
0.007049125000000,27,0x00,0x01
0.007123500000000,27,0x00,0x00
0.007205750000000,28,0x34,0x01
0.007280125000000,28,0x80,0x01
0.007354500000000,28,0x80,0x01
0.007437250000000,29,0x32,0x01
0.007511625000000,29,0x0A,0x01
0.007586125000000,29,0x22,0x01
0.007665875000000,30,0x32,0x01
0.007740250000000,30,0x18,0x00
0.007814625000000,30,0x20,0x01
0.007894500000000,31,0x32,0x01
0.007968875000000,31,0x20,0x01
0.008043250000000,31,0x20,0x01
0.008123000000000,32,0x32,0x01
0.008197375000000,32,0x20,0x01
0.008271875000000,32,0x20,0x01
0.008351625000000,33,0x32,0x01
0.008426000000000,33,0x20,0x01
0.008500375000000,33,0xD8,0x01
0.008581625000000,34,0x07,0x01
0.008656125000000,34,0x01,0x01
0.008730500000000,34,0x0A,0x01
0.009063750000000,35,0x07,0x0F
0.009136750000000,35,0x00,0x01
0.009211125000000,35,0x32,0x01
0.009289875000000,36,0x32,0x01
0.009364375000000,36,0x00,0x01
0.009438750000000,36,0x00,0x01
0.009521000000000,37,0x34,0x01
0.009595375000000,37,0x80,0x01
0.009669750000000,37,0x80,0x01
0.009752500000000,38,0x32,0x01
0.009826875000000,38,0x0A,0x01
0.009901250000000,38,0x22,0x01
0.009981125000000,39,0x32,0x01
0.010055500000000,39,0x18,0x01
0.010129875000000,39,0x20,0x01
0.010209625000000,40,0x32,0x01
0.010284000000000,40,0x20,0x81
0.010358500000000,40,0x20,0x01
0.010438250000000,41,0x32,0x01
0.010512625000000,41,0x20,0x01
0.010587000000000,41,0x20,0x01
0.010666875000000,42,0x32,0x01
0.010741250000000,42,0x20,0x01
0.010815625000000,42,0xD8,0x01
0.010896875000000,43,0x07,0x01
0.010971250000000,43,0x01,0x01
0.011045750000000,43,0x32,0x01
0.011380000000000,44,0x07,0x0F
0.011452875000000,44,0x00,0x01
0.011527375000000,44,0x14,0x01
0.011606125000000,45,0x32,0x01
0.011680500000000,45,0x00,0x01
0.011754875000000,45,0x00,0x01
0.011837125000000,46,0x34,0x01
0.011911625000000,46,0x80,0x01
0.011986000000000,46,0x80,0x01
0.012068750000000,47,0x32,0x01
0.012143125000000,47,0x0A,0x01
0.012217500000000,47,0x22,0x01
0.012297250000000,48,0x32,0x01
0.012371750000000,48,0x18,0x01
0.012446125000000,48,0x20,0x01
0.012525875000000,49,0x32,0x01
0.012600250000000,49,0x20,0x01
0.012674625000000,49,0x20,0x01
0.012754500000000,50,0x32,0x01
0.012828875000000,50,0x20,0x01
0.012903250000000,50,0x20,0x01
0.012983000000000,51,0x32,0x81
0.013057500000000,51,0x20,0x01
0.013131875000000,51,0xD8,0x01
0.013213125000000,52,0x07,0x01
0.013287500000000,52,0x01,0x01
0.013361875000000,52,0x14,0x01
0.013697250000000,53,0x07,0x0F
0.013770125000000,53,0x00,0x01
0.013844500000000,53,0x3C,0x01
0.013923375000000,54,0x32,0x01
0.013997750000000,54,0x00,0x01
0.014072125000000,54,0x00,0x01
0.014154375000000,55,0x34,0x01
0.014228750000000,55,0x80,0x01
0.014303125000000,55,0x80,0x01
0.014385875000000,56,0x32,0x01
0.014460250000000,56,0x0A,0x81
0.014534750000000,56,0x22,0x01
0.014614500000000,57,0x32,0x01
0.014688875000000,57,0x18,0x01
0.014763250000000,57,0x20,0x01
0.014843125000000,58,0x32,0x01
0.014917500000000,58,0x20,0x01
0.014991875000000,58,0x20,0x01
0.015071750000000,59,0x32,0x01
0.015146125000000,59,0x20,0x01
0.015220500000000,59,0x20,0x01
0.015300250000000,60,0x32,0x01
0.015374625000000,60,0x20,0x81
0.015449125000000,60,0xD8,0x01
0.015530375000000,61,0x07,0x01
0.015604750000000,61,0x01,0x01
0.015679125000000,61,0x3C,0x01
0.016015375000000,62,0x07,0x0D
0.016088875000000,62,0x00,0x01
0.016163250000000,62,0x1E,0x01
0.016242000000000,63,0x32,0x01
0.016316375000000,63,0x00,0x01
0.016390875000000,63,0x00,0x01
0.016473125000000,64,0x34,0x01
0.016547500000000,64,0x80,0x01
0.016621875000000,64,0x80,0x01
0.016704625000000,65,0x32,0x01
0.016779000000000,65,0x0A,0x01
0.016853375000000,65,0x22,0x01
0.016933125000000,66,0x32,0x01
0.017007625000000,66,0x18,0x01
0.017082000000000,66,0x20,0x01
0.017161750000000,67,0x32,0x01
0.017236125000000,67,0x20,0x01
0.017310625000000,67,0x20,0x01
0.017390375000000,68,0x32,0x01
0.017464750000000,68,0x20,0x01
0.017539125000000,68,0x20,0x01
0.017619000000000,69,0x32,0x01
0.017693375000000,69,0x20,0x01
0.017767750000000,69,0xD8,0x01
0.017849000000000,70,0x07,0x00
0.017923375000000,70,0x01,0x01
0.017997750000000,70,0x1E,0x81
0.018335000000000,71,0x07,0x0F
0.018408000000000,71,0x00,0x01
0.018482375000000,71,0x46,0x01
0.018561125000000,72,0x32,0x01
0.018635625000000,72,0x00,0x01
0.018710000000000,72,0x00,0x01
0.018792250000000,73,0x34,0x01
0.018866625000000,73,0x80,0x01
0.018941000000000,73,0x80,0x01
0.019023750000000,74,0x32,0x01
0.019098125000000,74,0x0A,0x01
0.019172500000000,74,0x22,0x01
0.019252375000000,75,0x32,0x01
0.019326750000000,75,0x18,0x01
0.019401125000000,75,0x20,0x01
0.019480875000000,76,0x32,0x01
0.019555250000000,76,0x20,0x01
0.019629750000000,76,0x20,0x01
0.019709500000000,77,0x32,0x01
0.019783875000000,77,0x20,0x01
0.019858250000000,77,0x20,0x01
0.019938125000000,78,0x32,0x01
0.020012500000000,78,0x20,0x01
0.020086875000000,78,0xD8,0x01
0.020168125000000,79,0x07,0x01
0.020242500000000,79,0x01,0x01
0.020317000000000,79,0x46,0x01
0.020647375000000,80,0x07,0x0D
0.020720750000000,80,0x00,0x08
0.020794625000000,80,0x00,0x01
0.020873500000000,81,0x32,0x01
0.020947875000000,81,0x00,0x01
0.021022250000000,81,0x00,0x01
0.021104500000000,82,0x34,0x01
0.021178875000000,82,0x80,0x01
0.021253250000000,82,0x80,0x01
0.021336000000000,83,0x32,0x01
0.021410375000000,83,0x0A,0x01
0.021484875000000,83,0x22,0x01
0.021564625000000,84,0x32,0x01
0.021639000000000,84,0x18,0x01
0.021713375000000,84,0x20,0x01
0.021793250000000,85,0x32,0x01
0.021867625000000,85,0x20,0x01
0.021942000000000,85,0x20,0x01
0.022021750000000,86,0x32,0x01
0.022096125000000,86,0x20,0x81
0.022170625000000,86,0x20,0x01
0.022250375000000,87,0x32,0x01
0.022324750000000,87,0x20,0x01
0.022399125000000,87,0xD8,0x81
0.022480500000000,88,0x07,0x01
0.022554875000000,88,0x01,0x01
0.022629250000000,88,0x00,0x01
0.022960625000000,89,0x07,0x0F
0.023033500000000,89,0x00,0x01
0.023108000000000,89,0x28,0x01
0.023186750000000,90,0x32,0x01
0.023261125000000,90,0x00,0x01
0.023335500000000,90,0x00,0x01
0.023417750000000,91,0x34,0x01
0.023492125000000,91,0x80,0x81
0.023566625000000,91,0x80,0x01
0.023649375000000,92,0x32,0x01
0.023723750000000,92,0x0A,0x01
0.023798125000000,92,0x22,0x01
0.023877875000000,93,0x32,0x01
0.023952250000000,93,0x18,0x01
0.024026750000000,93,0x20,0x01
0.024106500000000,94,0x32,0x01
0.024180875000000,94,0x20,0x00
0.024255250000000,94,0x20,0x01
0.024335125000000,95,0x32,0x01
0.024409500000000,95,0x20,0x01
0.024483875000000,95,0x20,0x01
0.024563625000000,96,0x32,0x01
0.024638125000000,96,0x20,0x01
0.024712500000000,96,0xD8,0x01
0.024793750000000,97,0x07,0x01
0.024868125000000,97,0x01,0x01
0.024942500000000,97,0x28,0x01
0.025274875000000,98,0x07,0x0F
0.025347750000000,98,0x00,0x01
0.025422250000000,98,0x0A,0x01
0.025501000000000,99,0x32,0x01
0.025575375000000,99,0x00,0x01
0.025649750000000,99,0x00,0x01
0.025732000000000,100,0x34,0x01
0.025806500000000,100,0x80,0x01
0.025880875000000,100,0x80,0x01
0.025963625000000,101,0x32,0x01
0.026038000000000,101,0x0A,0x01
0.026112375000000,101,0x22,0x01
0.026192125000000,102,0x32,0x01
0.026266500000000,102,0x18,0x01
0.026341000000000,102,0x20,0x01
0.026420750000000,103,0x32,0x01
0.026495125000000,103,0x20,0x01
0.026569500000000,103,0x20,0x01
0.026649375000000,104,0x32,0x01
0.026723750000000,104,0x20,0x01
0.026798125000000,104,0x20,0x01
0.026877875000000,105,0x32,0x01
0.026952375000000,105,0x20,0x01
0.027026750000000,105,0xD8,0x01
0.027108000000000,106,0x07,0x01
0.027182375000000,106,0x01,0x01
0.027256750000000,106,0x0A,0x01
0.027590125000000,107,0x07,0x0F
0.027663000000000,107,0x00,0x01
0.027737500000000,107,0x32,0x01
0.027816250000000,108,0x32,0x01
0.027890625000000,108,0x00,0x01
0.027965000000000,108,0x00,0x01
0.028047250000000,109,0x34,0x01
0.028121625000000,109,0x80,0x81
0.028196125000000,109,0x80,0x01
0.028278750000000,110,0x32,0x81
0.028353250000000,110,0x0A,0x01
0.028427625000000,110,0x22,0x01
0.028507375000000,111,0x32,0x01
0.028581750000000,111,0x18,0x01
0.028656250000000,111,0x20,0x01
0.028736000000000,112,0x32,0x01
0.028810375000000,112,0x20,0x01
0.028884750000000,112,0x20,0x01
0.028964625000000,113,0x32,0x01
0.029039000000000,113,0x20,0x01
0.029113375000000,113,0x20,0x01
0.029193125000000,114,0x32,0x01
0.029267625000000,114,0x20,0x01
0.029342000000000,114,0xD8,0x01
0.029423250000000,115,0x07,0x01
0.029497625000000,115,0x01,0x00
0.029572000000000,115,0x32,0x01
0.029906375000000,116,0x07,0x0F
0.029979250000000,116,0x00,0x01
0.030053625000000,116,0x14,0x01
0.030132500000000,117,0x32,0x01
0.030206875000000,117,0x00,0x01
0.030281250000000,117,0x00,0x01
0.030363500000000,118,0x34,0x00
0.030437875000000,118,0x80,0x01
0.030512250000000,118,0x80,0x01
0.030595000000000,119,0x32,0x01
0.030669375000000,119,0x0A,0x81
0.030743875000000,119,0x22,0x01
0.030823625000000,120,0x32,0x01
0.030898000000000,120,0x18,0x01
0.030972375000000,120,0x20,0x01
0.031052250000000,121,0x32,0x01
0.031126625000000,121,0x20,0x01
0.031201000000000,121,0x20,0x00
0.031280750000000,122,0x32,0x01
0.031355250000000,122,0x20,0x01
0.031429625000000,122,0x20,0x01
0.031509375000000,123,0x32,0x01
0.031583750000000,123,0x20,0x01
0.031658250000000,123,0xD8,0x01
0.031739500000000,124,0x07,0x01
0.031813875000000,124,0x01,0x01
0.031888250000000,124,0x14,0x01
0.032223500000000,125,0x07,0x0F
0.032296500000000,125,0x00,0x01
0.032370875000000,125,0x3C,0x01
0.032449625000000,126,0x32,0x01
0.032524000000000,126,0x00,0x81
0.032598500000000,126,0x00,0x01
0.032680750000000,127,0x34,0x01
0.032755125000000,127,0x80,0x01
0.032829500000000,127,0x80,0x01
0.032912250000000,128,0x32,0x01
0.032986625000000,128,0x0A,0x00
0.033061000000000,128,0x22,0x01
0.033140875000000,129,0x32,0x01
0.033215250000000,129,0x18,0x01
0.033289625000000,129,0x20,0x01
0.033369375000000,130,0x32,0x01
0.033443750000000,130,0x20,0x81
0.033518250000000,130,0x20,0x01
0.033598000000000,131,0x32,0x01
0.033672375000000,131,0x20,0x01
0.033746750000000,131,0x20,0x81
0.033826625000000,132,0x32,0x01
0.033901000000000,132,0x20,0x01
0.033975375000000,132,0xD8,0x01
0.034056625000000,133,0x07,0x01
0.034131000000000,133,0x01,0x01
0.034205500000000,133,0x3C,0x01
0.034541750000000,134,0x07,0x0D
0.034615125000000,134,0x00,0x01
0.034689500000000,134,0x1E,0x01
0.034768375000000,135,0x32,0x01
0.034842750000000,135,0x00,0x01
0.034917125000000,135,0x00,0x01
0.034999375000000,136,0x34,0x01
0.035073750000000,136,0x80,0x01
0.035148125000000,136,0x80,0x01
0.035230875000000,137,0x32,0x01
0.035305250000000,137,0x0A,0x01
0.035379750000000,137,0x22,0x01
0.035459500000000,138,0x32,0x01
0.035533875000000,138,0x18,0x00
0.035608250000000,138,0x20,0x01
0.035688125000000,139,0x32,0x01
0.035762500000000,139,0x20,0x01
0.035836875000000,139,0x20,0x01
0.035916625000000,140,0x32,0x01
0.035991000000000,140,0x20,0x81
0.036065500000000,140,0x20,0x01
0.036145250000000,141,0x32,0x01
0.036219625000000,141,0x20,0x01
0.036294000000000,141,0xD8,0x01
0.036375250000000,142,0x07,0x81
0.036449750000000,142,0x01,0x01
0.036524125000000,142,0x1E,0x01
0.036861375000000,143,0x07,0x0F
0.036934250000000,143,0x00,0x01
0.037008625000000,143,0x46,0x01
0.037087500000000,144,0x32,0x01
0.037161875000000,144,0x00,0x01
0.037236250000000,144,0x00,0x01
0.037318500000000,145,0x34,0x01
0.037392875000000,145,0x80,0x01
0.037467375000000,145,0x80,0x01
0.037550000000000,146,0x32,0x01
0.037624500000000,146,0x0A,0x01
0.037698875000000,146,0x22,0x01
0.037778625000000,147,0x32,0x01
0.037853000000000,147,0x18,0x01
0.037927500000000,147,0x20,0x01
0.038007250000000,148,0x32,0x01
0.038081625000000,148,0x20,0x01
0.038156000000000,148,0x20,0x01
0.038235875000000,149,0x32,0x01
0.038310250000000,149,0x20,0x01
0.038384625000000,149,0x20,0x01
0.038464375000000,150,0x32,0x01
0.038538750000000,150,0x20,0x01
0.038613250000000,150,0xD8,0x01
0.038694500000000,151,0x07,0x01
0.038768875000000,151,0x01,0x01
0.038843250000000,151,0x46,0x01
0.039173625000000,152,0x07,0x0D
0.039247000000000,152,0x00,0x89
0.039321000000000,152,0x00,0x01
0.039399750000000,153,0x32,0x01
0.039474125000000,153,0x00,0x01
0.039548625000000,153,0x00,0x01
0.039630750000000,154,0x34,0x81
0.039705250000000,154,0x80,0x01
0.039779625000000,154,0x80,0x01
0.039862375000000,155,0x32,0x01
0.039936750000000,155,0x0A,0x01
0.040011125000000,155,0x22,0x01
0.040090875000000,156,0x32,0x01
0.040165375000000,156,0x18,0x01
0.040239750000000,156,0x20,0x01
0.040319500000000,157,0x32,0x01
0.040393875000000,157,0x20,0x01
0.040468250000000,157,0x20,0x01
0.040548125000000,158,0x32,0x01
0.040622500000000,158,0x20,0x01
0.040696875000000,158,0x20,0x01
0.040776625000000,159,0x32,0x81
0.040851125000000,159,0x20,0x01
0.040925500000000,159,0xD8,0x01
0.041006750000000,160,0x07,0x01
0.041081125000000,160,0x01,0x01
0.041155500000000,160,0x00,0x01
0.041486875000000,161,0x07,0x0F
0.041559875000000,161,0x00,0x01
0.041634250000000,161,0x28,0x01
0.041713000000000,162,0x32,0x01
0.041787500000000,162,0x00,0x01
0.041861875000000,162,0x00,0x01
0.041944125000000,163,0x34,0x01
0.042018500000000,163,0x80,0x01
0.042092875000000,163,0x80,0x01
0.042175625000000,164,0x32,0x01
0.042250000000000,164,0x0A,0x01
0.042324375000000,164,0x22,0x01
0.042404125000000,165,0x32,0x81
0.042478625000000,165,0x18,0x01
0.042553000000000,165,0x20,0x01
0.042632750000000,166,0x32,0x01
0.042707125000000,166,0x20,0x01
0.042781625000000,166,0x20,0x01
0.042861375000000,167,0x32,0x01
0.042935750000000,167,0x20,0x00
0.043010125000000,167,0x20,0x01
0.043090000000000,168,0x32,0x01
0.043164375000000,168,0x20,0x01
0.043238750000000,168,0xD8,0x01
0.043320000000000,169,0x07,0x01
0.043394375000000,169,0x01,0x01
0.043468750000000,169,0x28,0x81
0.043801125000000,170,0x07,0x0F
0.043874125000000,170,0x00,0x01
0.043948500000000,170,0x0A,0x01
0.044027250000000,171,0x32,0x01
0.044101625000000,171,0x00,0x01
0.044176125000000,171,0x00,0x01
0.044258250000000,172,0x34,0x81
0.044332750000000,172,0x80,0x01
0.044407125000000,172,0x80,0x01
0.044489875000000,173,0x32,0x01
0.044564250000000,173,0x0A,0x01
0.044638625000000,173,0x22,0x00
0.044718375000000,174,0x32,0x01
0.044792875000000,174,0x18,0x01
0.044867250000000,174,0x20,0x01
0.044947000000000,175,0x32,0x01
0.045021375000000,175,0x20,0x01
0.045095750000000,175,0x20,0x01
0.045175625000000,176,0x32,0x01
0.045250000000000,176,0x20,0x01
0.045324375000000,176,0x20,0x01
0.045404125000000,177,0x32,0x81
0.045478625000000,177,0x20,0x01
0.045553000000000,177,0xD8,0x01
0.045634250000000,178,0x07,0x01
0.045708625000000,178,0x01,0x01
0.045783000000000,178,0x0A,0x01
0.046116375000000,179,0x07,0x0F
0.046189250000000,179,0x00,0x01
0.046263625000000,179,0x32,0x81
0.046342500000000,180,0x32,0x01
0.046416875000000,180,0x00,0x01
0.046491250000000,180,0x00,0x01
0.046573500000000,181,0x34,0x01
0.046647875000000,181,0x80,0x01
0.046722375000000,181,0x80,0x01
0.046805000000000,182,0x32,0x01
0.046879500000000,182,0x0A,0x01
0.046953875000000,182,0x22,0x01
0.047033625000000,183,0x32,0x00
0.047108000000000,183,0x18,0x01
0.047182375000000,183,0x20,0x01
0.047262250000000,184,0x32,0x01
0.047336625000000,184,0x20,0x01
0.047411000000000,184,0x20,0x01
0.047490750000000,185,0x32,0x01
0.047565250000000,185,0x20,0x01
0.047639625000000,185,0x20,0x01
0.047719375000000,186,0x32,0x00
0.047793750000000,186,0x20,0x01
0.047868250000000,186,0xD8,0x01
0.047949500000000,187,0x07,0x01
0.048023875000000,187,0x01,0x01
0.048098250000000,187,0x32,0x01
0.048432500000000,188,0x07,0x0F
0.048505500000000,188,0x00,0x01
0.048579875000000,188,0x14,0x01
0.048658625000000,189,0x32,0x01
0.048733000000000,189,0x00,0x81
0.048807500000000,189,0x00,0x01
0.048889750000000,190,0x34,0x01
0.048964125000000,190,0x80,0x01
0.049038500000000,190,0x80,0x01
0.049121250000000,191,0x32,0x01
0.049195625000000,191,0x0A,0x01
0.049270000000000,191,0x22,0x01
0.049349750000000,192,0x32,0x81
0.049424250000000,192,0x18,0x01
0.049498625000000,192,0x20,0x01
0.049578375000000,193,0x32,0x01
0.049652750000000,193,0x20,0x01
0.049727250000000,193,0x20,0x01
0.049807000000000,194,0x32,0x01
0.049881375000000,194,0x20,0x00
0.049955750000000,194,0x20,0x01
0.050035625000000,195,0x32,0x01
0.050110000000000,195,0x20,0x01
0.050184375000000,195,0xD8,0x00
0.050265625000000,196,0x07,0x00
0.050340000000000,196,0x01,0x01
0.050414375000000,196,0x14,0x81
0.050749750000000,197,0x07,0x0F
0.050822625000000,197,0x00,0x00
0.050897000000000,197,0x3C,0x01
0.050975875000000,198,0x32,0x01
0.051050250000000,198,0x00,0x01
0.051124625000000,198,0x00,0x01
0.051206875000000,199,0x34,0x01
0.051281250000000,199,0x80,0x01
0.051355625000000,199,0x80,0x01
0.051438375000000,200,0x32,0x01
0.051512750000000,200,0x0A,0x01
0.051587250000000,200,0x22,0x01
0.051667000000000,201,0x32,0x01
0.051741375000000,201,0x18,0x01
0.051815750000000,201,0x20,0x01
0.051895625000000,202,0x32,0x01
0.051970000000000,202,0x20,0x01
0.052044375000000,202,0x20,0x01
0.052124125000000,203,0x32,0x01
0.052198625000000,203,0x20,0x01
0.052273000000000,203,0x20,0x01
0.052352750000000,204,0x32,0x01
0.052427125000000,204,0x20,0x01
0.052501625000000,204,0xD8,0x01
0.052582875000000,205,0x07,0x01
0.052657250000000,205,0x01,0x01
0.052731625000000,205,0x3C,0x01
0.053067875000000,206,0x07,0x0D
0.053141250000000,206,0x00,0x01
0.053215750000000,206,0x1E,0x01
0.053294500000000,207,0x32,0x00
0.053368875000000,207,0x00,0x01
0.053443375000000,207,0x00,0x01
0.053525500000000,208,0x34,0x01
0.053600000000000,208,0x80,0x01
0.053674375000000,208,0x80,0x01
0.053757125000000,209,0x32,0x01
0.053831500000000,209,0x0A,0x01
0.053905875000000,209,0x22,0x01
0.053985625000000,210,0x32,0x01
0.054060125000000,210,0x18,0x01
0.054134500000000,210,0x20,0x01
0.054214250000000,211,0x32,0x01
0.054288625000000,211,0x20,0x01
0.054363000000000,211,0x20,0x81
0.054442875000000,212,0x32,0x01
0.054517250000000,212,0x20,0x01
0.054591625000000,212,0x20,0x01
0.054671500000000,213,0x32,0x01
0.054745875000000,213,0x20,0x01
0.054820250000000,213,0xD8,0x01
0.054901500000000,214,0x07,0x01
0.054975875000000,214,0x01,0x01
0.055050250000000,214,0x1E,0x01
0.055387500000000,215,0x07,0x0F
0.055460500000000,215,0x00,0x01
0.055534875000000,215,0x46,0x01
0.055613625000000,216,0x32,0x01
0.055688000000000,216,0x00,0x81
0.055762500000000,216,0x00,0x01
0.055844750000000,217,0x34,0x01
0.055919125000000,217,0x80,0x01
0.055993500000000,217,0x80,0x01
0.056076250000000,218,0x32,0x01
0.056150625000000,218,0x0A,0x01
0.056225000000000,218,0x22,0x01
0.056304875000000,219,0x32,0x01
0.056379250000000,219,0x18,0x01
0.056453625000000,219,0x20,0x01
0.056533375000000,220,0x32,0x01
0.056607750000000,220,0x20,0x01
0.056682250000000,220,0x20,0x01
0.056762000000000,221,0x32,0x01
0.056836375000000,221,0x20,0x01
0.056910750000000,221,0x20,0x01
0.056990625000000,222,0x32,0x01
0.057065000000000,222,0x20,0x01
0.057139375000000,222,0xD8,0x01
0.057220625000000,223,0x07,0x01
0.057295000000000,223,0x01,0x01
0.057369500000000,223,0x46,0x01
0.057699875000000,224,0x07,0x0D
0.057773250000000,224,0x00,0x09
0.057847125000000,224,0x00,0x01
0.057926000000000,225,0x32,0x01
0.058000375000000,225,0x00,0x01
0.058074750000000,225,0x00,0x01
0.058157000000000,226,0x34,0x01
0.058231375000000,226,0x80,0x01
0.058305875000000,226,0x80,0x01
0.058388500000000,227,0x32,0x01
0.058463000000000,227,0x0A,0x01
0.058537375000000,227,0x22,0x01
0.058617125000000,228,0x32,0x01
0.058691500000000,228,0x18,0x01
0.058765875000000,228,0x20,0x01
0.058845750000000,229,0x32,0x01
0.058920125000000,229,0x20,0x01
0.058994500000000,229,0x20,0x01
0.059074250000000,230,0x32,0x81
0.059148750000000,230,0x20,0x01
0.059223125000000,230,0x20,0x01
0.059302875000000,231,0x32,0x01
0.059377250000000,231,0x20,0x01
0.059451750000000,231,0xD8,0x01
0.059533000000000,232,0x07,0x01
0.059607375000000,232,0x01,0x01
0.059681750000000,232,0x00,0x01
0.060013125000000,233,0x07,0x0F
0.060086000000000,233,0x00,0x01
0.060160500000000,233,0x28,0x01
0.060239250000000,234,0x32,0x01
0.060313625000000,234,0x00,0x01
0.060388000000000,234,0x00,0x01
0.060470250000000,235,0x34,0x01
0.060544625000000,235,0x80,0x01
0.060619125000000,235,0x80,0x01
0.060701750000000,236,0x32,0x01
0.060776250000000,236,0x0A,0x01
0.060850625000000,236,0x22,0x01
0.060930375000000,237,0x32,0x00
0.061004750000000,237,0x18,0x01
0.061079125000000,237,0x20,0x81
0.061159000000000,238,0x32,0x01
0.061233375000000,238,0x20,0x01
0.061307750000000,238,0x20,0x01
0.061387500000000,239,0x32,0x01
0.061462000000000,239,0x20,0x01
0.061536375000000,239,0x20,0x01
0.061616125000000,240,0x32,0x01
0.061690500000000,240,0x20,0x01
0.061765000000000,240,0xD8,0x01
0.061846250000000,241,0x07,0x01
0.061920625000000,241,0x01,0x01
0.061995000000000,241,0x28,0x01
0.062327375000000,242,0x07,0x0F
0.062400250000000,242,0x00,0x01
0.062474625000000,242,0x0A,0x01
0.062553500000000,243,0x32,0x01
0.062627875000000,243,0x00,0x01
0.062702250000000,243,0x00,0x01
0.062784500000000,244,0x34,0x00
0.062858875000000,244,0x80,0x01
0.062933375000000,244,0x80,0x01
0.063016000000000,245,0x32,0x01
0.063090500000000,245,0x0A,0x01
0.063164875000000,245,0x22,0x01
0.063244625000000,246,0x32,0x01
0.063319000000000,246,0x18,0x01
0.063393375000000,246,0x20,0x01
0.063473250000000,247,0x32,0x01
0.063547625000000,247,0x20,0x01
0.063622000000000,247,0x20,0x01
0.063701750000000,248,0x32,0x01
0.063776250000000,248,0x20,0x01
0.063850625000000,248,0x20,0x01
0.063930375000000,249,0x32,0x01
0.064004750000000,249,0x20,0x01
0.064079250000000,249,0xD8,0x01
0.064160500000000,250,0x07,0x01
0.064234875000000,250,0x01,0x01
0.064309250000000,250,0x0A,0x01
0.064642625000000,251,0x07,0x07
0.064715500000000,251,0x00,0x01
0.064789875000000,251,0x32,0x01
0.064868750000000,252,0x32,0x01
0.064943125000000,252,0x00,0x01
0.065017500000000,252,0x00,0x00
0.065099750000000,253,0x34,0x01
0.065174125000000,253,0x80,0x01
0.065248500000000,253,0x80,0x01
0.065331250000000,254,0x32,0x01
0.065405625000000,254,0x0A,0x01
0.065480125000000,254,0x22,0x01
0.065559875000000,255,0x32,0x01
0.065634250000000,255,0x18,0x01
0.065708625000000,255,0x20,0x01
0.065788500000000,256,0x32,0x01
0.065862875000000,256,0x20,0x01
0.065937250000000,256,0x20,0x01
0.066017000000000,257,0x32,0x01
0.066091500000000,257,0x20,0x01
0.066165875000000,257,0x20,0x01
0.066245625000000,258,0x32,0x01
0.066320000000000,258,0x20,0x01
0.066394375000000,258,0xD8,0x01
0.066475625000000,259,0x07,0x81
0.066550125000000,259,0x01,0x01
0.066624500000000,259,0x32,0x01
0.066958750000000,260,0x07,0x0F
0.067031750000000,260,0x00,0x01
0.067106125000000,260,0x14,0x01
0.067184875000000,261,0x32,0x01
0.067259375000000,261,0x00,0x01
0.067333750000000,261,0x00,0x01
0.067416000000000,262,0x34,0x01
0.067490375000000,262,0x80,0x01
0.067564750000000,262,0x80,0x01
0.067647500000000,263,0x32,0x01
0.067721875000000,263,0x0A,0x00
0.067796250000000,263,0x22,0x01
0.067876125000000,264,0x32,0x01
0.067950500000000,264,0x18,0x01
0.068024875000000,264,0x20,0x01
0.068104625000000,265,0x32,0x01
0.068179000000000,265,0x20,0x01
0.068253500000000,265,0x20,0x01
0.068333250000000,266,0x32,0x01
0.068407625000000,266,0x20,0x01
0.068482000000000,266,0x20,0x01
0.068561875000000,267,0x32,0x01
0.068636250000000,267,0x20,0x01
0.068710625000000,267,0xD8,0x01
0.068791875000000,268,0x07,0x01
0.068866250000000,268,0x01,0x01
0.068940750000000,268,0x14,0x01
0.069276000000000,269,0x07,0x0F
0.069348875000000,269,0x00,0x01
0.069423250000000,269,0x3C,0x01
0.069502125000000,270,0x32,0x01
0.069576500000000,270,0x00,0x00
0.069650875000000,270,0x00,0x01
0.069733125000000,271,0x34,0x01
0.069807500000000,271,0x80,0x01
0.069882000000000,271,0x80,0x01
0.069964625000000,272,0x32,0x01
0.070039125000000,272,0x0A,0x01
0.070113500000000,272,0x22,0x01
0.070193250000000,273,0x32,0x00
0.070267625000000,273,0x18,0x01
0.070342125000000,273,0x20,0x01
0.070421875000000,274,0x32,0x01
0.070496250000000,274,0x20,0x01
0.070570625000000,274,0x20,0x01
0.070650375000000,275,0x32,0x81
0.070724875000000,275,0x20,0x01
0.070799250000000,275,0x20,0x01
0.070879000000000,276,0x32,0x01
0.070953375000000,276,0x20,0x01
0.071027875000000,276,0xD8,0x01
0.071109125000000,277,0x07,0x01
0.071183500000000,277,0x01,0x01
0.071257875000000,277,0x3C,0x01
0.071594125000000,278,0x07,0x0D
0.071667500000000,278,0x00,0x01
0.071742000000000,278,0x1E,0x01
0.071820750000000,279,0x32,0x01
0.071895125000000,279,0x00,0x01
0.071969500000000,279,0x00,0x01
0.072051750000000,280,0x34,0x01
0.072126125000000,280,0x80,0x01
0.072200625000000,280,0x80,0x01
0.072283250000000,281,0x32,0x81
0.072357750000000,281,0x0A,0x01
0.072432125000000,281,0x22,0x01
0.072511875000000,282,0x32,0x01
0.072586250000000,282,0x18,0x01
0.072660750000000,282,0x20,0x01
0.072740500000000,283,0x32,0x01
0.072814875000000,283,0x20,0x01
0.072889250000000,283,0x20,0x01
0.072969125000000,284,0x32,0x01
0.073043500000000,284,0x20,0x01
0.073117875000000,284,0x20,0x01
0.073197625000000,285,0x32,0x01
0.073272000000000,285,0x20,0x81
0.073346500000000,285,0xD8,0x01
0.073427750000000,286,0x07,0x01
0.073502125000000,286,0x01,0x01
0.073576500000000,286,0x1E,0x01
0.073913750000000,287,0x07,0x0F
0.073986625000000,287,0x00,0x01
0.074061125000000,287,0x46,0x01
0.074139875000000,288,0x32,0x01
0.074214250000000,288,0x00,0x01
0.074288625000000,288,0x00,0x01
0.074370875000000,289,0x34,0x01
0.074445250000000,289,0x80,0x01
0.074519750000000,289,0x80,0x01
0.074602375000000,290,0x32,0x01
0.074676875000000,290,0x0A,0x01
0.074751250000000,290,0x22,0x01
0.074831000000000,291,0x32,0x00
0.074905375000000,291,0x18,0x01
0.074979875000000,291,0x20,0x01
0.075059625000000,292,0x32,0x01
0.075134000000000,292,0x20,0x01
0.075208375000000,292,0x20,0x01
0.075288125000000,293,0x32,0x01
0.075362625000000,293,0x20,0x01
0.075437000000000,293,0x20,0x01
0.075516750000000,294,0x32,0x01
0.075591125000000,294,0x20,0x01
0.075665625000000,294,0xD8,0x01
0.075746875000000,295,0x07,0x01
0.075821250000000,295,0x01,0x01
0.075895625000000,295,0x46,0x01
0.076226000000000,296,0x07,0x0D
0.076299375000000,296,0x00,0x09
0.076373375000000,296,0x00,0x01
0.076452125000000,297,0x32,0x01
0.076526500000000,297,0x00,0x01
0.076600875000000,297,0x00,0x01
0.076683125000000,298,0x34,0x01
0.076757500000000,298,0x80,0x81
0.076832000000000,298,0x80,0x01
0.076914750000000,299,0x32,0x01
0.076989125000000,299,0x0A,0x01
0.077063500000000,299,0x22,0x01
0.077143250000000,300,0x32,0x01
0.077217625000000,300,0x18,0x01
0.077292125000000,300,0x20,0x01
0.077371875000000,301,0x32,0x01
0.077446250000000,301,0x20,0x00
0.077520625000000,301,0x20,0x01
0.077600500000000,302,0x32,0x01
0.077674875000000,302,0x20,0x01
0.077749250000000,302,0x20,0x01
0.077829000000000,303,0x32,0x01
0.077903500000000,303,0x20,0x01
0.077977875000000,303,0xD8,0x01
0.078059125000000,304,0x07,0x01
0.078133500000000,304,0x01,0x01
0.078207875000000,304,0x00,0x01
0.078539250000000,305,0x07,0x0D
0.078612625000000,305,0x00,0x81
0.078687125000000,305,0x28,0x01
0.078765875000000,306,0x32,0x00
0.078840250000000,306,0x00,0x01
0.078914625000000,306,0x00,0x81
0.078996875000000,307,0x34,0x01
0.079071375000000,307,0x80,0x01
0.079145750000000,307,0x80,0x01
0.079228500000000,308,0x32,0x01
0.079302875000000,308,0x0A,0x01
0.079377250000000,308,0x22,0x01
0.079457000000000,309,0x32,0x01
0.079531375000000,309,0x18,0x81
0.079605875000000,309,0x20,0x01
0.079685625000000,310,0x32,0x01
0.079760000000000,310,0x20,0x00
0.079834375000000,310,0x20,0x01
0.079914250000000,311,0x32,0x01
0.079988625000000,311,0x20,0x01
0.080063000000000,311,0x20,0x01
0.080142750000000,312,0x32,0x01
0.080217250000000,312,0x20,0x01
0.080291625000000,312,0xD8,0x01
0.080372875000000,313,0x07,0x01
0.080447250000000,313,0x01,0x01
0.080521625000000,313,0x28,0x01
0.080854000000000,314,0x07,0x0F
0.080926875000000,314,0x00,0x01
0.081001250000000,314,0x0A,0x81
0.081080125000000,315,0x32,0x01
0.081154500000000,315,0x00,0x01
0.081228875000000,315,0x00,0x01
0.081311125000000,316,0x34,0x01
0.081385500000000,316,0x80,0x01
0.081460000000000,316,0x80,0x01
0.081542625000000,317,0x32,0x01
0.081617125000000,317,0x0A,0x01
0.081691500000000,317,0x22,0x01
0.081771250000000,318,0x32,0x01
0.081845625000000,318,0x18,0x01
0.081920000000000,318,0x20,0x81
0.081999875000000,319,0x32,0x01
0.082074250000000,319,0x20,0x01
0.082148625000000,319,0x20,0x01
0.082228375000000,320,0x32,0x81
0.082302875000000,320,0x20,0x01
0.082377250000000,320,0x20,0x01
0.082457000000000,321,0x32,0x01
0.082531375000000,321,0x20,0x01
0.082605875000000,321,0xD8,0x01
0.082687125000000,322,0x07,0x01
0.082761500000000,322,0x01,0x01
0.082835875000000,322,0x0A,0x01
0.083169250000000,323,0x07,0x0F
0.083242125000000,323,0x00,0x01
0.083316500000000,323,0x32,0x01
0.083395375000000,324,0x32,0x01
0.083469750000000,324,0x00,0x01
0.083544125000000,324,0x00,0x00
0.083626375000000,325,0x34,0x01
0.083700750000000,325,0x80,0x01
0.083775125000000,325,0x80,0x01
0.083857875000000,326,0x32,0x00
0.083932250000000,326,0x0A,0x01
0.084006750000000,326,0x22,0x01
0.084086500000000,327,0x32,0x01
0.084160875000000,327,0x18,0x01
0.084235250000000,327,0x20,0x01
0.084315000000000,328,0x32,0x01
0.084389500000000,328,0x20,0x01
0.084463875000000,328,0x20,0x01
0.084543625000000,329,0x32,0x01
0.084618000000000,329,0x20,0x01
0.084692500000000,329,0x20,0x01
0.084772250000000,330,0x32,0x01
0.084846625000000,330,0x20,0x01
0.084921000000000,330,0xD8,0x01
0.085002250000000,331,0x07,0x01
0.085076750000000,331,0x01,0x01
0.085151125000000,331,0x32,0x01
0.085485375000000,332,0x07,0x0F
0.085558375000000,332,0x00,0x01
0.085632750000000,332,0x14,0x01
0.085711500000000,333,0x32,0x01
0.085785875000000,333,0x00,0x01
0.085860375000000,333,0x00,0x01
0.085942500000000,334,0x34,0x01
0.086017000000000,334,0x80,0x01
0.086091375000000,334,0x80,0x01
0.086174125000000,335,0x32,0x01
0.086248500000000,335,0x0A,0x01
0.086322875000000,335,0x22,0x01
0.086402625000000,336,0x32,0x01
0.086477125000000,336,0x18,0x01
0.086551500000000,336,0x20,0x01
0.086631250000000,337,0x32,0x01
0.086705625000000,337,0x20,0x01
0.086780000000000,337,0x20,0x01
0.086859875000000,338,0x32,0x01
0.086934250000000,338,0x20,0x01
0.087008625000000,338,0x20,0x01
0.087088500000000,339,0x32,0x01
0.087162875000000,339,0x20,0x01
0.087237250000000,339,0xD8,0x01
0.087318500000000,340,0x07,0x01
0.087392875000000,340,0x01,0x01
0.087467250000000,340,0x14,0x01
0.087802625000000,341,0x07,0x0F
0.087875500000000,341,0x00,0x01
0.087949875000000,341,0x3C,0x01
0.088028750000000,342,0x32,0x01
0.088103125000000,342,0x00,0x01
0.088177500000000,342,0x00,0x01
0.088259750000000,343,0x34,0x01
0.088334125000000,343,0x80,0x01
0.088408500000000,343,0x80,0x01
0.088491250000000,344,0x32,0x01
0.088565625000000,344,0x0A,0x01
0.088640125000000,344,0x22,0x01
0.088719875000000,345,0x32,0x01
0.088794250000000,345,0x18,0x01
0.088868625000000,345,0x20,0x01
0.088948375000000,346,0x32,0x81
0.089022875000000,346,0x20,0x01
0.089097250000000,346,0x20,0x01
0.089177000000000,347,0x32,0x01
0.089251375000000,347,0x20,0x01
0.089325875000000,347,0x20,0x01
0.089405625000000,348,0x32,0x01
0.089480000000000,348,0x20,0x01
0.089554375000000,348,0xD8,0x01
0.089635625000000,349,0x07,0x01
0.089710125000000,349,0x01,0x01
0.089784500000000,349,0x3C,0x01
0.090120750000000,350,0x07,0x0D
0.090194125000000,350,0x00,0x01
0.090268500000000,350,0x1E,0x01
0.090347375000000,351,0x32,0x01
0.090421750000000,351,0x00,0x01
0.090496125000000,351,0x00,0x01
0.090578375000000,352,0x34,0x01
0.090652750000000,352,0x80,0x01
0.090727125000000,352,0x80,0x01
0.090809875000000,353,0x32,0x01
0.090884250000000,353,0x0A,0x01
0.090958750000000,353,0x22,0x01
0.091038500000000,354,0x32,0x01
0.091112875000000,354,0x18,0x01
0.091187250000000,354,0x20,0x01
0.091267000000000,355,0x32,0x01
0.091341500000000,355,0x20,0x01
0.091415875000000,355,0x20,0x01
0.091495625000000,356,0x32,0x01
0.091570000000000,356,0x20,0x01
0.091644375000000,356,0x20,0x01
0.091724250000000,357,0x32,0x01
0.091798625000000,357,0x20,0x01
0.091873000000000,357,0xD8,0x01
0.091954250000000,358,0x07,0x01
0.092028625000000,358,0x01,0x01
0.092103125000000,358,0x1E,0x01
0.092440250000000,359,0x07,0x0F
0.092513250000000,359,0x00,0x01
0.092587625000000,359,0x46,0x01
0.092666375000000,360,0x32,0x01
0.092740875000000,360,0x00,0x01
0.092815250000000,360,0x00,0x01
0.092897500000000,361,0x34,0x01
0.092971875000000,361,0x80,0x01
0.093046250000000,361,0x80,0x01
0.093129000000000,362,0x32,0x01
0.093203375000000,362,0x0A,0x01
0.093277750000000,362,0x22,0x01
0.093357500000000,363,0x32,0x81
0.093432000000000,363,0x18,0x01
0.093506375000000,363,0x20,0x01
0.093586125000000,364,0x32,0x01
0.093660500000000,364,0x20,0x01
0.093735000000000,364,0x20,0x01
0.093814750000000,365,0x32,0x01
0.093889125000000,365,0x20,0x01
0.093963500000000,365,0x20,0x01
0.094043250000000,366,0x32,0x81
0.094117750000000,366,0x20,0x01
0.094192125000000,366,0xD8,0x01
0.094273375000000,367,0x07,0x01
0.094347750000000,367,0x01,0x01
0.094422125000000,367,0x46,0x01
0.094752500000000,368,0x07,0x0D
0.094826000000000,368,0x00,0x09
0.094899875000000,368,0x00,0x01
0.094978625000000,369,0x32,0x01
0.095053125000000,369,0x00,0x01
0.095127500000000,369,0x00,0x01
0.095209750000000,370,0x34,0x01
0.095284125000000,370,0x80,0x01
0.095358500000000,370,0x80,0x00
0.095441250000000,371,0x32,0x01
0.095515625000000,371,0x0A,0x01
0.095590000000000,371,0x22,0x01
0.095669875000000,372,0x32,0x01
0.095744250000000,372,0x18,0x01
0.095818625000000,372,0x20,0x01
0.095898375000000,373,0x32,0x01
0.095972750000000,373,0x20,0x01
0.096047250000000,373,0x20,0x01
0.096127000000000,374,0x32,0x01
0.096201375000000,374,0x20,0x01
0.096275750000000,374,0x20,0x01
0.096355625000000,375,0x32,0x01
0.096430000000000,375,0x20,0x01
0.096504375000000,375,0xD8,0x01
0.096585625000000,376,0x07,0x01
0.096660000000000,376,0x01,0x01
0.096734375000000,376,0x00,0x01
0.097065750000000,377,0x07,0x0D
0.097139125000000,377,0x00,0x81
0.097213625000000,377,0x28,0x01
0.097292375000000,378,0x32,0x00
0.097366750000000,378,0x00,0x01
0.097441125000000,378,0x00,0x81
0.097523375000000,379,0x34,0x01
0.097597875000000,379,0x80,0x01
0.097672250000000,379,0x80,0x01
0.097755000000000,380,0x32,0x01
0.097829375000000,380,0x0A,0x01
0.097903750000000,380,0x22,0x01
0.097983500000000,381,0x32,0x01
0.098057875000000,381,0x18,0x01
0.098132375000000,381,0x20,0x01
0.098212125000000,382,0x32,0x01
0.098286500000000,382,0x20,0x01
0.098360875000000,382,0x20,0x01
0.098440625000000,383,0x32,0x81
0.098515125000000,383,0x20,0x01
0.098589500000000,383,0x20,0x01
0.098669250000000,384,0x32,0x01
0.098743625000000,384,0x20,0x01
0.098818125000000,384,0xD8,0x01
0.098899375000000,385,0x07,0x01
0.098973750000000,385,0x01,0x01
0.099048125000000,385,0x28,0x01
0.099380500000000,386,0x07,0x0F
0.099453375000000,386,0x00,0x01
0.099527750000000,386,0x0A,0x01
0.099606625000000,387,0x32,0x01
0.099681000000000,387,0x00,0x01
0.099755375000000,387,0x00,0x01
0.099837625000000,388,0x34,0x00
0.099912000000000,388,0x80,0x01
0.099986375000000,388,0x80,0x81
0.100069125000000,389,0x32,0x01
0.100143500000000,389,0x0A,0x81
0.100218000000000,389,0x22,0x01
0.100297750000000,390,0x32,0x01
0.100372125000000,390,0x18,0x01
0.100446500000000,390,0x20,0x01
0.100526375000000,391,0x32,0x01
0.100600750000000,391,0x20,0x01
0.100675125000000,391,0x20,0x01
0.100754875000000,392,0x32,0x01
0.100829375000000,392,0x20,0x01
0.100903750000000,392,0x20,0x01
0.100983500000000,393,0x32,0x01
0.101057875000000,393,0x20,0x01
0.101132250000000,393,0xD8,0x01
0.101213500000000,394,0x07,0x81
0.101288000000000,394,0x01,0x01
0.101362375000000,394,0x0A,0x01
0.101695625000000,395,0x07,0x0F
0.101768625000000,395,0x00,0x01
0.101843000000000,395,0x32,0x01
0.101921750000000,396,0x32,0x01
0.101996250000000,396,0x00,0x01
0.102070625000000,396,0x00,0x01
0.102152875000000,397,0x34,0x01
0.102227250000000,397,0x80,0x01
0.102301625000000,397,0x80,0x00
0.102384375000000,398,0x32,0x01
0.102458750000000,398,0x0A,0x01
0.102533125000000,398,0x22,0x01
0.102613000000000,399,0x32,0x01
0.102687375000000,399,0x18,0x01
0.102761750000000,399,0x20,0x01
0.102841500000000,400,0x32,0x01
0.102915875000000,400,0x20,0x81
0.102990375000000,400,0x20,0x01
0.103070125000000,401,0x32,0x01
0.103144500000000,401,0x20,0x01
0.103218875000000,401,0x20,0x01
0.103298750000000,402,0x32,0x01
0.103373125000000,402,0x20,0x01
0.103447500000000,402,0xD8,0x00
0.103528750000000,403,0x07,0x01
0.103603125000000,403,0x01,0x01
0.103677500000000,403,0x32,0x81
0.104011875000000,404,0x07,0x0F
0.104084750000000,404,0x00,0x01
0.104159125000000,404,0x14,0x01
0.104238000000000,405,0x32,0x01
0.104312375000000,405,0x00,0x01
0.104386750000000,405,0x00,0x01
0.104469000000000,406,0x34,0x01
0.104543375000000,406,0x80,0x01
0.104617750000000,406,0x80,0x01
0.104700500000000,407,0x32,0x01
0.104774875000000,407,0x0A,0x01
0.104849375000000,407,0x22,0x01
0.104929125000000,408,0x32,0x01
0.105003500000000,408,0x18,0x01
0.105077875000000,408,0x20,0x01
0.105157625000000,409,0x32,0x81
0.105232125000000,409,0x20,0x01
0.105306500000000,409,0x20,0x01
0.105386250000000,410,0x32,0x01
0.105460625000000,410,0x20,0x01
0.105535125000000,410,0x20,0x01
0.105614875000000,411,0x32,0x01
0.105689250000000,411,0x20,0x01
0.105763625000000,411,0xD8,0x01
0.105844875000000,412,0x07,0x01
0.105919250000000,412,0x01,0x01
0.105993750000000,412,0x14,0x01
0.106329000000000,413,0x07,0x0F
0.106401875000000,413,0x00,0x01
0.106476250000000,413,0x3C,0x01
0.106555125000000,414,0x32,0x01
0.106629500000000,414,0x00,0x01
0.106703875000000,414,0x00,0x01
0.106786125000000,415,0x34,0x00
0.106860500000000,415,0x80,0x01
0.106935000000000,415,0x80,0x01
0.107017625000000,416,0x32,0x01
0.107092125000000,416,0x0A,0x01
0.107166500000000,416,0x22,0x01
0.107246250000000,417,0x32,0x01
0.107320625000000,417,0x18,0x01
0.107395000000000,417,0x20,0x01
0.107474875000000,418,0x32,0x01
0.107549250000000,418,0x20,0x01
0.107623625000000,418,0x20,0x01
0.107703375000000,419,0x32,0x01
0.107777875000000,419,0x20,0x01
0.107852250000000,419,0x20,0x01
0.107932000000000,420,0x32,0x01
0.108006375000000,420,0x20,0x01
0.108080750000000,420,0xD8,0x01
0.108162000000000,421,0x07,0x81
0.108236500000000,421,0x01,0x01
0.108310875000000,421,0x3C,0x01
0.108647125000000,422,0x07,0x0D
0.108720500000000,422,0x00,0x01
0.108794875000000,422,0x1E,0x01
0.108873750000000,423,0x32,0x01
0.108948125000000,423,0x00,0x01
0.109022500000000,423,0x00,0x01
0.109104750000000,424,0x34,0x01
0.109179125000000,424,0x80,0x01
0.109253500000000,424,0x80,0x01
0.109336250000000,425,0x32,0x01
0.109410625000000,425,0x0A,0x01
0.109485125000000,425,0x22,0x01
0.109564875000000,426,0x32,0x01
0.109639250000000,426,0x18,0x01
0.109713625000000,426,0x20,0x01
0.109793500000000,427,0x32,0x01
0.109867875000000,427,0x20,0x01
0.109942250000000,427,0x20,0x01
0.110022000000000,428,0x32,0x01
0.110096375000000,428,0x20,0x81
0.110170875000000,428,0x20,0x01
0.110250625000000,429,0x32,0x01
0.110325000000000,429,0x20,0x01
0.110399375000000,429,0xD8,0x01
0.110480625000000,430,0x07,0x01
0.110555125000000,430,0x01,0x01
0.110629500000000,430,0x1E,0x01
0.110966750000000,431,0x07,0x07
0.111039625000000,431,0x00,0x01
0.111114000000000,431,0x46,0x01
0.111192875000000,432,0x32,0x01
0.111267250000000,432,0x00,0x01
0.111341625000000,432,0x00,0x01
0.111423875000000,433,0x34,0x01
0.111498250000000,433,0x80,0x01
0.111572625000000,433,0x80,0x01
0.111655375000000,434,0x32,0x01
0.111729750000000,434,0x0A,0x01
0.111804125000000,434,0x22,0x01
0.111884000000000,435,0x32,0x01
0.111958375000000,435,0x18,0x01
0.112032750000000,435,0x20,0x01
0.112112500000000,436,0x32,0x01
0.112186875000000,436,0x20,0x01
0.112261375000000,436,0x20,0x01
0.112341125000000,437,0x32,0x01
0.112415500000000,437,0x20,0x01
0.112489875000000,437,0x20,0x01
0.112569750000000,438,0x32,0x01
0.112644125000000,438,0x20,0x01
0.112718500000000,438,0xD8,0x01
0.112799750000000,439,0x07,0x01
0.112874125000000,439,0x01,0x01
0.112948500000000,439,0x46,0x01
0.113278875000000,440,0x07,0x0D
0.113352375000000,440,0x00,0x09
0.113426250000000,440,0x00,0x01
0.113505000000000,441,0x32,0x01
0.113579500000000,441,0x00,0x01
0.113653875000000,441,0x00,0x01
0.113736125000000,442,0x34,0x01
0.113810500000000,442,0x80,0x01
0.113884875000000,442,0x80,0x01
0.113967625000000,443,0x32,0x01
0.114042000000000,443,0x0A,0x01
0.114116375000000,443,0x22,0x01
0.114196125000000,444,0x32,0x81
0.114270625000000,444,0x18,0x01
0.114345000000000,444,0x20,0x01
0.114424750000000,445,0x32,0x01
0.114499125000000,445,0x20,0x01
0.114573500000000,445,0x20,0x81
0.114653375000000,446,0x32,0x01
0.114727750000000,446,0x20,0x01
0.114802125000000,446,0x20,0x01
0.114881875000000,447,0x32,0x81
0.114956375000000,447,0x20,0x01
0.115030750000000,447,0xD8,0x01
0.115112000000000,448,0x07,0x01
0.115186375000000,448,0x01,0x01
0.115260750000000,448,0x00,0x01
0.115592125000000,449,0x07,0x0F
0.115665000000000,449,0x00,0x01
0.115739500000000,449,0x28,0x01
0.115818250000000,450,0x32,0x01
0.115892625000000,450,0x00,0x01
0.115967000000000,450,0x00,0x01
0.116049250000000,451,0x34,0x01
0.116123625000000,451,0x80,0x01
0.116198125000000,451,0x80,0x01
0.116280750000000,452,0x32,0x01
0.116355250000000,452,0x0A,0x01
0.116429625000000,452,0x22,0x01
0.116509375000000,453,0x32,0x01
0.116583750000000,453,0x18,0x01
0.116658125000000,453,0x20,0x01
0.116738000000000,454,0x32,0x01
0.116812375000000,454,0x20,0x01
0.116886750000000,454,0x20,0x01
0.116966500000000,455,0x32,0x01
0.117041000000000,455,0x20,0x01
0.117115375000000,455,0x20,0x01
0.117195125000000,456,0x32,0x01
0.117269500000000,456,0x20,0x01
0.117343875000000,456,0xD8,0x01
0.117425125000000,457,0x07,0x01
0.117499625000000,457,0x01,0x01
0.117574000000000,457,0x28,0x01
0.117906250000000,458,0x07,0x0F
0.117979250000000,458,0x00,0x01
0.118053625000000,458,0x0A,0x01
0.118132375000000,459,0x32,0x01
0.118206875000000,459,0x00,0x01
0.118281250000000,459,0x00,0x01
0.118363500000000,460,0x34,0x01
0.118437875000000,460,0x80,0x01
0.118512250000000,460,0x80,0x01
0.118595000000000,461,0x32,0x01
0.118669375000000,461,0x0A,0x01
0.118743750000000,461,0x22,0x01
0.118823500000000,462,0x32,0x01
0.118898000000000,462,0x18,0x01
0.118972375000000,462,0x20,0x01
0.119052125000000,463,0x32,0x01
0.119126500000000,463,0x20,0x01
0.119200875000000,463,0x20,0x01
0.119280750000000,464,0x32,0x01
0.119355125000000,464,0x20,0x01
0.119429500000000,464,0x20,0x01
0.119509250000000,465,0x32,0x01
0.119583750000000,465,0x20,0x01
0.119658125000000,465,0xD8,0x01
0.119739375000000,466,0x07,0x01
0.119813750000000,466,0x01,0x01
0.119888125000000,466,0x0A,0x00
0.120221500000000,467,0x07,0x0F
0.120294375000000,467,0x00,0x01
0.120368750000000,467,0x32,0x01
0.120447625000000,468,0x32,0x01
0.120522000000000,468,0x00,0x01
0.120596375000000,468,0x00,0x01
0.120678625000000,469,0x34,0x01
0.120753000000000,469,0x80,0x01
0.120827375000000,469,0x80,0x01
0.120910125000000,470,0x32,0x01
0.120984500000000,470,0x0A,0x01
0.121058875000000,470,0x22,0x01
0.121138750000000,471,0x32,0x01
0.121213125000000,471,0x18,0x01
0.121287500000000,471,0x20,0x01
0.121367250000000,472,0x32,0x01
0.121441625000000,472,0x20,0x81
0.121516125000000,472,0x20,0x01
0.121595875000000,473,0x32,0x01
0.121670250000000,473,0x20,0x01
0.121744625000000,473,0x20,0x01
0.121824500000000,474,0x32,0x01
0.121898875000000,474,0x20,0x01
0.121973250000000,474,0xD8,0x01
0.122054500000000,475,0x07,0x01
0.122128875000000,475,0x01,0x01
0.122203250000000,475,0x32,0x01
0.122537625000000,476,0x07,0x0F
0.122610500000000,476,0x00,0x00
0.122684875000000,476,0x14,0x01
0.122763750000000,477,0x32,0x01
0.122838125000000,477,0x00,0x01
0.122912500000000,477,0x00,0x01
0.122994750000000,478,0x34,0x01
0.123069125000000,478,0x80,0x01
0.123143500000000,478,0x80,0x01
0.123226250000000,479,0x32,0x01
0.123300625000000,479,0x0A,0x01
0.123375125000000,479,0x22,0x01
0.123454875000000,480,0x32,0x01
0.123529250000000,480,0x18,0x01
0.123603625000000,480,0x20,0x01
0.123683375000000,481,0x32,0x81
0.123757875000000,481,0x20,0x01
0.123832250000000,481,0x20,0x01
0.123912000000000,482,0x32,0x01
0.123986375000000,482,0x20,0x01
0.124060875000000,482,0x20,0x01
0.124140625000000,483,0x32,0x01
0.124215000000000,483,0x20,0x01
0.124289375000000,483,0xD8,0x01
0.124370625000000,484,0x07,0x01
0.124445000000000,484,0x01,0x01
0.124519500000000,484,0x14,0x01
0.124854750000000,485,0x07,0x0F
0.124927625000000,485,0x00,0x01
0.125002000000000,485,0x3C,0x01
0.125080875000000,486,0x32,0x01
0.125155250000000,486,0x00,0x01
0.125229625000000,486,0x00,0x01
0.125311875000000,487,0x34,0x00
0.125386250000000,487,0x80,0x01
0.125460750000000,487,0x80,0x01
0.125543375000000,488,0x32,0x01
0.125617750000000,488,0x0A,0x81
0.125692250000000,488,0x22,0x01
0.125772000000000,489,0x32,0x01
0.125846375000000,489,0x18,0x01
0.125920750000000,489,0x20,0x01
0.126000625000000,490,0x32,0x01
0.126075000000000,490,0x20,0x01
0.126149375000000,490,0x20,0x01
0.126229125000000,491,0x32,0x01
0.126303625000000,491,0x20,0x01
0.126378000000000,491,0x20,0x01
0.126457750000000,492,0x32,0x01
0.126532125000000,492,0x20,0x01
0.126606500000000,492,0xD8,0x01
0.126687750000000,493,0x07,0x01
0.126762250000000,493,0x01,0x01
0.126836625000000,493,0x3C,0x01
0.127172875000000,494,0x07,0x0D
0.127246250000000,494,0x00,0x01
0.127320625000000,494,0x1E,0x01
0.127399500000000,495,0x32,0x01
0.127473875000000,495,0x00,0x01
0.127548250000000,495,0x00,0x01
0.127630500000000,496,0x34,0x01
0.127704875000000,496,0x80,0x01
0.127779250000000,496,0x80,0x81
0.127862000000000,497,0x32,0x01
0.127936375000000,497,0x0A,0x01
0.128010875000000,497,0x22,0x01
0.128090625000000,498,0x32,0x01
0.128165000000000,498,0x18,0x01
0.128239375000000,498,0x20,0x01
0.128319250000000,499,0x32,0x01
0.128393625000000,499,0x20,0x01
0.128468000000000,499,0x20,0x00
0.128547750000000,500,0x32,0x01
0.128622250000000,500,0x20,0x01
0.128696625000000,500,0x20,0x01
0.128776375000000,501,0x32,0x01
0.128850750000000,501,0x20,0x01
0.128925250000000,501,0xD8,0x01
0.129006500000000,502,0x07,0x01
0.129080875000000,502,0x01,0x01
0.129155250000000,502,0x1E,0x00
0.129492500000000,503,0x07,0x0F
0.129565375000000,503,0x00,0x81
0.129639875000000,503,0x46,0x01
0.129718625000000,504,0x32,0x01
0.129793000000000,504,0x00,0x01
0.129867500000000,504,0x00,0x01
0.129949750000000,505,0x34,0x01
0.130024125000000,505,0x80,0x01
0.130098500000000,505,0x80,0x01
0.130181250000000,506,0x32,0x01
0.130255625000000,506,0x0A,0x01
0.130330000000000,506,0x22,0x01
0.130409875000000,507,0x32,0x01
0.130484250000000,507,0x18,0x01
0.130558625000000,507,0x20,0x00
0.130638375000000,508,0x32,0x01
0.130712875000000,508,0x20,0x01
0.130787250000000,508,0x20,0x01
0.130867000000000,509,0x32,0x01
0.130941375000000,509,0x20,0x01
0.131015875000000,509,0x20,0x01
0.131095625000000,510,0x32,0x01
0.131170000000000,510,0x20,0x01
0.131244375000000,510,0xD8,0x01
0.131325625000000,511,0x07,0x81
0.131400125000000,511,0x01,0x01
0.131474500000000,511,0x46,0x01
0.131804875000000,512,0x07,0x0D
0.131878250000000,512,0x00,0x09
0.131952250000000,512,0x00,0x01
0.132031000000000,513,0x32,0x00
0.132105375000000,513,0x00,0x01
0.132179875000000,513,0x00,0x01
0.132262000000000,514,0x34,0x01
0.132336500000000,514,0x80,0x01
0.132410875000000,514,0x80,0x01
0.132493625000000,515,0x32,0x01
0.132568000000000,515,0x0A,0x01
0.132642375000000,515,0x22,0x00
0.132722125000000,516,0x32,0x01
0.132796625000000,516,0x18,0x01
0.132871000000000,516,0x20,0x01
0.132950750000000,517,0x32,0x01
0.133025125000000,517,0x20,0x01
0.133099500000000,517,0x20,0x01
0.133179375000000,518,0x32,0x01
0.133253750000000,518,0x20,0x01
0.133328125000000,518,0x20,0x01
0.133407875000000,519,0x32,0x81
0.133482375000000,519,0x20,0x01
0.133556750000000,519,0xD8,0x01
0.133638000000000,520,0x07,0x01
0.133712375000000,520,0x01,0x01
0.133786750000000,520,0x00,0x01
0.134118125000000,521,0x07,0x0F
0.134191125000000,521,0x00,0x01
0.134265500000000,521,0x28,0x01
0.134344250000000,522,0x32,0x01
0.134418750000000,522,0x00,0x01
0.134493125000000,522,0x00,0x01
0.134575375000000,523,0x34,0x01
0.134649750000000,523,0x80,0x01
0.134724125000000,523,0x80,0x01
0.134806875000000,524,0x32,0x01
0.134881250000000,524,0x0A,0x01
0.134955625000000,524,0x22,0x01
0.135035500000000,525,0x32,0x01
0.135109875000000,525,0x18,0x01
0.135184250000000,525,0x20,0x01
0.135264000000000,526,0x32,0x01
0.135338375000000,526,0x20,0x01
0.135412875000000,526,0x20,0x01
0.135492625000000,527,0x32,0x01
0.135567000000000,527,0x20,0x01
0.135641375000000,527,0x20,0x01
0.135721250000000,528,0x32,0x01
0.135795625000000,528,0x20,0x01
0.135870000000000,528,0xD8,0x01
0.135951250000000,529,0x07,0x01
0.136025625000000,529,0x01,0x01
0.136100125000000,529,0x28,0x01
0.136432375000000,530,0x07,0x0F
0.136505375000000,530,0x00,0x01
0.136579750000000,530,0x0A,0x01
0.136658500000000,531,0x32,0x01
0.136733000000000,531,0x00,0x01
0.136807375000000,531,0x00,0x01
0.136889625000000,532,0x34,0x01
0.136964000000000,532,0x80,0x01
0.137038375000000,532,0x80,0x01
0.137121125000000,533,0x32,0x01
0.137195500000000,533,0x0A,0x01
0.137269875000000,533,0x22,0x01
0.137349750000000,534,0x32,0x01
0.137424125000000,534,0x18,0x01
0.137498500000000,534,0x20,0x01
0.137578250000000,535,0x32,0x01
0.137652750000000,535,0x20,0x01
0.137727125000000,535,0x20,0x01
0.137806875000000,536,0x32,0x01
0.137881250000000,536,0x20,0x01
0.137955750000000,536,0x20,0x01
0.138035500000000,537,0x32,0x01
0.138109875000000,537,0x20,0x01
0.138184250000000,537,0xD8,0x01
0.138265500000000,538,0x07,0x01
0.138340000000000,538,0x01,0x01
0.138414375000000,538,0x0A,0x01
0.138747625000000,539,0x07,0x0F
0.138820625000000,539,0x00,0x01
0.138895000000000,539,0x32,0x01
0.138973875000000,540,0x32,0x01
0.139048250000000,540,0x00,0x01
0.139122625000000,540,0x00,0x01
0.139204875000000,541,0x34,0x01
0.139279250000000,541,0x80,0x01
0.139353625000000,541,0x80,0x01
0.139436375000000,542,0x32,0x01
0.139510750000000,542,0x0A,0x01
0.139585125000000,542,0x22,0x81
0.139665000000000,543,0x32,0x01
0.139739375000000,543,0x18,0x01
0.139813750000000,543,0x20,0x01
0.139893500000000,544,0x32,0x01
0.139968000000000,544,0x20,0x01
0.140042375000000,544,0x20,0x01
0.140122125000000,545,0x32,0x01
0.140196500000000,545,0x20,0x01
0.140271000000000,545,0x20,0x01
0.140350750000000,546,0x32,0x01
0.140425125000000,546,0x20,0x00
0.140499500000000,546,0xD8,0x01
0.140580750000000,547,0x07,0x01
0.140655250000000,547,0x01,0x01
0.140729625000000,547,0x32,0x01
0.141063875000000,548,0x07,0x0F
0.141136875000000,548,0x00,0x01
0.141211250000000,548,0x14,0x01
0.141290000000000,549,0x32,0x01
0.141364375000000,549,0x00,0x01
0.141438875000000,549,0x00,0x01
0.141521000000000,550,0x34,0x81
0.141595500000000,550,0x80,0x01
0.141669875000000,550,0x80,0x01
0.141752625000000,551,0x32,0x01
0.141827000000000,551,0x0A,0x01
0.141901375000000,551,0x22,0x00
0.141981125000000,552,0x32,0x01
0.142055625000000,552,0x18,0x01
0.142130000000000,552,0x20,0x01
0.142209750000000,553,0x32,0x01
0.142284125000000,553,0x20,0x01
0.142358500000000,553,0x20,0x01
0.142438375000000,554,0x32,0x01
0.142512750000000,554,0x20,0x01
0.142587125000000,554,0x20,0x01
0.142667000000000,555,0x32,0x01
0.142741375000000,555,0x20,0x01
0.142815750000000,555,0xD8,0x01
0.142897000000000,556,0x07,0x01
0.142971375000000,556,0x01,0x01
0.143045750000000,556,0x14,0x01
0.143381125000000,557,0x07,0x0F
0.143454000000000,557,0x00,0x01
0.143528375000000,557,0x3C,0x01
0.143607250000000,558,0x32,0x01
0.143681625000000,558,0x00,0x01
0.143756000000000,558,0x00,0x01
0.143838250000000,559,0x34,0x01
0.143912625000000,559,0x80,0x00
0.143987000000000,559,0x80,0x01
0.144069750000000,560,0x32,0x01
0.144144125000000,560,0x0A,0x01
0.144218625000000,560,0x22,0x01
0.144298375000000,561,0x32,0x01
0.144372750000000,561,0x18,0x01
0.144447125000000,561,0x20,0x01
0.144526875000000,562,0x32,0x01
0.144601375000000,562,0x20,0x01
0.144675750000000,562,0x20,0x01
0.144755500000000,563,0x32,0x01
0.144829875000000,563,0x20,0x01
0.144904375000000,563,0x20,0x01
0.144984125000000,564,0x32,0x01
0.145058500000000,564,0x20,0x00
0.145132875000000,564,0xD8,0x01
0.145214125000000,565,0x07,0x01
0.145288500000000,565,0x01,0x81
0.145363000000000,565,0x3C,0x01
0.145699250000000,566,0x07,0x0D
0.145772625000000,566,0x00,0x01
0.145847000000000,566,0x1E,0x01
0.145925875000000,567,0x32,0x01
0.146000250000000,567,0x00,0x01
0.146074625000000,567,0x00,0x01
0.146156875000000,568,0x34,0x01
0.146231250000000,568,0x80,0x01
0.146305625000000,568,0x80,0x01
0.146388375000000,569,0x32,0x01
0.146462750000000,569,0x0A,0x01
0.146537125000000,569,0x22,0x81
0.146617000000000,570,0x32,0x01
0.146691375000000,570,0x18,0x01
0.146765750000000,570,0x20,0x00
0.146845500000000,571,0x32,0x01
0.146920000000000,571,0x20,0x01
0.146994375000000,571,0x20,0x01
0.147074125000000,572,0x32,0x01
0.147148500000000,572,0x20,0x01
0.147222875000000,572,0x20,0x81
0.147302750000000,573,0x32,0x01
0.147377125000000,573,0x20,0x01
0.147451500000000,573,0xD8,0x01
0.147532750000000,574,0x07,0x01
0.147607125000000,574,0x01,0x01
0.147681625000000,574,0x1E,0x01
0.148018750000000,575,0x07,0x0F
0.148091750000000,575,0x00,0x01
0.148166125000000,575,0x46,0x01
0.148244875000000,576,0x32,0x81
0.148319375000000,576,0x00,0x01
0.148393750000000,576,0x00,0x01
0.148476000000000,577,0x34,0x01
0.148550375000000,577,0x80,0x01
0.148624750000000,577,0x80,0x00
0.148707500000000,578,0x32,0x01
0.148781875000000,578,0x0A,0x00
0.148856250000000,578,0x22,0x01
0.148936125000000,579,0x32,0x01
0.149010500000000,579,0x18,0x01
0.149084875000000,579,0x20,0x01
0.149164625000000,580,0x32,0x01
0.149239000000000,580,0x20,0x01
0.149313500000000,580,0x20,0x01
0.149393250000000,581,0x32,0x01
0.149467625000000,581,0x20,0x01
0.149542000000000,581,0x20,0x01
0.149621875000000,582,0x32,0x01
0.149696250000000,582,0x20,0x01
0.149770625000000,582,0xD8,0x01
0.149851875000000,583,0x07,0x01
0.149926250000000,583,0x01,0x01
0.150000625000000,583,0x46,0x01
0.150331000000000,584,0x07,0x0D
0.150404500000000,584,0x00,0x09
0.150478375000000,584,0x00,0x01
0.150557250000000,585,0x32,0x01
0.150631625000000,585,0x00,0x01
0.150706000000000,585,0x00,0x01
0.150788250000000,586,0x34,0x01
0.150862625000000,586,0x80,0x01
0.150937000000000,586,0x80,0x01
0.151019750000000,587,0x32,0x01
0.151094125000000,587,0x0A,0x01
0.151168500000000,587,0x22,0x01
0.151248375000000,588,0x32,0x01
0.151322750000000,588,0x18,0x01
0.151397125000000,588,0x20,0x01
0.151476875000000,589,0x32,0x01
0.151551250000000,589,0x20,0x81
0.151625750000000,589,0x20,0x01
0.151705500000000,590,0x32,0x01
0.151779875000000,590,0x20,0x01
0.151854250000000,590,0x20,0x01
0.151934125000000,591,0x32,0x01
0.152008500000000,591,0x20,0x01
0.152082875000000,591,0xD8,0x01
0.152164125000000,592,0x07,0x01
0.152238500000000,592,0x01,0x01
0.152313000000000,592,0x00,0x01
0.152644375000000,593,0x07,0x07
0.152717250000000,593,0x00,0x01
0.152791625000000,593,0x28,0x01
0.152870500000000,594,0x32,0x01
0.152944875000000,594,0x00,0x01
0.153019250000000,594,0x00,0x00
0.153101500000000,595,0x34,0x01
0.153175875000000,595,0x80,0x01
0.153250250000000,595,0x80,0x01
0.153333000000000,596,0x32,0x01
0.153407375000000,596,0x0A,0x01
0.153481875000000,596,0x22,0x01
0.153561625000000,597,0x32,0x01
0.153636000000000,597,0x18,0x01
0.153710375000000,597,0x20,0x01
0.153790250000000,598,0x32,0x01
0.153864625000000,598,0x20,0x01
0.153939000000000,598,0x20,0x01
0.154018750000000,599,0x32,0x01
0.154093250000000,599,0x20,0x01
0.154167625000000,599,0x20,0x01
0.154247375000000,600,0x32,0x00
0.154321750000000,600,0x20,0x01
0.154396250000000,600,0xD8,0x01
0.154477500000000,601,0x07,0x01
0.154551875000000,601,0x01,0x01
0.154626250000000,601,0x28,0x01
0.154958625000000,602,0x07,0x0F
0.155031500000000,602,0x00,0x00
0.155105875000000,602,0x0A,0x01
0.155184750000000,603,0x32,0x01
0.155259125000000,603,0x00,0x01
0.155333500000000,603,0x00,0x01
0.155415750000000,604,0x34,0x01
0.155490125000000,604,0x80,0x01
0.155564500000000,604,0x80,0x01
0.155647250000000,605,0x32,0x01
0.155721625000000,605,0x0A,0x01
0.155796125000000,605,0x22,0x01
0.155875875000000,606,0x32,0x01
0.155950250000000,606,0x18,0x01
0.156024625000000,606,0x20,0x01
0.156104500000000,607,0x32,0x01
0.156178875000000,607,0x20,0x01
0.156253250000000,607,0x20,0x01
0.156333000000000,608,0x32,0x01
0.156407500000000,608,0x20,0x01
0.156481875000000,608,0x20,0x01
0.156561625000000,609,0x32,0x01
0.156636000000000,609,0x20,0x01
0.156710375000000,609,0xD8,0x01
0.156791625000000,610,0x07,0x81
0.156866125000000,610,0x01,0x01
0.156940500000000,610,0x0A,0x01
0.157273750000000,611,0x07,0x0F
0.157346750000000,611,0x00,0x01
0.157421125000000,611,0x32,0x00
0.157500000000000,612,0x32,0x01
0.157574375000000,612,0x00,0x01
0.157648750000000,612,0x00,0x01
0.157731000000000,613,0x34,0x01
0.157805375000000,613,0x80,0x01
0.157879750000000,613,0x80,0x01
0.157962500000000,614,0x32,0x01
0.158036875000000,614,0x0A,0x01
0.158111250000000,614,0x22,0x01
0.158191125000000,615,0x32,0x01
0.158265500000000,615,0x17,0x01
0.158339875000000,615,0x20,0x01
0.158419625000000,616,0x32,0x81
0.158494125000000,616,0x20,0x01
0.158568500000000,616,0x20,0x01
0.158648250000000,617,0x32,0x01
0.158722625000000,617,0x20,0x01
0.158797125000000,617,0x20,0x01
0.158876875000000,618,0x32,0x01
0.158951250000000,618,0x20,0x01
0.159025625000000,618,0xD7,0x01
0.159106875000000,619,0x07,0x01
0.159181375000000,619,0x01,0x01
0.159255750000000,619,0x32,0x01
0.159590000000000,620,0x07,0x0F
0.159662875000000,620,0x00,0x81
0.159737375000000,620,0x14,0x01
0.159816125000000,621,0x32,0x00
0.159890500000000,621,0x00,0x01
0.159965000000000,621,0x00,0x01
0.160047125000000,622,0x34,0x01
0.160121625000000,622,0x80,0x01
0.160196000000000,622,0x80,0x01
0.160278750000000,623,0x32,0x01
0.160353125000000,623,0x0A,0x01
0.160427500000000,623,0x22,0x00
0.160507250000000,624,0x32,0x01
0.160581750000000,624,0x18,0x01
0.160656125000000,624,0x20,0x01
0.160735875000000,625,0x32,0x00
0.160810250000000,625,0x20,0x01
0.160884750000000,625,0x20,0x01
0.160964500000000,626,0x32,0x01
0.161038875000000,626,0x20,0x00
0.161113250000000,626,0x20,0x01
0.161193125000000,627,0x32,0x01
0.161267500000000,627,0x20,0x01
0.161341875000000,627,0xD8,0x01
0.161423125000000,628,0x07,0x01
0.161497500000000,628,0x01,0x01
0.161571875000000,628,0x14,0x01
0.161907250000000,629,0x07,0x07
0.161980125000000,629,0x00,0x01
0.162054500000000,629,0x3C,0x01
0.162133375000000,630,0x32,0x01
0.162207750000000,630,0x00,0x01
0.162282125000000,630,0x00,0x01
0.162364375000000,631,0x34,0x01
0.162438750000000,631,0x80,0x01
0.162513125000000,631,0x80,0x01
0.162595875000000,632,0x32,0x01
0.162670250000000,632,0x0A,0x01
0.162744625000000,632,0x22,0x01
0.162824500000000,633,0x32,0x01
0.162898875000000,633,0x17,0x01
0.162973250000000,633,0x20,0x01
0.163053000000000,634,0x32,0x01
0.163127500000000,634,0x20,0x01
0.163201875000000,634,0x20,0x01
0.163281625000000,635,0x32,0x01
0.163356000000000,635,0x20,0x01
0.163430375000000,635,0x20,0x01
0.163510250000000,636,0x32,0x01
0.163584625000000,636,0x20,0x01
0.163659000000000,636,0xD7,0x01
0.163740250000000,637,0x07,0x01
0.163814625000000,637,0x01,0x01
0.163889125000000,637,0x3C,0x01
0.164225375000000,638,0x07,0x0D
0.164298750000000,638,0x00,0x01
0.164373125000000,638,0x1E,0x00
0.164452000000000,639,0x32,0x01
0.164526375000000,639,0x00,0x01
0.164600750000000,639,0x00,0x01
0.164683000000000,640,0x34,0x01
0.164757375000000,640,0x80,0x01
0.164831750000000,640,0x80,0x01
0.164914500000000,641,0x32,0x01
0.164988875000000,641,0x0A,0x01
0.165063250000000,641,0x22,0x01
0.165143125000000,642,0x32,0x01
0.165217500000000,642,0x17,0x01
0.165291875000000,642,0x20,0x01
0.165371625000000,643,0x32,0x01
0.165446125000000,643,0x20,0x01
0.165520500000000,643,0x20,0x01
0.165600250000000,644,0x32,0x01
0.165674625000000,644,0x20,0x01
0.165749000000000,644,0x20,0x01
0.165828875000000,645,0x32,0x01
0.165903250000000,645,0x20,0x01
0.165977625000000,645,0xD7,0x00
0.166058875000000,646,0x07,0x00
0.166133250000000,646,0x01,0x01
0.166207625000000,646,0x1E,0x81
0.166544875000000,647,0x07,0x0F
0.166617875000000,647,0x00,0x01
0.166692250000000,647,0x46,0x01
0.166771000000000,648,0x32,0x01
0.166845500000000,648,0x00,0x01
0.166919875000000,648,0x00,0x01
0.167002125000000,649,0x34,0x01
0.167076500000000,649,0x80,0x01
0.167150875000000,649,0x80,0x01
0.167233625000000,650,0x32,0x01
0.167308000000000,650,0x0A,0x01
0.167382375000000,650,0x22,0x01
0.167462125000000,651,0x32,0x01
0.167536625000000,651,0x17,0x01
0.167611000000000,651,0x20,0x01
0.167690750000000,652,0x32,0x01
0.167765125000000,652,0x20,0x01
0.167839500000000,652,0x20,0x01
0.167919375000000,653,0x32,0x01
0.167993750000000,653,0x20,0x01
0.168068125000000,653,0x20,0x00
0.168147875000000,654,0x32,0x01
0.168222375000000,654,0x20,0x01
0.168296750000000,654,0xD7,0x01
0.168378000000000,655,0x07,0x01
0.168452375000000,655,0x01,0x01
0.168526750000000,655,0x46,0x01
0.168857125000000,656,0x07,0x0D
0.168930500000000,656,0x00,0x09
0.169004500000000,656,0x00,0x01
0.169083250000000,657,0x32,0x01
0.169157625000000,657,0x00,0x01
0.169232125000000,657,0x00,0x01
0.169314250000000,658,0x34,0x81
0.169388750000000,658,0x80,0x01
0.169463125000000,658,0x80,0x01
0.169545875000000,659,0x32,0x01
0.169620250000000,659,0x0A,0x01
0.169694625000000,659,0x22,0x01
0.169774375000000,660,0x32,0x01
0.169848875000000,660,0x17,0x01
0.169923250000000,660,0x20,0x01
0.170003000000000,661,0x32,0x00
0.170077375000000,661,0x20,0x01
0.170151875000000,661,0x20,0x01
0.170231625000000,662,0x32,0x01
0.170306000000000,662,0x20,0x00
0.170380375000000,662,0x20,0x01
0.170460250000000,663,0x32,0x01
0.170534625000000,663,0x20,0x01
0.170609000000000,663,0xD7,0x00
0.170690250000000,664,0x07,0x01
0.170764625000000,664,0x01,0x01
0.170839125000000,664,0x00,0x01
0.171170375000000,665,0x07,0x0F
0.171243375000000,665,0x00,0x01
0.171317750000000,665,0x28,0x01
0.171396500000000,666,0x32,0x01
0.171471000000000,666,0x00,0x01
0.171545375000000,666,0x00,0x01
0.171627625000000,667,0x34,0x01
0.171702000000000,667,0x80,0x01
0.171776375000000,667,0x80,0x01
0.171859125000000,668,0x32,0x01
0.171933500000000,668,0x0A,0x01
0.172007875000000,668,0x22,0x01
0.172087625000000,669,0x32,0x81
0.172162125000000,669,0x17,0x01
0.172236500000000,669,0x20,0x01
0.172316250000000,670,0x32,0x01
0.172390625000000,670,0x20,0x01
0.172465125000000,670,0x20,0x01
0.172544875000000,671,0x32,0x01
0.172619250000000,671,0x20,0x00
0.172693625000000,671,0x20,0x01
0.172773500000000,672,0x32,0x01
0.172847875000000,672,0x20,0x01
0.172922250000000,672,0xD7,0x01
0.173003500000000,673,0x07,0x01
0.173077875000000,673,0x01,0x01
0.173152250000000,673,0x28,0x01
0.173484625000000,674,0x07,0x0F
0.173557625000000,674,0x00,0x01
0.173632000000000,674,0x0A,0x01
0.173710750000000,675,0x32,0x01
0.173785125000000,675,0x00,0x01
0.173859625000000,675,0x00,0x01
0.173941750000000,676,0x34,0x01
0.174016250000000,676,0x80,0x01
0.174090625000000,676,0x80,0x01
0.174173375000000,677,0x32,0x01
0.174247750000000,677,0x0A,0x01
0.174322125000000,677,0x22,0x00
0.174401875000000,678,0x32,0x01
0.174476375000000,678,0x17,0x01
0.174550750000000,678,0x20,0x01
0.174630500000000,679,0x32,0x01
0.174704875000000,679,0x20,0x01
0.174779250000000,679,0x20,0x81
0.174859125000000,680,0x32,0x01
0.174933500000000,680,0x20,0x01
0.175007875000000,680,0x20,0x01
0.175087750000000,681,0x32,0x01
0.175162125000000,681,0x20,0x01
0.175236500000000,681,0xD7,0x01
0.175317750000000,682,0x07,0x01
0.175392125000000,682,0x01,0x01
0.175466500000000,682,0x0A,0x01
0.175799875000000,683,0x07,0x0F
0.175872750000000,683,0x00,0x01
0.175947250000000,683,0x32,0x01
0.176026000000000,684,0x32,0x01
0.176100375000000,684,0x00,0x01
0.176174750000000,684,0x00,0x81
0.176257000000000,685,0x34,0x01
0.176331500000000,685,0x80,0x01
0.176405875000000,685,0x80,0x01
0.176488625000000,686,0x32,0x01
0.176563000000000,686,0x0A,0x01
0.176637375000000,686,0x22,0x01
0.176717125000000,687,0x32,0x01
0.176791625000000,687,0x17,0x01
0.176866000000000,687,0x20,0x01
0.176945750000000,688,0x32,0x01
0.177020125000000,688,0x20,0x01
0.177094500000000,688,0x20,0x01
0.177174375000000,689,0x32,0x01
0.177248750000000,689,0x20,0x01
0.177323125000000,689,0x20,0x01
0.177402875000000,690,0x32,0x01
0.177477375000000,690,0x20,0x01
0.177551750000000,690,0xD7,0x01
0.177633000000000,691,0x07,0x01
0.177707375000000,691,0x01,0x01
0.177781750000000,691,0x32,0x01
0.178116125000000,692,0x07,0x0F
0.178189000000000,692,0x00,0x00
0.178263375000000,692,0x14,0x01
0.178342250000000,693,0x32,0x01
0.178416625000000,693,0x00,0x01
0.178491000000000,693,0x00,0x01
0.178573250000000,694,0x34,0x00
0.178647625000000,694,0x80,0x01
0.178722000000000,694,0x80,0x81
0.178804750000000,695,0x32,0x01
0.178879250000000,695,0x0A,0x01
0.178953625000000,695,0x22,0x01
0.179033375000000,696,0x32,0x01
0.179107750000000,696,0x17,0x01
0.179182125000000,696,0x20,0x81
0.179262000000000,697,0x32,0x01
0.179336375000000,697,0x20,0x01
0.179410750000000,697,0x20,0x01
0.179490500000000,698,0x32,0x81
0.179565000000000,698,0x20,0x01
0.179639375000000,698,0x20,0x01
0.179719125000000,699,0x32,0x01
0.179793500000000,699,0x20,0x81
0.179868000000000,699,0xD7,0x01
0.179949250000000,700,0x07,0x01
0.180023625000000,700,0x01,0x01
0.180098000000000,700,0x14,0x01
0.180433250000000,701,0x07,0x0F
0.180506250000000,701,0x00,0x01
0.180580625000000,701,0x3C,0x01
0.180659375000000,702,0x32,0x81
0.180733875000000,702,0x00,0x01
0.180808250000000,702,0x00,0x01
0.180890500000000,703,0x34,0x01
0.180964875000000,703,0x80,0x01
0.181039250000000,703,0x80,0x01
0.181122000000000,704,0x32,0x01
0.181196375000000,704,0x0A,0x01
0.181270750000000,704,0x22,0x81
0.181350625000000,705,0x32,0x01
0.181425000000000,705,0x17,0x01
0.181499375000000,705,0x20,0x01
0.181579125000000,706,0x32,0x01
0.181653625000000,706,0x20,0x01
0.181728000000000,706,0x20,0x01
0.181807750000000,707,0x32,0x01
0.181882125000000,707,0x20,0x01
0.181956625000000,707,0x20,0x01
0.182036375000000,708,0x32,0x01
0.182110750000000,708,0x20,0x01
0.182185125000000,708,0xD7,0x01
0.182266375000000,709,0x07,0x01
0.182340875000000,709,0x01,0x01
0.182415250000000,709,0x3C,0x01
0.182751500000000,710,0x07,0x0D
0.182824875000000,710,0x00,0x01
0.182899250000000,710,0x1E,0x01
0.182978125000000,711,0x32,0x01
0.183052500000000,711,0x00,0x01
0.183126875000000,711,0x00,0x01
0.183209125000000,712,0x34,0x00
0.183283500000000,712,0x80,0x01
0.183358000000000,712,0x80,0x01
0.183440625000000,713,0x32,0x01
0.183515000000000,713,0x0A,0x81
0.183589500000000,713,0x22,0x01
0.183669250000000,714,0x32,0x01
0.183743625000000,714,0x17,0x01
0.183818000000000,714,0x20,0x01
0.183897875000000,715,0x32,0x01
0.183972250000000,715,0x20,0x01
0.184046625000000,715,0x20,0x01
0.184126375000000,716,0x32,0x01
0.184200875000000,716,0x20,0x01
0.184275250000000,716,0x20,0x01
0.184355000000000,717,0x32,0x01
0.184429375000000,717,0x20,0x01
0.184503750000000,717,0xD7,0x01
0.184585000000000,718,0x07,0x01
0.184659500000000,718,0x01,0x01
0.184733875000000,718,0x1E,0x01
0.185071125000000,719,0x07,0x0F
0.185144000000000,719,0x00,0x01
0.185218375000000,719,0x46,0x01
0.185297250000000,720,0x32,0x01
0.185371625000000,720,0x00,0x01
0.185446000000000,720,0x00,0x01
0.185528250000000,721,0x34,0x01
0.185602625000000,721,0x80,0x01
0.185677000000000,721,0x80,0x01
0.185759750000000,722,0x32,0x01
0.185834125000000,722,0x0A,0x01
0.185908625000000,722,0x22,0x01
0.185988375000000,723,0x32,0x01
0.186062750000000,723,0x17,0x01
0.186137125000000,723,0x20,0x01
0.186216875000000,724,0x32,0x81
0.186291375000000,724,0x20,0x01
0.186365750000000,724,0x20,0x01
0.186445500000000,725,0x32,0x01
0.186519875000000,725,0x20,0x01
0.186594375000000,725,0x20,0x01
0.186674125000000,726,0x32,0x01
0.186748500000000,726,0x20,0x01
0.186822875000000,726,0xD7,0x01
0.186904125000000,727,0x07,0x01
0.186978500000000,727,0x01,0x81
0.187053000000000,727,0x46,0x01
0.187383375000000,728,0x07,0x0D
0.187456750000000,728,0x00,0x0D
0.187530625000000,728,0x00,0x01
0.187609500000000,729,0x32,0x01
0.187683875000000,729,0x00,0x01
0.187758250000000,729,0x00,0x00
0.187840500000000,730,0x34,0x01
0.187914875000000,730,0x80,0x01
0.187989250000000,730,0x80,0x01
0.188072000000000,731,0x32,0x00
0.188146375000000,731,0x0A,0x01
0.188220875000000,731,0x22,0x01
0.188300625000000,732,0x32,0x01
0.188375000000000,732,0x17,0x01
0.188449375000000,732,0x20,0x01
0.188529125000000,733,0x32,0x01
0.188603625000000,733,0x20,0x01
0.188678000000000,733,0x20,0x01
0.188757750000000,734,0x32,0x01
0.188832125000000,734,0x20,0x01
0.188906625000000,734,0x20,0x01
0.188986375000000,735,0x32,0x01
0.189060750000000,735,0x20,0x00
0.189135125000000,735,0xD7,0x01
0.189216375000000,736,0x07,0x01
0.189290750000000,736,0x01,0x81
0.189365250000000,736,0x00,0x01
0.189696500000000,737,0x07,0x8F
0.189769500000000,737,0x00,0x01
0.189843875000000,737,0x28,0x01
0.189922750000000,738,0x32,0x01
0.189997125000000,738,0x00,0x01
0.190071500000000,738,0x00,0x01
0.190153750000000,739,0x34,0x01
0.190228125000000,739,0x80,0x01
0.190302500000000,739,0x80,0x01
0.190385250000000,740,0x32,0x01
0.190459625000000,740,0x0A,0x01
0.190534125000000,740,0x22,0x01
0.190613875000000,741,0x32,0x01
0.190688250000000,741,0x17,0x01
0.190762625000000,741,0x20,0x01
0.190842375000000,742,0x32,0x81
0.190916875000000,742,0x20,0x01
0.190991250000000,742,0x20,0x01
0.191071000000000,743,0x32,0x01
0.191145375000000,743,0x20,0x81
0.191219875000000,743,0x20,0x01
0.191299625000000,744,0x32,0x01
0.191374000000000,744,0x20,0x01
0.191448375000000,744,0xD7,0x81
0.191529750000000,745,0x07,0x01
0.191604125000000,745,0x01,0x01
0.191678500000000,745,0x28,0x01
0.192010875000000,746,0x07,0x0F
0.192083750000000,746,0x00,0x01
0.192158125000000,746,0x0A,0x01
0.192237000000000,747,0x32,0x01
0.192311375000000,747,0x00,0x01
0.192385750000000,747,0x00,0x01
0.192468000000000,748,0x34,0x01
0.192542375000000,748,0x80,0x01
0.192616750000000,748,0x80,0x01
0.192699500000000,749,0x32,0x01
0.192773875000000,749,0x0A,0x01
0.192848375000000,749,0x22,0x01
0.192928125000000,750,0x32,0x01
0.193002500000000,750,0x17,0x01
0.193076875000000,750,0x20,0x01
0.193156750000000,751,0x32,0x01
0.193231125000000,751,0x20,0x01
0.193305500000000,751,0x20,0x01
0.193385250000000,752,0x32,0x01
0.193459625000000,752,0x20,0x01
0.193534125000000,752,0x20,0x01
0.193613875000000,753,0x32,0x01
0.193688250000000,753,0x20,0x01
0.193762625000000,753,0xD7,0x01
0.193843875000000,754,0x07,0x01
0.193918375000000,754,0x01,0x01
0.193992750000000,754,0x0A,0x01
0.194326000000000,755,0x07,0x0F
0.194399000000000,755,0x00,0x01
0.194473375000000,755,0x32,0x01
0.194552125000000,756,0x32,0x01
0.194626500000000,756,0x00,0x81
0.194701000000000,756,0x00,0x01
0.194783250000000,757,0x34,0x01
0.194857625000000,757,0x80,0x01
0.194932000000000,757,0x80,0x01
0.195014750000000,758,0x32,0x01
0.195089125000000,758,0x0A,0x01
0.195163500000000,758,0x22,0x01
0.195243250000000,759,0x32,0x01
0.195317750000000,759,0x17,0x01
0.195392125000000,759,0x20,0x01
0.195471875000000,760,0x32,0x00
0.195546250000000,760,0x20,0x01
0.195620750000000,760,0x20,0x01
0.195700500000000,761,0x32,0x01
0.195774875000000,761,0x20,0x01
0.195849250000000,761,0x20,0x01
0.195929125000000,762,0x32,0x01
0.196003500000000,762,0x20,0x01
0.196077875000000,762,0xD7,0x01
0.196159125000000,763,0x07,0x01
0.196233500000000,763,0x01,0x01
0.196307875000000,763,0x32,0x01
0.196642250000000,764,0x07,0x0F
0.196715125000000,764,0x00,0x01
0.196789500000000,764,0x14,0x01
0.196868375000000,765,0x32,0x01
0.196942750000000,765,0x00,0x01
0.197017125000000,765,0x00,0x01
0.197099375000000,766,0x34,0x01
0.197173750000000,766,0x80,0x01
0.197248125000000,766,0x80,0x81
0.197330875000000,767,0x32,0x01
0.197405250000000,767,0x0A,0x01
0.197479750000000,767,0x22,0x01
0.197559500000000,768,0x32,0x01
0.197633875000000,768,0x17,0x01
0.197708250000000,768,0x20,0x01
0.197788125000000,769,0x32,0x01
0.197862500000000,769,0x20,0x01
0.197936875000000,769,0x20,0x01
0.198016625000000,770,0x32,0x01
0.198091125000000,770,0x20,0x01
0.198165500000000,770,0x20,0x01
0.198245250000000,771,0x32,0x01
0.198319625000000,771,0x20,0x01
0.198394125000000,771,0xD7,0x01
0.198475375000000,772,0x07,0x01
0.198549750000000,772,0x01,0x01
0.198624125000000,772,0x14,0x01
0.198959375000000,773,0x07,0x0F
0.199032375000000,773,0x00,0x01
0.199106750000000,773,0x3C,0x01
0.199185500000000,774,0x32,0x01
0.199259875000000,774,0x00,0x01
0.199334375000000,774,0x00,0x01
0.199416500000000,775,0x34,0x01
0.199491000000000,775,0x80,0x01
0.199565375000000,775,0x80,0x01
0.199648125000000,776,0x32,0x01
0.199722500000000,776,0x0A,0x01
0.199796875000000,776,0x22,0x01
0.199876625000000,777,0x32,0x01
0.199951000000000,777,0x17,0x81
0.200025500000000,777,0x20,0x01
0.200105250000000,778,0x32,0x01
0.200179625000000,778,0x20,0x01
0.200254000000000,778,0x20,0x01
0.200333875000000,779,0x32,0x01
0.200408250000000,779,0x20,0x01
0.200482625000000,779,0x20,0x00
0.200562375000000,780,0x32,0x01
0.200636875000000,780,0x20,0x01
0.200711250000000,780,0xD7,0x01
0.200792500000000,781,0x07,0x01
0.200866875000000,781,0x01,0x01
0.200941250000000,781,0x3C,0x01
0.201277500000000,782,0x07,0x0D
0.201351000000000,782,0x00,0x01
0.201425375000000,782,0x1E,0x01
0.201504125000000,783,0x32,0x01
0.201578500000000,783,0x00,0x01
0.201653000000000,783,0x00,0x01
0.201735125000000,784,0x34,0x01
0.201809625000000,784,0x80,0x01
0.201884000000000,784,0x80,0x01
0.201966750000000,785,0x32,0x01
0.202041125000000,785,0x0A,0x01
0.202115500000000,785,0x22,0x01
0.202195250000000,786,0x32,0x01
0.202269750000000,786,0x17,0x01
0.202344125000000,786,0x20,0x01
0.202423875000000,787,0x32,0x01
0.202498250000000,787,0x20,0x01
0.202572625000000,787,0x20,0x01
0.202652500000000,788,0x32,0x01
0.202726875000000,788,0x20,0x01
0.202801250000000,788,0x20,0x01
0.202881000000000,789,0x32,0x01
0.202955500000000,789,0x20,0x01
0.203029875000000,789,0xD7,0x01
0.203111125000000,790,0x07,0x01
0.203185500000000,790,0x01,0x00
0.203259875000000,790,0x1E,0x01
0.203597125000000,791,0x07,0x0F
0.203670125000000,791,0x00,0x01
0.203744500000000,791,0x46,0x01
0.203823250000000,792,0x32,0x01
0.203897625000000,792,0x00,0x01
0.203972125000000,792,0x00,0x01
0.204054250000000,793,0x34,0x81
0.204128750000000,793,0x80,0x01
0.204203125000000,793,0x80,0x01
0.204285875000000,794,0x32,0x01
0.204360250000000,794,0x0A,0x01
0.204434625000000,794,0x22,0x01
0.204514375000000,795,0x32,0x01
0.204588875000000,795,0x17,0x01
0.204663250000000,795,0x20,0x01
0.204743000000000,796,0x32,0x01
0.204817375000000,796,0x20,0x01
0.204891750000000,796,0x20,0x81
0.204971625000000,797,0x32,0x01
0.205046000000000,797,0x20,0x01
0.205120375000000,797,0x20,0x01
0.205200125000000,798,0x32,0x81
0.205274625000000,798,0x20,0x01
0.205349000000000,798,0xD7,0x01
0.205430250000000,799,0x07,0x01
0.205504625000000,799,0x01,0x00
0.205579000000000,799,0x46,0x01
0.205909375000000,800,0x07,0x0D
0.205982875000000,800,0x00,0x09
0.206056750000000,800,0x00,0x01
0.206135500000000,801,0x32,0x01
0.206209875000000,801,0x00,0x81
0.206284375000000,801,0x00,0x01
0.206366625000000,802,0x34,0x01
0.206441000000000,802,0x80,0x01
0.206515375000000,802,0x80,0x01
0.206598125000000,803,0x32,0x01
0.206672500000000,803,0x0A,0x01
0.206746875000000,803,0x22,0x01
0.206826625000000,804,0x32,0x81
0.206901125000000,804,0x17,0x01
0.206975500000000,804,0x20,0x01
0.207055250000000,805,0x32,0x01
0.207129625000000,805,0x20,0x01
0.207204125000000,805,0x20,0x01
0.207283875000000,806,0x32,0x01
0.207358250000000,806,0x20,0x01
0.207432625000000,806,0x20,0x01
0.207512500000000,807,0x32,0x01
0.207586875000000,807,0x20,0x01
0.207661250000000,807,0xD7,0x01
0.207742500000000,808,0x07,0x01
0.207816875000000,808,0x01,0x01
0.207891250000000,808,0x00,0x01
0.208222625000000,809,0x07,0x0F
0.208295625000000,809,0x00,0x01
0.208370000000000,809,0x28,0x01
0.208448750000000,810,0x32,0x01
0.208523125000000,810,0x00,0x81
0.208597625000000,810,0x00,0x01
0.208679875000000,811,0x34,0x01
0.208754250000000,811,0x80,0x01
0.208828625000000,811,0x80,0x01
0.208911375000000,812,0x32,0x01
0.208985750000000,812,0x0A,0x01
0.209060125000000,812,0x22,0x01
0.209139875000000,813,0x32,0x01
0.209214375000000,813,0x17,0x01
0.209288750000000,813,0x20,0x01
0.209368500000000,814,0x32,0x01
0.209442875000000,814,0x20,0x01
0.209517375000000,814,0x20,0x01
0.209597125000000,815,0x32,0x01
0.209671500000000,815,0x20,0x01
0.209745875000000,815,0x20,0x01
0.209825750000000,816,0x32,0x01
0.209900125000000,816,0x20,0x01
0.209974500000000,816,0xD7,0x01
0.210055750000000,817,0x07,0x01
0.210130125000000,817,0x01,0x01
0.210204500000000,817,0x28,0x01
0.210536875000000,818,0x07,0x0F
0.210609875000000,818,0x00,0x01
0.210684250000000,818,0x0A,0x01
0.210763000000000,819,0x32,0x01
0.210837375000000,819,0x00,0x01
0.210911875000000,819,0x00,0x01
0.210994000000000,820,0x34,0x01
0.211068500000000,820,0x80,0x01
0.211142875000000,820,0x80,0x01
0.211225625000000,821,0x32,0x01
0.211300000000000,821,0x0A,0x01
0.211374375000000,821,0x22,0x00
0.211454125000000,822,0x32,0x01
0.211528625000000,822,0x17,0x01
0.211603000000000,822,0x20,0x01
0.211682750000000,823,0x32,0x01
0.211757125000000,823,0x20,0x01
0.211831500000000,823,0x20,0x01
0.211911375000000,824,0x32,0x01
0.211985750000000,824,0x20,0x01
0.212060125000000,824,0x20,0x01
0.212139875000000,825,0x32,0x01
0.212214375000000,825,0x20,0x01
0.212288750000000,825,0xD7,0x01
0.212370000000000,826,0x07,0x01
0.212444375000000,826,0x01,0x01
0.212518750000000,826,0x0A,0x01
0.212852125000000,827,0x07,0x0F
0.212925000000000,827,0x00,0x01
0.212999375000000,827,0x32,0x81
0.213078250000000,828,0x32,0x01
0.213152625000000,828,0x00,0x01
0.213227000000000,828,0x00,0x01
0.213309250000000,829,0x34,0x01
0.213383625000000,829,0x80,0x01
0.213458125000000,829,0x80,0x01
0.213540750000000,830,0x32,0x01
0.213615250000000,830,0x0A,0x01
0.213689625000000,830,0x22,0x01
0.213769375000000,831,0x32,0x01
0.213843750000000,831,0x17,0x01
0.213918125000000,831,0x20,0x01
0.213998000000000,832,0x32,0x01
0.214072375000000,832,0x20,0x01
0.214146750000000,832,0x20,0x01
0.214226500000000,833,0x32,0x01
0.214301000000000,833,0x20,0x01
0.214375375000000,833,0x20,0x01
0.214455125000000,834,0x32,0x01
0.214529500000000,834,0x20,0x01
0.214604000000000,834,0xD7,0x01
0.214685250000000,835,0x07,0x01
0.214759625000000,835,0x01,0x01
0.214834000000000,835,0x32,0x01
0.215168250000000,836,0x07,0x0F
0.215241250000000,836,0x00,0x01
0.215315625000000,836,0x14,0x01
0.215394375000000,837,0x32,0x01
0.215468875000000,837,0x00,0x01
0.215543250000000,837,0x00,0x01
0.215625500000000,838,0x34,0x01
0.215699875000000,838,0x80,0x01
0.215774250000000,838,0x80,0x01
0.215857000000000,839,0x32,0x01
0.215931375000000,839,0x0A,0x01
0.216005750000000,839,0x22,0x01
0.216085500000000,840,0x32,0x81
0.216160000000000,840,0x17,0x01
0.216234375000000,840,0x20,0x01
0.216314125000000,841,0x32,0x01
0.216388500000000,841,0x20,0x01
0.216463000000000,841,0x20,0x01
0.216542750000000,842,0x32,0x01
0.216617125000000,842,0x20,0x01
0.216691500000000,842,0x20,0x01
0.216771375000000,843,0x32,0x01
0.216845750000000,843,0x20,0x01
0.216920125000000,843,0xD7,0x01
0.217001375000000,844,0x07,0x01
0.217075750000000,844,0x01,0x01
0.217150125000000,844,0x14,0x01
0.217485375000000,845,0x07,0x8F
0.217558375000000,845,0x00,0x01
0.217632750000000,845,0x3C,0x01
0.217711625000000,846,0x32,0x01
0.217786000000000,846,0x00,0x01
0.217860375000000,846,0x00,0x01
0.217942625000000,847,0x34,0x01
0.218017000000000,847,0x80,0x01
0.218091375000000,847,0x80,0x01
0.218174125000000,848,0x32,0x01
0.218248500000000,848,0x0A,0x01
0.218322875000000,848,0x22,0x01
0.218402750000000,849,0x32,0x01
0.218477125000000,849,0x17,0x01
0.218551500000000,849,0x20,0x01
0.218631250000000,850,0x32,0x01
0.218705750000000,850,0x20,0x01
0.218780125000000,850,0x20,0x01
0.218859875000000,851,0x32,0x01
0.218934250000000,851,0x20,0x01
0.219008750000000,851,0x20,0x01
0.219088500000000,852,0x32,0x01
0.219162875000000,852,0x20,0x00
0.219237250000000,852,0xD7,0x01
0.219318500000000,853,0x07,0x01
0.219393000000000,853,0x01,0x01
0.219467375000000,853,0x3C,0x01
0.219803625000000,854,0x07,0x0D
0.219877000000000,854,0x00,0x01
0.219951375000000,854,0x1E,0x01
0.220030250000000,855,0x32,0x01
0.220104625000000,855,0x00,0x01
0.220179000000000,855,0x00,0x01
0.220261250000000,856,0x34,0x01
0.220335625000000,856,0x80,0x01
0.220410000000000,856,0x80,0x01
0.220492750000000,857,0x32,0x01
0.220567125000000,857,0x0A,0x01
0.220641625000000,857,0x22,0x01
0.220721375000000,858,0x32,0x01
0.220795750000000,858,0x17,0x01
0.220870125000000,858,0x20,0x01
0.220949875000000,859,0x32,0x81
0.221024375000000,859,0x20,0x01
0.221098750000000,859,0x20,0x01
0.221178500000000,860,0x32,0x01
0.221252875000000,860,0x20,0x01
0.221327375000000,860,0x20,0x01
0.221407125000000,861,0x32,0x01
0.221481500000000,861,0x20,0x01
0.221555875000000,861,0xD7,0x01
0.221637125000000,862,0x07,0x01
0.221711625000000,862,0x01,0x01
0.221786000000000,862,0x1E,0x01
0.222123250000000,863,0x07,0x0F
0.222196125000000,863,0x00,0x01
0.222270500000000,863,0x46,0x01
0.222349375000000,864,0x32,0x01
0.222423750000000,864,0x00,0x01
0.222498125000000,864,0x00,0x01
0.222580375000000,865,0x34,0x01
0.222654750000000,865,0x80,0x01
0.222729125000000,865,0x80,0x81
0.222811875000000,866,0x32,0x01
0.222886375000000,866,0x0A,0x01
0.222960750000000,866,0x22,0x01
0.223040500000000,867,0x32,0x01
0.223114875000000,867,0x17,0x01
0.223189250000000,867,0x20,0x01
0.223269125000000,868,0x32,0x01
0.223343500000000,868,0x20,0x01
0.223417875000000,868,0x20,0x01
0.223497625000000,869,0x32,0x81
0.223572125000000,869,0x20,0x01
0.223646500000000,869,0x20,0x01
0.223726250000000,870,0x32,0x01
0.223800625000000,870,0x20,0x81
0.223875125000000,870,0xD7,0x01
0.223956375000000,871,0x07,0x01
0.224030750000000,871,0x01,0x01
0.224105125000000,871,0x46,0x01
0.224435500000000,872,0x07,0x0D
0.224509000000000,872,0x00,0x09
0.224582875000000,872,0x00,0x01
0.224661625000000,873,0x32,0x01
0.224736125000000,873,0x00,0x01
0.224810500000000,873,0x00,0x01
0.224892750000000,874,0x34,0x01
0.224967125000000,874,0x80,0x01
0.225041500000000,874,0x80,0x01
0.225124250000000,875,0x32,0x01
0.225198625000000,875,0x0A,0x01
0.225273000000000,875,0x22,0x01
0.225352875000000,876,0x32,0x01
0.225427250000000,876,0x17,0x01
0.225501625000000,876,0x20,0x00
0.225581375000000,877,0x32,0x01
0.225655875000000,877,0x20,0x01
0.225730250000000,877,0x20,0x01
0.225810000000000,878,0x32,0x01
0.225884375000000,878,0x20,0x01
0.225958875000000,878,0x20,0x01
0.226038625000000,879,0x32,0x01
0.226113000000000,879,0x20,0x01
0.226187375000000,879,0xD7,0x01
0.226268625000000,880,0x07,0x01
0.226343000000000,880,0x01,0x81
0.226417500000000,880,0x00,0x01
0.226748875000000,881,0x07,0x0D
0.226822250000000,881,0x00,0x01
0.226896625000000,881,0x28,0x01
0.226975500000000,882,0x32,0x01
0.227049875000000,882,0x00,0x01
0.227124250000000,882,0x00,0x00
0.227206500000000,883,0x34,0x01
0.227280875000000,883,0x80,0x01
0.227355250000000,883,0x80,0x01
0.227438000000000,884,0x32,0x01
0.227512375000000,884,0x0A,0x01
0.227586875000000,884,0x22,0x01
0.227666625000000,885,0x32,0x01
0.227741000000000,885,0x17,0x01
0.227815375000000,885,0x20,0x01
0.227895250000000,886,0x32,0x01
0.227969625000000,886,0x20,0x01
0.228044000000000,886,0x20,0x01
0.228123750000000,887,0x32,0x01
0.228198250000000,887,0x20,0x01
0.228272625000000,887,0x20,0x01
0.228352375000000,888,0x32,0x01
0.228426750000000,888,0x20,0x01
0.228501250000000,888,0xD7,0x01
0.228582500000000,889,0x07,0x01
0.228656875000000,889,0x01,0x01
0.228731250000000,889,0x28,0x01
0.229063625000000,890,0x07,0x0F
0.229136500000000,890,0x00,0x01
0.229211000000000,890,0x0A,0x01
0.229289750000000,891,0x32,0x01
0.229364125000000,891,0x00,0x01
0.229438500000000,891,0x00,0x01
0.229520750000000,892,0x34,0x01
0.229595125000000,892,0x80,0x81
0.229669625000000,892,0x80,0x01
0.229752250000000,893,0x32,0x81
0.229826750000000,893,0x0A,0x01
0.229901125000000,893,0x22,0x01
0.229980875000000,894,0x32,0x01
0.230055250000000,894,0x17,0x01
0.230129750000000,894,0x20,0x01
0.230209500000000,895,0x32,0x01
0.230283875000000,895,0x20,0x00
0.230358250000000,895,0x20,0x01
0.230438125000000,896,0x32,0x01
0.230512500000000,896,0x20,0x01
0.230586875000000,896,0x20,0x01
0.230666625000000,897,0x32,0x01
0.230741125000000,897,0x20,0x01
0.230815500000000,897,0xD7,0x01
0.230896750000000,898,0x07,0x01
0.230971125000000,898,0x01,0x01
0.231045500000000,898,0x0A,0x01
0.231378875000000,899,0x07,0x0F
0.231451750000000,899,0x00,0x01
0.231526125000000,899,0x32,0x01
0.231605000000000,900,0x32,0x01
0.231679375000000,900,0x00,0x00
0.231753750000000,900,0x00,0x01
0.231836000000000,901,0x34,0x01
0.231910375000000,901,0x80,0x01
0.231984875000000,901,0x80,0x01
0.232067500000000,902,0x32,0x01
0.232142000000000,902,0x0A,0x01
0.232216375000000,902,0x22,0x01
0.232296125000000,903,0x32,0x01
0.232370500000000,903,0x17,0x01
0.232445000000000,903,0x20,0x01
0.232524750000000,904,0x32,0x01
0.232599125000000,904,0x20,0x01
0.232673500000000,904,0x20,0x01
0.232753250000000,905,0x32,0x81
0.232827750000000,905,0x20,0x01
0.232902125000000,905,0x20,0x01
0.232981875000000,906,0x32,0x01
0.233056250000000,906,0x20,0x01
0.233130750000000,906,0xD7,0x01
0.233212000000000,907,0x07,0x01
0.233286375000000,907,0x01,0x01
0.233360750000000,907,0x32,0x01
0.233695000000000,908,0x07,0x0F
0.233768000000000,908,0x00,0x01
0.233842375000000,908,0x14,0x01
0.233921250000000,909,0x32,0x01
0.233995625000000,909,0x00,0x01
0.234070000000000,909,0x00,0x01
0.234152250000000,910,0x34,0x01
0.234226625000000,910,0x80,0x01
0.234301000000000,910,0x80,0x01
0.234383750000000,911,0x32,0x01
0.234458125000000,911,0x0A,0x01
0.234532500000000,911,0x22,0x81
0.234612375000000,912,0x32,0x01
0.234686750000000,912,0x17,0x01
0.234761125000000,912,0x20,0x01
0.234840875000000,913,0x32,0x81
0.234915375000000,913,0x20,0x01
0.234989750000000,913,0x20,0x01
0.235069500000000,914,0x32,0x01
0.235143875000000,914,0x20,0x01
0.235218375000000,914,0x20,0x01
0.235298125000000,915,0x32,0x01
0.235372500000000,915,0x20,0x01
0.235446875000000,915,0xD7,0x01
0.235528125000000,916,0x07,0x01
0.235602625000000,916,0x01,0x01
0.235677000000000,916,0x14,0x01
0.236012250000000,917,0x07,0x0F
0.236085125000000,917,0x00,0x01
0.236159625000000,917,0x3C,0x01
0.236238375000000,918,0x32,0x01
0.236312750000000,918,0x00,0x01
0.236387125000000,918,0x00,0x01
0.236469375000000,919,0x34,0x01
0.236543750000000,919,0x80,0x81
0.236618250000000,919,0x80,0x01
0.236700875000000,920,0x32,0x01
0.236775375000000,920,0x0A,0x01
0.236849750000000,920,0x22,0x01
0.236929500000000,921,0x32,0x01
0.237003875000000,921,0x17,0x01
0.237078375000000,921,0x20,0x01
0.237158125000000,922,0x32,0x01
0.237232500000000,922,0x20,0x00
0.237306875000000,922,0x20,0x01
0.237386750000000,923,0x32,0x01
0.237461125000000,923,0x20,0x01
0.237535500000000,923,0x20,0x01
0.237615250000000,924,0x32,0x01
0.237689750000000,924,0x20,0x01
0.237764125000000,924,0xD7,0x01
0.237845375000000,925,0x07,0x01
0.237919750000000,925,0x01,0x00
0.237994125000000,925,0x3C,0x01
0.238330375000000,926,0x07,0x0D
0.238403875000000,926,0x00,0x01
0.238478250000000,926,0x1E,0x01
0.238557000000000,927,0x32,0x01
0.238631500000000,927,0x00,0x01
0.238705875000000,927,0x00,0x01
0.238788125000000,928,0x34,0x01
0.238862500000000,928,0x80,0x01
0.238936875000000,928,0x80,0x00
0.239019625000000,929,0x32,0x01
0.239094000000000,929,0x0A,0x01
0.239168375000000,929,0x22,0x01
0.239248250000000,930,0x32,0x01
0.239322625000000,930,0x17,0x01
0.239397000000000,930,0x20,0x01
0.239476750000000,931,0x32,0x01
0.239551250000000,931,0x20,0x01
0.239625625000000,931,0x20,0x01
0.239705375000000,932,0x32,0x00
0.239779750000000,932,0x20,0x01
0.239854250000000,932,0x20,0x01
0.239934000000000,933,0x32,0x01
0.240008375000000,933,0x20,0x00
0.240082750000000,933,0xD7,0x01
0.240164000000000,934,0x07,0x01
0.240238500000000,934,0x01,0x01
0.240312875000000,934,0x1E,0x01
0.240650125000000,935,0x07,0x0F
0.240723000000000,935,0x00,0x00
0.240797375000000,935,0x46,0x01
0.240876250000000,936,0x32,0x01
0.240950625000000,936,0x00,0x01
0.241025000000000,936,0x00,0x01
0.241107250000000,937,0x34,0x00
0.241181625000000,937,0x80,0x01
0.241256125000000,937,0x80,0x01
0.241338750000000,938,0x32,0x01
0.241413250000000,938,0x0A,0x01
0.241487625000000,938,0x22,0x01
0.241567375000000,939,0x32,0x01
0.241641750000000,939,0x17,0x01
0.241716125000000,939,0x20,0x81
0.241796000000000,940,0x32,0x01
0.241870375000000,940,0x20,0x01
0.241944750000000,940,0x20,0x01
0.242024625000000,941,0x32,0x01
0.242099000000000,941,0x20,0x01
0.242173375000000,941,0x20,0x01
0.242253125000000,942,0x32,0x01
0.242327625000000,942,0x20,0x01
0.242402000000000,942,0xD7,0x01
0.242483250000000,943,0x07,0x01
0.242557625000000,943,0x01,0x01
0.242632000000000,943,0x46,0x01
0.242962375000000,944,0x07,0x0D
0.243035875000000,944,0x00,0x09
0.243109750000000,944,0x00,0x01
0.243188500000000,945,0x32,0x01
0.243263000000000,945,0x00,0x01
0.243337375000000,945,0x00,0x01
0.243419625000000,946,0x34,0x01
0.243494000000000,946,0x80,0x01
0.243568375000000,946,0x80,0x00
0.243651125000000,947,0x32,0x01
0.243725500000000,947,0x0A,0x00
0.243799875000000,947,0x22,0x01
0.243879750000000,948,0x32,0x01
0.243954125000000,948,0x17,0x01
0.244028500000000,948,0x20,0x01
0.244108250000000,949,0x32,0x01
0.244182625000000,949,0x20,0x01
0.244257125000000,949,0x20,0x01
0.244336875000000,950,0x32,0x01
0.244411250000000,950,0x20,0x01
0.244485625000000,950,0x20,0x01
0.244565500000000,951,0x32,0x01
0.244639875000000,951,0x20,0x01
0.244714250000000,951,0xD7,0x01
0.244795500000000,952,0x07,0x01
0.244869875000000,952,0x01,0x01
0.244944375000000,952,0x00,0x01
0.245275625000000,953,0x07,0x0F
0.245348625000000,953,0x00,0x01
0.245423000000000,953,0x28,0x01
0.245501750000000,954,0x32,0x01
0.245576250000000,954,0x00,0x01
0.245650625000000,954,0x00,0x01
0.245732875000000,955,0x34,0x01
0.245807250000000,955,0x80,0x01
0.245881625000000,955,0x80,0x01
0.245964375000000,956,0x32,0x01
0.246038750000000,956,0x0A,0x00
0.246113125000000,956,0x22,0x01
0.246193000000000,957,0x32,0x01
0.246267375000000,957,0x17,0x01
0.246341750000000,957,0x20,0x01
0.246421500000000,958,0x32,0x01
0.246495875000000,958,0x20,0x81
0.246570375000000,958,0x20,0x01
0.246650125000000,959,0x32,0x01
0.246724500000000,959,0x20,0x01
0.246798875000000,959,0x20,0x01
0.246878750000000,960,0x32,0x01
0.246953125000000,960,0x20,0x01
0.247027500000000,960,0xD7,0x00
0.247108750000000,961,0x07,0x01
0.247183125000000,961,0x01,0x01
0.247257625000000,961,0x28,0x01
0.247589875000000,962,0x07,0x0F
0.247662875000000,962,0x00,0x01
0.247737250000000,962,0x0A,0x01
0.247816000000000,963,0x32,0x01
0.247890500000000,963,0x00,0x01
0.247964875000000,963,0x00,0x01
0.248047125000000,964,0x34,0x01
0.248121500000000,964,0x80,0x01
0.248195875000000,964,0x80,0x00
0.248278625000000,965,0x32,0x01
0.248353000000000,965,0x0A,0x00
0.248427375000000,965,0x22,0x01
0.248507250000000,966,0x32,0x01
0.248581625000000,966,0x17,0x01
0.248656000000000,966,0x20,0x01
0.248735750000000,967,0x32,0x01
0.248810125000000,967,0x20,0x81
0.248884625000000,967,0x20,0x01
0.248964375000000,968,0x32,0x01
0.249038750000000,968,0x20,0x01
0.249113125000000,968,0x20,0x01
0.249193000000000,969,0x32,0x01
0.249267375000000,969,0x20,0x01
0.249341750000000,969,0xD7,0x01
0.249423000000000,970,0x07,0x01
0.249497375000000,970,0x01,0x01
0.249571875000000,970,0x0A,0x01
0.249905125000000,971,0x07,0x0F
0.249978125000000,971,0x00,0x01
0.250052500000000,971,0x32,0x01
0.250131250000000,972,0x32,0x01
0.250205625000000,972,0x00,0x01
0.250280125000000,972,0x00,0x01
0.250362375000000,973,0x34,0x01
0.250436750000000,973,0x80,0x01
0.250511125000000,973,0x80,0x01
0.250593875000000,974,0x32,0x01
0.250668250000000,974,0x0A,0x01
0.250742625000000,974,0x22,0x01
0.250822375000000,975,0x32,0x81
0.250896875000000,975,0x17,0x01
0.250971250000000,975,0x20,0x01
0.251051000000000,976,0x32,0x01
0.251125375000000,976,0x20,0x01
0.251199875000000,976,0x20,0x01
0.251279625000000,977,0x32,0x01
0.251354000000000,977,0x20,0x00
0.251428375000000,977,0x20,0x01
0.251508250000000,978,0x32,0x01
0.251582625000000,978,0x20,0x01
0.251657000000000,978,0xD7,0x01
0.251738250000000,979,0x07,0x01
0.251812625000000,979,0x01,0x01
0.251887000000000,979,0x32,0x81
0.252221375000000,980,0x07,0x0F
0.252294250000000,980,0x00,0x01
0.252368625000000,980,0x14,0x81
0.252447500000000,981,0x32,0x01
0.252521875000000,981,0x00,0x01
0.252596250000000,981,0x00,0x01
0.252678500000000,982,0x34,0x01
0.252752875000000,982,0x80,0x01
0.252827375000000,982,0x80,0x01
0.252910000000000,983,0x32,0x01
0.252984500000000,983,0x0A,0x01
0.253058875000000,983,0x22,0x01
0.253138625000000,984,0x32,0x00
0.253213000000000,984,0x17,0x01
0.253287375000000,984,0x20,0x81
0.253367250000000,985,0x32,0x01
0.253441625000000,985,0x20,0x01
0.253516000000000,985,0x20,0x01
0.253595750000000,986,0x32,0x81
0.253670250000000,986,0x20,0x01
0.253744625000000,986,0x20,0x01
0.253824375000000,987,0x32,0x01
0.253898750000000,987,0x20,0x01
0.253973250000000,987,0xD7,0x01
0.254054500000000,988,0x07,0x01
0.254128875000000,988,0x01,0x01
0.254203250000000,988,0x14,0x00
0.254538500000000,989,0x07,0x0F
0.254611500000000,989,0x00,0x01
0.254685875000000,989,0x3C,0x01
0.254764625000000,990,0x32,0x01
0.254839125000000,990,0x00,0x01
0.254913500000000,990,0x00,0x01
0.254995750000000,991,0x34,0x01
0.255070125000000,991,0x80,0x01
0.255144500000000,991,0x80,0x01
0.255227250000000,992,0x32,0x01
0.255301625000000,992,0x0A,0x01
0.255376000000000,992,0x22,0x01
0.255455750000000,993,0x32,0x81
0.255530250000000,993,0x17,0x01
0.255604625000000,993,0x20,0x01
0.255684375000000,994,0x32,0x01
0.255758750000000,994,0x20,0x01
0.255833250000000,994,0x20,0x01
0.255913000000000,995,0x32,0x01
0.255987375000000,995,0x20,0x01
0.256061750000000,995,0x20,0x01
0.256141625000000,996,0x32,0x01
0.256216000000000,996,0x20,0x01
0.256290375000000,996,0xD7,0x01
0.256371625000000,997,0x07,0x01
0.256446000000000,997,0x01,0x01
0.256520375000000,997,0x3C,0x01
0.256856625000000,998,0x07,0x0F
0.256930125000000,998,0x00,0x01
0.257004500000000,998,0x1E,0x01
0.257083250000000,999,0x32,0x01
0.257157750000000,999,0x00,0x01
0.257232125000000,999,0x00,0x01
0.257314375000000,1000,0x34,0x01
0.257388750000000,1000,0x80,0x01
0.257463125000000,1000,0x80,0x01
0.257545875000000,1001,0x32,0x01
0.257620250000000,1001,0x0A,0x01
0.257694625000000,1001,0x22,0x01
0.257774500000000,1002,0x32,0x01
0.257848875000000,1002,0x17,0x01
0.257923250000000,1002,0x20,0x01
0.258003000000000,1003,0x32,0x01
0.258077375000000,1003,0x20,0x81
0.258151875000000,1003,0x20,0x01
0.258231625000000,1004,0x32,0x01
0.258306000000000,1004,0x20,0x01
0.258380375000000,1004,0x20,0x01
0.258460250000000,1005,0x32,0x01
0.258534625000000,1005,0x20,0x01
0.258609000000000,1005,0xD7,0x01
0.258690250000000,1006,0x07,0x01
0.258764625000000,1006,0x01,0x01
0.258839125000000,1006,0x1E,0x01
0.259176250000000,1007,0x07,0x0F
0.259249250000000,1007,0x00,0x01
0.259323625000000,1007,0x46,0x01
0.259402375000000,1008,0x32,0x01
0.259476875000000,1008,0x00,0x01
0.259551250000000,1008,0x00,0x01
0.259633500000000,1009,0x34,0x01
0.259707875000000,1009,0x80,0x01
0.259782250000000,1009,0x80,0x01
0.259865000000000,1010,0x32,0x01
0.259939375000000,1010,0x0A,0x01
0.260013750000000,1010,0x22,0x01
0.260093625000000,1011,0x32,0x01
0.260168000000000,1011,0x17,0x01
0.260242375000000,1011,0x20,0x01
0.260322125000000,1012,0x32,0x01
0.260396500000000,1012,0x20,0x81
0.260471000000000,1012,0x20,0x01
0.260550750000000,1013,0x32,0x01
0.260625125000000,1013,0x20,0x01
0.260699500000000,1013,0x20,0x01
0.260779375000000,1014,0x32,0x01
0.260853750000000,1014,0x20,0x01
0.260928125000000,1014,0xD7,0x01
0.261009375000000,1015,0x07,0x01
0.261083750000000,1015,0x01,0x01
0.261158250000000,1015,0x46,0x01
0.261488625000000,1016,0x07,0x0D
0.261562000000000,1016,0x00,0x0D
0.261635875000000,1016,0x00,0x01
0.261714750000000,1017,0x32,0x01
0.261789125000000,1017,0x00,0x01
0.261863500000000,1017,0x00,0x01
0.261945750000000,1018,0x34,0x01
0.262020125000000,1018,0x80,0x01
0.262094500000000,1018,0x80,0x01
0.262177250000000,1019,0x32,0x01
0.262251625000000,1019,0x0A,0x01
0.262326125000000,1019,0x22,0x01
0.262405875000000,1020,0x32,0x01
0.262480250000000,1020,0x17,0x01
0.262554625000000,1020,0x20,0x01
0.262634375000000,1021,0x32,0x01
0.262708875000000,1021,0x20,0x01
0.262783250000000,1021,0x20,0x01
0.262863000000000,1022,0x32,0x01
0.262937375000000,1022,0x20,0x01
0.263011875000000,1022,0x20,0x01
0.263091625000000,1023,0x32,0x01
0.263166000000000,1023,0x20,0x01
0.263240375000000,1023,0xD7,0x01
0.263321625000000,1024,0x07,0x01
0.263396000000000,1024,0x01,0x81
0.263470500000000,1024,0x00,0x01
0.263801875000000,1025,0x07,0x0F
0.263874750000000,1025,0x00,0x01
0.263949125000000,1025,0x28,0x01
0.264028000000000,1026,0x32,0x01
0.264102375000000,1026,0x00,0x01
0.264176750000000,1026,0x00,0x01
0.264259000000000,1027,0x34,0x01
0.264333375000000,1027,0x80,0x01
0.264407750000000,1027,0x80,0x01
0.264490500000000,1028,0x32,0x01
0.264564875000000,1028,0x0A,0x01
0.264639375000000,1028,0x22,0x01
0.264719125000000,1029,0x32,0x01
0.264793500000000,1029,0x17,0x01
0.264867875000000,1029,0x20,0x01
0.264947750000000,1030,0x32,0x01
0.265022125000000,1030,0x20,0x01
0.265096500000000,1030,0x20,0x01
0.265176250000000,1031,0x32,0x01
0.265250625000000,1031,0x20,0x01
0.265325125000000,1031,0x20,0x01
0.265404875000000,1032,0x32,0x01
0.265479250000000,1032,0x20,0x01
0.265553625000000,1032,0xD7,0x01
0.265634875000000,1033,0x07,0x81
0.265709375000000,1033,0x01,0x01
0.265783750000000,1033,0x28,0x01
0.266116000000000,1034,0x07,0x8F
0.266189000000000,1034,0x00,0x01
0.266263375000000,1034,0x0A,0x01
0.266342250000000,1035,0x32,0x01
0.266416625000000,1035,0x00,0x01
0.266491000000000,1035,0x00,0x01
0.266573250000000,1036,0x34,0x01
0.266647625000000,1036,0x80,0x01
0.266722000000000,1036,0x80,0x01
0.266804750000000,1037,0x32,0x01
0.266879125000000,1037,0x0A,0x01
0.266953500000000,1037,0x22,0x01
0.267033375000000,1038,0x32,0x01
0.267107750000000,1038,0x17,0x01
0.267182125000000,1038,0x20,0x00
0.267261875000000,1039,0x32,0x01
0.267336375000000,1039,0x20,0x01
0.267410750000000,1039,0x20,0x01
0.267490500000000,1040,0x32,0x01
0.267564875000000,1040,0x20,0x01
0.267639250000000,1040,0x20,0x81
0.267719125000000,1041,0x32,0x01
0.267793500000000,1041,0x20,0x01
0.267867875000000,1041,0xD7,0x01
0.267949125000000,1042,0x07,0x01
0.268023625000000,1042,0x01,0x01
0.268098000000000,1042,0x0A,0x01
0.268431250000000,1043,0x07,0x0F
0.268504250000000,1043,0x00,0x01
0.268578625000000,1043,0x32,0x01
0.268657375000000,1044,0x32,0x01
0.268731875000000,1044,0x00,0x01
0.268806250000000,1044,0x00,0x01
0.268888500000000,1045,0x34,0x01
0.268962875000000,1045,0x80,0x01
0.269037250000000,1045,0x80,0x01
0.269120000000000,1046,0x32,0x01
0.269194375000000,1046,0x0A,0x01
0.269268750000000,1046,0x22,0x01
0.269348625000000,1047,0x32,0x01
0.269423000000000,1047,0x17,0x01
0.269497375000000,1047,0x20,0x01
0.269577125000000,1048,0x32,0x01
0.269651500000000,1048,0x20,0x81
0.269726000000000,1048,0x20,0x01
0.269805750000000,1049,0x32,0x01
0.269880125000000,1049,0x20,0x01
0.269954500000000,1049,0x20,0x01
0.270034375000000,1050,0x32,0x01
0.270108750000000,1050,0x20,0x01
0.270183125000000,1050,0xD7,0x01
0.270264375000000,1051,0x07,0x01
0.270338750000000,1051,0x01,0x01
0.270413250000000,1051,0x32,0x01
0.270747500000000,1052,0x07,0x0F
0.270820375000000,1052,0x00,0x01
0.270894750000000,1052,0x14,0x01
0.270973625000000,1053,0x32,0x01
0.271048000000000,1053,0x00,0x00
0.271122375000000,1053,0x00,0x01
0.271204625000000,1054,0x34,0x01
0.271279000000000,1054,0x80,0x01
0.271353500000000,1054,0x80,0x01
0.271436125000000,1055,0x32,0x01
0.271510625000000,1055,0x0A,0x01
0.271585000000000,1055,0x22,0x01
0.271664750000000,1056,0x32,0x00
0.271739125000000,1056,0x17,0x01
0.271813500000000,1056,0x20,0x81
0.271893375000000,1057,0x32,0x01
0.271967750000000,1057,0x20,0x01
0.272042125000000,1057,0x20,0x01
0.272121875000000,1058,0x32,0x81
0.272196375000000,1058,0x20,0x01
0.272270750000000,1058,0x20,0x01
0.272350500000000,1059,0x32,0x01
0.272424875000000,1059,0x20,0x81
0.272499375000000,1059,0xD7,0x01
0.272580625000000,1060,0x07,0x01
0.272655000000000,1060,0x01,0x01
0.272729375000000,1060,0x14,0x01
0.273064625000000,1061,0x07,0x0F
0.273137625000000,1061,0x00,0x01
0.273212000000000,1061,0x3C,0x01
0.273290750000000,1062,0x32,0x81
0.273365250000000,1062,0x00,0x01
0.273439625000000,1062,0x00,0x01
0.273521875000000,1063,0x34,0x01
0.273596250000000,1063,0x80,0x01
0.273670625000000,1063,0x80,0x01
0.273753375000000,1064,0x32,0x01
0.273827750000000,1064,0x0A,0x01
0.273902125000000,1064,0x22,0x01
0.273982000000000,1065,0x32,0x01
0.274056375000000,1065,0x17,0x01
0.274130750000000,1065,0x20,0x01
0.274210500000000,1066,0x32,0x01
0.274285000000000,1066,0x20,0x01
0.274359375000000,1066,0x20,0x01
0.274439125000000,1067,0x32,0x01
0.274513500000000,1067,0x20,0x01
0.274588000000000,1067,0x20,0x01
0.274667750000000,1068,0x32,0x01
0.274742125000000,1068,0x20,0x01
0.274816500000000,1068,0xD7,0x01
0.274897750000000,1069,0x07,0x01
0.274972250000000,1069,0x01,0x01
0.275046625000000,1069,0x3C,0x01
0.275382875000000,1070,0x07,0x0D
0.275456250000000,1070,0x00,0x01
0.275530625000000,1070,0x1E,0x01
0.275609500000000,1071,0x32,0x01
0.275683875000000,1071,0x00,0x01
0.275758250000000,1071,0x00,0x01
0.275840500000000,1072,0x34,0x00
0.275914875000000,1072,0x80,0x01
0.275989375000000,1072,0x80,0x01
0.276072000000000,1073,0x32,0x01
0.276146500000000,1073,0x0A,0x01
0.276220875000000,1073,0x22,0x01
0.276300625000000,1074,0x32,0x01
0.276375000000000,1074,0x17,0x01
0.276449375000000,1074,0x20,0x01
0.276529250000000,1075,0x32,0x01
0.276603625000000,1075,0x20,0x01
0.276678000000000,1075,0x20,0x01
0.276757750000000,1076,0x32,0x01
0.276832250000000,1076,0x20,0x01
0.276906625000000,1076,0x20,0x01
0.276986375000000,1077,0x32,0x01
0.277060750000000,1077,0x20,0x01
0.277135250000000,1077,0xD7,0x01
0.277216500000000,1078,0x07,0x01
0.277290875000000,1078,0x01,0x01
0.277365250000000,1078,0x1E,0x01
0.277702500000000,1079,0x07,0x0F
0.277775375000000,1079,0x00,0x01
0.277849875000000,1079,0x46,0x01
0.277928625000000,1080,0x32,0x00
0.278003000000000,1080,0x00,0x01
0.278077500000000,1080,0x00,0x01
0.278159625000000,1081,0x34,0x01
0.278234125000000,1081,0x80,0x01
0.278308500000000,1081,0x80,0x01
0.278391250000000,1082,0x32,0x01
0.278465625000000,1082,0x0A,0x01
0.278540000000000,1082,0x22,0x01
0.278619750000000,1083,0x32,0x01
0.278694250000000,1083,0x17,0x01
0.278768625000000,1083,0x20,0x01
0.278848375000000,1084,0x32,0x01
0.278922750000000,1084,0x20,0x01
0.278997125000000,1084,0x20,0x01
0.279077000000000,1085,0x32,0x01
0.279151375000000,1085,0x20,0x01
0.279225750000000,1085,0x20,0x01
0.279305500000000,1086,0x32,0x81
0.279380000000000,1086,0x20,0x01
0.279454375000000,1086,0xD7,0x01
0.279535625000000,1087,0x07,0x01
0.279610000000000,1087,0x01,0x01
0.279684375000000,1087,0x46,0x01
0.280014750000000,1088,0x07,0x0D
0.280088250000000,1088,0x00,0x09
0.280162125000000,1088,0x00,0x01
0.280240875000000,1089,0x32,0x81
0.280315375000000,1089,0x00,0x01
0.280389750000000,1089,0x00,0x01
0.280472000000000,1090,0x34,0x01
0.280546375000000,1090,0x80,0x01
0.280620750000000,1090,0x80,0x01
0.280703500000000,1091,0x32,0x01
0.280777875000000,1091,0x0A,0x01
0.280852375000000,1091,0x22,0x01
0.280932125000000,1092,0x32,0x01
0.281006500000000,1092,0x17,0x00
0.281080875000000,1092,0x20,0x01
0.281160750000000,1093,0x32,0x01
0.281235125000000,1093,0x20,0x01
0.281309500000000,1093,0x20,0x01
0.281389250000000,1094,0x32,0x01
0.281463750000000,1094,0x20,0x01
0.281538125000000,1094,0x20,0x01
0.281617875000000,1095,0x32,0x00
0.281692250000000,1095,0x20,0x01
0.281766625000000,1095,0xD7,0x81
0.281848000000000,1096,0x07,0x01
0.281922375000000,1096,0x01,0x01
0.281996750000000,1096,0x00,0x01
0.282328125000000,1097,0x07,0x0F
0.282401000000000,1097,0x00,0x01
0.282475375000000,1097,0x28,0x01
0.282554250000000,1098,0x32,0x01
0.282628625000000,1098,0x00,0x01
0.282703000000000,1098,0x00,0x01
0.282785250000000,1099,0x34,0x01
0.282859625000000,1099,0x80,0x01
0.282934125000000,1099,0x80,0x01
0.283016750000000,1100,0x32,0x01
0.283091250000000,1100,0x0A,0x01
0.283165625000000,1100,0x22,0x01
0.283245375000000,1101,0x32,0x01
0.283319750000000,1101,0x17,0x01
0.283394250000000,1101,0x20,0x01
0.283474000000000,1102,0x32,0x01
0.283548375000000,1102,0x20,0x00
0.283622750000000,1102,0x20,0x01
0.283702625000000,1103,0x32,0x01
0.283777000000000,1103,0x20,0x01
0.283851375000000,1103,0x20,0x01
0.283931125000000,1104,0x32,0x01
0.284005500000000,1104,0x20,0x01
0.284080000000000,1104,0xD7,0x01
0.284161250000000,1105,0x07,0x01
0.284235625000000,1105,0x01,0x01
0.284310000000000,1105,0x28,0x01
0.284642375000000,1106,0x07,0x0F
0.284715250000000,1106,0x00,0x01
0.284789625000000,1106,0x0A,0x01
0.284868500000000,1107,0x32,0x01
0.284942875000000,1107,0x00,0x01
0.285017250000000,1107,0x00,0x01
0.285099500000000,1108,0x34,0x01
0.285173875000000,1108,0x80,0x01
0.285248250000000,1108,0x80,0x01
0.285331000000000,1109,0x32,0x01
0.285405375000000,1109,0x0A,0x01
0.285479875000000,1109,0x22,0x01
0.285559625000000,1110,0x32,0x01
0.285634000000000,1110,0x17,0x01
0.285708375000000,1110,0x20,0x01
0.285788250000000,1111,0x32,0x01
0.285862625000000,1111,0x20,0x01
0.285937000000000,1111,0x20,0x01
0.286016750000000,1112,0x32,0x01
0.286091250000000,1112,0x20,0x01
0.286165625000000,1112,0x20,0x01
0.286245375000000,1113,0x32,0x01
0.286319750000000,1113,0x20,0x01
0.286394125000000,1113,0xD7,0x81
0.286475375000000,1114,0x07,0x81
0.286549875000000,1114,0x01,0x01
0.286624250000000,1114,0x0A,0x01
0.286957500000000,1115,0x07,0x0F
0.287030500000000,1115,0x00,0x01
0.287104875000000,1115,0x32,0x01
0.287183625000000,1116,0x32,0x81
0.287258125000000,1116,0x00,0x01
0.287332500000000,1116,0x00,0x01
0.287414750000000,1117,0x34,0x01
0.287489125000000,1117,0x80,0x01
0.287563500000000,1117,0x80,0x01
0.287646250000000,1118,0x32,0x01
0.287720625000000,1118,0x0A,0x01
0.287795000000000,1118,0x22,0x01
0.287874875000000,1119,0x32,0x01
0.287949250000000,1119,0x17,0x01
0.288023625000000,1119,0x20,0x01
0.288103375000000,1120,0x32,0x01
0.288177750000000,1120,0x20,0x01
0.288252250000000,1120,0x20,0x01
0.288332000000000,1121,0x32,0x01
0.288406375000000,1121,0x20,0x01
0.288480750000000,1121,0x20,0x01
0.288560625000000,1122,0x32,0x01
0.288635000000000,1122,0x20,0x01
0.288709375000000,1122,0xD7,0x00
0.288790625000000,1123,0x07,0x00
0.288865000000000,1123,0x01,0x01
0.288939500000000,1123,0x32,0x01
0.289273750000000,1124,0x07,0x0F
0.289346625000000,1124,0x00,0x01
0.289421125000000,1124,0x14,0x01
0.289499875000000,1125,0x32,0x01
0.289574250000000,1125,0x00,0x01
0.289648625000000,1125,0x00,0x01
0.289730875000000,1126,0x34,0x01
0.289805250000000,1126,0x80,0x81
0.289879750000000,1126,0x80,0x01
0.289962375000000,1127,0x32,0x81
0.290036875000000,1127,0x0A,0x01
0.290111250000000,1127,0x22,0x01
0.290191000000000,1128,0x32,0x01
0.290265375000000,1128,0x17,0x01
0.290339875000000,1128,0x20,0x01
0.290419625000000,1129,0x32,0x01
0.290494000000000,1129,0x20,0x01
0.290568375000000,1129,0x20,0x01
0.290648250000000,1130,0x32,0x01
0.290722625000000,1130,0x20,0x01
0.290797000000000,1130,0x20,0x01
0.290876750000000,1131,0x32,0x01
0.290951125000000,1131,0x20,0x01
0.291025625000000,1131,0xD7,0x01
0.291106875000000,1132,0x07,0x01
0.291181250000000,1132,0x01,0x01
0.291255625000000,1132,0x14,0x01
0.291590875000000,1133,0x07,0x0F
0.291663875000000,1133,0x00,0x01
0.291738250000000,1133,0x3C,0x01
0.291817000000000,1134,0x32,0x01
0.291891375000000,1134,0x00,0x01
0.291965875000000,1134,0x00,0x01
0.292048000000000,1135,0x34,0x01
0.292122500000000,1135,0x80,0x01
0.292196875000000,1135,0x80,0x01
0.292279625000000,1136,0x32,0x01
0.292354000000000,1136,0x0A,0x01
0.292428375000000,1136,0x22,0x01
0.292508125000000,1137,0x32,0x01
0.292582500000000,1137,0x17,0x01
0.292657000000000,1137,0x20,0x01
0.292736750000000,1138,0x32,0x01
0.292811125000000,1138,0x20,0x01
0.292885500000000,1138,0x20,0x01
0.292965375000000,1139,0x32,0x01
0.293039750000000,1139,0x20,0x01
0.293114125000000,1139,0x20,0x01
0.293193875000000,1140,0x32,0x01
0.293268250000000,1140,0x20,0x01
0.293342750000000,1140,0xD7,0x01
0.293424000000000,1141,0x07,0x01
0.293498375000000,1141,0x01,0x01
0.293572750000000,1141,0x3C,0x01
0.293909000000000,1142,0x07,0x0D
0.293982375000000,1142,0x00,0x01
0.294056750000000,1142,0x1E,0x81
0.294135625000000,1143,0x32,0x01
0.294210000000000,1143,0x00,0x01
0.294284375000000,1143,0x00,0x01
0.294366625000000,1144,0x34,0x01
0.294441000000000,1144,0x80,0x01
0.294515500000000,1144,0x80,0x01
0.294598125000000,1145,0x32,0x01
0.294672625000000,1145,0x0A,0x01
0.294747000000000,1145,0x22,0x01
0.294826750000000,1146,0x32,0x01
0.294901125000000,1146,0x17,0x01
0.294975500000000,1146,0x20,0x01
0.295055375000000,1147,0x32,0x01
0.295129750000000,1147,0x20,0x01
0.295204125000000,1147,0x20,0x00
0.295283875000000,1148,0x32,0x01
0.295358375000000,1148,0x20,0x01
0.295432750000000,1148,0x20,0x01
0.295512500000000,1149,0x32,0x00
0.295586875000000,1149,0x20,0x01
0.295661250000000,1149,0xD7,0x81
0.295742625000000,1150,0x07,0x01
0.295817000000000,1150,0x01,0x01
0.295891375000000,1150,0x1E,0x01
0.296228625000000,1151,0x07,0x0F
0.296301500000000,1151,0x00,0x01
0.296375875000000,1151,0x46,0x01
0.296454750000000,1152,0x32,0x01
0.296529125000000,1152,0x00,0x01
0.296603500000000,1152,0x00,0x01
0.296685750000000,1153,0x34,0x00
0.296760125000000,1153,0x80,0x01
0.296834625000000,1153,0x80,0x01
0.296917250000000,1154,0x32,0x01
0.296991750000000,1154,0x0A,0x01
0.297066125000000,1154,0x22,0x01
0.297145875000000,1155,0x32,0x01
0.297220250000000,1155,0x17,0x01
0.297294625000000,1155,0x20,0x01
0.297374500000000,1156,0x32,0x01
0.297448875000000,1156,0x20,0x01
0.297523250000000,1156,0x20,0x01
0.297603000000000,1157,0x32,0x01
0.297677500000000,1157,0x20,0x01
0.297751875000000,1157,0x20,0x01
0.297831625000000,1158,0x32,0x01
0.297906000000000,1158,0x20,0x01
0.297980500000000,1158,0xD7,0x01
0.298061750000000,1159,0x07,0x01
0.298136125000000,1159,0x01,0x01
0.298210500000000,1159,0x46,0x01
0.298540875000000,1160,0x07,0x0D
0.298614250000000,1160,0x00,0x09
0.298688250000000,1160,0x00,0x01
0.298767000000000,1161,0x32,0x01
0.298841375000000,1161,0x00,0x01
0.298915750000000,1161,0x00,0x81
0.298998000000000,1162,0x34,0x01
0.299072500000000,1162,0x80,0x01
0.299146875000000,1162,0x80,0x01
0.299229625000000,1163,0x32,0x01
0.299304000000000,1163,0x0A,0x01
0.299378375000000,1163,0x22,0x01
0.299458125000000,1164,0x32,0x01
0.299532500000000,1164,0x17,0x81
0.299607000000000,1164,0x20,0x01
0.299686750000000,1165,0x32,0x01
0.299761125000000,1165,0x20,0x01
0.299835500000000,1165,0x20,0x01
0.299915375000000,1166,0x32,0x01
0.299989750000000,1166,0x20,0x01
0.300064125000000,1166,0x20,0x00
0.300143875000000,1167,0x32,0x01
0.300218375000000,1167,0x20,0x01
0.300292750000000,1167,0xD7,0x01
0.300374000000000,1168,0x07,0x01
0.300448375000000,1168,0x01,0x00
0.300522750000000,1168,0x00,0x01
0.300854125000000,1169,0x07,0x0D
0.300927500000000,1169,0x00,0x81
0.301002000000000,1169,0x28,0x01
0.301080750000000,1170,0x32,0x01
0.301155125000000,1170,0x00,0x01
0.301229625000000,1170,0x00,0x01
0.301311750000000,1171,0x34,0x81
0.301386250000000,1171,0x80,0x01
0.301460625000000,1171,0x80,0x01
0.301543375000000,1172,0x32,0x01
0.301617750000000,1172,0x0A,0x01
0.301692125000000,1172,0x22,0x01
0.301771875000000,1173,0x32,0x01
0.301846375000000,1173,0x17,0x01
0.301920750000000,1173,0x20,0x01
0.302000500000000,1174,0x32,0x01
0.302074875000000,1174,0x20,0x01
0.302149250000000,1174,0x20,0x01
0.302229125000000,1175,0x32,0x01
0.302303500000000,1175,0x20,0x01
0.302377875000000,1175,0x20,0x01
0.302457625000000,1176,0x32,0x81
0.302532125000000,1176,0x20,0x01
0.302606500000000,1176,0xD7,0x01
0.302687750000000,1177,0x07,0x01
0.302762125000000,1177,0x01,0x01
0.302836500000000,1177,0x28,0x01
0.303168875000000,1178,0x07,0x0F
0.303241750000000,1178,0x00,0x01
0.303316250000000,1178,0x0A,0x01
0.303395000000000,1179,0x32,0x01
0.303469375000000,1179,0x00,0x01
0.303543875000000,1179,0x00,0x01
0.303626000000000,1180,0x34,0x01
0.303700500000000,1180,0x80,0x01
0.303774875000000,1180,0x80,0x01
0.303857625000000,1181,0x32,0x01
0.303932000000000,1181,0x0A,0x01
0.304006375000000,1181,0x22,0x01
0.304086125000000,1182,0x32,0x01
0.304160500000000,1182,0x17,0x81
0.304235000000000,1182,0x20,0x01
0.304314750000000,1183,0x32,0x01
0.304389125000000,1183,0x20,0x01
0.304463500000000,1183,0x20,0x01
0.304543375000000,1184,0x32,0x01
0.304617750000000,1184,0x20,0x01
0.304692125000000,1184,0x20,0x01
0.304771875000000,1185,0x32,0x01
0.304846375000000,1185,0x20,0x01
0.304920750000000,1185,0xD7,0x01
0.305002000000000,1186,0x07,0x01
0.305076375000000,1186,0x01,0x00
0.305150750000000,1186,0x0A,0x01
0.305484125000000,1187,0x07,0x0F
0.305557000000000,1187,0x00,0x01
0.305631375000000,1187,0x32,0x81
0.305710250000000,1188,0x32,0x01
0.305784625000000,1188,0x00,0x01
0.305859000000000,1188,0x00,0x01
0.305941250000000,1189,0x34,0x01
0.306015625000000,1189,0x80,0x01
0.306090125000000,1189,0x80,0x01
0.306172750000000,1190,0x32,0x01
0.306247250000000,1190,0x0A,0x01
0.306321625000000,1190,0x22,0x01
0.306401375000000,1191,0x32,0x01
0.306475750000000,1191,0x17,0x01
0.306550250000000,1191,0x20,0x01
0.306630000000000,1192,0x32,0x01
0.306704375000000,1192,0x20,0x00
0.306778750000000,1192,0x20,0x01
0.306858625000000,1193,0x32,0x01
0.306933000000000,1193,0x20,0x01
0.307007375000000,1193,0x20,0x00
0.307087125000000,1194,0x32,0x01
0.307161625000000,1194,0x20,0x01
0.307236000000000,1194,0xD7,0x01
0.307317250000000,1195,0x07,0x01
0.307391625000000,1195,0x01,0x00
0.307466000000000,1195,0x32,0x01
0.307800375000000,1196,0x07,0x0F
0.307873250000000,1196,0x00,0x00
0.307947625000000,1196,0x14,0x01
0.308026500000000,1197,0x32,0x01
0.308100875000000,1197,0x00,0x01
0.308175250000000,1197,0x00,0x01
0.308257500000000,1198,0x34,0x01
0.308331875000000,1198,0x80,0x01
0.308406375000000,1198,0x80,0x01
0.308489000000000,1199,0x32,0x01
0.308563500000000,1199,0x0A,0x01
0.308637875000000,1199,0x22,0x01
0.308717625000000,1200,0x32,0x00
0.308792000000000,1200,0x17,0x01
0.308866375000000,1200,0x20,0x81
0.308946250000000,1201,0x32,0x01
0.309020625000000,1201,0x20,0x01
0.309095000000000,1201,0x20,0x01
0.309174750000000,1202,0x32,0x01
0.309249250000000,1202,0x20,0x01
0.309323625000000,1202,0x20,0x01
0.309403375000000,1203,0x32,0x01
0.309477750000000,1203,0x20,0x01
0.309552250000000,1203,0xD7,0x01
0.309633500000000,1204,0x07,0x01
0.309707875000000,1204,0x01,0x01
0.309782250000000,1204,0x14,0x01
0.310117500000000,1205,0x07,0x0F
0.310190500000000,1205,0x00,0x01
0.310264875000000,1205,0x3C,0x01
0.310343625000000,1206,0x32,0x01
0.310418000000000,1206,0x00,0x81
0.310492500000000,1206,0x00,0x01
0.310574750000000,1207,0x34,0x01
0.310649125000000,1207,0x80,0x01
0.310723500000000,1207,0x80,0x01
0.310806250000000,1208,0x32,0x01
0.310880625000000,1208,0x0A,0x01
0.310955000000000,1208,0x22,0x01
0.311034875000000,1209,0x32,0x01
0.311109250000000,1209,0x17,0x01
0.311183625000000,1209,0x20,0x01
0.311263375000000,1210,0x32,0x01
0.311337750000000,1210,0x20,0x01
0.311412250000000,1210,0x20,0x01
0.311492000000000,1211,0x32,0x01
0.311566375000000,1211,0x20,0x01
0.311640750000000,1211,0x20,0x01
0.311720625000000,1212,0x32,0x01
0.311795000000000,1212,0x20,0x01
0.311869375000000,1212,0xD7,0x01
0.311950625000000,1213,0x07,0x01
0.312025000000000,1213,0x01,0x01
0.312099500000000,1213,0x3C,0x01
0.312435750000000,1214,0x07,0x0D
0.312509125000000,1214,0x00,0x01
0.312583500000000,1214,0x1E,0x01
0.312662375000000,1215,0x32,0x01
0.312736750000000,1215,0x00,0x01
0.312811125000000,1215,0x00,0x00
0.312893375000000,1216,0x34,0x01
0.312967750000000,1216,0x80,0x01
0.313042125000000,1216,0x80,0x01
0.313124875000000,1217,0x32,0x01
0.313199250000000,1217,0x0A,0x01
0.313273750000000,1217,0x22,0x01
0.313353500000000,1218,0x32,0x01
0.313427875000000,1218,0x17,0x01
0.313502250000000,1218,0x20,0x01
0.313582000000000,1219,0x32,0x81
0.313656500000000,1219,0x20,0x01
0.313730875000000,1219,0x20,0x01
0.313810625000000,1220,0x32,0x01
0.313885000000000,1220,0x20,0x01
0.313959500000000,1220,0x20,0x01
0.314039250000000,1221,0x32,0x01
0.314113625000000,1221,0x20,0x01
0.314188000000000,1221,0xD7,0x01
0.314269250000000,1222,0x07,0x01
0.314343750000000,1222,0x01,0x01
0.314418125000000,1222,0x1E,0x01
0.314755375000000,1223,0x07,0x0F
0.314828250000000,1223,0x00,0x00
0.314902625000000,1223,0x46,0x01
0.314981500000000,1224,0x32,0x01
0.315055875000000,1224,0x00,0x01
0.315130250000000,1224,0x00,0x01
0.315212500000000,1225,0x34,0x01
0.315286875000000,1225,0x80,0x01
0.315361250000000,1225,0x80,0x01
0.315444000000000,1226,0x32,0x01
0.315518375000000,1226,0x0A,0x01
0.315592875000000,1226,0x22,0x01
0.315672625000000,1227,0x32,0x01
0.315747000000000,1227,0x17,0x01
0.315821375000000,1227,0x20,0x01
0.315901250000000,1228,0x32,0x01
0.315975625000000,1228,0x20,0x01
0.316050000000000,1228,0x20,0x01
0.316129750000000,1229,0x32,0x01
0.316204250000000,1229,0x20,0x01
0.316278625000000,1229,0x20,0x01
0.316358375000000,1230,0x32,0x01
0.316432750000000,1230,0x20,0x01
0.316507125000000,1230,0xD7,0x01
0.316588375000000,1231,0x07,0x01
0.316662875000000,1231,0x01,0x01
0.316737250000000,1231,0x46,0x01
0.317067625000000,1232,0x07,0x0D
0.317141000000000,1232,0x00,0x09
0.317214875000000,1232,0x00,0x01
0.317293750000000,1233,0x32,0x01
0.317368125000000,1233,0x00,0x01
0.317442500000000,1233,0x00,0x01
0.317524750000000,1234,0x34,0x01
0.317599125000000,1234,0x80,0x01
0.317673500000000,1234,0x80,0x01
0.317756250000000,1235,0x32,0x01
0.317830625000000,1235,0x0A,0x01
0.317905125000000,1235,0x22,0x01
0.317984875000000,1236,0x32,0x01
0.318059250000000,1236,0x17,0x01
0.318133625000000,1236,0x20,0x01
0.318213500000000,1237,0x32,0x01
0.318287875000000,1237,0x20,0x01
0.318362250000000,1237,0x20,0x01
0.318442000000000,1238,0x32,0x01
0.318516500000000,1238,0x20,0x01
0.318590875000000,1238,0x20,0x01
0.318670625000000,1239,0x32,0x01
0.318745000000000,1239,0x20,0x01
0.318819375000000,1239,0xD7,0x01
0.318900625000000,1240,0x07,0x81
0.318975125000000,1240,0x01,0x01
0.319049500000000,1240,0x00,0x01
0.319380875000000,1241,0x07,0x0D
0.319454250000000,1241,0x00,0x01
0.319528625000000,1241,0x28,0x01
0.319607500000000,1242,0x32,0x01
0.319681875000000,1242,0x00,0x01
0.319756250000000,1242,0x00,0x00
0.319838500000000,1243,0x34,0x01
0.319912875000000,1243,0x80,0x01
0.319987250000000,1243,0x80,0x01
0.320070000000000,1244,0x32,0x01
0.320144375000000,1244,0x0A,0x01
0.320218875000000,1244,0x22,0x01
0.320298625000000,1245,0x32,0x01
0.320373000000000,1245,0x17,0x01
0.320447375000000,1245,0x20,0x01
0.320527250000000,1246,0x32,0x01
0.320601625000000,1246,0x20,0x01
0.320676000000000,1246,0x20,0x01
0.320755750000000,1247,0x32,0x01
0.320830125000000,1247,0x20,0x01
0.320904625000000,1247,0x20,0x01
0.320984375000000,1248,0x32,0x01
0.321058750000000,1248,0x20,0x01
0.321133125000000,1248,0xD7,0x01
0.321214375000000,1249,0x07,0x01
0.321288875000000,1249,0x01,0x01
0.321363250000000,1249,0x28,0x01
0.321695500000000,1250,0x07,0x0F
0.321768500000000,1250,0x00,0x01
0.321842875000000,1250,0x0A,0x01
0.321921625000000,1251,0x32,0x01
0.321996125000000,1251,0x00,0x01
0.322070500000000,1251,0x00,0x01
0.322152750000000,1252,0x34,0x01
0.322227125000000,1252,0x80,0x01
0.322301500000000,1252,0x80,0x01
0.322384250000000,1253,0x32,0x01
0.322458625000000,1253,0x0A,0x01
0.322533000000000,1253,0x22,0x01
0.322612875000000,1254,0x32,0x01
0.322687250000000,1254,0x18,0x01
0.322761625000000,1254,0x20,0x01
0.322841375000000,1255,0x32,0x01
0.322915750000000,1255,0x20,0x01
0.322990250000000,1255,0x20,0x01
0.323070000000000,1256,0x32,0x01
0.323144375000000,1256,0x20,0x00
0.323218750000000,1256,0x20,0x01
0.323298625000000,1257,0x32,0x01
0.323373000000000,1257,0x20,0x01
0.323447375000000,1257,0xD8,0x01
0.323528625000000,1258,0x07,0x01
0.323603000000000,1258,0x01,0x01
0.323677375000000,1258,0x0A,0x01
0.324010750000000,1259,0x07,0x0F
0.324083625000000,1259,0x00,0x01
0.324158000000000,1259,0x32,0x01
0.324236875000000,1260,0x32,0x01
0.324311250000000,1260,0x00,0x00
0.324385625000000,1260,0x00,0x01
0.324467875000000,1261,0x34,0x01
0.324542250000000,1261,0x80,0x01
0.324616750000000,1261,0x80,0x01
0.324699375000000,1262,0x32,0x01
0.324773875000000,1262,0x0A,0x01
0.324848250000000,1262,0x22,0x01
0.324928000000000,1263,0x32,0x01
0.325002375000000,1263,0x17,0x01
0.325076750000000,1263,0x20,0x01
0.325156625000000,1264,0x32,0x01
0.325231000000000,1264,0x20,0x01
0.325305375000000,1264,0x20,0x01
0.325385125000000,1265,0x32,0x01
0.325459625000000,1265,0x20,0x01
0.325534000000000,1265,0x20,0x01
0.325613750000000,1266,0x32,0x01
0.325688125000000,1266,0x20,0x01
0.325762625000000,1266,0xD7,0x01
0.325843875000000,1267,0x07,0x01
0.325918250000000,1267,0x01,0x01
0.325992625000000,1267,0x32,0x01
0.326326875000000,1268,0x07,0x0F
0.326399875000000,1268,0x00,0x01
0.326474250000000,1268,0x14,0x01
0.326553000000000,1269,0x32,0x01
0.326627500000000,1269,0x00,0x01
0.326701875000000,1269,0x00,0x01
0.326784125000000,1270,0x34,0x01
0.326858500000000,1270,0x80,0x01
0.326932875000000,1270,0x80,0x01
0.327015625000000,1271,0x32,0x01
0.327090000000000,1271,0x0A,0x01
0.327164375000000,1271,0x22,0x01
0.327244250000000,1272,0x32,0x01
0.327318625000000,1272,0x18,0x01
0.327393000000000,1272,0x20,0x01
0.327472750000000,1273,0x32,0x01
0.327547125000000,1273,0x20,0x01
0.327621625000000,1273,0x20,0x01
0.327701375000000,1274,0x32,0x01
0.327775750000000,1274,0x20,0x01
0.327850125000000,1274,0x20,0x01
0.327930000000000,1275,0x32,0x01
0.328004375000000,1275,0x20,0x01
0.328078750000000,1275,0xD8,0x00
0.328160000000000,1276,0x07,0x01
0.328234375000000,1276,0x01,0x01
0.328308875000000,1276,0x14,0x01
0.328644125000000,1277,0x07,0x0F
0.328717000000000,1277,0x00,0x00
0.328791375000000,1277,0x3C,0x01
0.328870250000000,1278,0x32,0x01
0.328944625000000,1278,0x00,0x01
0.329019000000000,1278,0x00,0x01
0.329101250000000,1279,0x34,0x01
0.329175625000000,1279,0x80,0x01
0.329250000000000,1279,0x80,0x01
0.329332750000000,1280,0x32,0x01
0.329407125000000,1280,0x0A,0x01
0.329481625000000,1280,0x22,0x01
0.329561375000000,1281,0x32,0x01
0.329635750000000,1281,0x18,0x00
0.329710125000000,1281,0x20,0x01
0.329790000000000,1282,0x32,0x01
0.329864375000000,1282,0x20,0x01
0.329938750000000,1282,0x20,0x01
0.330018500000000,1283,0x32,0x01
0.330092875000000,1283,0x20,0x81
0.330167375000000,1283,0x20,0x01
0.330247125000000,1284,0x32,0x01
0.330321500000000,1284,0x20,0x01
0.330395875000000,1284,0xD8,0x81
0.330477125000000,1285,0x07,0x81
0.330551625000000,1285,0x01,0x01
0.330626000000000,1285,0x3C,0x01
0.330962250000000,1286,0x07,0x0D
0.331035625000000,1286,0x00,0x01
0.331110125000000,1286,0x1E,0x01
0.331188875000000,1287,0x32,0x01
0.331263250000000,1287,0x00,0x01
0.331337625000000,1287,0x00,0x01
0.331419875000000,1288,0x34,0x01
0.331494250000000,1288,0x80,0x81
0.331568750000000,1288,0x80,0x01
0.331651375000000,1289,0x32,0x81
0.331725875000000,1289,0x0A,0x01
0.331800250000000,1289,0x22,0x01
0.331880000000000,1290,0x32,0x01
0.331954375000000,1290,0x18,0x01
0.332028875000000,1290,0x20,0x01
0.332108625000000,1291,0x32,0x01
0.332183000000000,1291,0x20,0x01
0.332257375000000,1291,0x20,0x01
0.332337250000000,1292,0x32,0x01
0.332411625000000,1292,0x20,0x01
0.332486000000000,1292,0x20,0x01
0.332565750000000,1293,0x32,0x01
0.332640250000000,1293,0x20,0x01
0.332714625000000,1293,0xD8,0x01
0.332795875000000,1294,0x07,0x01
0.332870250000000,1294,0x01,0x00
0.332944625000000,1294,0x1E,0x01
0.333281875000000,1295,0x07,0x0F
0.333354875000000,1295,0x00,0x01
0.333429250000000,1295,0x46,0x01
0.333508000000000,1296,0x32,0x01
0.333582375000000,1296,0x00,0x01
0.333656875000000,1296,0x00,0x01
0.333739000000000,1297,0x34,0x81
0.333813500000000,1297,0x80,0x01
0.333887875000000,1297,0x80,0x01
0.333970625000000,1298,0x32,0x01
0.334045000000000,1298,0x0A,0x01
0.334119375000000,1298,0x22,0x01
0.334199125000000,1299,0x32,0x01
0.334273625000000,1299,0x18,0x01
0.334348000000000,1299,0x20,0x01
0.334427750000000,1300,0x32,0x01
0.334502125000000,1300,0x20,0x01
0.334576500000000,1300,0x20,0x01
0.334656375000000,1301,0x32,0x01
0.334730750000000,1301,0x20,0x01
0.334805125000000,1301,0x20,0x00
0.334884875000000,1302,0x32,0x01
0.334959375000000,1302,0x20,0x01
0.335033750000000,1302,0xD8,0x01
0.335115000000000,1303,0x07,0x01
0.335189375000000,1303,0x01,0x01
0.335263750000000,1303,0x46,0x01
0.335594125000000,1304,0x07,0x0D
0.335667625000000,1304,0x00,0x01
0.335741500000000,1304,0x00,0x01
0.335820250000000,1305,0x32,0x01
0.335894625000000,1305,0x00,0x81
0.335969125000000,1305,0x00,0x01
0.336051375000000,1306,0x34,0x01
0.336125750000000,1306,0x80,0x01
0.336200125000000,1306,0x80,0x01
0.336282875000000,1307,0x32,0x01
0.336357250000000,1307,0x0A,0x01
0.336431625000000,1307,0x22,0x01
0.336511375000000,1308,0x32,0x01
0.336585875000000,1308,0x18,0x01
0.336660250000000,1308,0x20,0x01
0.336740000000000,1309,0x32,0x01
0.336814375000000,1309,0x20,0x01
0.336888750000000,1309,0x20,0x81
0.336968625000000,1310,0x32,0x01
0.337043000000000,1310,0x20,0x01
0.337117375000000,1310,0x20,0x01
0.337197125000000,1311,0x32,0x81
0.337271625000000,1311,0x20,0x01
0.337346000000000,1311,0xD8,0x01
0.337427250000000,1312,0x07,0x01
0.337501625000000,1312,0x01,0x01
0.337576000000000,1312,0x00,0x01
0.337907375000000,1313,0x07,0x0D
0.337980750000000,1313,0x00,0x01
0.338055250000000,1313,0x28,0x01
0.338134000000000,1314,0x32,0x01
0.338208375000000,1314,0x00,0x01
0.338282875000000,1314,0x00,0x01
0.338365000000000,1315,0x34,0x01
0.338439500000000,1315,0x80,0x01
0.338513875000000,1315,0x80,0x01
0.338596625000000,1316,0x32,0x01
0.338671000000000,1316,0x0A,0x01
0.338745375000000,1316,0x22,0x01
0.338825125000000,1317,0x32,0x01
0.338899500000000,1317,0x18,0x81
0.338974000000000,1317,0x20,0x01
0.339053750000000,1318,0x32,0x01
0.339128125000000,1318,0x20,0x01
0.339202500000000,1318,0x20,0x01
0.339282375000000,1319,0x32,0x01
0.339356750000000,1319,0x20,0x01
0.339431125000000,1319,0x20,0x00
0.339510875000000,1320,0x32,0x01
0.339585375000000,1320,0x20,0x01
0.339659750000000,1320,0xD8,0x01
0.339741000000000,1321,0x07,0x01
0.339815375000000,1321,0x01,0x01
0.339889750000000,1321,0x28,0x00
0.340222125000000,1322,0x07,0x0F
0.340295000000000,1322,0x00,0x01
0.340369375000000,1322,0x0A,0x01
0.340448250000000,1323,0x32,0x01
0.340522625000000,1323,0x00,0x01
0.340597000000000,1323,0x00,0x01
0.340679250000000,1324,0x34,0x00
0.340753625000000,1324,0x80,0x01
0.340828125000000,1324,0x80,0x01
0.340910750000000,1325,0x32,0x01
0.340985250000000,1325,0x0A,0x01
0.341059625000000,1325,0x22,0x01
0.341139375000000,1326,0x32,0x01
0.341213750000000,1326,0x18,0x01
0.341288125000000,1326,0x20,0x01
0.341368000000000,1327,0x32,0x01
0.341442375000000,1327,0x20,0x01
0.341516750000000,1327,0x20,0x00
0.341596500000000,1328,0x32,0x01
0.341671000000000,1328,0x20,0x01
0.341745375000000,1328,0x20,0x01
0.341825125000000,1329,0x32,0x01
0.341899500000000,1329,0x20,0x01
0.341973875000000,1329,0xD8,0x81
0.342055125000000,1330,0x07,0x81
0.342129625000000,1330,0x01,0x01
0.342204000000000,1330,0x0A,0x01
0.342537250000000,1331,0x07,0x0F
0.342610250000000,1331,0x00,0x01
0.342684625000000,1331,0x32,0x01
0.342763375000000,1332,0x32,0x81
0.342837875000000,1332,0x00,0x01
0.342912250000000,1332,0x00,0x01
0.342994500000000,1333,0x34,0x01
0.343068875000000,1333,0x80,0x01
0.343143250000000,1333,0x80,0x01
0.343226000000000,1334,0x32,0x01
0.343300375000000,1334,0x0A,0x01
0.343374750000000,1334,0x22,0x01
0.343454625000000,1335,0x32,0x01
0.343529000000000,1335,0x18,0x01
0.343603375000000,1335,0x20,0x01
0.343683125000000,1336,0x32,0x01
0.343757625000000,1336,0x20,0x01
0.343832000000000,1336,0x20,0x01
0.343911750000000,1337,0x32,0x01
0.343986125000000,1337,0x20,0x01
0.344060500000000,1337,0x20,0x01
0.344140375000000,1338,0x32,0x01
0.344214750000000,1338,0x20,0x01
0.344289125000000,1338,0xD8,0x01
0.344370375000000,1339,0x07,0x01
0.344444750000000,1339,0x01,0x01
0.344519250000000,1339,0x32,0x01
0.344853500000000,1340,0x07,0x0F
0.344926375000000,1340,0x00,0x01
0.345000875000000,1340,0x14,0x01
0.345079625000000,1341,0x32,0x01
0.345154000000000,1341,0x00,0x01
0.345228375000000,1341,0x00,0x01
0.345310625000000,1342,0x34,0x01
0.345385000000000,1342,0x80,0x81
0.345459500000000,1342,0x80,0x01
0.345542125000000,1343,0x32,0x01
0.345616625000000,1343,0x0A,0x01
0.345691000000000,1343,0x22,0x01
0.345770750000000,1344,0x32,0x01
0.345845125000000,1344,0x18,0x01
0.345919625000000,1344,0x20,0x01
0.345999375000000,1345,0x32,0x01
0.346073750000000,1345,0x20,0x01
0.346148125000000,1345,0x20,0x01
0.346227875000000,1346,0x32,0x01
0.346302375000000,1346,0x20,0x01
0.346376750000000,1346,0x20,0x01
0.346456500000000,1347,0x32,0x01
0.346530875000000,1347,0x20,0x01
0.346605375000000,1347,0xD8,0x01
0.346686625000000,1348,0x07,0x01
0.346761000000000,1348,0x01,0x01
0.346835375000000,1348,0x14,0x01
0.347170625000000,1349,0x07,0x0F
0.347243625000000,1349,0x00,0x01
0.347318000000000,1349,0x3C,0x01
0.347396750000000,1350,0x32,0x01
0.347471125000000,1350,0x00,0x01
0.347545625000000,1350,0x00,0x01
0.347627875000000,1351,0x34,0x01
0.347702250000000,1351,0x80,0x01
0.347776625000000,1351,0x80,0x01
0.347859375000000,1352,0x32,0x01
0.347933750000000,1352,0x0A,0x01
0.348008125000000,1352,0x22,0x01
0.348087875000000,1353,0x32,0x01
0.348162375000000,1353,0x18,0x01
0.348236750000000,1353,0x20,0x01
0.348316500000000,1354,0x32,0x01
0.348390875000000,1354,0x20,0x01
0.348465250000000,1354,0x20,0x81
0.348545125000000,1355,0x32,0x01
0.348619500000000,1355,0x20,0x01
0.348693875000000,1355,0x20,0x01
0.348773750000000,1356,0x32,0x01
0.348848125000000,1356,0x20,0x01
0.348922500000000,1356,0xD8,0x01
0.349003750000000,1357,0x07,0x01
0.349078125000000,1357,0x01,0x01
0.349152500000000,1357,0x3C,0x01
0.349488750000000,1358,0x07,0x0D
0.349562250000000,1358,0x00,0x01
0.349636625000000,1358,0x1E,0x01
0.349715375000000,1359,0x32,0x01
0.349789875000000,1359,0x00,0x01
0.349864250000000,1359,0x00,0x01
0.349946500000000,1360,0x34,0x01
0.350020875000000,1360,0x80,0x01
0.350095250000000,1360,0x80,0x01
0.350178000000000,1361,0x32,0x01
0.350252375000000,1361,0x0A,0x01
0.350326750000000,1361,0x22,0x01
0.350406500000000,1362,0x32,0x01
0.350481000000000,1362,0x18,0x01
0.350555375000000,1362,0x20,0x01
0.350635125000000,1363,0x32,0x01
0.350709500000000,1363,0x20,0x01
0.350783875000000,1363,0x20,0x01
0.350863750000000,1364,0x32,0x01
0.350938125000000,1364,0x20,0x01
0.351012500000000,1364,0x20,0x01
0.351092250000000,1365,0x32,0x01
0.351166750000000,1365,0x20,0x01
0.351241125000000,1365,0xD8,0x01
0.351322375000000,1366,0x07,0x01
0.351396750000000,1366,0x01,0x01
0.351471125000000,1366,0x1E,0x01
0.351808375000000,1367,0x07,0x0F
0.351881250000000,1367,0x00,0x81
0.351955750000000,1367,0x46,0x01
0.352034500000000,1368,0x32,0x00
0.352108875000000,1368,0x00,0x01
0.352183250000000,1368,0x00,0x81
0.352265500000000,1369,0x34,0x01
0.352340000000000,1369,0x80,0x01
0.352414375000000,1369,0x80,0x01
0.352497000000000,1370,0x32,0x81
0.352571500000000,1370,0x0A,0x01
0.352645875000000,1370,0x22,0x01
0.352725625000000,1371,0x32,0x01
0.352800000000000,1371,0x18,0x01
0.352874500000000,1371,0x20,0x01
0.352954250000000,1372,0x32,0x01
0.353028625000000,1372,0x20,0x01
0.353103000000000,1372,0x20,0x01
0.353182750000000,1373,0x32,0x81
0.353257250000000,1373,0x20,0x01
0.353331625000000,1373,0x20,0x01
0.353411375000000,1374,0x32,0x01
0.353485750000000,1374,0x20,0x01
0.353560250000000,1374,0xD8,0x01
0.353641500000000,1375,0x07,0x01
0.353715875000000,1375,0x01,0x01
0.353790250000000,1375,0x46,0x01
0.354120625000000,1376,0x07,0x0D
0.354194000000000,1376,0x00,0x09
0.354268000000000,1376,0x00,0x01
0.354346750000000,1377,0x32,0x01
0.354421125000000,1377,0x00,0x01
0.354495500000000,1377,0x00,0x81
0.354577750000000,1378,0x34,0x01
0.354652250000000,1378,0x80,0x01
0.354726625000000,1378,0x80,0x01
0.354809250000000,1379,0x32,0x81
0.354883750000000,1379,0x0A,0x01
0.354958125000000,1379,0x22,0x01
0.355037875000000,1380,0x32,0x01
0.355112250000000,1380,0x18,0x01
0.355186750000000,1380,0x20,0x01
0.355266500000000,1381,0x32,0x01
0.355340875000000,1381,0x20,0x01
0.355415250000000,1381,0x20,0x01
0.355495125000000,1382,0x32,0x01
0.355569500000000,1382,0x20,0x01
0.355643875000000,1382,0x20,0x01
0.355723625000000,1383,0x32,0x01
0.355798000000000,1383,0x20,0x81
0.355872500000000,1383,0xD8,0x01
0.355953750000000,1384,0x07,0x01
0.356028125000000,1384,0x01,0x01
0.356102500000000,1384,0x00,0x00
0.356433875000000,1385,0x07,0x0D
0.356507250000000,1385,0x00,0x01
0.356581750000000,1385,0x28,0x01
0.356660500000000,1386,0x32,0x01
0.356734875000000,1386,0x00,0x01
0.356809250000000,1386,0x00,0x01
0.356891500000000,1387,0x34,0x01
0.356965875000000,1387,0x80,0x01
0.357040375000000,1387,0x80,0x01
0.357123000000000,1388,0x32,0x01
0.357197500000000,1388,0x0A,0x01
0.357271875000000,1388,0x22,0x01
0.357351625000000,1389,0x32,0x01
0.357426000000000,1389,0x18,0x01
0.357500375000000,1389,0x20,0x01
0.357580250000000,1390,0x32,0x01
0.357654625000000,1390,0x20,0x01
0.357729000000000,1390,0x20,0x01
0.357808750000000,1391,0x32,0x01
0.357883250000000,1391,0x20,0x01
0.357957625000000,1391,0x20,0x01
0.358037375000000,1392,0x32,0x01
0.358111750000000,1392,0x20,0x01
0.358186125000000,1392,0xD8,0x01
0.358267375000000,1393,0x07,0x01
0.358341875000000,1393,0x01,0x01
0.358416250000000,1393,0x28,0x01
0.358748500000000,1394,0x07,0x8F
0.358821500000000,1394,0x00,0x01
0.358895875000000,1394,0x0A,0x00
0.358974750000000,1395,0x32,0x01
0.359049125000000,1395,0x00,0x01
0.359123500000000,1395,0x00,0x01
0.359205750000000,1396,0x34,0x01
0.359280125000000,1396,0x80,0x01
0.359354500000000,1396,0x80,0x01
0.359437250000000,1397,0x32,0x01
0.359511625000000,1397,0x0A,0x01
0.359586000000000,1397,0x22,0x01
0.359665875000000,1398,0x32,0x01
0.359740250000000,1398,0x18,0x01
0.359814625000000,1398,0x20,0x01
0.359894375000000,1399,0x32,0x01
0.359968875000000,1399,0x20,0x01
0.360043250000000,1399,0x20,0x01
0.360123000000000,1400,0x32,0x00
0.360197375000000,1400,0x20,0x01
0.360271750000000,1400,0x20,0x81
0.360351625000000,1401,0x32,0x01
0.360426000000000,1401,0x20,0x01
0.360500375000000,1401,0xD8,0x01
0.360581625000000,1402,0x07,0x01
0.360656000000000,1402,0x01,0x01
0.360730500000000,1402,0x0A,0x01
0.361063750000000,1403,0x07,0x0F
0.361136625000000,1403,0x00,0x81
0.361211125000000,1403,0x32,0x01
0.361289875000000,1404,0x32,0x01
0.361364250000000,1404,0x00,0x01
0.361438625000000,1404,0x00,0x01
0.361520875000000,1405,0x34,0x01
0.361595250000000,1405,0x80,0x01
0.361669750000000,1405,0x80,0x01
0.361752375000000,1406,0x32,0x01
0.361826875000000,1406,0x0A,0x01
0.361901250000000,1406,0x22,0x01
0.361981000000000,1407,0x32,0x01
0.362055375000000,1407,0x18,0x01
0.362129750000000,1407,0x20,0x01
0.362209625000000,1408,0x32,0x01
0.362284000000000,1408,0x20,0x01
0.362358375000000,1408,0x20,0x01
0.362438125000000,1409,0x32,0x01
0.362512625000000,1409,0x20,0x01
0.362587000000000,1409,0x20,0x01
0.362666750000000,1410,0x32,0x01
0.362741125000000,1410,0x20,0x01
0.362815500000000,1410,0xD8,0x01
0.362896750000000,1411,0x07,0x81
0.362971250000000,1411,0x01,0x01
0.363045625000000,1411,0x32,0x01
0.363379875000000,1412,0x07,0x0F
0.363452875000000,1412,0x00,0x01
0.363527250000000,1412,0x14,0x01
0.363606000000000,1413,0x32,0x01
0.363680375000000,1413,0x00,0x01
0.363754875000000,1413,0x00,0x01
0.363837125000000,1414,0x34,0x01
0.363911500000000,1414,0x80,0x01
0.363985875000000,1414,0x80,0x01
0.364068625000000,1415,0x32,0x01
0.364143000000000,1415,0x0A,0x01
0.364217375000000,1415,0x22,0x01
0.364297125000000,1416,0x32,0x01
0.364371625000000,1416,0x18,0x01
0.364446000000000,1416,0x20,0x01
0.364525750000000,1417,0x32,0x01
0.364600125000000,1417,0x20,0x01
0.364674500000000,1417,0x20,0x01
0.364754375000000,1418,0x32,0x01
0.364828750000000,1418,0x20,0x01
0.364903125000000,1418,0x20,0x01
0.364982875000000,1419,0x32,0x81
0.365057375000000,1419,0x20,0x01
0.365131750000000,1419,0xD8,0x01
0.365213000000000,1420,0x07,0x01
0.365287375000000,1420,0x01,0x00
0.365361750000000,1420,0x14,0x01
0.365697000000000,1421,0x07,0x0F
0.365770000000000,1421,0x00,0x01
0.365844375000000,1421,0x3C,0x01
0.365923125000000,1422,0x32,0x81
0.365997625000000,1422,0x00,0x01
0.366072000000000,1422,0x00,0x01
0.366154250000000,1423,0x34,0x01
0.366228625000000,1423,0x80,0x01
0.366303000000000,1423,0x80,0x01
0.366385750000000,1424,0x32,0x01
0.366460125000000,1424,0x0A,0x01
0.366534500000000,1424,0x22,0x01
0.366614375000000,1425,0x32,0x01
0.366688750000000,1425,0x18,0x01
0.366763125000000,1425,0x20,0x01
0.366842875000000,1426,0x32,0x01
0.366917375000000,1426,0x20,0x01
0.366991750000000,1426,0x20,0x01
0.367071500000000,1427,0x32,0x01
0.367145875000000,1427,0x20,0x01
0.367220250000000,1427,0x20,0x81
0.367300125000000,1428,0x32,0x01
0.367374500000000,1428,0x20,0x01
0.367448875000000,1428,0xD8,0x01
0.367530125000000,1429,0x07,0x01
0.367604500000000,1429,0x01,0x01
0.367679000000000,1429,0x3C,0x01
0.368015125000000,1430,0x07,0x8D
0.368088625000000,1430,0x00,0x01
0.368163000000000,1430,0x1E,0x01
0.368241750000000,1431,0x32,0x81
0.368316250000000,1431,0x00,0x01
0.368390625000000,1431,0x00,0x01
0.368472875000000,1432,0x34,0x01
0.368547250000000,1432,0x80,0x01
0.368621625000000,1432,0x80,0x01
0.368704375000000,1433,0x32,0x01
0.368778750000000,1433,0x0A,0x01
0.368853125000000,1433,0x22,0x01
0.368933000000000,1434,0x32,0x01
0.369007375000000,1434,0x18,0x01
0.369081750000000,1434,0x20,0x01
0.369161500000000,1435,0x32,0x01
0.369235875000000,1435,0x20,0x01
0.369310375000000,1435,0x20,0x01
0.369390125000000,1436,0x32,0x01
0.369464500000000,1436,0x20,0x01
0.369538875000000,1436,0x20,0x01
0.369618750000000,1437,0x32,0x01
0.369693125000000,1437,0x20,0x01
0.369767500000000,1437,0xD8,0x01
0.369848750000000,1438,0x07,0x01
0.369923125000000,1438,0x01,0x01
0.369997500000000,1438,0x1E,0x01
0.370334750000000,1439,0x07,0x0F
0.370407750000000,1439,0x00,0x01
0.370482125000000,1439,0x46,0x01
0.370560875000000,1440,0x32,0x01
0.370635250000000,1440,0x00,0x01
0.370709750000000,1440,0x00,0x01
0.370791875000000,1441,0x34,0x01
0.370866375000000,1441,0x80,0x01
0.370940750000000,1441,0x80,0x01
0.371023500000000,1442,0x32,0x01
0.371097875000000,1442,0x0A,0x01
0.371172250000000,1442,0x22,0x01
0.371252000000000,1443,0x32,0x01
0.371326375000000,1443,0x18,0x01
0.371400875000000,1443,0x20,0x01
0.371480625000000,1444,0x32,0x01
0.371555000000000,1444,0x20,0x01
0.371629375000000,1444,0x20,0x01
0.371709250000000,1445,0x32,0x01
0.371783625000000,1445,0x20,0x01
0.371858000000000,1445,0x20,0x01
0.371937750000000,1446,0x32,0x01
0.372012250000000,1446,0x20,0x01
0.372086625000000,1446,0xD8,0x01
0.372167875000000,1447,0x07,0x01
0.372242250000000,1447,0x01,0x01
0.372316625000000,1447,0x46,0x00
0.372647000000000,1448,0x07,0x0D
0.372720375000000,1448,0x00,0x09
0.372794375000000,1448,0x00,0x01
0.372873125000000,1449,0x32,0x01
0.372947500000000,1449,0x00,0x01
0.373022000000000,1449,0x00,0x01
0.373104125000000,1450,0x34,0x01
0.373178625000000,1450,0x80,0x01
0.373253000000000,1450,0x80,0x01
0.373335750000000,1451,0x32,0x01
0.373410125000000,1451,0x0A,0x01
0.373484500000000,1451,0x22,0x01
0.373564250000000,1452,0x32,0x01
0.373638625000000,1452,0x18,0x01
0.373713125000000,1452,0x20,0x01
0.373792875000000,1453,0x32,0x01
0.373867250000000,1453,0x20,0x01
0.373941625000000,1453,0x20,0x01
0.374021500000000,1454,0x32,0x01
0.374095875000000,1454,0x20,0x01
0.374170250000000,1454,0x20,0x01
0.374250000000000,1455,0x32,0x01
0.374324375000000,1455,0x20,0x01
0.374398875000000,1455,0xD8,0x01
0.374480125000000,1456,0x07,0x01
0.374554500000000,1456,0x01,0x01
0.374628875000000,1456,0x00,0x00
0.374960250000000,1457,0x07,0x0F
0.375033125000000,1457,0x00,0x01
0.375107500000000,1457,0x28,0x81
0.375186375000000,1458,0x32,0x01
0.375260750000000,1458,0x00,0x01
0.375335125000000,1458,0x00,0x01
0.375417375000000,1459,0x34,0x01
0.375491750000000,1459,0x80,0x01
0.375566250000000,1459,0x80,0x01
0.375648875000000,1460,0x32,0x01
0.375723375000000,1460,0x0A,0x01
0.375797750000000,1460,0x22,0x01
0.375877500000000,1461,0x32,0x01
0.375951875000000,1461,0x18,0x01
0.376026250000000,1461,0x20,0x01
0.376106125000000,1462,0x32,0x01
0.376180500000000,1462,0x20,0x01
0.376254875000000,1462,0x20,0x01
0.376334625000000,1463,0x32,0x01
0.376409125000000,1463,0x20,0x01
0.376483500000000,1463,0x20,0x01
0.376563250000000,1464,0x32,0x01
0.376637625000000,1464,0x20,0x01
0.376712000000000,1464,0xD8,0x01
0.376793250000000,1465,0x07,0x81
0.376867750000000,1465,0x01,0x01
0.376942125000000,1465,0x28,0x01
0.377274375000000,1466,0x07,0x8F
0.377347375000000,1466,0x00,0x01
0.377421750000000,1466,0x0A,0x01
0.377500625000000,1467,0x32,0x01
0.377575000000000,1467,0x00,0x01
0.377649375000000,1467,0x00,0x01
0.377731625000000,1468,0x34,0x01
0.377806000000000,1468,0x80,0x01
0.377880375000000,1468,0x80,0x01
0.377963125000000,1469,0x32,0x01
0.378037500000000,1469,0x0A,0x01
0.378111875000000,1469,0x22,0x01
0.378191750000000,1470,0x32,0x01
0.378266125000000,1470,0x18,0x01
0.378340500000000,1470,0x20,0x00
0.378420250000000,1471,0x32,0x01
0.378494750000000,1471,0x20,0x01
0.378569125000000,1471,0x20,0x01
0.378648875000000,1472,0x32,0x00
0.378723250000000,1472,0x20,0x01
0.378797625000000,1472,0x20,0x81
0.378877500000000,1473,0x32,0x01
0.378951875000000,1473,0x20,0x01
0.379026250000000,1473,0xD8,0x01
0.379107500000000,1474,0x07,0x01
0.379181875000000,1474,0x01,0x01
0.379256375000000,1474,0x0A,0x01
0.379589625000000,1475,0x07,0x0F
0.379662500000000,1475,0x00,0x81
0.379737000000000,1475,0x32,0x01
0.379815750000000,1476,0x32,0x00
0.379890125000000,1476,0x00,0x01
0.379964500000000,1476,0x00,0x81
0.380046750000000,1477,0x34,0x01
0.380121250000000,1477,0x80,0x01
0.380195625000000,1477,0x80,0x01
0.380278375000000,1478,0x32,0x01
0.380352750000000,1478,0x0A,0x01
0.380427125000000,1478,0x22,0x01
0.380506875000000,1479,0x32,0x01
0.380581375000000,1479,0x18,0x01
0.380655750000000,1479,0x20,0x01
0.380735500000000,1480,0x32,0x01
0.380809875000000,1480,0x20,0x01
0.380884250000000,1480,0x20,0x01
0.380964125000000,1481,0x32,0x01
0.381038500000000,1481,0x20,0x01
0.381112875000000,1481,0x20,0x01
0.381192625000000,1482,0x32,0x01
0.381267125000000,1482,0x20,0x01
0.381341500000000,1482,0xD8,0x01
0.381422750000000,1483,0x07,0x01
0.381497125000000,1483,0x01,0x01
0.381571500000000,1483,0x32,0x01
0.381905875000000,1484,0x07,0x0F
0.381978750000000,1484,0x00,0x01
0.382053125000000,1484,0x14,0x01
0.382132000000000,1485,0x32,0x01
0.382206375000000,1485,0x00,0x01
0.382280750000000,1485,0x00,0x01
0.382363000000000,1486,0x34,0x01
0.382437375000000,1486,0x80,0x01
0.382511750000000,1486,0x80,0x01
0.382594500000000,1487,0x32,0x01
0.382668875000000,1487,0x0A,0x01
0.382743375000000,1487,0x22,0x01
0.382823125000000,1488,0x32,0x01
0.382897500000000,1488,0x18,0x01
0.382971875000000,1488,0x20,0x01
0.383051750000000,1489,0x32,0x01
0.383126125000000,1489,0x20,0x01
0.383200500000000,1489,0x20,0x00
0.383280250000000,1490,0x32,0x01
0.383354750000000,1490,0x20,0x01
0.383429125000000,1490,0x20,0x01
0.383508875000000,1491,0x32,0x01
0.383583250000000,1491,0x20,0x01
0.383657750000000,1491,0xD8,0x01
0.383739000000000,1492,0x07,0x01
0.383813375000000,1492,0x01,0x01
0.383887750000000,1492,0x14,0x01
0.384223000000000,1493,0x07,0x0F
0.384296000000000,1493,0x00,0x01
0.384370375000000,1493,0x3C,0x01
0.384449125000000,1494,0x32,0x01
0.384523500000000,1494,0x00,0x01
0.384598000000000,1494,0x00,0x01
0.384680250000000,1495,0x34,0x01
0.384754625000000,1495,0x80,0x01
0.384829000000000,1495,0x80,0x01
0.384911750000000,1496,0x32,0x01
0.384986125000000,1496,0x0A,0x01
0.385060500000000,1496,0x22,0x01
0.385140250000000,1497,0x32,0x81
0.385214750000000,1497,0x18,0x01
0.385289125000000,1497,0x20,0x01
0.385368875000000,1498,0x32,0x01
0.385443250000000,1498,0x20,0x01
0.385517750000000,1498,0x20,0x01
0.385597500000000,1499,0x32,0x01
0.385671875000000,1499,0x20,0x00
0.385746250000000,1499,0x20,0x01
0.385826125000000,1500,0x32,0x01
0.385900500000000,1500,0x20,0x01
0.385974875000000,1500,0xD8,0x00
0.386056125000000,1501,0x07,0x01
0.386130500000000,1501,0x01,0x01
0.386204875000000,1501,0x3C,0x81
0.386541125000000,1502,0x07,0x8D
0.386614625000000,1502,0x00,0x01
0.386689000000000,1502,0x1E,0x01
0.386767750000000,1503,0x32,0x81
0.386842250000000,1503,0x00,0x01
0.386916625000000,1503,0x00,0x01
0.386998875000000,1504,0x34,0x01
0.387073250000000,1504,0x80,0x01
0.387147625000000,1504,0x80,0x01
0.387230375000000,1505,0x32,0x01
0.387304750000000,1505,0x0A,0x01
0.387379125000000,1505,0x22,0x01
0.387459000000000,1506,0x32,0x01
0.387533375000000,1506,0x18,0x01
0.387607750000000,1506,0x20,0x01
0.387687500000000,1507,0x32,0x01
0.387761875000000,1507,0x20,0x81
0.387836375000000,1507,0x20,0x01
0.387916125000000,1508,0x32,0x01
0.387990500000000,1508,0x20,0x01
0.388064875000000,1508,0x20,0x01
0.388144750000000,1509,0x32,0x01
0.388219125000000,1509,0x20,0x01
0.388293500000000,1509,0xD8,0x01
0.388374750000000,1510,0x07,0x01
0.388449125000000,1510,0x01,0x01
0.388523625000000,1510,0x1E,0x01
0.388860875000000,1511,0x07,0x0F
0.388933750000000,1511,0x00,0x01
0.389008125000000,1511,0x46,0x01
0.389087000000000,1512,0x32,0x01
0.389161375000000,1512,0x00,0x01
0.389235750000000,1512,0x00,0x01
0.389318000000000,1513,0x34,0x01
0.389392375000000,1513,0x80,0x01
0.389466750000000,1513,0x80,0x01
0.389549500000000,1514,0x32,0x01
0.389623875000000,1514,0x0A,0x01
0.389698250000000,1514,0x22,0x01
0.389778125000000,1515,0x32,0x01
0.389852500000000,1515,0x18,0x01
0.389926875000000,1515,0x20,0x01
0.390006625000000,1516,0x32,0x01
0.390081000000000,1516,0x20,0x81
0.390155500000000,1516,0x20,0x01
0.390235250000000,1517,0x32,0x01
0.390309625000000,1517,0x20,0x01
0.390384000000000,1517,0x20,0x81
0.390463875000000,1518,0x32,0x01
0.390538250000000,1518,0x20,0x01
0.390612625000000,1518,0xD8,0x01
0.390693875000000,1519,0x07,0x01
0.390768250000000,1519,0x01,0x81
0.390842750000000,1519,0x46,0x01
0.391173125000000,1520,0x07,0x0D
0.391246500000000,1520,0x00,0x0D
0.391320375000000,1520,0x00,0x01
0.391399250000000,1521,0x32,0x01
0.391473625000000,1521,0x00,0x01
0.391548000000000,1521,0x00,0x01
0.391630250000000,1522,0x34,0x01
0.391704625000000,1522,0x80,0x01
0.391779000000000,1522,0x80,0x01
0.391861750000000,1523,0x32,0x01
0.391936125000000,1523,0x0A,0x01
0.392010625000000,1523,0x22,0x01
0.392090375000000,1524,0x32,0x01
0.392164750000000,1524,0x18,0x00
0.392239125000000,1524,0x20,0x01
0.392319000000000,1525,0x32,0x01
0.392393375000000,1525,0x20,0x01
0.392467750000000,1525,0x20,0x01
0.392547500000000,1526,0x32,0x01
0.392621875000000,1526,0x20,0x01
0.392696375000000,1526,0x20,0x01
0.392776125000000,1527,0x32,0x01
0.392850500000000,1527,0x20,0x01
0.392924875000000,1527,0xD8,0x01
0.393006125000000,1528,0x07,0x01
0.393080625000000,1528,0x01,0x01
0.393155000000000,1528,0x00,0x01
0.393486375000000,1529,0x07,0x0F
0.393559250000000,1529,0x00,0x00
0.393633625000000,1529,0x28,0x01
0.393712500000000,1530,0x32,0x01
0.393786875000000,1530,0x00,0x01
0.393861250000000,1530,0x00,0x01
0.393943500000000,1531,0x34,0x01
0.394017875000000,1531,0x80,0x01
0.394092250000000,1531,0x80,0x01
0.394175000000000,1532,0x32,0x01
0.394249375000000,1532,0x0A,0x01
0.394323875000000,1532,0x22,0x01
0.394403625000000,1533,0x32,0x01
0.394478000000000,1533,0x18,0x01
0.394552375000000,1533,0x20,0x01
0.394632250000000,1534,0x32,0x01
0.394706625000000,1534,0x20,0x01
0.394781000000000,1534,0x20,0x01
0.394860750000000,1535,0x32,0x01
0.394935250000000,1535,0x20,0x01
0.395009625000000,1535,0x20,0x01
0.395089375000000,1536,0x32,0x00
0.395163750000000,1536,0x20,0x01
0.395238250000000,1536,0xD8,0x01
0.395319500000000,1537,0x07,0x01
0.395393875000000,1537,0x01,0x01
0.395468250000000,1537,0x28,0x01
0.395800625000000,1538,0x07,0x0F
0.395873500000000,1538,0x00,0x01
0.395947875000000,1538,0x0A,0x01
0.396026750000000,1539,0x32,0x01
0.396101125000000,1539,0x00,0x01
0.396175500000000,1539,0x00,0x01
0.396257750000000,1540,0x34,0x01
0.396332125000000,1540,0x80,0x01
0.396406625000000,1540,0x80,0x01
0.396489250000000,1541,0x32,0x01
0.396563750000000,1541,0x0A,0x01
0.396638125000000,1541,0x22,0x01
0.396717875000000,1542,0x32,0x00
0.396792250000000,1542,0x18,0x01
0.396866625000000,1542,0x20,0x01
0.396946500000000,1543,0x32,0x01
0.397020875000000,1543,0x20,0x01
0.397095250000000,1543,0x20,0x01
0.397175000000000,1544,0x32,0x01
0.397249500000000,1544,0x20,0x01
0.397323875000000,1544,0x20,0x01
0.397403625000000,1545,0x32,0x01
0.397478000000000,1545,0x20,0x01
0.397552500000000,1545,0xD8,0x01
0.397633750000000,1546,0x07,0x01
0.397708125000000,1546,0x01,0x01
0.397782500000000,1546,0x0A,0x01
0.398115750000000,1547,0x07,0x8F
0.398188750000000,1547,0x00,0x01
0.398263125000000,1547,0x32,0x00
0.398342000000000,1548,0x32,0x01
0.398416375000000,1548,0x00,0x01
0.398490750000000,1548,0x00,0x01
0.398573000000000,1549,0x34,0x01
0.398647375000000,1549,0x80,0x01
0.398721750000000,1549,0x80,0x01
0.398804500000000,1550,0x32,0x01
0.398878875000000,1550,0x0A,0x01
0.398953250000000,1550,0x22,0x01
0.399033125000000,1551,0x32,0x01
0.399107500000000,1551,0x18,0x01
0.399181875000000,1551,0x20,0x01
0.399261625000000,1552,0x32,0x01
0.399336125000000,1552,0x20,0x01
0.399410500000000,1552,0x20,0x01
0.399490250000000,1553,0x32,0x01
0.399564625000000,1553,0x20,0x01
0.399639125000000,1553,0x20,0x01
0.399718875000000,1554,0x32,0x01
0.399793250000000,1554,0x20,0x01
0.399867625000000,1554,0xD8,0x01
0.399948875000000,1555,0x07,0x01
0.400023375000000,1555,0x01,0x01
0.400097750000000,1555,0x32,0x01
0.400432000000000,1556,0x07,0x0F
0.400505000000000,1556,0x00,0x01
0.400579375000000,1556,0x14,0x01
0.400658125000000,1557,0x32,0x01
0.400732625000000,1557,0x00,0x01
0.400807000000000,1557,0x00,0x01
0.400889250000000,1558,0x34,0x01
0.400963625000000,1558,0x80,0x01
0.401038000000000,1558,0x80,0x00
0.401120750000000,1559,0x32,0x01
0.401195125000000,1559,0x0A,0x01
0.401269500000000,1559,0x22,0x01
0.401349375000000,1560,0x32,0x01
0.401423750000000,1560,0x18,0x01
0.401498125000000,1560,0x20,0x00
0.401577875000000,1561,0x32,0x01
0.401652375000000,1561,0x20,0x01
0.401726750000000,1561,0x20,0x01
0.401806500000000,1562,0x32,0x01
0.401880875000000,1562,0x20,0x01
0.401955375000000,1562,0x20,0x01
0.402035125000000,1563,0x32,0x01
0.402109500000000,1563,0x20,0x01
0.402183875000000,1563,0xD8,0x01
0.402265125000000,1564,0x07,0x01
0.402339625000000,1564,0x01,0x01
0.402414000000000,1564,0x14,0x01
0.402749250000000,1565,0x07,0x0F
0.402822250000000,1565,0x00,0x01
0.402896625000000,1565,0x3C,0x01
0.402975375000000,1566,0x32,0x01
0.403049750000000,1566,0x00,0x01
0.403124250000000,1566,0x00,0x01
0.403206500000000,1567,0x34,0x01
0.403280875000000,1567,0x80,0x01
0.403355250000000,1567,0x80,0x01
0.403438000000000,1568,0x32,0x01
0.403512375000000,1568,0x0A,0x01
0.403586750000000,1568,0x22,0x01
0.403666625000000,1569,0x32,0x01
0.403741000000000,1569,0x18,0x01
0.403815375000000,1569,0x20,0x01
0.403895125000000,1570,0x32,0x01
0.403969500000000,1570,0x20,0x01
0.404044000000000,1570,0x20,0x01
0.404123750000000,1571,0x32,0x01
0.404198125000000,1571,0x20,0x01
0.404272500000000,1571,0x20,0x01
0.404352375000000,1572,0x32,0x01
0.404426750000000,1572,0x20,0x01
0.404501125000000,1572,0xD8,0x00
0.404582375000000,1573,0x07,0x01
0.404656750000000,1573,0x01,0x01
0.404731250000000,1573,0x3C,0x01
0.405067500000000,1574,0x07,0x05
0.405140875000000,1574,0x00,0x01
0.405215250000000,1574,0x1E,0x00
0.405294125000000,1575,0x32,0x01
0.405368500000000,1575,0x00,0x01
0.405442875000000,1575,0x00,0x01
0.405525125000000,1576,0x34,0x01
0.405599500000000,1576,0x80,0x01
0.405673875000000,1576,0x80,0x01
0.405756625000000,1577,0x32,0x01
0.405831000000000,1577,0x0A,0x01
0.405905375000000,1577,0x22,0x81
0.405985250000000,1578,0x32,0x01
0.406059625000000,1578,0x18,0x01
0.406134000000000,1578,0x20,0x01
0.406213750000000,1579,0x32,0x01
0.406288250000000,1579,0x20,0x01
0.406362625000000,1579,0x20,0x01
0.406442375000000,1580,0x32,0x01
0.406516750000000,1580,0x20,0x01
0.406591250000000,1580,0x20,0x01
0.406671000000000,1581,0x32,0x01
0.406745375000000,1581,0x20,0x01
0.406819750000000,1581,0xD8,0x01
0.406901000000000,1582,0x07,0x01
0.406975500000000,1582,0x01,0x01
0.407049875000000,1582,0x1E,0x01
0.407387125000000,1583,0x07,0x0F
0.407460000000000,1583,0x00,0x00
0.407534375000000,1583,0x46,0x01
0.407613250000000,1584,0x32,0x01
0.407687625000000,1584,0x00,0x01
0.407762000000000,1584,0x00,0x01
0.407844250000000,1585,0x34,0x01
0.407918625000000,1585,0x80,0x01
0.407993000000000,1585,0x80,0x01
0.408075750000000,1586,0x32,0x01
0.408150125000000,1586,0x0A,0x01
0.408224625000000,1586,0x22,0x01
0.408304375000000,1587,0x32,0x01
0.408378750000000,1587,0x18,0x00
0.408453125000000,1587,0x20,0x01
0.408533000000000,1588,0x32,0x01
0.408607375000000,1588,0x20,0x01
0.408681750000000,1588,0x20,0x01
0.408761500000000,1589,0x32,0x01
0.408835875000000,1589,0x20,0x01
0.408910375000000,1589,0x20,0x01
0.408990125000000,1590,0x32,0x01
0.409064500000000,1590,0x20,0x01
0.409138875000000,1590,0xD8,0x01
0.409220125000000,1591,0x07,0x01
0.409294625000000,1591,0x01,0x01
0.409369000000000,1591,0x46,0x01
0.409699375000000,1592,0x07,0x0D
0.409772750000000,1592,0x00,0x09
0.409846625000000,1592,0x00,0x01
0.409925500000000,1593,0x32,0x01
0.409999875000000,1593,0x00,0x01
0.410074250000000,1593,0x00,0x01
0.410156500000000,1594,0x34,0x01
0.410230875000000,1594,0x80,0x00
0.410305250000000,1594,0x80,0x01
0.410388000000000,1595,0x32,0x01
0.410462375000000,1595,0x0A,0x01
0.410536875000000,1595,0x22,0x01
0.410616625000000,1596,0x32,0x01
0.410691000000000,1596,0x18,0x01
0.410765375000000,1596,0x20,0x01
0.410845125000000,1597,0x32,0x01
0.410919625000000,1597,0x20,0x01
0.410994000000000,1597,0x20,0x01
0.411073750000000,1598,0x32,0x01
0.411148125000000,1598,0x20,0x01
0.411222625000000,1598,0x20,0x01
0.411302375000000,1599,0x32,0x01
0.411376750000000,1599,0x20,0x01
0.411451125000000,1599,0xD8,0x01
0.411532375000000,1600,0x07,0x01
0.411606750000000,1600,0x01,0x81
0.411681250000000,1600,0x00,0x01
0.412012500000000,1601,0x07,0x8F
0.412085500000000,1601,0x00,0x01
0.412159875000000,1601,0x28,0x01
0.412238750000000,1602,0x32,0x01
0.412313125000000,1602,0x00,0x01
0.412387500000000,1602,0x00,0x01
0.412469750000000,1603,0x34,0x01
0.412544125000000,1603,0x80,0x01
0.412618500000000,1603,0x80,0x01
0.412701250000000,1604,0x32,0x01
0.412775625000000,1604,0x0A,0x01
0.412850000000000,1604,0x22,0x01
0.412929875000000,1605,0x32,0x01
0.413004250000000,1605,0x18,0x01
0.413078625000000,1605,0x20,0x01
0.413158375000000,1606,0x32,0x01
0.413232750000000,1606,0x20,0x01
0.413307250000000,1606,0x20,0x01
0.413387000000000,1607,0x32,0x01
0.413461375000000,1607,0x20,0x00
0.413535750000000,1607,0x20,0x01
0.413615625000000,1608,0x32,0x01
0.413690000000000,1608,0x20,0x01
0.413764375000000,1608,0xD8,0x01
0.413845625000000,1609,0x07,0x01
0.413920000000000,1609,0x01,0x01
0.413994375000000,1609,0x28,0x01
0.414326750000000,1610,0x07,0x0F
0.414399625000000,1610,0x00,0x01
0.414474125000000,1610,0x0A,0x01
0.414552875000000,1611,0x32,0x01
0.414627250000000,1611,0x00,0x01
0.414701625000000,1611,0x00,0x01
0.414783875000000,1612,0x34,0x01
0.414858250000000,1612,0x80,0x81
0.414932750000000,1612,0x80,0x01
0.415015375000000,1613,0x32,0x81
0.415089875000000,1613,0x0A,0x01
0.415164250000000,1613,0x22,0x01
0.415244000000000,1614,0x32,0x01
0.415318375000000,1614,0x18,0x01
0.415392875000000,1614,0x20,0x01
0.415472625000000,1615,0x32,0x01
0.415547000000000,1615,0x20,0x01
0.415621375000000,1615,0x20,0x01
0.415701125000000,1616,0x32,0x81
0.415775625000000,1616,0x20,0x01
0.415850000000000,1616,0x20,0x01
0.415929750000000,1617,0x32,0x01
0.416004125000000,1617,0x20,0x01
0.416078625000000,1617,0xD8,0x01
0.416159875000000,1618,0x07,0x01
0.416234250000000,1618,0x01,0x01
0.416308625000000,1618,0x0A,0x01
0.416641875000000,1619,0x07,0x8F
0.416714875000000,1619,0x00,0x01
0.416789250000000,1619,0x32,0x00
0.416868125000000,1620,0x32,0x01
0.416942500000000,1620,0x00,0x01
0.417016875000000,1620,0x00,0x01
0.417099125000000,1621,0x34,0x01
0.417173500000000,1621,0x80,0x01
0.417247875000000,1621,0x80,0x01
0.417330625000000,1622,0x32,0x01
0.417405000000000,1622,0x0A,0x01
0.417479375000000,1622,0x22,0x01
0.417559250000000,1623,0x32,0x01
0.417633625000000,1623,0x18,0x01
0.417708000000000,1623,0x20,0x00
0.417787750000000,1624,0x32,0x01
0.417862250000000,1624,0x20,0x01
0.417936625000000,1624,0x20,0x01
0.418016375000000,1625,0x32,0x01
0.418090750000000,1625,0x20,0x01
0.418165125000000,1625,0x20,0x81
0.418245000000000,1626,0x32,0x01
0.418319375000000,1626,0x20,0x01
0.418393750000000,1626,0xD8,0x01
0.418475000000000,1627,0x07,0x01
0.418549375000000,1627,0x01,0x01
0.418623875000000,1627,0x32,0x01
0.418958125000000,1628,0x07,0x0F
0.419031000000000,1628,0x00,0x01
0.419105500000000,1628,0x14,0x01
0.419184250000000,1629,0x32,0x01
0.419258625000000,1629,0x00,0x01
0.419333000000000,1629,0x00,0x01
0.419415250000000,1630,0x34,0x00
0.419489625000000,1630,0x80,0x01
0.419564000000000,1630,0x80,0x81
0.419646750000000,1631,0x32,0x01
0.419721125000000,1631,0x0A,0x01
0.419795625000000,1631,0x22,0x01
0.419875375000000,1632,0x32,0x01
0.419949750000000,1632,0x18,0x01
0.420024125000000,1632,0x20,0x01
0.420103875000000,1633,0x32,0x81
0.420178375000000,1633,0x20,0x01
0.420252750000000,1633,0x20,0x01
0.420332500000000,1634,0x32,0x01
0.420406875000000,1634,0x20,0x01
0.420481375000000,1634,0x20,0x01
0.420561125000000,1635,0x32,0x01
0.420635500000000,1635,0x20,0x01
0.420709875000000,1635,0xD8,0x01
0.420791125000000,1636,0x07,0x01
0.420865625000000,1636,0x01,0x01
0.420940000000000,1636,0x14,0x01
0.421275250000000,1637,0x07,0x0F
0.421348125000000,1637,0x00,0x01
0.421422625000000,1637,0x3C,0x01
0.421501375000000,1638,0x32,0x01
0.421575750000000,1638,0x00,0x01
0.421650125000000,1638,0x00,0x01
0.421732375000000,1639,0x34,0x01
0.421806750000000,1639,0x80,0x81
0.421881250000000,1639,0x80,0x01
0.421963875000000,1640,0x32,0x81
0.422038375000000,1640,0x0A,0x01
0.422112750000000,1640,0x22,0x01
0.422192500000000,1641,0x32,0x01
0.422266875000000,1641,0x18,0x01
0.422341375000000,1641,0x20,0x01
0.422421125000000,1642,0x32,0x01
0.422495500000000,1642,0x20,0x01
0.422569875000000,1642,0x20,0x01
0.422649750000000,1643,0x32,0x01
0.422724125000000,1643,0x20,0x01
0.422798500000000,1643,0x20,0x01
0.422878250000000,1644,0x32,0x01
0.422952625000000,1644,0x20,0x81
0.423027125000000,1644,0xD8,0x01
0.423108375000000,1645,0x07,0x01
0.423182750000000,1645,0x01,0x01
0.423257125000000,1645,0x3C,0x01
0.423593375000000,1646,0x07,0x0D
0.423666750000000,1646,0x00,0x81
0.423741250000000,1646,0x1E,0x01
0.423820000000000,1647,0x32,0x01
0.423894375000000,1647,0x00,0x01
0.423968875000000,1647,0x00,0x01
0.424051000000000,1648,0x34,0x01
0.424125500000000,1648,0x80,0x01
0.424199875000000,1648,0x80,0x01
0.424282625000000,1649,0x32,0x01
0.424357000000000,1649,0x0A,0x01
0.424431375000000,1649,0x22,0x01
0.424511125000000,1650,0x32,0x01
0.424585500000000,1650,0x18,0x01
0.424660000000000,1650,0x20,0x01
0.424739750000000,1651,0x32,0x01
0.424814125000000,1651,0x20,0x00
0.424888500000000,1651,0x20,0x01
0.424968375000000,1652,0x32,0x01
0.425042750000000,1652,0x20,0x01
0.425117125000000,1652,0x20,0x01
0.425196875000000,1653,0x32,0x01
0.425271375000000,1653,0x20,0x01
0.425345750000000,1653,0xD8,0x01
0.425427000000000,1654,0x07,0x01
0.425501375000000,1654,0x01,0x01
0.425575750000000,1654,0x1E,0x01
0.425913000000000,1655,0x07,0x0F
0.425985875000000,1655,0x00,0x01
0.426060375000000,1655,0x46,0x01
0.426139125000000,1656,0x32,0x01
0.426213500000000,1656,0x00,0x01
0.426287875000000,1656,0x00,0x01
0.426370125000000,1657,0x34,0x01
0.426444500000000,1657,0x80,0x01
0.426519000000000,1657,0x80,0x01
0.426601625000000,1658,0x32,0x01
0.426676125000000,1658,0x0A,0x01
0.426750500000000,1658,0x22,0x01
0.426830250000000,1659,0x32,0x01
0.426904625000000,1659,0x18,0x01
0.426979000000000,1659,0x20,0x01
0.427058875000000,1660,0x32,0x01
0.427133250000000,1660,0x20,0x01
0.427207625000000,1660,0x20,0x01
0.427287375000000,1661,0x32,0x01
0.427361875000000,1661,0x20,0x01
0.427436250000000,1661,0x20,0x01
0.427516000000000,1662,0x32,0x01
0.427590375000000,1662,0x20,0x01
0.427664750000000,1662,0xD8,0x01
0.427746000000000,1663,0x07,0x01
0.427820500000000,1663,0x01,0x01
0.427894875000000,1663,0x46,0x01
0.428225250000000,1664,0x07,0x0D
0.428298625000000,1664,0x00,0x09
0.428372500000000,1664,0x00,0x01
0.428451375000000,1665,0x32,0x01
0.428525750000000,1665,0x00,0x01
0.428600125000000,1665,0x00,0x01
0.428682375000000,1666,0x34,0x01
0.428756750000000,1666,0x80,0x01
0.428831125000000,1666,0x80,0x01
0.428913875000000,1667,0x32,0x01
0.428988250000000,1667,0x0A,0x01
0.429062750000000,1667,0x22,0x01
0.429142500000000,1668,0x32,0x01
0.429216875000000,1668,0x18,0x01
0.429291250000000,1668,0x20,0x01
0.429371000000000,1669,0x32,0x01
0.429445500000000,1669,0x20,0x01
0.429519875000000,1669,0x20,0x01
0.429599625000000,1670,0x32,0x01
0.429674000000000,1670,0x20,0x01
0.429748500000000,1670,0x20,0x01
0.429828250000000,1671,0x32,0x01
0.429902625000000,1671,0x20,0x01
0.429977000000000,1671,0xD8,0x01
0.430058250000000,1672,0x07,0x01
0.430132750000000,1672,0x01,0x01
0.430207125000000,1672,0x00,0x01
0.430538500000000,1673,0x07,0x0F
0.430611375000000,1673,0x00,0x01
0.430685750000000,1673,0x28,0x01
0.430764625000000,1674,0x32,0x01
0.430839000000000,1674,0x00,0x01
0.430913375000000,1674,0x00,0x01
0.430995625000000,1675,0x34,0x01
0.431070000000000,1675,0x80,0x00
0.431144375000000,1675,0x80,0x01
0.431227125000000,1676,0x32,0x01
0.431301500000000,1676,0x0A,0x01
0.431375875000000,1676,0x22,0x01
0.431455750000000,1677,0x32,0x01
0.431530125000000,1677,0x18,0x01
0.431604500000000,1677,0x20,0x01
0.431684250000000,1678,0x32,0x01
0.431758750000000,1678,0x20,0x01
0.431833125000000,1678,0x20,0x01
0.431912875000000,1679,0x32,0x01
0.431987250000000,1679,0x20,0x01
0.432061750000000,1679,0x20,0x01
0.432141500000000,1680,0x32,0x01
0.432215875000000,1680,0x20,0x00
0.432290250000000,1680,0xD8,0x01
0.432371500000000,1681,0x07,0x01
0.432445875000000,1681,0x01,0x81
0.432520375000000,1681,0x28,0x01
0.432852625000000,1682,0x07,0x0F
0.432925625000000,1682,0x00,0x01
0.433000000000000,1682,0x0A,0x01
0.433078750000000,1683,0x32,0x81
0.433153250000000,1683,0x00,0x01
0.433227625000000,1683,0x00,0x01
0.433309875000000,1684,0x34,0x01
0.433384250000000,1684,0x80,0x01
0.433458625000000,1684,0x80,0x01
0.433541375000000,1685,0x32,0x01
0.433615750000000,1685,0x0A,0x01
0.433690125000000,1685,0x22,0x01
0.433770000000000,1686,0x32,0x01
0.433844375000000,1686,0x18,0x01
0.433918750000000,1686,0x20,0x00
0.433998500000000,1687,0x32,0x01
0.434073000000000,1687,0x20,0x01
0.434147375000000,1687,0x20,0x01
0.434227125000000,1688,0x32,0x01
0.434301500000000,1688,0x20,0x01
0.434375875000000,1688,0x20,0x01
0.434455750000000,1689,0x32,0x01
0.434530125000000,1689,0x20,0x01
0.434604500000000,1689,0xD8,0x00
0.434685750000000,1690,0x07,0x01
0.434760125000000,1690,0x01,0x01
0.434834500000000,1690,0x0A,0x81
0.435167875000000,1691,0x07,0x0F
0.435240750000000,1691,0x00,0x01
0.435315250000000,1691,0x32,0x01
0.435394000000000,1692,0x32,0x00
0.435468375000000,1692,0x00,0x01
0.435542750000000,1692,0x00,0x81
0.435625000000000,1693,0x34,0x01
0.435699500000000,1693,0x80,0x01
0.435773875000000,1693,0x80,0x01
0.435856625000000,1694,0x32,0x01
0.435931000000000,1694,0x0A,0x01
0.436005375000000,1694,0x22,0x01
0.436085125000000,1695,0x32,0x01
0.436159500000000,1695,0x18,0x01
0.436234000000000,1695,0x20,0x01
0.436313750000000,1696,0x32,0x01
0.436388125000000,1696,0x20,0x01
0.436462500000000,1696,0x20,0x01
0.436542375000000,1697,0x32,0x01
0.436616750000000,1697,0x20,0x01
0.436691125000000,1697,0x20,0x01
0.436770875000000,1698,0x32,0x01
0.436845375000000,1698,0x20,0x01
0.436919750000000,1698,0xD8,0x01
0.437001000000000,1699,0x07,0x01
0.437075375000000,1699,0x01,0x01
0.437149750000000,1699,0x32,0x01
0.437484000000000,1700,0x07,0x8F
0.437557000000000,1700,0x00,0x01
0.437631375000000,1700,0x14,0x00
0.437710250000000,1701,0x32,0x01
0.437784625000000,1701,0x00,0x01
0.437859000000000,1701,0x00,0x01
0.437941250000000,1702,0x34,0x01
0.438015625000000,1702,0x80,0x00
0.438090000000000,1702,0x80,0x01
0.438172750000000,1703,0x32,0x00
0.438247125000000,1703,0x0A,0x01
0.438321625000000,1703,0x22,0x01
0.438401375000000,1704,0x32,0x01
0.438475750000000,1704,0x18,0x01
0.438550125000000,1704,0x20,0x01
0.438629875000000,1705,0x32,0x01
0.438704375000000,1705,0x20,0x01
0.438778750000000,1705,0x20,0x01
0.438858500000000,1706,0x32,0x01
0.438932875000000,1706,0x20,0x01
0.439007375000000,1706,0x20,0x01
0.439087125000000,1707,0x32,0x01
0.439161500000000,1707,0x20,0x00
0.439235875000000,1707,0xD8,0x01
0.439317125000000,1708,0x07,0x01
0.439391500000000,1708,0x01,0x81
0.439466000000000,1708,0x14,0x01
0.439801250000000,1709,0x07,0x0F
0.439874125000000,1709,0x00,0x01
0.439948500000000,1709,0x3C,0x01
0.440027375000000,1710,0x32,0x01
0.440101750000000,1710,0x00,0x01
0.440176125000000,1710,0x00,0x01
0.440258375000000,1711,0x34,0x01
0.440332750000000,1711,0x80,0x01
0.440407250000000,1711,0x80,0x01
0.440489875000000,1712,0x32,0x01
0.440564375000000,1712,0x0A,0x01
0.440638750000000,1712,0x22,0x01
0.440718500000000,1713,0x32,0x01
0.440792875000000,1713,0x18,0x01
0.440867250000000,1713,0x20,0x01
0.440947125000000,1714,0x32,0x01
0.441021500000000,1714,0x20,0x01
0.441095875000000,1714,0x20,0x00
0.441175625000000,1715,0x32,0x01
0.441250125000000,1715,0x20,0x01
0.441324500000000,1715,0x20,0x01
0.441404250000000,1716,0x32,0x00
0.441478625000000,1716,0x20,0x01
0.441553000000000,1716,0xD8,0x81
0.441634375000000,1717,0x07,0x01
0.441708750000000,1717,0x01,0x01
0.441783125000000,1717,0x3C,0x01
0.442119375000000,1718,0x07,0x0D
0.442192750000000,1718,0x00,0x01
0.442267125000000,1718,0x1E,0x01
0.442346000000000,1719,0x32,0x01
0.442420375000000,1719,0x00,0x01
0.442494750000000,1719,0x00,0x01
0.442577000000000,1720,0x34,0x00
0.442651375000000,1720,0x80,0x01
0.442725750000000,1720,0x80,0x01
0.442808500000000,1721,0x32,0x01
0.442882875000000,1721,0x0A,0x01
0.442957375000000,1721,0x22,0x01
0.443037125000000,1722,0x32,0x01
0.443111500000000,1722,0x18,0x01
0.443185875000000,1722,0x20,0x01
0.443265750000000,1723,0x32,0x01
0.443340125000000,1723,0x20,0x01
0.443414500000000,1723,0x20,0x01
0.443494250000000,1724,0x32,0x01
0.443568750000000,1724,0x20,0x01
0.443643125000000,1724,0x20,0x01
0.443722875000000,1725,0x32,0x01
0.443797250000000,1725,0x20,0x01
0.443871750000000,1725,0xD8,0x01
0.443953000000000,1726,0x07,0x01
0.444027375000000,1726,0x01,0x01
0.444101750000000,1726,0x1E,0x01
0.444439000000000,1727,0x07,0x0F
0.444511875000000,1727,0x00,0x01
0.444586250000000,1727,0x46,0x81
0.444665125000000,1728,0x32,0x01
0.444739500000000,1728,0x00,0x01
0.444813875000000,1728,0x00,0x01
0.444896125000000,1729,0x34,0x01
0.444970500000000,1729,0x80,0x01
0.445045000000000,1729,0x80,0x01
0.445127625000000,1730,0x32,0x01
0.445202125000000,1730,0x0A,0x01
0.445276500000000,1730,0x22,0x01
0.445356250000000,1731,0x32,0x01
0.445430625000000,1731,0x18,0x01
0.445505125000000,1731,0x20,0x01
0.445584875000000,1732,0x32,0x01
0.445659250000000,1732,0x20,0x01
0.445733625000000,1732,0x20,0x01
0.445813500000000,1733,0x32,0x01
0.445887875000000,1733,0x20,0x01
0.445962250000000,1733,0x20,0x00
0.446042000000000,1734,0x32,0x01
0.446116500000000,1734,0x20,0x01
0.446190875000000,1734,0xD8,0x01
0.446272125000000,1735,0x07,0x01
0.446346500000000,1735,0x01,0x01
0.446420875000000,1735,0x46,0x01
0.446751250000000,1736,0x07,0x0D
0.446824750000000,1736,0x00,0x09
0.446898625000000,1736,0x00,0x01
0.446977375000000,1737,0x32,0x01
0.447051750000000,1737,0x00,0x81
0.447126250000000,1737,0x00,0x01
0.447208500000000,1738,0x34,0x01
0.447282875000000,1738,0x80,0x01
0.447357250000000,1738,0x80,0x01
0.447440000000000,1739,0x32,0x01
0.447514375000000,1739,0x0A,0x01
0.447588750000000,1739,0x22,0x01
0.447668500000000,1740,0x32,0x81
0.447743000000000,1740,0x18,0x01
0.447817375000000,1740,0x20,0x01
0.447897125000000,1741,0x32,0x01
0.447971500000000,1741,0x20,0x01
0.448046000000000,1741,0x20,0x01
0.448125750000000,1742,0x32,0x01
0.448200125000000,1742,0x20,0x01
0.448274500000000,1742,0x20,0x01
0.448354375000000,1743,0x32,0x01
0.448428750000000,1743,0x20,0x01
0.448503125000000,1743,0xD8,0x01
0.448584375000000,1744,0x07,0x00
0.448658750000000,1744,0x01,0x01
0.448733125000000,1744,0x00,0x81
0.449064500000000,1745,0x07,0x0F
0.449137500000000,1745,0x00,0x01
0.449211875000000,1745,0x28,0x01
0.449290625000000,1746,0x32,0x01
0.449365125000000,1746,0x00,0x01
0.449439500000000,1746,0x00,0x01
0.449521750000000,1747,0x34,0x01
0.449596125000000,1747,0x80,0x01
0.449670500000000,1747,0x80,0x01
0.449753250000000,1748,0x32,0x01
0.449827625000000,1748,0x0A,0x01
0.449902000000000,1748,0x22,0x01
0.449981750000000,1749,0x32,0x81
0.450056250000000,1749,0x18,0x01
0.450130625000000,1749,0x20,0x01
0.450210375000000,1750,0x32,0x01
0.450284750000000,1750,0x20,0x01
0.450359250000000,1750,0x20,0x01
0.450439000000000,1751,0x32,0x01
0.450513375000000,1751,0x20,0x01
0.450587750000000,1751,0x20,0x01
0.450667500000000,1752,0x32,0x81
0.450742000000000,1752,0x20,0x01
0.450816375000000,1752,0xD8,0x01
0.450897625000000,1753,0x07,0x01
0.450972000000000,1753,0x01,0x00
0.451046375000000,1753,0x28,0x01
0.451378750000000,1754,0x07,0x0F
0.451451625000000,1754,0x00,0x01
0.451526125000000,1754,0x0A,0x01
0.451604875000000,1755,0x32,0x01
0.451679250000000,1755,0x00,0x01
0.451753625000000,1755,0x00,0x01
0.451835875000000,1756,0x34,0x01
0.451910250000000,1756,0x80,0x01
0.451984750000000,1756,0x80,0x01
0.452067375000000,1757,0x32,0x01
0.452141875000000,1757,0x0A,0x01
0.452216250000000,1757,0x22,0x01
0.452296000000000,1758,0x32,0x00
0.452370375000000,1758,0x18,0x01
0.452444750000000,1758,0x20,0x81
0.452524625000000,1759,0x32,0x01
0.452599000000000,1759,0x20,0x01
0.452673375000000,1759,0x20,0x00
0.452753125000000,1760,0x32,0x01
0.452827625000000,1760,0x20,0x01
0.452902000000000,1760,0x20,0x01
0.452981750000000,1761,0x32,0x01
0.453056125000000,1761,0x20,0x01
0.453130500000000,1761,0xD8,0x01
0.453211750000000,1762,0x07,0x81
0.453286250000000,1762,0x01,0x01
0.453360625000000,1762,0x0A,0x01
0.453693875000000,1763,0x07,0x0F
0.453766875000000,1763,0x00,0x01
0.453841250000000,1763,0x32,0x01
0.453920000000000,1764,0x32,0x01
0.453994375000000,1764,0x00,0x01
0.454068875000000,1764,0x00,0x01
0.454151000000000,1765,0x34,0x81
0.454225500000000,1765,0x80,0x01
0.454299875000000,1765,0x80,0x01
0.454382625000000,1766,0x32,0x01
0.454457000000000,1766,0x0A,0x01
0.454531375000000,1766,0x22,0x01
0.454611125000000,1767,0x32,0x01
0.454685625000000,1767,0x18,0x01
0.454760000000000,1767,0x20,0x01
0.454839750000000,1768,0x32,0x01
0.454914125000000,1768,0x20,0x01
0.454988500000000,1768,0x20,0x01
0.455068375000000,1769,0x32,0x01
0.455142750000000,1769,0x20,0x01
0.455217125000000,1769,0x20,0x00
0.455296875000000,1770,0x32,0x01
0.455371375000000,1770,0x20,0x01
0.455445750000000,1770,0xD8,0x01
0.455527000000000,1771,0x07,0x01
0.455601375000000,1771,0x01,0x01
0.455675750000000,1771,0x32,0x01
0.456010000000000,1772,0x07,0x8F
0.456083000000000,1772,0x00,0x01
0.456157375000000,1772,0x14,0x00
0.456236250000000,1773,0x32,0x01
0.456310625000000,1773,0x00,0x01
0.456385000000000,1773,0x00,0x01
0.456467250000000,1774,0x34,0x01
0.456541625000000,1774,0x80,0x01
0.456616000000000,1774,0x80,0x01
0.456698750000000,1775,0x32,0x01
0.456773125000000,1775,0x0A,0x01
0.456847500000000,1775,0x22,0x01
0.456927375000000,1776,0x32,0x01
0.457001750000000,1776,0x18,0x01
0.457076125000000,1776,0x20,0x01
0.457155875000000,1777,0x32,0x01
0.457230250000000,1777,0x20,0x81
0.457304750000000,1777,0x20,0x01
0.457384500000000,1778,0x32,0x01
0.457458875000000,1778,0x20,0x01
0.457533250000000,1778,0x20,0x01
0.457613125000000,1779,0x32,0x01
0.457687500000000,1779,0x20,0x01
0.457761875000000,1779,0xD8,0x01
0.457843125000000,1780,0x07,0x00
0.457917500000000,1780,0x01,0x01
0.457991875000000,1780,0x14,0x81
0.458327250000000,1781,0x07,0x0F
0.458400125000000,1781,0x00,0x01
0.458474500000000,1781,0x3C,0x01
0.458553375000000,1782,0x32,0x01
0.458627750000000,1782,0x00,0x01
0.458702125000000,1782,0x00,0x01
0.458784375000000,1783,0x34,0x01
0.458858750000000,1783,0x80,0x01
0.458933125000000,1783,0x80,0x01
0.459015875000000,1784,0x32,0x01
0.459090250000000,1784,0x0A,0x01
0.459164750000000,1784,0x22,0x01
0.459244500000000,1785,0x32,0x01
0.459318875000000,1785,0x18,0x01
0.459393250000000,1785,0x20,0x01
0.459473000000000,1786,0x32,0x01
0.459547500000000,1786,0x20,0x01
0.459621875000000,1786,0x20,0x01
0.459701625000000,1787,0x32,0x01
0.459776000000000,1787,0x20,0x01
0.459850375000000,1787,0x20,0x01
0.459930250000000,1788,0x32,0x01
0.460004625000000,1788,0x20,0x01
0.460079000000000,1788,0xD8,0x01
0.460160250000000,1789,0x07,0x00
0.460234625000000,1789,0x01,0x01
0.460309000000000,1789,0x3C,0x81
0.460645250000000,1790,0x07,0x0F
0.460718750000000,1790,0x00,0x01
0.460793125000000,1790,0x1E,0x01
0.460871875000000,1791,0x32,0x01
0.460946375000000,1791,0x00,0x01
0.461020750000000,1791,0x00,0x01
0.461103000000000,1792,0x34,0x01
0.461177375000000,1792,0x80,0x01
0.461251750000000,1792,0x80,0x01
0.461334500000000,1793,0x32,0x01
0.461408875000000,1793,0x0A,0x01
0.461483250000000,1793,0x22,0x01
0.461563125000000,1794,0x32,0x01
0.461637500000000,1794,0x18,0x01
0.461711875000000,1794,0x20,0x01
0.461791625000000,1795,0x32,0x01
0.461866000000000,1795,0x20,0x81
0.461940500000000,1795,0x20,0x01
0.462020250000000,1796,0x32,0x01
0.462094625000000,1796,0x20,0x01
0.462169000000000,1796,0x20,0x01
0.462248875000000,1797,0x32,0x01
0.462323250000000,1797,0x20,0x01
0.462397625000000,1797,0xD8,0x01
0.462478875000000,1798,0x07,0x01
0.462553250000000,1798,0x01,0x01
0.462627750000000,1798,0x1E,0x01
0.462964875000000,1799,0x07,0x0F
0.463037875000000,1799,0x00,0x01
0.463112250000000,1799,0x46,0x01
0.463191000000000,1800,0x32,0x01
0.463265500000000,1800,0x00,0x01
0.463339875000000,1800,0x00,0x01
0.463422125000000,1801,0x34,0x01
0.463496500000000,1801,0x80,0x01
0.463570875000000,1801,0x80,0x00
0.463653625000000,1802,0x32,0x01
0.463728000000000,1802,0x0A,0x00
0.463802375000000,1802,0x22,0x01
0.463882250000000,1803,0x32,0x01
0.463956625000000,1803,0x18,0x01
0.464031000000000,1803,0x20,0x01
0.464110750000000,1804,0x32,0x01
0.464185125000000,1804,0x20,0x01
0.464259625000000,1804,0x20,0x01
0.464339375000000,1805,0x32,0x01
0.464413750000000,1805,0x20,0x01
0.464488125000000,1805,0x20,0x01
0.464568000000000,1806,0x32,0x01
0.464642375000000,1806,0x20,0x01
0.464716750000000,1806,0xD8,0x01
0.464798000000000,1807,0x07,0x01
0.464872375000000,1807,0x01,0x01
0.464946750000000,1807,0x46,0x01
0.465277125000000,1808,0x07,0x0D
0.465350625000000,1808,0x00,0x09
0.465424500000000,1808,0x00,0x01
0.465503375000000,1809,0x32,0x01
0.465577750000000,1809,0x00,0x01
0.465652125000000,1809,0x00,0x01
0.465734375000000,1810,0x34,0x01
0.465808750000000,1810,0x80,0x00
0.465883125000000,1810,0x80,0x01
0.465965875000000,1811,0x32,0x00
0.466040250000000,1811,0x0A,0x01
0.466114625000000,1811,0x22,0x81
0.466194500000000,1812,0x32,0x01
0.466268875000000,1812,0x18,0x01
0.466343250000000,1812,0x20,0x01
0.466423000000000,1813,0x32,0x01
0.466497500000000,1813,0x20,0x01
0.466571875000000,1813,0x20,0x01
0.466651625000000,1814,0x32,0x01
0.466726000000000,1814,0x20,0x01
0.466800500000000,1814,0x20,0x01
0.466880250000000,1815,0x32,0x01
0.466954625000000,1815,0x20,0x00
0.467029000000000,1815,0xD8,0x01
0.467110250000000,1816,0x07,0x01
0.467184750000000,1816,0x01,0x01
0.467259125000000,1816,0x00,0x01
0.467590500000000,1817,0x07,0x0D
0.467663875000000,1817,0x00,0x01
0.467738250000000,1817,0x28,0x01
0.467817125000000,1818,0x32,0x01
0.467891500000000,1818,0x00,0x01
0.467965875000000,1818,0x00,0x01
0.468048125000000,1819,0x34,0x01
0.468122500000000,1819,0x80,0x01
0.468196875000000,1819,0x80,0x01
0.468279625000000,1820,0x32,0x01
0.468354000000000,1820,0x0A,0x01
0.468428500000000,1820,0x22,0x01
0.468508250000000,1821,0x32,0x01
0.468582625000000,1821,0x18,0x01
0.468657000000000,1821,0x20,0x01
0.468736875000000,1822,0x32,0x01
0.468811250000000,1822,0x20,0x01
0.468885625000000,1822,0x20,0x01
0.468965375000000,1823,0x32,0x01
0.469039875000000,1823,0x20,0x01
0.469114250000000,1823,0x20,0x01
0.469194000000000,1824,0x32,0x01
0.469268375000000,1824,0x20,0x01
0.469342875000000,1824,0xD8,0x01
0.469424125000000,1825,0x07,0x01
0.469498500000000,1825,0x01,0x01
0.469572875000000,1825,0x28,0x01
0.469905250000000,1826,0x07,0x0F
0.469978125000000,1826,0x00,0x01
0.470052500000000,1826,0x0A,0x01
0.470131375000000,1827,0x32,0x01
0.470205750000000,1827,0x00,0x01
0.470280125000000,1827,0x00,0x01
0.470362375000000,1828,0x34,0x01
0.470436750000000,1828,0x80,0x01
0.470511250000000,1828,0x80,0x01
0.470593875000000,1829,0x32,0x01
0.470668250000000,1829,0x0A,0x81
0.470742750000000,1829,0x22,0x01
0.470822500000000,1830,0x32,0x01
0.470896875000000,1830,0x18,0x01
0.470971250000000,1830,0x20,0x01
0.471051125000000,1831,0x32,0x01
0.471125500000000,1831,0x20,0x01
0.471199875000000,1831,0x20,0x01
0.471279625000000,1832,0x32,0x01
0.471354125000000,1832,0x20,0x01
0.471428500000000,1832,0x20,0x01
0.471508250000000,1833,0x32,0x01
0.471582625000000,1833,0x20,0x01
0.471657125000000,1833,0xD8,0x01
0.471738375000000,1834,0x07,0x01
0.471812750000000,1834,0x01,0x01
0.471887125000000,1834,0x0A,0x01
0.472220500000000,1835,0x07,0x0F
0.472293375000000,1835,0x00,0x00
0.472367750000000,1835,0x32,0x01
0.472446625000000,1836,0x32,0x01
0.472521000000000,1836,0x00,0x01
0.472595375000000,1836,0x00,0x01
0.472677625000000,1837,0x34,0x00
0.472752000000000,1837,0x80,0x01
0.472826500000000,1837,0x80,0x01
0.472909125000000,1838,0x32,0x01
0.472983625000000,1838,0x0A,0x01
0.473058000000000,1838,0x22,0x01
0.473137750000000,1839,0x32,0x01
0.473212125000000,1839,0x18,0x01
0.473286500000000,1839,0x20,0x01
0.473366375000000,1840,0x32,0x01
0.473440750000000,1840,0x20,0x01
0.473515125000000,1840,0x20,0x01
0.473594875000000,1841,0x32,0x01
0.473669375000000,1841,0x20,0x01
0.473743750000000,1841,0x20,0x01
0.473823500000000,1842,0x32,0x01
0.473897875000000,1842,0x20,0x01
0.473972375000000,1842,0xD8,0x01
0.474053625000000,1843,0x07,0x01
0.474128000000000,1843,0x01,0x01
0.474202375000000,1843,0x32,0x00
0.474536625000000,1844,0x07,0x0F
0.474609625000000,1844,0x00,0x01
0.474684000000000,1844,0x14,0x00
0.474762875000000,1845,0x32,0x01
0.474837250000000,1845,0x00,0x01
0.474911625000000,1845,0x00,0x01
0.474993875000000,1846,0x34,0x01
0.475068250000000,1846,0x80,0x01
0.475142625000000,1846,0x80,0x01
0.475225375000000,1847,0x32,0x00
0.475299750000000,1847,0x0A,0x01
0.475374250000000,1847,0x22,0x01
0.475454000000000,1848,0x32,0x01
0.475528375000000,1848,0x18,0x01
0.475602750000000,1848,0x20,0x01
0.475682625000000,1849,0x32,0x01
0.475757000000000,1849,0x20,0x01
0.475831375000000,1849,0x20,0x01
0.475911125000000,1850,0x32,0x01
0.475985500000000,1850,0x20,0x81
0.476060000000000,1850,0x20,0x01
0.476139750000000,1851,0x32,0x01
0.476214125000000,1851,0x20,0x01
0.476288500000000,1851,0xD8,0x81
0.476369875000000,1852,0x07,0x01
0.476444250000000,1852,0x01,0x01
0.476518625000000,1852,0x14,0x01
0.476853875000000,1853,0x07,0x0F
0.476926875000000,1853,0x00,0x01
0.477001250000000,1853,0x3C,0x01
0.477080000000000,1854,0x32,0x01
0.477154375000000,1854,0x00,0x81
0.477228875000000,1854,0x00,0x01
0.477311125000000,1855,0x34,0x01
0.477385500000000,1855,0x80,0x01
0.477459875000000,1855,0x80,0x01
0.477542625000000,1856,0x32,0x01
0.477617000000000,1856,0x0A,0x01
0.477691375000000,1856,0x22,0x01
0.477771250000000,1857,0x32,0x01
0.477845625000000,1857,0x18,0x01
0.477920000000000,1857,0x20,0x01
0.477999750000000,1858,0x32,0x01
0.478074125000000,1858,0x20,0x01
0.478148625000000,1858,0x20,0x01
0.478228375000000,1859,0x32,0x01
0.478302750000000,1859,0x20,0x01
0.478377125000000,1859,0x20,0x01
0.478457000000000,1860,0x32,0x01
0.478531375000000,1860,0x20,0x01
0.478605750000000,1860,0xD8,0x01
0.478687000000000,1861,0x07,0x01
0.478761375000000,1861,0x01,0x01
0.478835875000000,1861,0x3C,0x01
0.479172125000000,1862,0x07,0x0D
0.479245500000000,1862,0x00,0x01
0.479319875000000,1862,0x1E,0x01
0.479398750000000,1863,0x32,0x01
0.479473125000000,1863,0x00,0x01
0.479547500000000,1863,0x00,0x00
0.479629750000000,1864,0x34,0x01
0.479704125000000,1864,0x80,0x01
0.479778500000000,1864,0x80,0x01
0.479861250000000,1865,0x32,0x01
0.479935625000000,1865,0x0A,0x01
0.480010125000000,1865,0x22,0x01
0.480089875000000,1866,0x32,0x01
0.480164250000000,1866,0x18,0x00
0.480238625000000,1866,0x20,0x01
0.480318500000000,1867,0x32,0x01
0.480392875000000,1867,0x20,0x01
0.480467250000000,1867,0x20,0x01
0.480547000000000,1868,0x32,0x01
0.480621500000000,1868,0x20,0x01
0.480695875000000,1868,0x20,0x01
0.480775625000000,1869,0x32,0x00
0.480850000000000,1869,0x20,0x01
0.480924500000000,1869,0xD8,0x01
0.481005750000000,1870,0x07,0x01
0.481080125000000,1870,0x01,0x01
0.481154500000000,1870,0x1E,0x01
0.481491750000000,1871,0x07,0x0F
0.481564625000000,1871,0x00,0x01
0.481639125000000,1871,0x46,0x01
0.481717875000000,1872,0x32,0x01
0.481792250000000,1872,0x00,0x01
0.481866625000000,1872,0x00,0x01
0.481948875000000,1873,0x34,0x01
0.482023250000000,1873,0x80,0x01
0.482097750000000,1873,0x80,0x01
0.482180375000000,1874,0x32,0x01
0.482254875000000,1874,0x0A,0x01
0.482329250000000,1874,0x22,0x01
0.482409000000000,1875,0x32,0x01
0.482483375000000,1875,0x18,0x01
0.482557875000000,1875,0x20,0x01
0.482637625000000,1876,0x32,0x01
0.482712000000000,1876,0x20,0x01
0.482786375000000,1876,0x20,0x01
0.482866250000000,1877,0x32,0x01
0.482940625000000,1877,0x20,0x01
0.483015000000000,1877,0x20,0x01
0.483094750000000,1878,0x32,0x01
0.483169250000000,1878,0x20,0x01
0.483243625000000,1878,0xD8,0x01
0.483324875000000,1879,0x07,0x01
0.483399250000000,1879,0x01,0x01
0.483473625000000,1879,0x46,0x01
0.483804000000000,1880,0x07,0x0D
0.483877500000000,1880,0x00,0x09
0.483951375000000,1880,0x00,0x01
0.484030125000000,1881,0x32,0x01
0.484104625000000,1881,0x00,0x01
0.484179000000000,1881,0x00,0x01
0.484261250000000,1882,0x34,0x01
0.484335625000000,1882,0x80,0x01
0.484410000000000,1882,0x80,0x01
0.484492750000000,1883,0x32,0x01
0.484567125000000,1883,0x0A,0x01
0.484641500000000,1883,0x22,0x01
0.484721375000000,1884,0x32,0x01
0.484795750000000,1884,0x18,0x01
0.484870125000000,1884,0x20,0x00
0.484949875000000,1885,0x32,0x01
0.485024375000000,1885,0x20,0x01
0.485098750000000,1885,0x20,0x01
0.485178500000000,1886,0x32,0x01
0.485252875000000,1886,0x20,0x01
0.485327375000000,1886,0x20,0x01
0.485407125000000,1887,0x32,0x01
0.485481500000000,1887,0x20,0x01
0.485555875000000,1887,0xD8,0x01
0.485637125000000,1888,0x07,0x01
0.485711625000000,1888,0x01,0x01
0.485786000000000,1888,0x00,0x01
0.486117375000000,1889,0x07,0x0F
0.486190250000000,1889,0x00,0x01
0.486264625000000,1889,0x28,0x01
0.486343500000000,1890,0x32,0x01
0.486417875000000,1890,0x00,0x01
0.486492250000000,1890,0x00,0x01
0.486574500000000,1891,0x34,0x00
0.486648875000000,1891,0x80,0x01
0.486723375000000,1891,0x80,0x01
0.486806000000000,1892,0x32,0x01
0.486880500000000,1892,0x0A,0x01
0.486954875000000,1892,0x22,0x01
0.487034625000000,1893,0x32,0x00
0.487109000000000,1893,0x18,0x01
0.487183375000000,1893,0x20,0x81
0.487263250000000,1894,0x32,0x01
0.487337625000000,1894,0x20,0x01
0.487412000000000,1894,0x20,0x01
0.487491875000000,1895,0x32,0x01
0.487566250000000,1895,0x20,0x01
0.487640625000000,1895,0x20,0x01
0.487720375000000,1896,0x32,0x01
0.487794875000000,1896,0x20,0x01
0.487869250000000,1896,0xD8,0x01
0.487950500000000,1897,0x07,0x01
0.488024875000000,1897,0x01,0x00
0.488099250000000,1897,0x28,0x01
0.488431625000000,1898,0x07,0x0F
0.488504500000000,1898,0x00,0x01
0.488579000000000,1898,0x0A,0x01
0.488657750000000,1899,0x32,0x01
0.488732125000000,1899,0x00,0x01
0.488806625000000,1899,0x00,0x01
0.488888750000000,1900,0x34,0x01
0.488963250000000,1900,0x80,0x01
0.489037625000000,1900,0x80,0x01
0.489120375000000,1901,0x32,0x01
0.489194750000000,1901,0x0A,0x01
0.489269125000000,1901,0x22,0x01
0.489348875000000,1902,0x32,0x81
0.489423375000000,1902,0x18,0x01
0.489497750000000,1902,0x20,0x01
0.489577500000000,1903,0x32,0x01
0.489651875000000,1903,0x20,0x01
0.489726375000000,1903,0x20,0x01
0.489806125000000,1904,0x32,0x01
0.489880500000000,1904,0x20,0x01
0.489954875000000,1904,0x20,0x01
0.490034750000000,1905,0x32,0x01
0.490109125000000,1905,0x20,0x01
0.490183500000000,1905,0xD8,0x01
0.490264750000000,1906,0x07,0x01
0.490339125000000,1906,0x01,0x81
0.490413625000000,1906,0x0A,0x01
0.490746875000000,1907,0x07,0x0F
0.490819875000000,1907,0x00,0x01
0.490894250000000,1907,0x32,0x01
0.490973000000000,1908,0x32,0x01
0.491047500000000,1908,0x00,0x01
0.491121875000000,1908,0x00,0x01
0.491204125000000,1909,0x34,0x01
0.491278500000000,1909,0x80,0x01
0.491352875000000,1909,0x80,0x01
0.491435625000000,1910,0x32,0x01
0.491510000000000,1910,0x0A,0x01
0.491584500000000,1910,0x22,0x01
0.491664250000000,1911,0x32,0x01
0.491738625000000,1911,0x18,0x01
0.491813000000000,1911,0x20,0x01
0.491892875000000,1912,0x32,0x01
0.491967250000000,1912,0x20,0x01
0.492041625000000,1912,0x20,0x01
0.492121375000000,1913,0x32,0x01
0.492195750000000,1913,0x20,0x81
0.492270250000000,1913,0x20,0x01
0.492350000000000,1914,0x32,0x00
0.492424375000000,1914,0x20,0x01
0.492498750000000,1914,0xD8,0x81
0.492580125000000,1915,0x07,0x01
0.492654500000000,1915,0x01,0x01
0.492728875000000,1915,0x32,0x01
0.493063125000000,1916,0x07,0x0F
0.493136125000000,1916,0x00,0x01
0.493210500000000,1916,0x14,0x01
0.493289250000000,1917,0x32,0x81
0.493363750000000,1917,0x00,0x01
0.493438125000000,1917,0x00,0x01
0.493520375000000,1918,0x34,0x01
0.493594750000000,1918,0x80,0x01
0.493669125000000,1918,0x80,0x01
0.493751875000000,1919,0x32,0x00
0.493826250000000,1919,0x0A,0x01
0.493900750000000,1919,0x22,0x01
0.493980500000000,1920,0x32,0x01
0.494054875000000,1920,0x18,0x00
0.494129250000000,1920,0x20,0x01
0.494209125000000,1921,0x32,0x01
0.494283500000000,1921,0x20,0x01
0.494357875000000,1921,0x20,0x01
0.494437625000000,1922,0x32,0x01
0.494512125000000,1922,0x20,0x01
0.494586500000000,1922,0x20,0x01
0.494666250000000,1923,0x32,0x00
0.494740625000000,1923,0x20,0x01
0.494815125000000,1923,0xD8,0x01
0.494896375000000,1924,0x07,0x01
0.494970750000000,1924,0x01,0x01
0.495045125000000,1924,0x14,0x01
0.495380375000000,1925,0x07,0x0F
0.495453375000000,1925,0x00,0x01
0.495527750000000,1925,0x3C,0x01
0.495606500000000,1926,0x32,0x01
0.495681000000000,1926,0x00,0x01
0.495755375000000,1926,0x00,0x01
0.495837625000000,1927,0x34,0x01
0.495912000000000,1927,0x80,0x01
0.495986375000000,1927,0x80,0x01
0.496069125000000,1928,0x32,0x01
0.496143500000000,1928,0x0A,0x00
0.496217875000000,1928,0x22,0x01
0.496297750000000,1929,0x32,0x01
0.496372125000000,1929,0x18,0x01
0.496446500000000,1929,0x20,0x01
0.496526250000000,1930,0x32,0x01
0.496600625000000,1930,0x20,0x01
0.496675125000000,1930,0x20,0x01
0.496754875000000,1931,0x32,0x01
0.496829250000000,1931,0x20,0x01
0.496903625000000,1931,0x20,0x01
0.496983500000000,1932,0x32,0x01
0.497057875000000,1932,0x20,0x01
0.497132250000000,1932,0xD8,0x01
0.497213500000000,1933,0x07,0x01
0.497287875000000,1933,0x01,0x01
0.497362375000000,1933,0x3C,0x01
0.497698625000000,1934,0x07,0x0D
0.497772000000000,1934,0x00,0x01
0.497846375000000,1934,0x1E,0x01
0.497925250000000,1935,0x32,0x01
0.497999625000000,1935,0x00,0x01
0.498074000000000,1935,0x00,0x01
0.498156250000000,1936,0x34,0x01
0.498230625000000,1936,0x80,0x01
0.498305000000000,1936,0x80,0x01
0.498387750000000,1937,0x32,0x01
0.498462125000000,1937,0x0A,0x01
0.498536625000000,1937,0x22,0x01
0.498616375000000,1938,0x32,0x01
0.498690750000000,1938,0x18,0x01
0.498765125000000,1938,0x20,0x01
0.498845000000000,1939,0x32,0x01
0.498919375000000,1939,0x20,0x01
0.498993750000000,1939,0x20,0x01
0.499073500000000,1940,0x32,0x01
0.499148000000000,1940,0x20,0x01
0.499222375000000,1940,0x20,0x01
0.499302125000000,1941,0x32,0x01
0.499376500000000,1941,0x20,0x01
0.499450875000000,1941,0xD8,0x81
0.499532250000000,1942,0x07,0x01
0.499606625000000,1942,0x01,0x01
0.499681000000000,1942,0x1E,0x01
0.500018250000000,1943,0x07,0x0F
0.500091125000000,1943,0x00,0x01
0.500165500000000,1943,0x46,0x01
0.500244375000000,1944,0x32,0x01
0.500318750000000,1944,0x00,0x00
0.500393125000000,1944,0x00,0x01
0.500475375000000,1945,0x34,0x01
0.500549750000000,1945,0x80,0x01
0.500624250000000,1945,0x80,0x01
0.500706875000000,1946,0x32,0x01
0.500781375000000,1946,0x0A,0x01
0.500855750000000,1946,0x22,0x01
0.500935500000000,1947,0x32,0x01
0.501009875000000,1947,0x18,0x01
0.501084250000000,1947,0x20,0x81
0.501164125000000,1948,0x32,0x01
0.501238500000000,1948,0x20,0x01
0.501312875000000,1948,0x20,0x01
0.501392625000000,1949,0x32,0x01
0.501467125000000,1949,0x20,0x01
0.501541500000000,1949,0x20,0x01
0.501621250000000,1950,0x32,0x01
0.501695625000000,1950,0x20,0x01
0.501770125000000,1950,0xD8,0x01
0.501851375000000,1951,0x07,0x01
0.501925750000000,1951,0x01,0x01
0.502000125000000,1951,0x46,0x01
0.502330500000000,1952,0x07,0x0C
0.502403875000000,1952,0x00,0x09
0.502477875000000,1952,0x00,0x01
0.502556625000000,1953,0x32,0x01
0.502631000000000,1953,0x00,0x01
0.502705375000000,1953,0x00,0x01
0.502787625000000,1954,0x34,0x01
0.502862125000000,1954,0x80,0x01
0.502936500000000,1954,0x80,0x01
0.503019250000000,1955,0x32,0x01
0.503093625000000,1955,0x0A,0x01
0.503168000000000,1955,0x22,0x01
0.503247750000000,1956,0x32,0x01
0.503322125000000,1956,0x18,0x01
0.503396625000000,1956,0x20,0x01
0.503476375000000,1957,0x32,0x01
0.503550750000000,1957,0x20,0x01
0.503625125000000,1957,0x20,0x01
0.503705000000000,1958,0x32,0x01
0.503779375000000,1958,0x20,0x01
0.503853750000000,1958,0x20,0x00
0.503933500000000,1959,0x32,0x01
0.504008000000000,1959,0x20,0x01
0.504082375000000,1959,0xD8,0x01
0.504163625000000,1960,0x07,0x01
0.504238000000000,1960,0x01,0x00
0.504312375000000,1960,0x00,0x01
0.504643750000000,1961,0x07,0x0F
0.504716750000000,1961,0x00,0x01
0.504791125000000,1961,0x28,0x01
0.504869875000000,1962,0x32,0x01
0.504944250000000,1962,0x00,0x01
0.505018750000000,1962,0x00,0x01
0.505100875000000,1963,0x34,0x81
0.505175375000000,1963,0x80,0x01
0.505249750000000,1963,0x80,0x01
0.505332500000000,1964,0x32,0x01
0.505406875000000,1964,0x0A,0x01
0.505481250000000,1964,0x22,0x01
0.505561125000000,1965,0x32,0x01
0.505635500000000,1965,0x18,0x01
0.505709875000000,1965,0x20,0x01
0.505789625000000,1966,0x32,0x01
0.505864000000000,1966,0x20,0x01
0.505938500000000,1966,0x20,0x01
0.506018250000000,1967,0x32,0x01
0.506092625000000,1967,0x20,0x01
0.506167000000000,1967,0x20,0x01
0.506246875000000,1968,0x32,0x01
0.506321250000000,1968,0x20,0x01
0.506395625000000,1968,0xD8,0x01
0.506476875000000,1969,0x07,0x01
0.506551250000000,1969,0x01,0x01
0.506625750000000,1969,0x28,0x01
0.506958000000000,1970,0x07,0x0F
0.507031000000000,1970,0x00,0x01
0.507105375000000,1970,0x0A,0x00
0.507184250000000,1971,0x32,0x01
0.507258625000000,1971,0x00,0x01
0.507333000000000,1971,0x00,0x01
0.507415250000000,1972,0x34,0x01
0.507489625000000,1972,0x80,0x01
0.507564000000000,1972,0x80,0x01
0.507646750000000,1973,0x32,0x01
0.507721125000000,1973,0x0A,0x01
0.507795500000000,1973,0x22,0x81
0.507875375000000,1974,0x32,0x01
0.507949750000000,1974,0x18,0x01
0.508024125000000,1974,0x20,0x00
0.508103875000000,1975,0x32,0x01
0.508178375000000,1975,0x20,0x01
0.508252750000000,1975,0x20,0x01
0.508332500000000,1976,0x32,0x01
0.508406875000000,1976,0x20,0x01
0.508481250000000,1976,0x20,0x01
0.508561125000000,1977,0x32,0x01
0.508635500000000,1977,0x20,0x01
0.508709875000000,1977,0xD8,0x01
0.508791125000000,1978,0x07,0x01
0.508865500000000,1978,0x01,0x01
0.508940000000000,1978,0x0A,0x01
0.509273250000000,1979,0x07,0x0F
0.509346125000000,1979,0x00,0x81
0.509420625000000,1979,0x32,0x01
0.509499375000000,1980,0x32,0x01
0.509573750000000,1980,0x00,0x01
0.509648250000000,1980,0x00,0x01
0.509730375000000,1981,0x34,0x01
0.509804875000000,1981,0x80,0x01
0.509879250000000,1981,0x80,0x01
0.509962000000000,1982,0x32,0x01
0.510036375000000,1982,0x0A,0x01
0.510110750000000,1982,0x22,0x01
0.510190500000000,1983,0x32,0x01
0.510264875000000,1983,0x18,0x01
0.510339375000000,1983,0x20,0x01
0.510419125000000,1984,0x32,0x01
0.510493500000000,1984,0x20,0x01
0.510567875000000,1984,0x20,0x01
0.510647625000000,1985,0x32,0x81
0.510722125000000,1985,0x20,0x01
0.510796500000000,1985,0x20,0x01
0.510876250000000,1986,0x32,0x01
0.510950625000000,1986,0x20,0x01
0.511025125000000,1986,0xD8,0x01
0.511106375000000,1987,0x07,0x01
0.511180750000000,1987,0x01,0x01
0.511255125000000,1987,0x32,0x01
0.511589375000000,1988,0x07,0x0F
0.511662375000000,1988,0x00,0x01
0.511736750000000,1988,0x14,0x01
0.511815500000000,1989,0x32,0x01
0.511890000000000,1989,0x00,0x01
0.511964375000000,1989,0x00,0x01
0.512046625000000,1990,0x34,0x01
0.512121000000000,1990,0x80,0x01
0.512195375000000,1990,0x80,0x01
0.512278125000000,1991,0x32,0x01
0.512352500000000,1991,0x0A,0x01
0.512426875000000,1991,0x22,0x01
0.512506750000000,1992,0x32,0x01
0.512581125000000,1992,0x18,0x01
0.512655500000000,1992,0x20,0x01
0.512735250000000,1993,0x32,0x01
0.512809625000000,1993,0x20,0x01
0.512884125000000,1993,0x20,0x01
0.512963875000000,1994,0x32,0x01
0.513038250000000,1994,0x20,0x01
0.513112625000000,1994,0x20,0x01
0.513192500000000,1995,0x32,0x01
0.513266875000000,1995,0x20,0x01
0.513341250000000,1995,0xD8,0x01
0.513422500000000,1996,0x07,0x01
0.513496875000000,1996,0x01,0x01
0.513571375000000,1996,0x14,0x01
0.513906625000000,1997,0x07,0x0F
0.513979500000000,1997,0x00,0x01
0.514053875000000,1997,0x3C,0x01
0.514132750000000,1998,0x32,0x01
0.514207125000000,1998,0x00,0x01
0.514281500000000,1998,0x00,0x01
0.514363750000000,1999,0x34,0x01
0.514438125000000,1999,0x80,0x01
0.514512500000000,1999,0x80,0x01
0.514595250000000,2000,0x32,0x01
0.514669625000000,2000,0x0A,0x01
0.514744125000000,2000,0x22,0x01
0.514823875000000,2001,0x32,0x01
0.514898250000000,2001,0x18,0x00
0.514972625000000,2001,0x20,0x01
0.515052500000000,2002,0x32,0x01
0.515126875000000,2002,0x20,0x01
0.515201250000000,2002,0x20,0x01
0.515281000000000,2003,0x32,0x01
0.515355375000000,2003,0x20,0x01
0.515429875000000,2003,0x20,0x01
0.515509625000000,2004,0x32,0x01
0.515584000000000,2004,0x20,0x01
0.515658375000000,2004,0xD8,0x81
0.515739750000000,2005,0x07,0x01
0.515814125000000,2005,0x01,0x01
0.515888500000000,2005,0x3C,0x01
0.516224750000000,2006,0x07,0x0C
0.516298125000000,2006,0x00,0x01
0.516372500000000,2006,0x1E,0x81
0.516451375000000,2007,0x32,0x01
0.516525750000000,2007,0x00,0x00
0.516600125000000,2007,0x00,0x01
0.516682375000000,2008,0x34,0x01
0.516756750000000,2008,0x80,0x01
0.516831250000000,2008,0x80,0x01
0.516913875000000,2009,0x32,0x01
0.516988375000000,2009,0x0A,0x01
0.517062750000000,2009,0x22,0x01
0.517142500000000,2010,0x32,0x01
0.517216875000000,2010,0x18,0x01
0.517291250000000,2010,0x20,0x01
0.517371125000000,2011,0x32,0x01
0.517445500000000,2011,0x20,0x01
0.517519875000000,2011,0x20,0x00
0.517599625000000,2012,0x32,0x01
0.517674125000000,2012,0x20,0x01
0.517748500000000,2012,0x20,0x01
0.517828250000000,2013,0x32,0x00
0.517902625000000,2013,0x20,0x01
0.517977125000000,2013,0xD8,0x01
0.518058375000000,2014,0x07,0x01
0.518132750000000,2014,0x01,0x01
0.518207125000000,2014,0x1E,0x01
0.518544375000000,2015,0x07,0x0F
0.518617250000000,2015,0x00,0x01
0.518691625000000,2015,0x46,0x01
0.518770500000000,2016,0x32,0x01
0.518844875000000,2016,0x00,0x01
0.518919250000000,2016,0x00,0x01
0.519001500000000,2017,0x34,0x01
0.519075875000000,2017,0x80,0x01
0.519150375000000,2017,0x80,0x01
0.519233000000000,2018,0x32,0x01
0.519307500000000,2018,0x0A,0x01
0.519381875000000,2018,0x22,0x01
0.519461625000000,2019,0x32,0x01
0.519536000000000,2019,0x18,0x01
0.519610500000000,2019,0x20,0x01
0.519690250000000,2020,0x32,0x01
0.519764625000000,2020,0x20,0x01
0.519839000000000,2020,0x20,0x01
0.519918750000000,2021,0x32,0x81
0.519993250000000,2021,0x20,0x01
0.520067625000000,2021,0x20,0x01
0.520147375000000,2022,0x32,0x01
0.520221750000000,2022,0x20,0x01
0.520296250000000,2022,0xD8,0x01
0.520377500000000,2023,0x07,0x01
0.520451875000000,2023,0x01,0x01
0.520526250000000,2023,0x46,0x01
0.520856625000000,2024,0x07,0x0D
0.520930000000000,2024,0x00,0x89
0.521004000000000,2024,0x00,0x01
0.521082750000000,2025,0x32,0x01
0.521157125000000,2025,0x00,0x01
0.521231625000000,2025,0x00,0x01
0.521313750000000,2026,0x34,0x81
0.521388250000000,2026,0x80,0x01
0.521462625000000,2026,0x80,0x01
0.521545375000000,2027,0x32,0x01
0.521619750000000,2027,0x0A,0x01
0.521694125000000,2027,0x22,0x01
0.521773875000000,2028,0x32,0x01
0.521848375000000,2028,0x18,0x01
0.521922750000000,2028,0x20,0x01
0.522002500000000,2029,0x32,0x01
0.522076875000000,2029,0x21,0x01
0.522151250000000,2029,0x20,0x01
0.522231125000000,2030,0x32,0x01
0.522305500000000,2030,0x20,0x01
0.522379875000000,2030,0x20,0x01
0.522459625000000,2031,0x32,0x81
0.522534125000000,2031,0x20,0x01
0.522608500000000,2031,0xD9,0x01
0.522689750000000,2032,0x07,0x01
0.522764125000000,2032,0x01,0x01
0.522838500000000,2032,0x00,0x01
0.523169875000000,2033,0x07,0x0F
0.523242875000000,2033,0x00,0x01
0.523317250000000,2033,0x28,0x01
0.523396000000000,2034,0x32,0x81
0.523470500000000,2034,0x00,0x01
0.523544875000000,2034,0x00,0x01
0.523627125000000,2035,0x34,0x01
0.523701500000000,2035,0x80,0x00
0.523775875000000,2035,0x80,0x01
0.523858625000000,2036,0x32,0x00
0.523933000000000,2036,0x0A,0x01
0.524007500000000,2036,0x22,0x01
0.524087250000000,2037,0x32,0x01
0.524161625000000,2037,0x18,0x00
0.524236000000000,2037,0x20,0x01
0.524315875000000,2038,0x32,0x01
0.524390250000000,2038,0x24,0x01
0.524464625000000,2038,0x20,0x01
0.524544375000000,2039,0x32,0x01
0.524618875000000,2039,0x20,0x01
0.524693250000000,2039,0x20,0x01
0.524773000000000,2040,0x32,0x00
0.524847375000000,2040,0x20,0x01
0.524921875000000,2040,0xDC,0x01
0.525003125000000,2041,0x07,0x01
0.525077500000000,2041,0x01,0x01
0.525151875000000,2041,0x28,0x01
0.525484250000000,2042,0x07,0x0F
0.525557125000000,2042,0x00,0x01
0.525631500000000,2042,0x0A,0x01
0.525710375000000,2043,0x32,0x01
0.525784750000000,2043,0x00,0x00
0.525859125000000,2043,0x00,0x01
0.525941375000000,2044,0x34,0x01
0.526015750000000,2044,0x80,0x01
0.526090250000000,2044,0x80,0x01
0.526172875000000,2045,0x32,0x01
0.526247375000000,2045,0x0A,0x01
0.526321750000000,2045,0x22,0x01
0.526401500000000,2046,0x32,0x01
0.526475875000000,2046,0x18,0x01
0.526550375000000,2046,0x20,0x01
0.526630125000000,2047,0x32,0x01
0.526704500000000,2047,0x24,0x01
0.526778875000000,2047,0x20,0x01
0.526858750000000,2048,0x32,0x01
0.526933125000000,2048,0x20,0x01
0.527007500000000,2048,0x20,0x00
0.527087250000000,2049,0x32,0x01
0.527161750000000,2049,0x20,0x01
0.527236125000000,2049,0xDC,0x01
0.527317375000000,2050,0x07,0x01
0.527391750000000,2050,0x01,0x00
0.527466125000000,2050,0x0A,0x01
0.527799500000000,2051,0x07,0x0F
0.527872375000000,2051,0x00,0x01
0.527946750000000,2051,0x32,0x81
0.528025625000000,2052,0x32,0x01
0.528100000000000,2052,0x00,0x01
0.528174375000000,2052,0x00,0x01
0.528256625000000,2053,0x34,0x01
0.528331000000000,2053,0x80,0x81
0.528405500000000,2053,0x80,0x01
0.528488125000000,2054,0x32,0x81
0.528562625000000,2054,0x0A,0x01
0.528637000000000,2054,0x22,0x01
0.528716750000000,2055,0x32,0x01
0.528791125000000,2055,0x18,0x01
0.528865625000000,2055,0x20,0x01
0.528945375000000,2056,0x32,0x01
0.529019750000000,2056,0x25,0x01
0.529094125000000,2056,0x20,0x01
0.529174000000000,2057,0x32,0x01
0.529248375000000,2057,0x20,0x01
0.529322750000000,2057,0x20,0x01
0.529402500000000,2058,0x32,0x01
0.529477000000000,2058,0x20,0x01
0.529551375000000,2058,0xDD,0x01
0.529632625000000,2059,0x07,0x01
0.529707000000000,2059,0x01,0x01
0.529781375000000,2059,0x32,0x01
0.530115750000000,2060,0x07,0x0F
0.530188625000000,2060,0x00,0x01
0.530263000000000,2060,0x14,0x01
0.530341875000000,2061,0x32,0x01
0.530416250000000,2061,0x00,0x01
0.530490625000000,2061,0x00,0x01
0.530572875000000,2062,0x34,0x00
0.530647250000000,2062,0x80,0x01
0.530721625000000,2062,0x80,0x81
0.530804375000000,2063,0x32,0x01
0.530878750000000,2063,0x0A,0x81
0.530953250000000,2063,0x22,0x01
0.531033000000000,2064,0x32,0x01
0.531107375000000,2064,0x18,0x01
0.531181750000000,2064,0x20,0x01
0.531261625000000,2065,0x32,0x01
0.531336000000000,2065,0x25,0x01
0.531410375000000,2065,0x20,0x00
0.531490125000000,2066,0x32,0x01
0.531564625000000,2066,0x20,0x01
0.531639000000000,2066,0x20,0x01
0.531718750000000,2067,0x32,0x01
0.531793125000000,2067,0x20,0x01
0.531867625000000,2067,0xDD,0x01
0.531948875000000,2068,0x07,0x01
0.532023250000000,2068,0x01,0x01
0.532097625000000,2068,0x14,0x01
0.532432875000000,2069,0x07,0x0F
0.532505875000000,2069,0x00,0x01
0.532580250000000,2069,0x3C,0x01
0.532659000000000,2070,0x32,0x01
0.532733375000000,2070,0x00,0x81
0.532807875000000,2070,0x00,0x01
0.532890125000000,2071,0x34,0x01
0.532964500000000,2071,0x80,0x01
0.533038875000000,2071,0x80,0x01
0.533121625000000,2072,0x32,0x01
0.533196000000000,2072,0x0A,0x01
0.533270375000000,2072,0x22,0x01
0.533350250000000,2073,0x32,0x01
0.533424625000000,2073,0x18,0x01
0.533499000000000,2073,0x20,0x01
0.533578750000000,2074,0x32,0x01
0.533653125000000,2074,0x25,0x01
0.533727625000000,2074,0x20,0x01
0.533807375000000,2075,0x32,0x01
0.533881750000000,2075,0x20,0x01
0.533956125000000,2075,0x20,0x01
0.534036000000000,2076,0x32,0x01
0.534110375000000,2076,0x20,0x01
0.534184750000000,2076,0xDD,0x01
0.534266000000000,2077,0x07,0x00
0.534340375000000,2077,0x01,0x01
0.534414750000000,2077,0x3C,0x01
0.534751000000000,2078,0x07,0x0D
0.534824500000000,2078,0x00,0x01
0.534898875000000,2078,0x1E,0x01
0.534977625000000,2079,0x32,0x01
0.535052125000000,2079,0x00,0x01
0.535126500000000,2079,0x00,0x01
0.535208750000000,2080,0x34,0x01
0.535283125000000,2080,0x80,0x01
0.535357500000000,2080,0x80,0x01
0.535440250000000,2081,0x32,0x01
0.535514625000000,2081,0x0A,0x01
0.535589000000000,2081,0x22,0x01
0.535668875000000,2082,0x32,0x01
0.535743250000000,2082,0x18,0x01
0.535817625000000,2082,0x20,0x00
0.535897375000000,2083,0x32,0x01
0.535971875000000,2083,0x26,0x01
0.536046250000000,2083,0x20,0x01
0.536126000000000,2084,0x32,0x00
0.536200375000000,2084,0x20,0x01
0.536274750000000,2084,0x20,0x81
0.536354625000000,2085,0x32,0x01
0.536429000000000,2085,0x20,0x01
0.536503375000000,2085,0xDE,0x01
0.536584625000000,2086,0x07,0x01
0.536659000000000,2086,0x01,0x01
0.536733500000000,2086,0x1E,0x01
0.537070625000000,2087,0x07,0x8F
0.537143625000000,2087,0x00,0x01
0.537218000000000,2087,0x46,0x01
0.537296875000000,2088,0x32,0x01
0.537371250000000,2088,0x00,0x01
0.537445625000000,2088,0x00,0x01
0.537527875000000,2089,0x34,0x01
0.537602250000000,2089,0x80,0x01
0.537676625000000,2089,0x80,0x01
0.537759375000000,2090,0x32,0x01
0.537833750000000,2090,0x0A,0x01
0.537908125000000,2090,0x22,0x01
0.537988000000000,2091,0x32,0x01
0.538062375000000,2091,0x18,0x01
0.538136750000000,2091,0x20,0x01
0.538216500000000,2092,0x32,0x01
0.538291000000000,2092,0x26,0x01
0.538365375000000,2092,0x20,0x01
0.538445125000000,2093,0x32,0x01
0.538519500000000,2093,0x20,0x01
0.538594000000000,2093,0x20,0x01
0.538673750000000,2094,0x32,0x01
0.538748125000000,2094,0x20,0x01
0.538822500000000,2094,0xDE,0x01
0.538903750000000,2095,0x07,0x01
0.538978250000000,2095,0x01,0x01
0.539052625000000,2095,0x46,0x01
0.539383000000000,2096,0x07,0x0D
0.539456375000000,2096,0x00,0x09
0.539530250000000,2096,0x00,0x81
0.539609125000000,2097,0x32,0x01
0.539683500000000,2097,0x00,0x01
0.539757875000000,2097,0x00,0x01
0.539840125000000,2098,0x34,0x01
0.539914500000000,2098,0x80,0x01
0.539989000000000,2098,0x80,0x01
0.540071625000000,2099,0x32,0x01
0.540146125000000,2099,0x0A,0x01
0.540220500000000,2099,0x22,0x01
0.540300250000000,2100,0x32,0x00
0.540374625000000,2100,0x18,0x01
0.540449125000000,2100,0x20,0x01
0.540528875000000,2101,0x32,0x01
0.540603250000000,2101,0x26,0x01
0.540677625000000,2101,0x20,0x01
0.540757375000000,2102,0x32,0x01
0.540831875000000,2102,0x20,0x01
0.540906250000000,2102,0x20,0x01
0.540986000000000,2103,0x32,0x01
0.541060375000000,2103,0x20,0x01
0.541134875000000,2103,0xDE,0x01
0.541216125000000,2104,0x07,0x01
0.541290500000000,2104,0x01,0x01
0.541364875000000,2104,0x00,0x01
0.541696250000000,2105,0x07,0x0F
0.541769125000000,2105,0x00,0x01
0.541843500000000,2105,0x28,0x01
0.541922375000000,2106,0x32,0x01
0.541996750000000,2106,0x00,0x01
0.542071125000000,2106,0x00,0x01
0.542153375000000,2107,0x34,0x00
0.542227750000000,2107,0x80,0x01
0.542302250000000,2107,0x80,0x01
0.542384875000000,2108,0x32,0x01
0.542459375000000,2108,0x0A,0x01
0.542533750000000,2108,0x22,0x01
0.542613500000000,2109,0x32,0x01
0.542687875000000,2109,0x18,0x01
0.542762250000000,2109,0x20,0x01
0.542842125000000,2110,0x32,0x01
0.542916500000000,2110,0x27,0x01
0.542990875000000,2110,0x20,0x00
0.543070625000000,2111,0x32,0x01
0.543145125000000,2111,0x20,0x01
0.543219500000000,2111,0x20,0x01
0.543299250000000,2112,0x32,0x01
0.543373625000000,2112,0x20,0x01
0.543448125000000,2112,0xDF,0x01
0.543529375000000,2113,0x07,0x01
0.543603750000000,2113,0x01,0x01
0.543678125000000,2113,0x28,0x01
0.544010500000000,2114,0x07,0x0F
0.544083375000000,2114,0x00,0x01
0.544157750000000,2114,0x0A,0x01
0.544236625000000,2115,0x32,0x01
0.544311000000000,2115,0x00,0x01
0.544385375000000,2115,0x00,0x01
0.544467625000000,2116,0x34,0x01
0.544542000000000,2116,0x80,0x01
0.544616500000000,2116,0x80,0x01
0.544699125000000,2117,0x32,0x01
0.544773625000000,2117,0x0A,0x01
0.544848000000000,2117,0x22,0x01
0.544927750000000,2118,0x32,0x00
0.545002125000000,2118,0x18,0x01
0.545076500000000,2118,0x20,0x81
0.545156375000000,2119,0x32,0x01
0.545230750000000,2119,0x27,0x01
0.545305125000000,2119,0x20,0x01
0.545384875000000,2120,0x32,0x81
0.545459375000000,2120,0x20,0x01
0.545533750000000,2120,0x20,0x01
0.545613500000000,2121,0x32,0x01
0.545687875000000,2121,0x20,0x81
0.545762375000000,2121,0xDF,0x01
0.545843625000000,2122,0x07,0x01
0.545918000000000,2122,0x01,0x01
0.545992375000000,2122,0x0A,0x01
0.546325750000000,2123,0x07,0x0F
0.546398625000000,2123,0x00,0x00
0.546473000000000,2123,0x32,0x01
0.546551875000000,2124,0x32,0x01
0.546626250000000,2124,0x00,0x01
0.546700625000000,2124,0x00,0x01
0.546782875000000,2125,0x34,0x01
0.546857250000000,2125,0x80,0x01
0.546931625000000,2125,0x80,0x01
0.547014375000000,2126,0x32,0x01
0.547088750000000,2126,0x0A,0x01
0.547163250000000,2126,0x22,0x01
0.547243000000000,2127,0x32,0x01
0.547317375000000,2127,0x18,0x01
0.547391750000000,2127,0x20,0x01
0.547471625000000,2128,0x32,0x01
0.547546000000000,2128,0x27,0x01
0.547620375000000,2128,0x20,0x01
0.547700125000000,2129,0x32,0x01
0.547774500000000,2129,0x20,0x81
0.547849000000000,2129,0x20,0x01
0.547928750000000,2130,0x32,0x01
0.548003125000000,2130,0x20,0x01
0.548077500000000,2130,0xDF,0x01
0.548158750000000,2131,0x07,0x01
0.548233250000000,2131,0x01,0x01
0.548307625000000,2131,0x32,0x01
0.548641875000000,2132,0x07,0x0F
0.548714875000000,2132,0x00,0x01
0.548789250000000,2132,0x14,0x01
0.548868000000000,2133,0x32,0x01
0.548942375000000,2133,0x00,0x81
0.549016875000000,2133,0x00,0x01
0.549099125000000,2134,0x34,0x01
0.549173500000000,2134,0x80,0x01
0.549247875000000,2134,0x80,0x01
0.549330625000000,2135,0x32,0x01
0.549405000000000,2135,0x0A,0x01
0.549479375000000,2135,0x22,0x01
0.549559125000000,2136,0x32,0x01
0.549633625000000,2136,0x18,0x01
0.549708000000000,2136,0x20,0x01
0.549787750000000,2137,0x32,0x01
0.549862125000000,2137,0x28,0x01
0.549936625000000,2137,0x20,0x01
0.550016375000000,2138,0x32,0x01
0.550090750000000,2138,0x20,0x01
0.550165125000000,2138,0x20,0x01
0.550245000000000,2139,0x32,0x01
0.550319375000000,2139,0x20,0x01
0.550393750000000,2139,0xE0,0x01
0.550475000000000,2140,0x07,0x01
0.550549375000000,2140,0x01,0x01
0.550623750000000,2140,0x14,0x81
0.550959125000000,2141,0x07,0x0F
0.551032000000000,2141,0x00,0x01
0.551106375000000,2141,0x3C,0x01
0.551185250000000,2142,0x32,0x01
0.551259625000000,2142,0x00,0x01
0.551334000000000,2142,0x00,0x01
0.551416250000000,2143,0x34,0x01
0.551490625000000,2143,0x80,0x01
0.551565125000000,2143,0x80,0x01
0.551647750000000,2144,0x32,0x01
0.551722250000000,2144,0x0A,0x01
0.551796625000000,2144,0x22,0x01
0.551876375000000,2145,0x32,0x01
0.551950750000000,2145,0x18,0x01
0.552025125000000,2145,0x20,0x81
0.552105000000000,2146,0x32,0x01
0.552179375000000,2146,0x28,0x01
0.552253750000000,2146,0x20,0x01
0.552333500000000,2147,0x32,0x81
0.552408000000000,2147,0x20,0x01
0.552482375000000,2147,0x20,0x01
0.552562125000000,2148,0x32,0x01
0.552636500000000,2148,0x20,0x81
0.552711000000000,2148,0xE0,0x01
0.552792250000000,2149,0x07,0x01
0.552866625000000,2149,0x01,0x01
0.552941000000000,2149,0x3C,0x01
0.553277250000000,2150,0x07,0x0D
0.553350750000000,2150,0x00,0x01
0.553425125000000,2150,0x1E,0x01
0.553503875000000,2151,0x32,0x01
0.553578250000000,2151,0x00,0x01
0.553652750000000,2151,0x00,0x01
0.553735000000000,2152,0x34,0x01
0.553809375000000,2152,0x80,0x01
0.553883750000000,2152,0x80,0x01
0.553966500000000,2153,0x32,0x01
0.554040875000000,2153,0x0A,0x01
0.554115250000000,2153,0x22,0x01
0.554195000000000,2154,0x32,0x01
0.554269500000000,2154,0x18,0x01
0.554343875000000,2154,0x20,0x01
0.554423625000000,2155,0x32,0x01
0.554498000000000,2155,0x28,0x01
0.554572375000000,2155,0x20,0x01
0.554652250000000,2156,0x32,0x01
0.554726625000000,2156,0x20,0x01
0.554801000000000,2156,0x20,0x01
0.554880750000000,2157,0x32,0x81
0.554955250000000,2157,0x20,0x01
0.555029625000000,2157,0xE0,0x01
0.555110875000000,2158,0x07,0x01
0.555185250000000,2158,0x01,0x01
0.555259625000000,2158,0x1E,0x01
0.555596875000000,2159,0x07,0x0F
0.555669875000000,2159,0x00,0x01
0.555744250000000,2159,0x46,0x01
0.555823000000000,2160,0x32,0x01
0.555897500000000,2160,0x00,0x01
0.555971875000000,2160,0x00,0x01
0.556054125000000,2161,0x34,0x01
0.556128500000000,2161,0x80,0x01
0.556202875000000,2161,0x80,0x01
0.556285625000000,2162,0x32,0x01
0.556360000000000,2162,0x0A,0x01
0.556434375000000,2162,0x22,0x01
0.556514250000000,2163,0x32,0x01
0.556588625000000,2163,0x18,0x01
0.556663000000000,2163,0x20,0x01
0.556742750000000,2164,0x32,0x01
0.556817250000000,2164,0x29,0x01
0.556891625000000,2164,0x20,0x01
0.556971375000000,2165,0x32,0x01
0.557045750000000,2165,0x20,0x01
0.557120250000000,2165,0x20,0x01
0.557200000000000,2166,0x32,0x01
0.557274375000000,2166,0x20,0x01
0.557348750000000,2166,0xE1,0x01
0.557430000000000,2167,0x07,0x01
0.557504500000000,2167,0x01,0x01
0.557578875000000,2167,0x46,0x01
0.557909250000000,2168,0x07,0x0D
0.557982625000000,2168,0x00,0x09
0.558056625000000,2168,0x00,0x01
0.558135375000000,2169,0x32,0x01
0.558209750000000,2169,0x00,0x01
0.558284125000000,2169,0x00,0x01
0.558366375000000,2170,0x34,0x01
0.558440875000000,2170,0x80,0x01
0.558515250000000,2170,0x80,0x01
0.558597875000000,2171,0x32,0x81
0.558672375000000,2171,0x0A,0x01
0.558746750000000,2171,0x22,0x01
0.558826500000000,2172,0x32,0x01
0.558900875000000,2172,0x18,0x01
0.558975375000000,2172,0x20,0x01
0.559055125000000,2173,0x32,0x01
0.559129500000000,2173,0x29,0x01
0.559203875000000,2173,0x20,0x01
0.559283750000000,2174,0x32,0x01
0.559358125000000,2174,0x20,0x01
0.559432500000000,2174,0x20,0x00
0.559512250000000,2175,0x32,0x01
0.559586750000000,2175,0x20,0x01
0.559661125000000,2175,0xE1,0x01
0.559742375000000,2176,0x07,0x01
0.559816750000000,2176,0x01,0x01
0.559891125000000,2176,0x00,0x01
0.560222500000000,2177,0x07,0x0F
0.560295500000000,2177,0x00,0x01
0.560369875000000,2177,0x28,0x01
0.560448625000000,2178,0x32,0x01
0.560523125000000,2178,0x00,0x01
0.560597500000000,2178,0x00,0x01
0.560679750000000,2179,0x34,0x01
0.560754125000000,2179,0x80,0x01
0.560828500000000,2179,0x80,0x01
0.560911250000000,2180,0x32,0x01
0.560985625000000,2180,0x0A,0x01
0.561060000000000,2180,0x22,0x01
0.561139875000000,2181,0x32,0x01
0.561214250000000,2181,0x18,0x01
0.561288625000000,2181,0x20,0x01
0.561368375000000,2182,0x32,0x01
0.561442750000000,2182,0x29,0x01
0.561517250000000,2182,0x20,0x01
0.561597000000000,2183,0x32,0x01
0.561671375000000,2183,0x20,0x00
0.561745750000000,2183,0x20,0x01
0.561825625000000,2184,0x32,0x01
0.561900000000000,2184,0x20,0x01
0.561974375000000,2184,0xE1,0x01
0.562055625000000,2185,0x07,0x01
0.562130000000000,2185,0x01,0x01
0.562204500000000,2185,0x28,0x01
0.562536750000000,2186,0x07,0x0F
0.562609750000000,2186,0x00,0x01
0.562684125000000,2186,0x0A,0x01
0.562762875000000,2187,0x32,0x01
0.562837375000000,2187,0x00,0x01
0.562911750000000,2187,0x00,0x01
0.562994000000000,2188,0x34,0x01
0.563068375000000,2188,0x80,0x01
0.563142750000000,2188,0x80,0x01
0.563225500000000,2189,0x32,0x01
0.563299875000000,2189,0x0A,0x01
0.563374250000000,2189,0x22,0x01
0.563454000000000,2190,0x32,0x81
0.563528500000000,2190,0x18,0x01
0.563602875000000,2190,0x20,0x01
0.563682625000000,2191,0x32,0x01
0.563757000000000,2191,0x29,0x01
0.563831500000000,2191,0x20,0x01
0.563911250000000,2192,0x32,0x01
0.563985625000000,2192,0x20,0x00
0.564060000000000,2192,0x20,0x01
0.564139875000000,2193,0x32,0x01
0.564214250000000,2193,0x20,0x01
0.564288625000000,2193,0xE1,0x01
0.564369875000000,2194,0x07,0x00
0.564444250000000,2194,0x01,0x01
0.564518625000000,2194,0x0A,0x01
0.564852000000000,2195,0x07,0x0F
0.564924875000000,2195,0x00,0x01
0.564999375000000,2195,0x32,0x01
0.565078125000000,2196,0x32,0x01
0.565152500000000,2196,0x00,0x01
0.565226875000000,2196,0x00,0x01
0.565309125000000,2197,0x34,0x01
0.565383500000000,2197,0x80,0x01
0.565458000000000,2197,0x80,0x01
0.565540625000000,2198,0x32,0x01
0.565615125000000,2198,0x0A,0x01
0.565689500000000,2198,0x22,0x01
0.565769250000000,2199,0x32,0x01
0.565843625000000,2199,0x18,0x01
0.565918125000000,2199,0x20,0x01
0.565997875000000,2200,0x32,0x01
0.566072250000000,2200,0x2A,0x01
0.566146625000000,2200,0x20,0x01
0.566226500000000,2201,0x32,0x01
0.566300875000000,2201,0x20,0x01
0.566375250000000,2201,0x20,0x01
0.566455000000000,2202,0x32,0x01
0.566529375000000,2202,0x20,0x01
0.566603875000000,2202,0xE2,0x01
0.566685125000000,2203,0x07,0x01
0.566759500000000,2203,0x01,0x01
0.566833875000000,2203,0x32,0x00
0.567168125000000,2204,0x07,0x0F
0.567241125000000,2204,0x00,0x01
0.567315500000000,2204,0x14,0x01
0.567394250000000,2205,0x32,0x81
0.567468750000000,2205,0x00,0x01
0.567543125000000,2205,0x00,0x01
0.567625375000000,2206,0x34,0x01
0.567699750000000,2206,0x80,0x01
0.567774125000000,2206,0x80,0x00
0.567856875000000,2207,0x32,0x01
0.567931250000000,2207,0x0A,0x01
0.568005625000000,2207,0x22,0x01
0.568085500000000,2208,0x32,0x01
0.568159875000000,2208,0x18,0x01
0.568234250000000,2208,0x20,0x01
0.568314000000000,2209,0x32,0x01
0.568388375000000,2209,0x2A,0x01
0.568462875000000,2209,0x20,0x01
0.568542625000000,2210,0x32,0x01
0.568617000000000,2210,0x20,0x01
0.568691375000000,2210,0x20,0x01
0.568771250000000,2211,0x32,0x01
0.568845625000000,2211,0x20,0x01
0.568920000000000,2211,0xE2,0x01
0.569001250000000,2212,0x07,0x01
0.569075625000000,2212,0x01,0x01
0.569150125000000,2212,0x14,0x01
0.569485375000000,2213,0x07,0x0F
0.569558250000000,2213,0x00,0x00
0.569632625000000,2213,0x3C,0x01
0.569711500000000,2214,0x32,0x01
0.569785875000000,2214,0x00,0x01
0.569860250000000,2214,0x00,0x01
0.569942500000000,2215,0x34,0x01
0.570016875000000,2215,0x80,0x01
0.570091250000000,2215,0x80,0x01
0.570174000000000,2216,0x32,0x01
0.570248375000000,2216,0x0A,0x01
0.570322875000000,2216,0x22,0x01
0.570402625000000,2217,0x32,0x01
0.570477000000000,2217,0x17,0x01
0.570551375000000,2217,0x20,0x01
0.570631125000000,2218,0x32,0x81
0.570705625000000,2218,0x2A,0x01
0.570780000000000,2218,0x20,0x01
0.570859750000000,2219,0x32,0x01
0.570934125000000,2219,0x20,0x01
0.571008625000000,2219,0x20,0x01
0.571088375000000,2220,0x32,0x01
0.571162750000000,2220,0x20,0x00
0.571237125000000,2220,0xE1,0x01
0.571318375000000,2221,0x07,0x01
0.571392875000000,2221,0x01,0x01
0.571467250000000,2221,0x3C,0x01
0.571803500000000,2222,0x07,0x0D
0.571876875000000,2222,0x00,0x01
0.571951250000000,2222,0x1E,0x01
0.572030125000000,2223,0x32,0x01
0.572104500000000,2223,0x00,0x01
0.572178875000000,2223,0x00,0x01
0.572261125000000,2224,0x34,0x01
0.572335500000000,2224,0x80,0x01
0.572409875000000,2224,0x80,0x01
0.572492625000000,2225,0x32,0x01
0.572567000000000,2225,0x0A,0x01
0.572641500000000,2225,0x22,0x01
0.572721250000000,2226,0x32,0x01
0.572795625000000,2226,0x17,0x00
0.572870000000000,2226,0x20,0x01
0.572949875000000,2227,0x32,0x01
0.573024250000000,2227,0x2A,0x01
0.573098625000000,2227,0x20,0x01
0.573178375000000,2228,0x32,0x01
0.573252750000000,2228,0x20,0x81
0.573327250000000,2228,0x20,0x01
0.573407000000000,2229,0x32,0x01
0.573481375000000,2229,0x20,0x01
0.573555750000000,2229,0xE1,0x81
0.573637125000000,2230,0x07,0x01
0.573711500000000,2230,0x01,0x01
0.573785875000000,2230,0x1E,0x01
0.574123125000000,2231,0x07,0x0F
0.574196000000000,2231,0x00,0x01
0.574270375000000,2231,0x46,0x01
0.574349250000000,2232,0x32,0x01
0.574423625000000,2232,0x00,0x01
0.574498000000000,2232,0x00,0x01
0.574580250000000,2233,0x34,0x00
0.574654625000000,2233,0x80,0x01
0.574729000000000,2233,0x80,0x81
0.574811750000000,2234,0x32,0x01
0.574886125000000,2234,0x0A,0x01
0.574960625000000,2234,0x22,0x01
0.575040375000000,2235,0x32,0x01
0.575114750000000,2235,0x17,0x01
0.575189125000000,2235,0x20,0x01
0.575269000000000,2236,0x32,0x01
0.575343375000000,2236,0x2B,0x01
0.575417750000000,2236,0x20,0x01
0.575497500000000,2237,0x32,0x01
0.575571875000000,2237,0x20,0x81
0.575646375000000,2237,0x20,0x01
0.575726125000000,2238,0x32,0x01
0.575800500000000,2238,0x20,0x01
0.575874875000000,2238,0xE2,0x01
0.575956125000000,2239,0x07,0x01
0.576030625000000,2239,0x01,0x01
0.576105000000000,2239,0x46,0x01
0.576435375000000,2240,0x07,0x0D
0.576508750000000,2240,0x00,0x09
0.576582625000000,2240,0x00,0x01
0.576661500000000,2241,0x32,0x01
0.576735875000000,2241,0x00,0x00
0.576810250000000,2241,0x00,0x01
0.576892500000000,2242,0x34,0x01
0.576966875000000,2242,0x80,0x01
0.577041375000000,2242,0x80,0x01
0.577124000000000,2243,0x32,0x01
0.577198500000000,2243,0x0A,0x01
0.577272875000000,2243,0x22,0x01
0.577352625000000,2244,0x32,0x01
0.577427000000000,2244,0x17,0x01
0.577501375000000,2244,0x20,0x01
0.577581250000000,2245,0x32,0x01
0.577655625000000,2245,0x2B,0x01
0.577730000000000,2245,0x20,0x01
0.577809750000000,2246,0x32,0x01
0.577884250000000,2246,0x20,0x01
0.577958625000000,2246,0x20,0x01
0.578038375000000,2247,0x32,0x01
0.578112750000000,2247,0x20,0x01
0.578187125000000,2247,0xE2,0x81
0.578268375000000,2248,0x07,0x81
0.578342875000000,2248,0x01,0x01
0.578417250000000,2248,0x00,0x01
0.578748625000000,2249,0x07,0x0F
0.578821500000000,2249,0x00,0x01
0.578895875000000,2249,0x28,0x01
0.578974750000000,2250,0x32,0x01
0.579049125000000,2250,0x00,0x01
0.579123500000000,2250,0x00,0x01
0.579205750000000,2251,0x34,0x01
0.579280125000000,2251,0x80,0x01
0.579354625000000,2251,0x80,0x01
0.579437250000000,2252,0x32,0x01
0.579511750000000,2252,0x0A,0x01
0.579586125000000,2252,0x22,0x01
0.579665875000000,2253,0x32,0x01
0.579740250000000,2253,0x17,0x01
0.579814625000000,2253,0x20,0x81
0.579894500000000,2254,0x32,0x01
0.579968875000000,2254,0x2B,0x01
0.580043250000000,2254,0x20,0x01
0.580123000000000,2255,0x32,0x01
0.580197500000000,2255,0x20,0x01
0.580271875000000,2255,0x20,0x01
0.580351625000000,2256,0x32,0x01
0.580426000000000,2256,0x20,0x01
0.580500500000000,2256,0xE2,0x01
0.580581750000000,2257,0x07,0x01
0.580656125000000,2257,0x01,0x01
0.580730500000000,2257,0x28,0x01
0.581062875000000,2258,0x07,0x0F
0.581135750000000,2258,0x00,0x00
0.581210125000000,2258,0x0A,0x01
0.581289000000000,2259,0x32,0x01
0.581363375000000,2259,0x00,0x01
0.581437750000000,2259,0x00,0x01
0.581520000000000,2260,0x34,0x01
0.581594375000000,2260,0x80,0x01
0.581668750000000,2260,0x80,0x01
0.581751500000000,2261,0x32,0x01
0.581825875000000,2261,0x0A,0x01
0.581900375000000,2261,0x22,0x01
0.581980125000000,2262,0x32,0x01
0.582054500000000,2262,0x17,0x01
0.582128875000000,2262,0x20,0x01
0.582208750000000,2263,0x32,0x01
0.582283125000000,2263,0x2B,0x01
0.582357500000000,2263,0x20,0x01
0.582437250000000,2264,0x32,0x01
0.582511625000000,2264,0x20,0x01
0.582586125000000,2264,0x20,0x01
0.582665875000000,2265,0x32,0x01
0.582740250000000,2265,0x20,0x01
0.582814625000000,2265,0xE2,0x01
0.582895875000000,2266,0x07,0x01
0.582970375000000,2266,0x01,0x01
0.583044750000000,2266,0x0A,0x01
0.583378000000000,2267,0x07,0x0F
0.583451000000000,2267,0x00,0x01
0.583525375000000,2267,0x32,0x01
0.583604125000000,2268,0x32,0x01
0.583678625000000,2268,0x00,0x01
0.583753000000000,2268,0x00,0x01
0.583835250000000,2269,0x34,0x01
0.583909625000000,2269,0x80,0x01
0.583984000000000,2269,0x80,0x01
0.584066750000000,2270,0x32,0x01
0.584141125000000,2270,0x0A,0x01
0.584215500000000,2270,0x22,0x01
0.584295375000000,2271,0x32,0x01
0.584369750000000,2271,0x17,0x01
0.584444125000000,2271,0x20,0x01
0.584523875000000,2272,0x32,0x01
0.584598250000000,2272,0x2C,0x01
0.584672750000000,2272,0x20,0x01
0.584752500000000,2273,0x32,0x01
0.584826875000000,2273,0x20,0x01
0.584901250000000,2273,0x20,0x01
0.584981125000000,2274,0x32,0x01
0.585055500000000,2274,0x20,0x01
0.585129875000000,2274,0xE3,0x01
0.585211125000000,2275,0x07,0x00
0.585285500000000,2275,0x01,0x01
0.585359875000000,2275,0x32,0x81
0.585694250000000,2276,0x07,0x0F
0.585767125000000,2276,0x00,0x01
0.585841500000000,2276,0x14,0x01
0.585920375000000,2277,0x32,0x01
0.585994750000000,2277,0x00,0x01
0.586069125000000,2277,0x00,0x01
0.586151375000000,2278,0x34,0x01
0.586225750000000,2278,0x80,0x01
0.586300250000000,2278,0x80,0x01
0.586382875000000,2279,0x32,0x01
0.586457375000000,2279,0x0A,0x01
0.586531750000000,2279,0x22,0x01
0.586611500000000,2280,0x32,0x01
0.586685875000000,2280,0x17,0x01
0.586760375000000,2280,0x20,0x01
0.586840125000000,2281,0x32,0x01
0.586914500000000,2281,0x2C,0x01
0.586988875000000,2281,0x20,0x01
0.587068750000000,2282,0x32,0x01
0.587143125000000,2282,0x20,0x01
0.587217500000000,2282,0x20,0x01
0.587297250000000,2283,0x32,0x01
0.587371750000000,2283,0x20,0x01
0.587446125000000,2283,0xE3,0x01
0.587527375000000,2284,0x07,0x01
0.587601750000000,2284,0x01,0x01
0.587676125000000,2284,0x14,0x01
0.588011375000000,2285,0x07,0x0F
0.588084375000000,2285,0x00,0x01
0.588158750000000,2285,0x3C,0x00
0.588237625000000,2286,0x32,0x01
0.588312000000000,2286,0x00,0x01
0.588386375000000,2286,0x00,0x01
0.588468625000000,2287,0x34,0x01
0.588543000000000,2287,0x80,0x01
0.588617375000000,2287,0x80,0x01
0.588700125000000,2288,0x32,0x01
0.588774500000000,2288,0x0A,0x01
0.588848875000000,2288,0x22,0x81
0.588928750000000,2289,0x32,0x01
0.589003125000000,2289,0x17,0x01
0.589077500000000,2289,0x20,0x01
0.589157250000000,2290,0x32,0x01
0.589231750000000,2290,0x2C,0x01
0.589306125000000,2290,0x20,0x01
0.589385875000000,2291,0x32,0x00
0.589460250000000,2291,0x20,0x01
0.589534625000000,2291,0x20,0x81
0.589614500000000,2292,0x32,0x01
0.589688875000000,2292,0x20,0x01
0.589763250000000,2292,0xE3,0x01
0.589844500000000,2293,0x07,0x01
0.589918875000000,2293,0x01,0x01
0.589993375000000,2293,0x3C,0x01
0.590329625000000,2294,0x07,0x0D
0.590403000000000,2294,0x00,0x01
0.590477375000000,2294,0x1E,0x01
0.590556250000000,2295,0x32,0x01
0.590630625000000,2295,0x00,0x01
0.590705000000000,2295,0x00,0x01
0.590787250000000,2296,0x34,0x01
0.590861625000000,2296,0x80,0x01
0.590936000000000,2296,0x80,0x01
0.591018750000000,2297,0x32,0x01
0.591093125000000,2297,0x0A,0x01
0.591167625000000,2297,0x22,0x01
0.591247375000000,2298,0x32,0x01
0.591321750000000,2298,0x17,0x01
0.591396125000000,2298,0x20,0x01
0.591476000000000,2299,0x32,0x01
0.591550375000000,2299,0x2D,0x01
0.591624750000000,2299,0x20,0x00
0.591704500000000,2300,0x32,0x01
0.591779000000000,2300,0x20,0x01
0.591853375000000,2300,0x20,0x01
0.591933125000000,2301,0x32,0x01
0.592007500000000,2301,0x20,0x01
0.592082000000000,2301,0xE4,0x01
0.592163250000000,2302,0x07,0x01
0.592237625000000,2302,0x01,0x01
0.592312000000000,2302,0x1E,0x01
0.592649250000000,2303,0x07,0x0F
0.592722125000000,2303,0x00,0x81
0.592796625000000,2303,0x46,0x01
0.592875375000000,2304,0x32,0x01
0.592949750000000,2304,0x00,0x01
0.593024250000000,2304,0x00,0x01
0.593106375000000,2305,0x34,0x01
0.593180875000000,2305,0x80,0x01
0.593255250000000,2305,0x80,0x01
0.593338000000000,2306,0x32,0x01
0.593412375000000,2306,0x0A,0x01
0.593486750000000,2306,0x22,0x01
0.593566500000000,2307,0x32,0x01
0.593641000000000,2307,0x17,0x01
0.593715375000000,2307,0x20,0x01
0.593795125000000,2308,0x32,0x00
0.593869500000000,2308,0x2D,0x01
0.593943875000000,2308,0x20,0x81
0.594023750000000,2309,0x32,0x01
0.594098125000000,2309,0x20,0x01
0.594172500000000,2309,0x20,0x01
0.594252375000000,2310,0x32,0x01
0.594326750000000,2310,0x20,0x01
0.594401125000000,2310,0xE4,0x01
0.594482375000000,2311,0x07,0x01
0.594556750000000,2311,0x01,0x01
0.594631125000000,2311,0x46,0x01
0.594961500000000,2312,0x07,0x0F
0.595035000000000,2312,0x00,0x09
0.595108875000000,2312,0x00,0x01
0.595187625000000,2313,0x32,0x81
0.595262125000000,2313,0x00,0x01
0.595336500000000,2313,0x00,0x01
0.595418750000000,2314,0x34,0x01
0.595493125000000,2314,0x80,0x01
0.595567500000000,2314,0x80,0x01
0.595650250000000,2315,0x32,0x01
0.595724625000000,2315,0x0A,0x01
0.595799000000000,2315,0x22,0x01
0.595878875000000,2316,0x32,0x01
0.595953250000000,2316,0x17,0x01
0.596027625000000,2316,0x20,0x01
0.596107375000000,2317,0x32,0x01
0.596181750000000,2317,0x2D,0x01
0.596256250000000,2317,0x20,0x01
0.596336000000000,2318,0x32,0x01
0.596410375000000,2318,0x20,0x01
0.596484750000000,2318,0x20,0x01
0.596564625000000,2319,0x32,0x01
0.596639000000000,2319,0x20,0x01
0.596713375000000,2319,0xE4,0x01
0.596794625000000,2320,0x07,0x00
0.596869000000000,2320,0x01,0x01
0.596943375000000,2320,0x00,0x01
0.597274750000000,2321,0x07,0x0F
0.597347750000000,2321,0x00,0x01
0.597422125000000,2321,0x28,0x01
0.597500875000000,2322,0x32,0x01
0.597575375000000,2322,0x00,0x01
0.597649750000000,2322,0x00,0x01
0.597732000000000,2323,0x34,0x01
0.597806375000000,2323,0x80,0x01
0.597880750000000,2323,0x80,0x01
0.597963500000000,2324,0x32,0x01
0.598037875000000,2324,0x0A,0x01
0.598112250000000,2324,0x22,0x01
0.598192000000000,2325,0x32,0x81
0.598266500000000,2325,0x17,0x01
0.598340875000000,2325,0x20,0x01
0.598420625000000,2326,0x32,0x01
0.598495000000000,2326,0x2E,0x01
0.598569500000000,2326,0x20,0x01
0.598649250000000,2327,0x32,0x01
0.598723625000000,2327,0x20,0x00
0.598798000000000,2327,0x20,0x01
0.598877875000000,2328,0x32,0x01
0.598952250000000,2328,0x20,0x01
0.599026625000000,2328,0xE5,0x00
0.599107875000000,2329,0x07,0x00
0.599182250000000,2329,0x01,0x01
0.599256625000000,2329,0x28,0x81
0.599589000000000,2330,0x07,0x0F
0.599662000000000,2330,0x00,0x01
0.599736375000000,2330,0x0A,0x01
0.599815125000000,2331,0x32,0x01
0.599889500000000,2331,0x00,0x01
0.599964000000000,2331,0x00,0x01
0.600046250000000,2332,0x34,0x01
0.600120625000000,2332,0x80,0x01
0.600195000000000,2332,0x80,0x01
0.600277750000000,2333,0x32,0x01
0.600352125000000,2333,0x0A,0x01
0.600426500000000,2333,0x22,0x00
0.600506250000000,2334,0x32,0x01
0.600580750000000,2334,0x17,0x01
0.600655125000000,2334,0x20,0x01
0.600734875000000,2335,0x32,0x01
0.600809250000000,2335,0x2E,0x01
0.600883625000000,2335,0x20,0x01
0.600963500000000,2336,0x32,0x01
0.601037875000000,2336,0x20,0x01
0.601112250000000,2336,0x20,0x01
0.601192000000000,2337,0x32,0x01
0.601266500000000,2337,0x20,0x01
0.601340875000000,2337,0xE5,0x01
0.601422125000000,2338,0x07,0x01
0.601496500000000,2338,0x01,0x00
0.601570875000000,2338,0x0A,0x01
0.601904250000000,2339,0x07,0x0F
0.601977125000000,2339,0x00,0x01
0.602051500000000,2339,0x32,0x01
0.602130375000000,2340,0x32,0x01
0.602204750000000,2340,0x00,0x01
0.602279125000000,2340,0x00,0x01
0.602361375000000,2341,0x34,0x01
0.602435750000000,2341,0x80,0x01
0.602510125000000,2341,0x80,0x01
0.602592875000000,2342,0x32,0x01
0.602667250000000,2342,0x0A,0x01
0.602741750000000,2342,0x22,0x01
0.602821500000000,2343,0x32,0x01
0.602895875000000,2343,0x17,0x01
0.602970250000000,2343,0x20,0x01
0.603050000000000,2344,0x32,0x81
0.603124500000000,2344,0x2E,0x01
0.603198875000000,2344,0x20,0x01
0.603278625000000,2345,0x32,0x01
0.603353000000000,2345,0x20,0x01
0.603427500000000,2345,0x20,0x01
0.603507250000000,2346,0x32,0x01
0.603581625000000,2346,0x20,0x01
0.603656000000000,2346,0xE5,0x01
0.603737250000000,2347,0x07,0x01
0.603811750000000,2347,0x01,0x01
0.603886125000000,2347,0x32,0x01
0.604220375000000,2348,0x07,0x0F
0.604293250000000,2348,0x00,0x81
0.604367750000000,2348,0x14,0x01
0.604446500000000,2349,0x32,0x00
0.604520875000000,2349,0x00,0x01
0.604595375000000,2349,0x00,0x01
0.604677500000000,2350,0x34,0x01
0.604752000000000,2350,0x80,0x01
0.604826375000000,2350,0x80,0x01
0.604909125000000,2351,0x32,0x01
0.604983500000000,2351,0x0A,0x01
0.605057875000000,2351,0x22,0x01
0.605137625000000,2352,0x32,0x01
0.605212000000000,2352,0x17,0x81
0.605286500000000,2352,0x20,0x01
0.605366250000000,2353,0x32,0x01
0.605440625000000,2353,0x2F,0x01
0.605515000000000,2353,0x20,0x01
0.605594875000000,2354,0x32,0x01
0.605669250000000,2354,0x20,0x01
0.605743625000000,2354,0x20,0x01
0.605823375000000,2355,0x32,0x01
0.605897875000000,2355,0x20,0x01
0.605972250000000,2355,0xE6,0x01
0.606053500000000,2356,0x07,0x01
0.606127875000000,2356,0x01,0x01
0.606202250000000,2356,0x14,0x01
0.606537500000000,2357,0x07,0x0F
0.606610500000000,2357,0x00,0x01
0.606684875000000,2357,0x3C,0x01
0.606763625000000,2358,0x32,0x01
0.606838125000000,2358,0x00,0x01
0.606912500000000,2358,0x00,0x01
0.606994750000000,2359,0x34,0x01
0.607069125000000,2359,0x80,0x01
0.607143500000000,2359,0x80,0x00
0.607226250000000,2360,0x32,0x01
0.607300625000000,2360,0x0A,0x00
0.607375000000000,2360,0x22,0x01
0.607454875000000,2361,0x32,0x01
0.607529250000000,2361,0x17,0x01
0.607603625000000,2361,0x20,0x01
0.607683375000000,2362,0x32,0x01
0.607757750000000,2362,0x2F,0x81
0.607832250000000,2362,0x20,0x01
0.607912000000000,2363,0x32,0x01
0.607986375000000,2363,0x20,0x01
0.608060750000000,2363,0x20,0x01
0.608140625000000,2364,0x32,0x01
0.608215000000000,2364,0x20,0x01
0.608289375000000,2364,0xE6,0x01
0.608370625000000,2365,0x07,0x00
0.608445000000000,2365,0x01,0x01
0.608519375000000,2365,0x3C,0x81
0.608855625000000,2366,0x07,0x0D
0.608929125000000,2366,0x00,0x01
0.609003500000000,2366,0x1E,0x01
0.609082250000000,2367,0x32,0x01
0.609156750000000,2367,0x00,0x01
0.609231125000000,2367,0x00,0x01
0.609313375000000,2368,0x34,0x01
0.609387750000000,2368,0x80,0x01
0.609462125000000,2368,0x80,0x01
0.609544875000000,2369,0x32,0x01
0.609619250000000,2369,0x0A,0x01
0.609693625000000,2369,0x22,0x01
0.609773500000000,2370,0x32,0x01
0.609847875000000,2370,0x17,0x01
0.609922250000000,2370,0x20,0x00
0.610002000000000,2371,0x32,0x01
0.610076500000000,2371,0x2F,0x01
0.610150875000000,2371,0x20,0x01
0.610230625000000,2372,0x32,0x01
0.610305000000000,2372,0x20,0x01
0.610379375000000,2372,0x20,0x81
0.610459250000000,2373,0x32,0x01
0.610533625000000,2373,0x20,0x01
0.610608000000000,2373,0xE6,0x01
0.610689250000000,2374,0x07,0x01
0.610763625000000,2374,0x01,0x81
0.610838125000000,2374,0x1E,0x01
0.611175250000000,2375,0x07,0x8F
0.611248250000000,2375,0x00,0x01
0.611322625000000,2375,0x46,0x01
0.611401500000000,2376,0x32,0x01
0.611475875000000,2376,0x00,0x01
0.611550250000000,2376,0x00,0x01
0.611632500000000,2377,0x34,0x01
0.611706875000000,2377,0x80,0x01
0.611781250000000,2377,0x80,0x01
0.611864000000000,2378,0x32,0x01
0.611938375000000,2378,0x0A,0x01
0.612012750000000,2378,0x22,0x01
0.612092625000000,2379,0x32,0x01
0.612167000000000,2379,0x17,0x01
0.612241375000000,2379,0x20,0x01
0.612321125000000,2380,0x32,0x01
0.612395625000000,2380,0x30,0x01
0.612470000000000,2380,0x20,0x01
0.612549750000000,2381,0x32,0x00
0.612624125000000,2381,0x20,0x01
0.612698500000000,2381,0x20,0x81
0.612778375000000,2382,0x32,0x01
0.612852750000000,2382,0x20,0x01
0.612927125000000,2382,0xE7,0x01
0.613008375000000,2383,0x07,0x01
0.613082750000000,2383,0x01,0x01
0.613157250000000,2383,0x46,0x01
0.613487625000000,2384,0x07,0x0D
0.613561000000000,2384,0x00,0x09
0.613634875000000,2384,0x00,0x01
0.613713750000000,2385,0x32,0x01
0.613788125000000,2385,0x00,0x01
0.613862500000000,2385,0x00,0x01
0.613944750000000,2386,0x34,0x00
0.614019125000000,2386,0x80,0x01
0.614093500000000,2386,0x80,0x81
0.614176250000000,2387,0x32,0x01
0.614250625000000,2387,0x0A,0x01
0.614325125000000,2387,0x22,0x01
0.614404875000000,2388,0x32,0x01
0.614479250000000,2388,0x17,0x01
0.614553625000000,2388,0x20,0x01
0.614633500000000,2389,0x32,0x01
0.614707875000000,2389,0x30,0x01
0.614782250000000,2389,0x20,0x01
0.614862000000000,2390,0x32,0x01
0.614936500000000,2390,0x20,0x01
0.615010875000000,2390,0x20,0x01
0.615090625000000,2391,0x32,0x00
0.615165000000000,2391,0x20,0x01
0.615239500000000,2391,0xE7,0x01
0.615320750000000,2392,0x07,0x01
0.615395125000000,2392,0x01,0x01
0.615469500000000,2392,0x00,0x01
0.615800875000000,2393,0x07,0x0F
0.615873750000000,2393,0x00,0x01
0.615948250000000,2393,0x28,0x01
0.616027000000000,2394,0x32,0x01
0.616101375000000,2394,0x00,0x01
0.616175750000000,2394,0x00,0x01
0.616258000000000,2395,0x34,0x01
0.616332375000000,2395,0x80,0x81
0.616406875000000,2395,0x80,0x01
0.616489500000000,2396,0x32,0x81
0.616564000000000,2396,0x0A,0x01
0.616638375000000,2396,0x22,0x01
0.616718125000000,2397,0x32,0x01
0.616792500000000,2397,0x17,0x01
0.616867000000000,2397,0x20,0x01
0.616946750000000,2398,0x32,0x01
0.617021125000000,2398,0x31,0x01
0.617095500000000,2398,0x20,0x01
0.617175250000000,2399,0x32,0x81
0.617249750000000,2399,0x20,0x01
0.617324125000000,2399,0x20,0x01
0.617403875000000,2400,0x32,0x01
0.617478250000000,2400,0x20,0x81
0.617552750000000,2400,0xE8,0x01
0.617634000000000,2401,0x07,0x01
0.617708375000000,2401,0x01,0x01
0.617782750000000,2401,0x28,0x01
0.618115125000000,2402,0x07,0x0F
0.618188000000000,2402,0x00,0x01
0.618262500000000,2402,0x0A,0x01
0.618341250000000,2403,0x32,0x01
0.618415625000000,2403,0x00,0x01
0.618490000000000,2403,0x00,0x01
0.618572250000000,2404,0x34,0x01
0.618646625000000,2404,0x80,0x81
0.618721125000000,2404,0x80,0x01
0.618803750000000,2405,0x32,0x81
0.618878250000000,2405,0x0A,0x01
0.618952625000000,2405,0x22,0x01
0.619032375000000,2406,0x32,0x01
0.619106750000000,2406,0x17,0x01
0.619181250000000,2406,0x20,0x01
0.619261000000000,2407,0x32,0x01
0.619335375000000,2407,0x31,0x00
0.619409750000000,2407,0x20,0x01
0.619489625000000,2408,0x32,0x01
0.619564000000000,2408,0x20,0x01
0.619638375000000,2408,0x20,0x01
0.619718125000000,2409,0x32,0x01
0.619792500000000,2409,0x20,0x81
0.619867000000000,2409,0xE8,0x01
0.619948250000000,2410,0x07,0x01
0.620022625000000,2410,0x01,0x01
0.620097000000000,2410,0x0A,0x01
0.620430375000000,2411,0x07,0x0F
0.620503250000000,2411,0x00,0x00
0.620577625000000,2411,0x32,0x01
0.620656500000000,2412,0x32,0x01
0.620730875000000,2412,0x00,0x01
0.620805250000000,2412,0x00,0x01
0.620887500000000,2413,0x34,0x01
0.620961875000000,2413,0x80,0x01
0.621036250000000,2413,0x80,0x01
0.621119000000000,2414,0x32,0x01
0.621193375000000,2414,0x0A,0x01
0.621267875000000,2414,0x22,0x01
0.621347625000000,2415,0x32,0x01
0.621422000000000,2415,0x17,0x01
0.621496375000000,2415,0x20,0x01
0.621576250000000,2416,0x32,0x01
0.621650625000000,2416,0x31,0x01
0.621725000000000,2416,0x20,0x01
0.621804750000000,2417,0x32,0x01
0.621879125000000,2417,0x20,0x01
0.621953625000000,2417,0x20,0x01
0.622033375000000,2418,0x32,0x01
0.622107750000000,2418,0x20,0x01
0.622182125000000,2418,0xE8,0x01
0.622263375000000,2419,0x07,0x01
0.622337875000000,2419,0x01,0x01
0.622412250000000,2419,0x32,0x01
0.622746500000000,2420,0x07,0x0F
0.622819500000000,2420,0x00,0x01
0.622893875000000,2420,0x14,0x01
0.622972625000000,2421,0x32,0x01
0.623047000000000,2421,0x00,0x01
0.623121500000000,2421,0x00,0x01
0.623203750000000,2422,0x34,0x01
0.623278125000000,2422,0x80,0x01
0.623352500000000,2422,0x80,0x01
0.623435250000000,2423,0x32,0x01
0.623509625000000,2423,0x0A,0x01
0.623584000000000,2423,0x22,0x01
0.623663750000000,2424,0x32,0x01
0.623738250000000,2424,0x17,0x01
0.623812625000000,2424,0x20,0x01
0.623892375000000,2425,0x32,0x01
0.623966750000000,2425,0x31,0x01
0.624041125000000,2425,0x20,0x81
0.624121000000000,2426,0x32,0x01
0.624195375000000,2426,0x20,0x01
0.624269750000000,2426,0x20,0x01
0.624349500000000,2427,0x32,0x81
0.624424000000000,2427,0x20,0x01
0.624498375000000,2427,0xE8,0x01
0.624579625000000,2428,0x07,0x01
0.624654000000000,2428,0x01,0x01
0.624728375000000,2428,0x14,0x01
0.625063625000000,2429,0x07,0x8F
0.625136625000000,2429,0x00,0x01
0.625211000000000,2429,0x3C,0x01
0.625289875000000,2430,0x32,0x01
0.625364250000000,2430,0x00,0x01
0.625438625000000,2430,0x00,0x01
0.625520875000000,2431,0x34,0x01
0.625595250000000,2431,0x80,0x00
0.625669625000000,2431,0x80,0x01
0.625752375000000,2432,0x32,0x01
0.625826750000000,2432,0x0A,0x01
0.625901125000000,2432,0x22,0x81
0.625981000000000,2433,0x32,0x01
0.626055375000000,2433,0x17,0x01
0.626129750000000,2433,0x20,0x01
0.626209500000000,2434,0x32,0x81
0.626284000000000,2434,0x32,0x01
0.626358375000000,2434,0x20,0x01
0.626438125000000,2435,0x32,0x01
0.626512500000000,2435,0x20,0x01
0.626587000000000,2435,0x20,0x01
0.626666750000000,2436,0x32,0x01
0.626741125000000,2436,0x20,0x01
0.626815500000000,2436,0xE9,0x01
0.626896750000000,2437,0x07,0x01
0.626971250000000,2437,0x01,0x01
0.627045625000000,2437,0x3C,0x01
0.627381875000000,2438,0x07,0x0D
0.627455250000000,2438,0x00,0x01
0.627529625000000,2438,0x1E,0x01
0.627608500000000,2439,0x32,0x01
0.627682875000000,2439,0x00,0x01
0.627757250000000,2439,0x00,0x01
0.627839500000000,2440,0x34,0x01
0.627913875000000,2440,0x80,0x01
0.627988250000000,2440,0x80,0x01
0.628071000000000,2441,0x32,0x01
0.628145375000000,2441,0x0A,0x01
0.628219875000000,2441,0x22,0x01
0.628299625000000,2442,0x32,0x01
0.628374000000000,2442,0x17,0x00
0.628448375000000,2442,0x20,0x01
0.628528250000000,2443,0x32,0x01
0.628602625000000,2443,0x32,0x01
0.628677000000000,2443,0x20,0x01
0.628756750000000,2444,0x32,0x01
0.628831125000000,2444,0x20,0x81
0.628905625000000,2444,0x20,0x01
0.628985375000000,2445,0x32,0x01
0.629059750000000,2445,0x20,0x01
0.629134125000000,2445,0xE9,0x81
0.629215500000000,2446,0x07,0x01
0.629289875000000,2446,0x01,0x01
0.629364250000000,2446,0x1E,0x01
0.629701500000000,2447,0x07,0x0F
0.629774375000000,2447,0x00,0x01
0.629848750000000,2447,0x46,0x01
0.629927625000000,2448,0x32,0x01
0.630002000000000,2448,0x00,0x01
0.630076375000000,2448,0x00,0x01
0.630158625000000,2449,0x34,0x01
0.630233000000000,2449,0x80,0x01
0.630307500000000,2449,0x80,0x01
0.630390125000000,2450,0x32,0x01
0.630464625000000,2450,0x0A,0x01
0.630539000000000,2450,0x22,0x01
0.630618750000000,2451,0x32,0x01
0.630693125000000,2451,0x17,0x01
0.630767625000000,2451,0x20,0x01
0.630847375000000,2452,0x32,0x01
0.630921750000000,2452,0x32,0x01
0.630996125000000,2452,0x20,0x01
0.631076000000000,2453,0x32,0x01
0.631150375000000,2453,0x20,0x01
0.631224750000000,2453,0x20,0x01
0.631304500000000,2454,0x32,0x01
0.631379000000000,2454,0x20,0x01
0.631453375000000,2454,0xE9,0x01
0.631534625000000,2455,0x07,0x01
0.631609000000000,2455,0x01,0x01
0.631683375000000,2455,0x46,0x01
0.632013750000000,2456,0x07,0x0D
0.632087250000000,2456,0x00,0x09
0.632161125000000,2456,0x00,0x01
0.632239875000000,2457,0x32,0x01
0.632314375000000,2457,0x00,0x01
0.632388750000000,2457,0x00,0x01
0.632471000000000,2458,0x34,0x01
0.632545375000000,2458,0x80,0x01
0.632619750000000,2458,0x80,0x01
0.632702500000000,2459,0x32,0x01
0.632776875000000,2459,0x0A,0x00
0.632851250000000,2459,0x22,0x01
0.632931125000000,2460,0x32,0x01
0.633005500000000,2460,0x17,0x01
0.633079875000000,2460,0x20,0x01
0.633159625000000,2461,0x32,0x01
0.633234125000000,2461,0x32,0x01
0.633308500000000,2461,0x20,0x01
0.633388250000000,2462,0x32,0x01
0.633462625000000,2462,0x20,0x01
0.633537000000000,2462,0x20,0x01
0.633616875000000,2463,0x32,0x01
0.633691250000000,2463,0x20,0x01
0.633765625000000,2463,0xE9,0x01
0.633846875000000,2464,0x07,0x01
0.633921250000000,2464,0x01,0x01
0.633995750000000,2464,0x00,0x01
0.634327000000000,2465,0x07,0x0F
0.634400000000000,2465,0x00,0x01
0.634474375000000,2465,0x28,0x01
0.634553125000000,2466,0x32,0x81
0.634627625000000,2466,0x00,0x01
0.634702000000000,2466,0x00,0x01
0.634784250000000,2467,0x34,0x01
0.634858625000000,2467,0x80,0x01
0.634933000000000,2467,0x80,0x01
0.635015750000000,2468,0x32,0x01
0.635090125000000,2468,0x0A,0x01
0.635164500000000,2468,0x22,0x01
0.635244375000000,2469,0x32,0x01
0.635318750000000,2469,0x17,0x01
0.635393125000000,2469,0x20,0x01
0.635472875000000,2470,0x32,0x01
0.635547250000000,2470,0x33,0x81
0.635621750000000,2470,0x20,0x01
0.635701500000000,2471,0x32,0x01
0.635775875000000,2471,0x20,0x01
0.635850250000000,2471,0x20,0x01
0.635930125000000,2472,0x32,0x01
0.636004500000000,2472,0x20,0x01
0.636078875000000,2472,0xEA,0x01
0.636160125000000,2473,0x07,0x01
0.636234500000000,2473,0x01,0x01
0.636309000000000,2473,0x28,0x01
0.636641250000000,2474,0x07,0x0F
0.636714250000000,2474,0x00,0x01
0.636788625000000,2474,0x0A,0x01
0.636867375000000,2475,0x32,0x01
0.636941875000000,2475,0x00,0x01
0.637016250000000,2475,0x00,0x01
0.637098500000000,2476,0x34,0x01
0.637172875000000,2476,0x80,0x01
0.637247250000000,2476,0x80,0x01
0.637330000000000,2477,0x32,0x01
0.637404375000000,2477,0x0A,0x01
0.637478750000000,2477,0x22,0x01
0.637558500000000,2478,0x32,0x81
0.637633000000000,2478,0x17,0x01
0.637707375000000,2478,0x20,0x01
0.637787125000000,2479,0x32,0x01
0.637861500000000,2479,0x33,0x01
0.637936000000000,2479,0x20,0x01
0.638015750000000,2480,0x32,0x01
0.638090125000000,2480,0x20,0x00
0.638164500000000,2480,0x20,0x01
0.638244375000000,2481,0x32,0x01
0.638318750000000,2481,0x20,0x01
0.638393125000000,2481,0xEA,0x01
0.638474375000000,2482,0x07,0x01
0.638548750000000,2482,0x01,0x01
0.638623125000000,2482,0x0A,0x81
0.638956500000000,2483,0x07,0x0F
0.639029375000000,2483,0x00,0x01
0.639103875000000,2483,0x32,0x01
0.639182625000000,2484,0x32,0x01
0.639257000000000,2484,0x00,0x01
0.639331375000000,2484,0x00,0x01
0.639413625000000,2485,0x34,0x01
0.639488000000000,2485,0x80,0x81
0.639562500000000,2485,0x80,0x01
0.639645125000000,2486,0x32,0x81
0.639719625000000,2486,0x0A,0x01
0.639794000000000,2486,0x22,0x01
0.639873750000000,2487,0x32,0x01
0.639948125000000,2487,0x17,0x01
0.640022625000000,2487,0x20,0x01
0.640102375000000,2488,0x32,0x01
0.640176750000000,2488,0x33,0x01
0.640251125000000,2488,0x20,0x01
0.640331000000000,2489,0x32,0x01
0.640405375000000,2489,0x20,0x01
0.640479750000000,2489,0x20,0x01
0.640559500000000,2490,0x32,0x01
0.640634000000000,2490,0x20,0x01
0.640708375000000,2490,0xEA,0x01
0.640789625000000,2491,0x07,0x01
0.640864000000000,2491,0x01,0x00
0.640938375000000,2491,0x32,0x01
0.641272750000000,2492,0x07,0x0F
0.641345625000000,2492,0x00,0x00
0.641420000000000,2492,0x14,0x01
0.641498875000000,2493,0x32,0x01
0.641573250000000,2493,0x00,0x01
0.641647625000000,2493,0x00,0x01
0.641729875000000,2494,0x34,0x01
0.641804250000000,2494,0x80,0x01
0.641878625000000,2494,0x80,0x81
0.641961375000000,2495,0x32,0x01
0.642035750000000,2495,0x0A,0x81
0.642110250000000,2495,0x22,0x01
0.642190000000000,2496,0x32,0x01
0.642264375000000,2496,0x17,0x01
0.642338750000000,2496,0x20,0x01
0.642418625000000,2497,0x32,0x01
0.642493000000000,2497,0x34,0x01
0.642567375000000,2497,0x20,0x01
0.642647125000000,2498,0x32,0x01
0.642721625000000,2498,0x20,0x01
0.642796000000000,2498,0x20,0x01
0.642875750000000,2499,0x32,0x01
0.642950125000000,2499,0x20,0x01
0.643024625000000,2499,0xEB,0x01
0.643105875000000,2500,0x07,0x01
0.643180250000000,2500,0x01,0x01
0.643254625000000,2500,0x14,0x01
0.643589875000000,2501,0x07,0x0F
0.643662875000000,2501,0x00,0x01
0.643737250000000,2501,0x3C,0x01
0.643816000000000,2502,0x32,0x01
0.643890500000000,2502,0x00,0x01
0.643964875000000,2502,0x00,0x01
0.644047125000000,2503,0x34,0x01
0.644121500000000,2503,0x80,0x01
0.644195875000000,2503,0x80,0x01
0.644278625000000,2504,0x32,0x01
0.644353000000000,2504,0x0A,0x01
0.644427375000000,2504,0x22,0x01
0.644507250000000,2505,0x32,0x01
0.644581625000000,2505,0x17,0x01
0.644656000000000,2505,0x20,0x01
0.644735750000000,2506,0x32,0x01
0.644810125000000,2506,0x34,0x01
0.644884625000000,2506,0x20,0x01
0.644964375000000,2507,0x32,0x01
0.645038750000000,2507,0x20,0x00
0.645113125000000,2507,0x20,0x01
0.645193000000000,2508,0x32,0x01
0.645267375000000,2508,0x20,0x01
0.645341750000000,2508,0xEB,0x01
0.645423000000000,2509,0x07,0x01
0.645497375000000,2509,0x01,0x01
0.645571750000000,2509,0x3C,0x01
0.645908000000000,2510,0x07,0x0D
0.645981500000000,2510,0x00,0x01
0.646055875000000,2510,0x1E,0x01
0.646134625000000,2511,0x32,0x81
0.646209125000000,2511,0x00,0x01
0.646283500000000,2511,0x00,0x01
0.646365750000000,2512,0x34,0x01
0.646440125000000,2512,0x80,0x01
0.646514500000000,2512,0x80,0x01
0.646597250000000,2513,0x32,0x01
0.646671625000000,2513,0x0A,0x00
0.646746000000000,2513,0x22,0x01
0.646825875000000,2514,0x32,0x01
0.646900250000000,2514,0x17,0x01
0.646974625000000,2514,0x20,0x01
0.647054375000000,2515,0x32,0x01
0.647128750000000,2515,0x34,0x01
0.647203250000000,2515,0x20,0x01
0.647283000000000,2516,0x32,0x01
0.647357375000000,2516,0x20,0x01
0.647431750000000,2516,0x20,0x01
0.647511625000000,2517,0x32,0x01
0.647586000000000,2517,0x20,0x01
0.647660375000000,2517,0xEB,0x01
0.647741625000000,2518,0x07,0x01
0.647816000000000,2518,0x01,0x01
0.647890375000000,2518,0x1E,0x01
0.648227625000000,2519,0x07,0x0F
0.648300625000000,2519,0x00,0x01
0.648375000000000,2519,0x46,0x01
0.648453750000000,2520,0x32,0x01
0.648528125000000,2520,0x00,0x01
0.648602625000000,2520,0x00,0x01
0.648684875000000,2521,0x34,0x01
0.648759250000000,2521,0x80,0x01
0.648833625000000,2521,0x80,0x01
0.648916375000000,2522,0x32,0x01
0.648990750000000,2522,0x0A,0x01
0.649065125000000,2522,0x22,0x01
0.649144875000000,2523,0x32,0x01
0.649219375000000,2523,0x17,0x01
0.649293750000000,2523,0x20,0x01
0.649373500000000,2524,0x32,0x01
0.649447875000000,2524,0x35,0x01
0.649522250000000,2524,0x20,0x01
0.649602125000000,2525,0x32,0x01
0.649676500000000,2525,0x20,0x01
0.649750875000000,2525,0x20,0x01
0.649830625000000,2526,0x32,0x01
0.649905125000000,2526,0x20,0x01
0.649979500000000,2526,0xEC,0x01
0.650060750000000,2527,0x07,0x01
0.650135125000000,2527,0x01,0x01
0.650209500000000,2527,0x46,0x01
0.650539875000000,2528,0x07,0x0D
0.650613375000000,2528,0x00,0x09
0.650687250000000,2528,0x00,0x01
0.650766000000000,2529,0x32,0x01
0.650840375000000,2529,0x00,0x01
0.650914875000000,2529,0x00,0x01
0.650997000000000,2530,0x34,0x81
0.651071500000000,2530,0x80,0x01
0.651145875000000,2530,0x80,0x01
0.651228625000000,2531,0x32,0x01
0.651303000000000,2531,0x0A,0x01
0.651377375000000,2531,0x22,0x01
0.651457125000000,2532,0x32,0x01
0.651531625000000,2532,0x17,0x01
0.651606000000000,2532,0x20,0x01
0.651685750000000,2533,0x32,0x01
0.651760125000000,2533,0x35,0x01
0.651834500000000,2533,0x20,0x01
0.651914375000000,2534,0x32,0x01
0.651988750000000,2534,0x20,0x01
0.652063125000000,2534,0x20,0x00
0.652142875000000,2535,0x32,0x01
0.652217375000000,2535,0x20,0x01
0.652291750000000,2535,0xEC,0x01
0.652373000000000,2536,0x07,0x01
0.652447375000000,2536,0x01,0x01
0.652521750000000,2536,0x00,0x01
0.652853125000000,2537,0x07,0x0D
0.652926500000000,2537,0x00,0x81
0.653001000000000,2537,0x28,0x01
0.653079750000000,2538,0x32,0x01
0.653154125000000,2538,0x00,0x01
0.653228625000000,2538,0x00,0x01
0.653310750000000,2539,0x34,0x01
0.653385250000000,2539,0x80,0x01
0.653459625000000,2539,0x80,0x01
0.653542375000000,2540,0x32,0x01
0.653616750000000,2540,0x0A,0x01
0.653691125000000,2540,0x22,0x01
0.653770875000000,2541,0x32,0x01
0.653845375000000,2541,0x17,0x01
0.653919750000000,2541,0x20,0x01
0.653999500000000,2542,0x32,0x01
0.654073875000000,2542,0x36,0x01
0.654148250000000,2542,0x20,0x01
0.654228125000000,2543,0x32,0x01
0.654302500000000,2543,0x20,0x01
0.654376875000000,2543,0x20,0x00
0.654456625000000,2544,0x32,0x01
0.654531125000000,2544,0x20,0x01
0.654605500000000,2544,0xED,0x01
0.654686750000000,2545,0x07,0x01
0.654761125000000,2545,0x01,0x01
0.654835500000000,2545,0x28,0x01
0.655167875000000,2546,0x07,0x0F
0.655240750000000,2546,0x00,0x01
0.655315250000000,2546,0x0A,0x01
0.655394000000000,2547,0x32,0x01
0.655468375000000,2547,0x00,0x01
0.655542750000000,2547,0x00,0x01
0.655625000000000,2548,0x34,0x01
0.655699375000000,2548,0x80,0x01
0.655773875000000,2548,0x80,0x01
0.655856500000000,2549,0x32,0x01
0.655931000000000,2549,0x0A,0x01
0.656005375000000,2549,0x22,0x01
0.656085125000000,2550,0x32,0x01
0.656159500000000,2550,0x17,0x01
0.656234000000000,2550,0x20,0x01
0.656313750000000,2551,0x32,0x01
0.656388125000000,2551,0x36,0x01
0.656462500000000,2551,0x20,0x01
0.656542375000000,2552,0x32,0x01
0.656616750000000,2552,0x20,0x01
0.656691125000000,2552,0x20,0x00
0.656770875000000,2553,0x32,0x01
0.656845375000000,2553,0x20,0x01
0.656919750000000,2553,0xED,0x01
0.657001000000000,2554,0x07,0x01
0.657075375000000,2554,0x01,0x00
0.657149750000000,2554,0x0A,0x01
0.657483125000000,2555,0x07,0x0F
0.657556000000000,2555,0x00,0x01
0.657630375000000,2555,0x32,0x01
0.657709250000000,2556,0x32,0x01
0.657783625000000,2556,0x00,0x00
0.657858000000000,2556,0x00,0x01
0.657940250000000,2557,0x34,0x01
0.658014625000000,2557,0x80,0x01
0.658089125000000,2557,0x80,0x01
0.658171750000000,2558,0x32,0x01
0.658246250000000,2558,0x0A,0x01
0.658320625000000,2558,0x22,0x01
0.658400375000000,2559,0x32,0x00
0.658474750000000,2559,0x17,0x01
0.658549250000000,2559,0x20,0x01
0.658629000000000,2560,0x32,0x01
0.658703375000000,2560,0x37,0x01
0.658777750000000,2560,0x20,0x01
0.658857500000000,2561,0x32,0x01
0.658932000000000,2561,0x20,0x01
0.659006375000000,2561,0x20,0x01
0.659086125000000,2562,0x32,0x01
0.659160500000000,2562,0x20,0x01
0.659235000000000,2562,0xEE,0x01
0.659316250000000,2563,0x07,0x01
0.659390625000000,2563,0x01,0x01
0.659465000000000,2563,0x32,0x01
0.659799375000000,2564,0x07,0x0F
0.659872250000000,2564,0x00,0x01
0.659946625000000,2564,0x14,0x01
0.660025500000000,2565,0x32,0x01
0.660099875000000,2565,0x00,0x01
0.660174250000000,2565,0x00,0x01
0.660256500000000,2566,0x34,0x01
0.660330875000000,2566,0x80,0x00
0.660405250000000,2566,0x80,0x01
0.660488000000000,2567,0x32,0x01
0.660562375000000,2567,0x0A,0x01
0.660636750000000,2567,0x22,0x01
0.660716625000000,2568,0x32,0x01
0.660791000000000,2568,0x17,0x01
0.660865375000000,2568,0x20,0x01
0.660945125000000,2569,0x32,0x01
0.661019625000000,2569,0x37,0x01
0.661094000000000,2569,0x20,0x01
0.661173750000000,2570,0x32,0x00
0.661248125000000,2570,0x20,0x01
0.661322500000000,2570,0x20,0x81
0.661402375000000,2571,0x32,0x01
0.661476750000000,2571,0x20,0x01
0.661551125000000,2571,0xEE,0x01
0.661632375000000,2572,0x07,0x01
0.661706750000000,2572,0x01,0x01
0.661781250000000,2572,0x14,0x01
0.662116500000000,2573,0x07,0x0F
0.662189375000000,2573,0x00,0x01
0.662263750000000,2573,0x3C,0x01
0.662342625000000,2574,0x32,0x01
0.662417000000000,2574,0x00,0x01
0.662491375000000,2574,0x00,0x01
0.662573625000000,2575,0x34,0x01
0.662648000000000,2575,0x80,0x01
0.662722375000000,2575,0x80,0x01
0.662805125000000,2576,0x32,0x01
0.662879500000000,2576,0x0A,0x01
0.662954000000000,2576,0x22,0x01
0.663033750000000,2577,0x32,0x01
0.663108125000000,2577,0x17,0x00
0.663182500000000,2577,0x20,0x01
0.663262375000000,2578,0x32,0x01
0.663336750000000,2578,0x37,0x01
0.663411125000000,2578,0x20,0x01
0.663490875000000,2579,0x32,0x01
0.663565250000000,2579,0x20,0x01
0.663639750000000,2579,0x20,0x01
0.663719500000000,2580,0x32,0x01
0.663793875000000,2580,0x20,0x01
0.663868250000000,2580,0xEE,0x01
0.663949500000000,2581,0x07,0x01
0.664024000000000,2581,0x01,0x01
0.664098375000000,2581,0x3C,0x01
0.664434625000000,2582,0x07,0x0D
0.664508000000000,2582,0x00,0x01
0.664582375000000,2582,0x1E,0x01
0.664661250000000,2583,0x32,0x01
0.664735625000000,2583,0x00,0x01
0.664810000000000,2583,0x00,0x01
0.664892250000000,2584,0x34,0x01
0.664966625000000,2584,0x80,0x01
0.665041000000000,2584,0x80,0x81
0.665123750000000,2585,0x32,0x01
0.665198125000000,2585,0x0A,0x01
0.665272625000000,2585,0x22,0x01
0.665352375000000,2586,0x32,0x01
0.665426750000000,2586,0x17,0x01
0.665501125000000,2586,0x20,0x01
0.665581000000000,2587,0x32,0x01
0.665655375000000,2587,0x38,0x01
0.665729750000000,2587,0x20,0x01
0.665809500000000,2588,0x32,0x01
0.665883875000000,2588,0x20,0x81
0.665958375000000,2588,0x20,0x01
0.666038125000000,2589,0x32,0x01
0.666112500000000,2589,0x20,0x01
0.666186875000000,2589,0xEF,0x81
0.666268125000000,2590,0x07,0x81
0.666342625000000,2590,0x01,0x01
0.666417000000000,2590,0x1E,0x01
0.666754250000000,2591,0x07,0x0F
0.666827125000000,2591,0x00,0x01
0.666901500000000,2591,0x46,0x01
0.666980375000000,2592,0x32,0x01
0.667054750000000,2592,0x00,0x01
0.667129125000000,2592,0x00,0x01
0.667211375000000,2593,0x34,0x01
0.667285750000000,2593,0x80,0x01
0.667360125000000,2593,0x80,0x01
0.667442875000000,2594,0x32,0x01
0.667517250000000,2594,0x0A,0x01
0.667591750000000,2594,0x22,0x01
0.667671500000000,2595,0x32,0x01
0.667745875000000,2595,0x17,0x01
0.667820250000000,2595,0x20,0x01
0.667900125000000,2596,0x32,0x01
0.667974500000000,2596,0x38,0x01
0.668048875000000,2596,0x20,0x00
0.668128625000000,2597,0x32,0x01
0.668203125000000,2597,0x20,0x01
0.668277500000000,2597,0x20,0x01
0.668357250000000,2598,0x32,0x00
0.668431625000000,2598,0x20,0x01
0.668506125000000,2598,0xEF,0x01
0.668587375000000,2599,0x07,0x01
0.668661750000000,2599,0x01,0x01
0.668736125000000,2599,0x46,0x01
0.669066500000000,2600,0x07,0x0D
0.669139875000000,2600,0x00,0x09
0.669213875000000,2600,0x00,0x01
0.669292625000000,2601,0x32,0x01
0.669367000000000,2601,0x00,0x01
0.669441500000000,2601,0x00,0x01
0.669523625000000,2602,0x34,0x01
0.669598125000000,2602,0x80,0x01
0.669672500000000,2602,0x80,0x01
0.669755250000000,2603,0x32,0x01
0.669829625000000,2603,0x0A,0x01
0.669904000000000,2603,0x22,0x01
0.669983750000000,2604,0x32,0x01
0.670058250000000,2604,0x17,0x01
0.670132625000000,2604,0x20,0x01
0.670212375000000,2605,0x32,0x01
0.670286750000000,2605,0x38,0x01
0.670361125000000,2605,0x20,0x01
0.670441000000000,2606,0x32,0x01
0.670515375000000,2606,0x20,0x01
0.670589750000000,2606,0x20,0x01
0.670669500000000,2607,0x32,0x81
0.670744000000000,2607,0x20,0x01
0.670818375000000,2607,0xEF,0x01
0.670899625000000,2608,0x07,0x01
0.670974000000000,2608,0x01,0x01
0.671048375000000,2608,0x00,0x01
0.671379750000000,2609,0x07,0x0D
0.671453250000000,2609,0x00,0x01
0.671527625000000,2609,0x28,0x01
0.671606375000000,2610,0x32,0x01
0.671680875000000,2610,0x00,0x01
0.671755250000000,2610,0x00,0x01
0.671837500000000,2611,0x34,0x01
0.671911875000000,2611,0x80,0x01
0.671986250000000,2611,0x80,0x01
0.672069000000000,2612,0x32,0x01
0.672143375000000,2612,0x0A,0x01
0.672217750000000,2612,0x22,0x01
0.672297625000000,2613,0x32,0x01
0.672372000000000,2613,0x17,0x01
0.672446375000000,2613,0x20,0x01
0.672526125000000,2614,0x32,0x01
0.672600500000000,2614,0x38,0x81
0.672675000000000,2614,0x20,0x01
0.672754750000000,2615,0x32,0x01
0.672829125000000,2615,0x20,0x01
0.672903500000000,2615,0x20,0x01
0.672983375000000,2616,0x32,0x01
0.673057750000000,2616,0x20,0x01
0.673132125000000,2616,0xEF,0x01
0.673213375000000,2617,0x07,0x01
0.673287750000000,2617,0x01,0x01
0.673362250000000,2617,0x28,0x01
0.673694500000000,2618,0x07,0x0F
0.673767500000000,2618,0x00,0x01
0.673841875000000,2618,0x0A,0x01
0.673920625000000,2619,0x32,0x81
0.673995125000000,2619,0x00,0x01
0.674069500000000,2619,0x00,0x01
0.674151750000000,2620,0x34,0x01
0.674226125000000,2620,0x80,0x01
0.674300500000000,2620,0x80,0x01
0.674383250000000,2621,0x32,0x01
0.674457625000000,2621,0x0A,0x01
0.674532000000000,2621,0x22,0x01
0.674611875000000,2622,0x32,0x01
0.674686250000000,2622,0x17,0x01
0.674760625000000,2622,0x20,0x01
0.674840375000000,2623,0x32,0x01
0.674914875000000,2623,0x38,0x01
0.674989250000000,2623,0x20,0x01
0.675069000000000,2624,0x32,0x01
0.675143375000000,2624,0x20,0x01
0.675217875000000,2624,0x20,0x01
0.675297625000000,2625,0x32,0x01
0.675372000000000,2625,0x20,0x01
0.675446375000000,2625,0xEF,0x01
0.675527625000000,2626,0x07,0x01
0.675602125000000,2626,0x01,0x01
0.675676500000000,2626,0x0A,0x01
0.676009750000000,2627,0x07,0x0F
0.676082750000000,2627,0x00,0x01
0.676157125000000,2627,0x32,0x01
0.676235875000000,2628,0x32,0x01
0.676310375000000,2628,0x00,0x01
0.676384750000000,2628,0x00,0x01
0.676467000000000,2629,0x34,0x01
0.676541375000000,2629,0x80,0x01
0.676615750000000,2629,0x80,0x01
0.676698500000000,2630,0x32,0x01
0.676772875000000,2630,0x0A,0x01
0.676847250000000,2630,0x22,0x81
0.676927125000000,2631,0x32,0x01
0.677001500000000,2631,0x17,0x01
0.677075875000000,2631,0x20,0x01
0.677155750000000,2632,0x32,0x01
0.677230125000000,2632,0x38,0x01
0.677304500000000,2632,0x20,0x01
0.677384250000000,2633,0x32,0x01
0.677458625000000,2633,0x20,0x01
0.677533125000000,2633,0x20,0x01
0.677612875000000,2634,0x32,0x01
0.677687250000000,2634,0x20,0x01
0.677761625000000,2634,0xEF,0x01
0.677842875000000,2635,0x07,0x01
0.677917375000000,2635,0x01,0x01
0.677991750000000,2635,0x32,0x01
0.678326000000000,2636,0x07,0x0F
0.678399000000000,2636,0x00,0x01
0.678473375000000,2636,0x14,0x01
0.678552125000000,2637,0x32,0x01
0.678626500000000,2637,0x00,0x81
0.678701000000000,2637,0x00,0x01
0.678783250000000,2638,0x34,0x01
0.678857625000000,2638,0x80,0x01
0.678932000000000,2638,0x80,0x01
0.679014750000000,2639,0x32,0x01
0.679089125000000,2639,0x0A,0x01
0.679163500000000,2639,0x22,0x00
0.679243250000000,2640,0x32,0x01
0.679317750000000,2640,0x17,0x01
0.679392125000000,2640,0x20,0x01
0.679471875000000,2641,0x32,0x01
0.679546250000000,2641,0x39,0x01
0.679620625000000,2641,0x20,0x01
0.679700500000000,2642,0x32,0x01
0.679774875000000,2642,0x20,0x01
0.679849250000000,2642,0x20,0x01
0.679929000000000,2643,0x32,0x01
0.680003500000000,2643,0x20,0x01
0.680077875000000,2643,0xF0,0x01
0.680159125000000,2644,0x07,0x01
0.680233500000000,2644,0x01,0x01
0.680307875000000,2644,0x14,0x01
0.680643125000000,2645,0x07,0x0F
0.680716125000000,2645,0x00,0x01
0.680790500000000,2645,0x3C,0x00
0.680869375000000,2646,0x32,0x01
0.680943750000000,2646,0x00,0x01
0.681018125000000,2646,0x00,0x01
0.681100375000000,2647,0x34,0x01
0.681174750000000,2647,0x80,0x01
0.681249125000000,2647,0x80,0x01
0.681331875000000,2648,0x32,0x01
0.681406250000000,2648,0x0A,0x01
0.681480625000000,2648,0x22,0x01
0.681560500000000,2649,0x32,0x01
0.681634875000000,2649,0x17,0x01
0.681709250000000,2649,0x20,0x01
0.681789000000000,2650,0x32,0x01
0.681863500000000,2650,0x39,0x01
0.681937875000000,2650,0x20,0x01
0.682017625000000,2651,0x32,0x01
0.682092000000000,2651,0x20,0x01
0.682166500000000,2651,0x20,0x01
0.682246250000000,2652,0x32,0x01
0.682320625000000,2652,0x20,0x00
0.682395000000000,2652,0xF0,0x01
0.682476250000000,2653,0x07,0x01
0.682550750000000,2653,0x01,0x01
0.682625125000000,2653,0x3C,0x01
0.682961375000000,2654,0x07,0x0D
0.683034750000000,2654,0x00,0x01
0.683109125000000,2654,0x1E,0x01
0.683188000000000,2655,0x32,0x01
0.683262375000000,2655,0x00,0x01
0.683336750000000,2655,0x00,0x01
0.683419000000000,2656,0x34,0x01
0.683493375000000,2656,0x80,0x00
0.683567750000000,2656,0x80,0x01
0.683650500000000,2657,0x32,0x01
0.683724875000000,2657,0x0A,0x01
0.683799250000000,2657,0x22,0x01
0.683879125000000,2658,0x32,0x01
0.683953500000000,2658,0x17,0x01
0.684027875000000,2658,0x20,0x01
0.684107625000000,2659,0x32,0x81
0.684182125000000,2659,0x3A,0x01
0.684256500000000,2659,0x20,0x01
0.684336250000000,2660,0x32,0x01
0.684410625000000,2660,0x20,0x01
0.684485125000000,2660,0x20,0x01
0.684564875000000,2661,0x32,0x01
0.684639250000000,2661,0x20,0x01
0.684713625000000,2661,0xF1,0x01
0.684794875000000,2662,0x07,0x01
0.684869375000000,2662,0x01,0x01
0.684943750000000,2662,0x1E,0x01
0.685281000000000,2663,0x07,0x0F
0.685353875000000,2663,0x00,0x01
0.685428250000000,2663,0x46,0x01
0.685507125000000,2664,0x32,0x01
0.685581500000000,2664,0x00,0x00
0.685655875000000,2664,0x00,0x01
0.685738125000000,2665,0x34,0x01
0.685812500000000,2665,0x80,0x01
0.685887000000000,2665,0x80,0x01
0.685969625000000,2666,0x32,0x01
0.686044125000000,2666,0x0A,0x01
0.686118500000000,2666,0x22,0x01
0.686198250000000,2667,0x32,0x01
0.686272625000000,2667,0x17,0x01
0.686347125000000,2667,0x20,0x01
0.686426875000000,2668,0x32,0x01
0.686501250000000,2668,0x3A,0x01
0.686575625000000,2668,0x20,0x01
0.686655500000000,2669,0x32,0x01
0.686729875000000,2669,0x20,0x01
0.686804250000000,2669,0x20,0x01
0.686884000000000,2670,0x32,0x01
0.686958500000000,2670,0x20,0x01
0.687032875000000,2670,0xF1,0x01
0.687114125000000,2671,0x07,0x01
0.687188500000000,2671,0x01,0x00
0.687262875000000,2671,0x46,0x01
0.687593250000000,2672,0x07,0x0D
0.687666750000000,2672,0x00,0x09
0.687740625000000,2672,0x00,0x01
0.687819375000000,2673,0x32,0x01
0.687893875000000,2673,0x00,0x01
0.687968250000000,2673,0x00,0x01
0.688050500000000,2674,0x34,0x01
0.688124875000000,2674,0x80,0x01
0.688199250000000,2674,0x80,0x01
0.688282000000000,2675,0x32,0x01
0.688356375000000,2675,0x0A,0x01
0.688430750000000,2675,0x22,0x01
0.688510500000000,2676,0x32,0x81
0.688585000000000,2676,0x17,0x01
0.688659375000000,2676,0x20,0x01
0.688739125000000,2677,0x32,0x01
0.688813500000000,2677,0x3A,0x01
0.688888000000000,2677,0x20,0x01
0.688967750000000,2678,0x32,0x01
0.689042125000000,2678,0x20,0x01
0.689116500000000,2678,0x20,0x01
0.689196375000000,2679,0x32,0x01
0.689270750000000,2679,0x20,0x01
0.689345125000000,2679,0xF1,0x00
0.689426375000000,2680,0x07,0x01
0.689500750000000,2680,0x01,0x01
0.689575250000000,2680,0x00,0x01
0.689906500000000,2681,0x07,0x0F
0.689979500000000,2681,0x00,0x01
0.690053875000000,2681,0x28,0x01
0.690132750000000,2682,0x32,0x01
0.690207125000000,2682,0x00,0x01
0.690281500000000,2682,0x00,0x01
0.690363750000000,2683,0x34,0x01
0.690438125000000,2683,0x80,0x01
0.690512500000000,2683,0x80,0x01
0.690595250000000,2684,0x32,0x01
0.690669625000000,2684,0x0A,0x01
0.690744000000000,2684,0x22,0x01
0.690823875000000,2685,0x32,0x01
0.690898250000000,2685,0x17,0x01
0.690972625000000,2685,0x20,0x00
0.691052375000000,2686,0x32,0x01
0.691126875000000,2686,0x3B,0x01
0.691201250000000,2686,0x20,0x01
0.691281000000000,2687,0x32,0x01
0.691355375000000,2687,0x20,0x01
0.691429875000000,2687,0x20,0x01
0.691509625000000,2688,0x32,0x01
0.691584000000000,2688,0x20,0x00
0.691658375000000,2688,0xF2,0x01
0.691739625000000,2689,0x07,0x01
0.691814125000000,2689,0x01,0x01
0.691888500000000,2689,0x28,0x01
0.692220750000000,2690,0x07,0x0F
0.692293750000000,2690,0x00,0x01
0.692368125000000,2690,0x0A,0x00
0.692447000000000,2691,0x32,0x01
0.692521375000000,2691,0x00,0x01
0.692595750000000,2691,0x00,0x01
0.692678000000000,2692,0x34,0x01
0.692752375000000,2692,0x80,0x01
0.692826750000000,2692,0x80,0x01
0.692909500000000,2693,0x32,0x01
0.692983875000000,2693,0x0A,0x01
0.693058250000000,2693,0x22,0x01
0.693138125000000,2694,0x32,0x01
0.693212500000000,2694,0x17,0x01
0.693286875000000,2694,0x20,0x01
0.693366625000000,2695,0x32,0x81
0.693441125000000,2695,0x3B,0x01
0.693515500000000,2695,0x20,0x01
0.693595250000000,2696,0x32,0x01
0.693669625000000,2696,0x20,0x01
0.693744125000000,2696,0x20,0x01
0.693823875000000,2697,0x32,0x01
0.693898250000000,2697,0x20,0x01
0.693972625000000,2697,0xF2,0x01
0.694053875000000,2698,0x07,0x01
0.694128375000000,2698,0x01,0x01
0.694202750000000,2698,0x0A,0x01
0.694536000000000,2699,0x07,0x0F
0.694609000000000,2699,0x00,0x01
0.694683375000000,2699,0x32,0x01
0.694762125000000,2700,0x32,0x01
0.694836625000000,2700,0x00,0x01
0.694911000000000,2700,0x00,0x01
0.694993250000000,2701,0x34,0x01
0.695067625000000,2701,0x80,0x01
0.695142000000000,2701,0x80,0x01
0.695224750000000,2702,0x32,0x01
0.695299125000000,2702,0x0A,0x01
0.695373500000000,2702,0x22,0x01
0.695453375000000,2703,0x32,0x01
0.695527750000000,2703,0x17,0x01
0.695602125000000,2703,0x20,0x01
0.695681875000000,2704,0x32,0x01
0.695756250000000,2704,0x3C,0x01
0.695830750000000,2704,0x20,0x01
0.695910500000000,2705,0x32,0x01
0.695984875000000,2705,0x20,0x00
0.696059250000000,2705,0x20,0x01
0.696139125000000,2706,0x32,0x01
0.696213500000000,2706,0x20,0x01
0.696287875000000,2706,0xF3,0x01
0.696369125000000,2707,0x07,0x01
0.696443500000000,2707,0x01,0x01
0.696517875000000,2707,0x32,0x01
0.696852250000000,2708,0x07,0x0F
0.696925125000000,2708,0x00,0x01
0.696999500000000,2708,0x14,0x01
0.697078375000000,2709,0x32,0x01
0.697152750000000,2709,0x00,0x01
0.697227125000000,2709,0x00,0x00
0.697309375000000,2710,0x34,0x01
0.697383750000000,2710,0x80,0x01
0.697458125000000,2710,0x80,0x01
0.697540875000000,2711,0x32,0x00
0.697615250000000,2711,0x0A,0x01
0.697689625000000,2711,0x22,0x81
0.697769500000000,2712,0x32,0x01
0.697843875000000,2712,0x17,0x01
0.697918250000000,2712,0x20,0x01
0.697998000000000,2713,0x32,0x01
0.698072500000000,2713,0x3C,0x01
0.698146875000000,2713,0x20,0x01
0.698226625000000,2714,0x32,0x00
0.698301000000000,2714,0x20,0x01
0.698375500000000,2714,0x20,0x01
0.698455250000000,2715,0x32,0x01
0.698529625000000,2715,0x20,0x01
0.698604000000000,2715,0xF3,0x01
0.698685250000000,2716,0x07,0x01
0.698759625000000,2716,0x01,0x01
0.698834125000000,2716,0x14,0x01
0.699169375000000,2717,0x07,0x0F
0.699242250000000,2717,0x00,0x01
0.699316625000000,2717,0x3C,0x01
0.699395500000000,2718,0x32,0x01
0.699469875000000,2718,0x00,0x01
0.699544250000000,2718,0x00,0x01
0.699626500000000,2719,0x34,0x01
0.699700875000000,2719,0x80,0x01
0.699775250000000,2719,0x80,0x01
0.699858000000000,2720,0x32,0x01
0.699932375000000,2720,0x0A,0x01
0.700006750000000,2720,0x22,0x81
0.700086625000000,2721,0x32,0x01
0.700161000000000,2721,0x17,0x01
0.700235375000000,2721,0x20,0x01
0.700315125000000,2722,0x32,0x01
0.700389625000000,2722,0x3C,0x01
0.700464000000000,2722,0x20,0x01
0.700543750000000,2723,0x32,0x00
0.700618125000000,2723,0x20,0x01
0.700692500000000,2723,0x20,0x81
0.700772375000000,2724,0x32,0x01
0.700846750000000,2724,0x20,0x01
0.700921125000000,2724,0xF3,0x01
0.701002375000000,2725,0x07,0x01
0.701076750000000,2725,0x01,0x01
0.701151250000000,2725,0x3C,0x01
0.701487375000000,2726,0x07,0x0D
0.701560875000000,2726,0x00,0x01
0.701635250000000,2726,0x1E,0x01
0.701714000000000,2727,0x32,0x01
0.701788500000000,2727,0x00,0x01
0.701862875000000,2727,0x00,0x01
0.701945125000000,2728,0x34,0x01
0.702019500000000,2728,0x80,0x01
0.702093875000000,2728,0x80,0x01
0.702176625000000,2729,0x32,0x01
0.702251000000000,2729,0x0A,0x01
0.702325375000000,2729,0x22,0x01
0.702405125000000,2730,0x32,0x81
0.702479625000000,2730,0x17,0x01
0.702554000000000,2730,0x20,0x01
0.702633750000000,2731,0x32,0x01
0.702708125000000,2731,0x3D,0x01
0.702782625000000,2731,0x20,0x01
0.702862375000000,2732,0x32,0x01
0.702936750000000,2732,0x20,0x01
0.703011125000000,2732,0x20,0x01
0.703090875000000,2733,0x32,0x81
0.703165375000000,2733,0x20,0x01
0.703239750000000,2733,0xF4,0x01
0.703321000000000,2734,0x07,0x01
0.703395375000000,2734,0x01,0x01
0.703469750000000,2734,0x1E,0x01
0.703807000000000,2735,0x07,0x0F
0.703880000000000,2735,0x00,0x01
0.703954375000000,2735,0x46,0x01
0.704033125000000,2736,0x32,0x01
0.704107500000000,2736,0x00,0x01
0.704182000000000,2736,0x00,0x01
0.704264125000000,2737,0x34,0x01
0.704338625000000,2737,0x80,0x01
0.704413000000000,2737,0x80,0x01
0.704495750000000,2738,0x32,0x01
0.704570125000000,2738,0x0A,0x01
0.704644500000000,2738,0x22,0x01
0.704724250000000,2739,0x32,0x01
0.704798750000000,2739,0x17,0x01
0.704873125000000,2739,0x20,0x01
0.704952875000000,2740,0x32,0x01
0.705027250000000,2740,0x3D,0x01
0.705101625000000,2740,0x20,0x01
0.705181500000000,2741,0x32,0x01
0.705255875000000,2741,0x20,0x01
0.705330250000000,2741,0x20,0x01
0.705410000000000,2742,0x32,0x01
0.705484375000000,2742,0x20,0x81
0.705558875000000,2742,0xF4,0x01
0.705640125000000,2743,0x07,0x01
0.705714500000000,2743,0x01,0x01
0.705788875000000,2743,0x46,0x00
0.706119250000000,2744,0x07,0x0D
0.706192625000000,2744,0x00,0x09
0.706266625000000,2744,0x00,0x01
0.706345375000000,2745,0x32,0x01
0.706419750000000,2745,0x00,0x01
0.706494250000000,2745,0x00,0x01
0.706576375000000,2746,0x34,0x01
0.706650875000000,2746,0x80,0x01
0.706725250000000,2746,0x80,0x01
0.706808000000000,2747,0x32,0x01
0.706882375000000,2747,0x0A,0x01
0.706956750000000,2747,0x22,0x01
0.707036500000000,2748,0x32,0x01
0.707110875000000,2748,0x17,0x01
0.707185375000000,2748,0x20,0x01
0.707265125000000,2749,0x32,0x01
0.707339500000000,2749,0x3D,0x00
0.707413875000000,2749,0x20,0x01
0.707493750000000,2750,0x32,0x01
0.707568125000000,2750,0x20,0x01
0.707642500000000,2750,0x20,0x01
0.707722250000000,2751,0x32,0x01
0.707796625000000,2751,0x20,0x81
0.707871125000000,2751,0xF4,0x01
0.707952375000000,2752,0x07,0x01
0.708026750000000,2752,0x01,0x01
0.708101125000000,2752,0x00,0x01
0.708432500000000,2753,0x07,0x0F
0.708505375000000,2753,0x00,0x01
0.708579750000000,2753,0x28,0x81
0.708658625000000,2754,0x32,0x01
0.708733000000000,2754,0x00,0x01
0.708807375000000,2754,0x00,0x01
0.708889625000000,2755,0x34,0x01
0.708964000000000,2755,0x80,0x01
0.709038500000000,2755,0x80,0x01
0.709121125000000,2756,0x32,0x01
0.709195625000000,2756,0x0A,0x01
0.709270000000000,2756,0x22,0x01
0.709349750000000,2757,0x32,0x01
0.709424125000000,2757,0x17,0x01
0.709498500000000,2757,0x20,0x01
0.709578375000000,2758,0x32,0x01
0.709652750000000,2758,0x3D,0x01
0.709727125000000,2758,0x20,0x01
0.709806875000000,2759,0x32,0x01
0.709881375000000,2759,0x20,0x01
0.709955750000000,2759,0x20,0x01
0.710035500000000,2760,0x32,0x01
0.710109875000000,2760,0x20,0x01
0.710184250000000,2760,0xF4,0x01
0.710265500000000,2761,0x07,0x01
0.710340000000000,2761,0x01,0x01
0.710414375000000,2761,0x28,0x01
0.710746625000000,2762,0x07,0x0F
0.710819625000000,2762,0x00,0x01
0.710894000000000,2762,0x0A,0x01
0.710972750000000,2763,0x32,0x81
0.711047250000000,2763,0x00,0x01
0.711121625000000,2763,0x00,0x01
0.711203875000000,2764,0x34,0x01
0.711278250000000,2764,0x80,0x01
0.711352625000000,2764,0x80,0x01
0.711435375000000,2765,0x32,0x01
0.711509750000000,2765,0x0A,0x00
0.711584125000000,2765,0x22,0x01
0.711664000000000,2766,0x32,0x01
0.711738375000000,2766,0x17,0x01
0.711812750000000,2766,0x20,0x01
0.711892500000000,2767,0x32,0x01
0.711966875000000,2767,0x3D,0x01
0.712041375000000,2767,0x20,0x01
0.712121125000000,2768,0x32,0x01
0.712195500000000,2768,0x20,0x00
0.712269875000000,2768,0x20,0x01
0.712349750000000,2769,0x32,0x01
0.712424125000000,2769,0x20,0x01
0.712498500000000,2769,0xF4,0x01
0.712579750000000,2770,0x07,0x01
0.712654125000000,2770,0x01,0x01
0.712728500000000,2770,0x0A,0x01
0.713061875000000,2771,0x07,0x0F
0.713134750000000,2771,0x00,0x01
0.713209250000000,2771,0x32,0x01
0.713288000000000,2772,0x32,0x01
0.713362375000000,2772,0x00,0x01
0.713436750000000,2772,0x00,0x01
0.713519000000000,2773,0x34,0x01
0.713593500000000,2773,0x80,0x01
0.713667875000000,2773,0x80,0x01
0.713750625000000,2774,0x32,0x01
0.713825000000000,2774,0x0A,0x01
0.713899375000000,2774,0x22,0x01
0.713979125000000,2775,0x32,0x01
0.714053500000000,2775,0x17,0x01
0.714128000000000,2775,0x20,0x01
0.714207750000000,2776,0x32,0x01
0.714282125000000,2776,0x3D,0x01
0.714356500000000,2776,0x20,0x01
0.714436250000000,2777,0x32,0x01
0.714510750000000,2777,0x20,0x01
0.714585125000000,2777,0x20,0x01
0.714664875000000,2778,0x32,0x01
0.714739250000000,2778,0x20,0x01
0.714813750000000,2778,0xF4,0x01
0.714895000000000,2779,0x07,0x01
0.714969375000000,2779,0x01,0x01
0.715043750000000,2779,0x32,0x01
0.715378000000000,2780,0x07,0x0F
0.715451000000000,2780,0x00,0x01
0.715525375000000,2780,0x14,0x01
0.715604125000000,2781,0x32,0x01
0.715678625000000,2781,0x00,0x01
0.715753000000000,2781,0x00,0x01
0.715835250000000,2782,0x34,0x01
0.715909625000000,2782,0x80,0x01
0.715984000000000,2782,0x80,0x01
0.716066750000000,2783,0x32,0x01
0.716141125000000,2783,0x0A,0x01
0.716215500000000,2783,0x22,0x01
0.716295250000000,2784,0x32,0x01
0.716369750000000,2784,0x17,0x01
0.716444125000000,2784,0x20,0x01
0.716523875000000,2785,0x32,0x00
0.716598250000000,2785,0x3E,0x01
0.716672625000000,2785,0x20,0x81
0.716752500000000,2786,0x32,0x01
0.716826875000000,2786,0x20,0x01
0.716901250000000,2786,0x20,0x01
0.716981000000000,2787,0x32,0x01
0.717055500000000,2787,0x20,0x01
0.717129875000000,2787,0xF5,0x01
0.717211125000000,2788,0x07,0x01
0.717285500000000,2788,0x01,0x00
0.717359875000000,2788,0x14,0x01
0.717695125000000,2789,0x07,0x0F
0.717768125000000,2789,0x00,0x01
0.717842500000000,2789,0x3C,0x00
0.717921375000000,2790,0x32,0x01
0.717995750000000,2790,0x00,0x01
0.718070125000000,2790,0x00,0x01
0.718152375000000,2791,0x34,0x01
0.718226750000000,2791,0x80,0x01
0.718301125000000,2791,0x80,0x01
0.718383875000000,2792,0x32,0x01
0.718458250000000,2792,0x0A,0x01
0.718532625000000,2792,0x22,0x01
0.718612500000000,2793,0x32,0x01
0.718686875000000,2793,0x17,0x01
0.718761250000000,2793,0x20,0x01
0.718841000000000,2794,0x32,0x01
0.718915500000000,2794,0x3E,0x01
0.718989875000000,2794,0x20,0x01
0.719069625000000,2795,0x32,0x01
0.719144000000000,2795,0x20,0x01
0.719218375000000,2795,0x20,0x01
0.719298250000000,2796,0x32,0x01
0.719372625000000,2796,0x20,0x01
0.719447000000000,2796,0xF5,0x01
0.719528250000000,2797,0x07,0x01
0.719602625000000,2797,0x01,0x01
0.719677125000000,2797,0x3C,0x01
0.720013375000000,2798,0x07,0x0D
0.720086750000000,2798,0x00,0x01
0.720161125000000,2798,0x1E,0x01
0.720240000000000,2799,0x32,0x01
0.720314375000000,2799,0x00,0x01
0.720388750000000,2799,0x00,0x01
0.720471000000000,2800,0x34,0x01
0.720545375000000,2800,0x80,0x01
0.720619750000000,2800,0x80,0x01
0.720702500000000,2801,0x32,0x00
0.720776875000000,2801,0x0A,0x01
0.720851250000000,2801,0x22,0x81
0.720931125000000,2802,0x32,0x01
0.721005500000000,2802,0x17,0x01
0.721079875000000,2802,0x20,0x01
0.721159625000000,2803,0x32,0x01
0.721234125000000,2803,0x3E,0x01
0.721308500000000,2803,0x20,0x01
0.721388250000000,2804,0x32,0x01
0.721462625000000,2804,0x20,0x01
0.721537125000000,2804,0x20,0x01
0.721616875000000,2805,0x32,0x01
0.721691250000000,2805,0x20,0x00
0.721765625000000,2805,0xF5,0x01
0.721846875000000,2806,0x07,0x01
0.721921250000000,2806,0x01,0x81
0.721995750000000,2806,0x1E,0x01
0.722332875000000,2807,0x07,0x0F
0.722405875000000,2807,0x00,0x01
0.722480250000000,2807,0x46,0x00
0.722559125000000,2808,0x32,0x01
0.722633500000000,2808,0x00,0x01
0.722707875000000,2808,0x00,0x01
0.722790125000000,2809,0x34,0x01
0.722864500000000,2809,0x80,0x01
0.722938875000000,2809,0x80,0x01
0.723021625000000,2810,0x32,0x01
0.723096000000000,2810,0x0A,0x01
0.723170375000000,2810,0x22,0x01
0.723250250000000,2811,0x32,0x01
0.723324625000000,2811,0x17,0x01
0.723399000000000,2811,0x20,0x01
0.723478750000000,2812,0x32,0x01
0.723553125000000,2812,0x3E,0x81
0.723627625000000,2812,0x20,0x01
0.723707375000000,2813,0x32,0x01
0.723781750000000,2813,0x20,0x01
0.723856125000000,2813,0x20,0x01
0.723936000000000,2814,0x32,0x01
0.724010375000000,2814,0x20,0x01
0.724084750000000,2814,0xF5,0x01
0.724166000000000,2815,0x07,0x01
0.724240375000000,2815,0x01,0x01
0.724314750000000,2815,0x46,0x01
0.724645125000000,2816,0x07,0x0D
0.724718625000000,2816,0x00,0x09
0.724792500000000,2816,0x00,0x00
0.724871375000000,2817,0x32,0x01
0.724945750000000,2817,0x00,0x01
0.725020125000000,2817,0x00,0x01
0.725102375000000,2818,0x34,0x01
0.725176750000000,2818,0x80,0x01
0.725251125000000,2818,0x80,0x01
0.725333875000000,2819,0x32,0x01
0.725408250000000,2819,0x0A,0x01
0.725482625000000,2819,0x22,0x01
0.725562500000000,2820,0x32,0x01
0.725636875000000,2820,0x16,0x01
0.725711250000000,2820,0x20,0x01
0.725791000000000,2821,0x32,0x01
0.725865500000000,2821,0x3F,0x01
0.725939875000000,2821,0x20,0x01
0.726019625000000,2822,0x32,0x00
0.726094000000000,2822,0x20,0x01
0.726168375000000,2822,0x20,0x81
0.726248250000000,2823,0x32,0x01
0.726322625000000,2823,0x20,0x01
0.726397000000000,2823,0xF5,0x01
0.726478250000000,2824,0x07,0x01
0.726552625000000,2824,0x01,0x01
0.726627125000000,2824,0x00,0x01
0.726958375000000,2825,0x07,0x0F
0.727031375000000,2825,0x00,0x01
0.727105750000000,2825,0x28,0x01
0.727184500000000,2826,0x32,0x81
0.727259000000000,2826,0x00,0x01
0.727333375000000,2826,0x00,0x01
0.727415625000000,2827,0x34,0x01
0.727490000000000,2827,0x80,0x01
0.727564375000000,2827,0x80,0x01
0.727647125000000,2828,0x32,0x01
0.727721500000000,2828,0x0A,0x00
0.727795875000000,2828,0x22,0x01
0.727875750000000,2829,0x32,0x01
0.727950125000000,2829,0x17,0x01
0.728024500000000,2829,0x20,0x01
0.728104250000000,2830,0x32,0x01
0.728178625000000,2830,0x3F,0x01
0.728253125000000,2830,0x20,0x01
0.728332875000000,2831,0x32,0x01
0.728407250000000,2831,0x20,0x00
0.728481625000000,2831,0x20,0x01
0.728561500000000,2832,0x32,0x01
0.728635875000000,2832,0x20,0x01
0.728710250000000,2832,0xF6,0x01
0.728791500000000,2833,0x07,0x00
0.728865875000000,2833,0x01,0x01
0.728940250000000,2833,0x28,0x81
0.729272625000000,2834,0x07,0x0F
0.729345625000000,2834,0x00,0x01
0.729420000000000,2834,0x0A,0x01
0.729498750000000,2835,0x32,0x01
0.729573250000000,2835,0x00,0x01
0.729647625000000,2835,0x00,0x01
0.729729875000000,2836,0x34,0x01
0.729804250000000,2836,0x80,0x01
0.729878625000000,2836,0x80,0x01
0.729961375000000,2837,0x32,0x01
0.730035750000000,2837,0x0A,0x01
0.730110125000000,2837,0x22,0x01
0.730190000000000,2838,0x32,0x01
0.730264375000000,2838,0x17,0x01
0.730338750000000,2838,0x20,0x01
0.730418500000000,2839,0x32,0x01
0.730492875000000,2839,0x3F,0x01
0.730567375000000,2839,0x20,0x01
0.730647125000000,2840,0x32,0x01
0.730721500000000,2840,0x20,0x00
0.730795875000000,2840,0x20,0x01
0.730875750000000,2841,0x32,0x01
0.730950125000000,2841,0x20,0x01
0.731024500000000,2841,0xF6,0x01
0.731105750000000,2842,0x07,0x00
0.731180125000000,2842,0x01,0x01
0.731254500000000,2842,0x0A,0x81
0.731587875000000,2843,0x07,0x0F
0.731660750000000,2843,0x00,0x01
0.731735250000000,2843,0x32,0x01
0.731814000000000,2844,0x32,0x00
0.731888375000000,2844,0x00,0x01
0.731962875000000,2844,0x00,0x01
0.732045000000000,2845,0x34,0x01
0.732119500000000,2845,0x80,0x01
0.732193875000000,2845,0x80,0x01
0.732276625000000,2846,0x32,0x01
0.732351000000000,2846,0x0A,0x01
0.732425375000000,2846,0x22,0x01
0.732505125000000,2847,0x32,0x01
0.732579500000000,2847,0x16,0x01
0.732654000000000,2847,0x20,0x01
0.732733750000000,2848,0x32,0x01
0.732808125000000,2848,0x3F,0x00
0.732882500000000,2848,0x20,0x01
0.732962375000000,2849,0x32,0x01
0.733036750000000,2849,0x20,0x01
0.733111125000000,2849,0x20,0x01
0.733190875000000,2850,0x32,0x01
0.733265375000000,2850,0x20,0x01
0.733339750000000,2850,0xF5,0x01
0.733421000000000,2851,0x07,0x01
0.733495375000000,2851,0x01,0x01
0.733569750000000,2851,0x32,0x01
0.733904125000000,2852,0x07,0x0F
0.733977000000000,2852,0x00,0x01
0.734051375000000,2852,0x14,0x01
0.734130250000000,2853,0x32,0x01
0.734204625000000,2853,0x00,0x01
0.734279000000000,2853,0x00,0x00
0.734361250000000,2854,0x34,0x01
0.734435625000000,2854,0x80,0x00
0.734510000000000,2854,0x80,0x01
0.734592750000000,2855,0x32,0x00
0.734667125000000,2855,0x0A,0x01
0.734741500000000,2855,0x22,0x81
0.734821375000000,2856,0x32,0x01
0.734895750000000,2856,0x16,0x01
0.734970125000000,2856,0x20,0x01
0.735049875000000,2857,0x32,0x01
0.735124375000000,2857,0x3F,0x01
0.735198750000000,2857,0x20,0x01
0.735278500000000,2858,0x32,0x01
0.735352875000000,2858,0x20,0x01
0.735427375000000,2858,0x20,0x01
0.735507125000000,2859,0x32,0x01
0.735581500000000,2859,0x20,0x00
0.735655875000000,2859,0xF5,0x01
0.735737125000000,2860,0x07,0x01
0.735811625000000,2860,0x01,0x01
0.735886000000000,2860,0x14,0x01
0.736221250000000,2861,0x07,0x0F
0.736294125000000,2861,0x00,0x01
0.736368625000000,2861,0x3C,0x01
0.736447375000000,2862,0x32,0x01
0.736521750000000,2862,0x00,0x01
0.736596125000000,2862,0x00,0x01
0.736678375000000,2863,0x34,0x01
0.736752875000000,2863,0x80,0x01
0.736827250000000,2863,0x80,0x01
0.736910000000000,2864,0x32,0x01
0.736984375000000,2864,0x0A,0x01
0.737058750000000,2864,0x22,0x01
0.737138500000000,2865,0x32,0x01
0.737212875000000,2865,0x16,0x01
0.737287375000000,2865,0x20,0x01
0.737367125000000,2866,0x32,0x01
0.737441500000000,2866,0x3F,0x01
0.737515875000000,2866,0x20,0x01
0.737595750000000,2867,0x32,0x01
0.737670125000000,2867,0x20,0x01
0.737744500000000,2867,0x20,0x00
0.737824250000000,2868,0x32,0x01
0.737898750000000,2868,0x20,0x01
0.737973125000000,2868,0xF5,0x01
0.738054375000000,2869,0x07,0x01
0.738128750000000,2869,0x01,0x01
0.738203125000000,2869,0x3C,0x01
0.738539375000000,2870,0x07,0x0D
0.738612875000000,2870,0x00,0x01
0.738687250000000,2870,0x1E,0x01
0.738766000000000,2871,0x32,0x01
0.738840375000000,2871,0x00,0x81
0.738914875000000,2871,0x00,0x01
0.738997125000000,2872,0x34,0x01
0.739071500000000,2872,0x80,0x01
0.739145875000000,2872,0x80,0x01
0.739228625000000,2873,0x32,0x01
0.739303000000000,2873,0x0A,0x01
0.739377375000000,2873,0x22,0x00
0.739457125000000,2874,0x32,0x01
0.739531625000000,2874,0x16,0x01
0.739606000000000,2874,0x20,0x01
0.739685750000000,2875,0x32,0x00
0.739760125000000,2875,0x3F,0x01
0.739834500000000,2875,0x20,0x81
0.739914375000000,2876,0x32,0x01
0.739988750000000,2876,0x20,0x01
0.740063125000000,2876,0x20,0x01
0.740142875000000,2877,0x32,0x01
0.740217375000000,2877,0x20,0x01
0.740291750000000,2877,0xF5,0x01
0.740373000000000,2878,0x07,0x01
0.740447375000000,2878,0x01,0x01
0.740521750000000,2878,0x1E,0x01
0.740859000000000,2879,0x07,0x0F
0.740932000000000,2879,0x00,0x01
0.741006375000000,2879,0x46,0x01
0.741085125000000,2880,0x32,0x01
0.741159500000000,2880,0x00,0x01
0.741234000000000,2880,0x00,0x01
0.741316125000000,2881,0x34,0x81
0.741390625000000,2881,0x80,0x01
0.741465000000000,2881,0x80,0x01
0.741547750000000,2882,0x32,0x01
0.741622125000000,2882,0x0A,0x01
0.741696500000000,2882,0x22,0x01
0.741776250000000,2883,0x32,0x01
0.741850750000000,2883,0x16,0x01
0.741925125000000,2883,0x20,0x01
0.742004875000000,2884,0x32,0x01
0.742079250000000,2884,0x3F,0x01
0.742153625000000,2884,0x20,0x81
0.742233500000000,2885,0x32,0x01
0.742307875000000,2885,0x20,0x01
0.742382250000000,2885,0x20,0x01
0.742462000000000,2886,0x32,0x81
0.742536500000000,2886,0x20,0x01
0.742610875000000,2886,0xF5,0x01
0.742692125000000,2887,0x07,0x01
0.742766500000000,2887,0x01,0x01
0.742840875000000,2887,0x46,0x01
0.743171250000000,2888,0x07,0x0D
0.743244750000000,2888,0x00,0x09
0.743318625000000,2888,0x00,0x01
0.743397500000000,2889,0x32,0x01
0.743471875000000,2889,0x00,0x01
0.743546250000000,2889,0x00,0x01
0.743628500000000,2890,0x34,0x01
0.743702875000000,2890,0x80,0x01
0.743777250000000,2890,0x80,0x01
0.743860000000000,2891,0x32,0x01
0.743934375000000,2891,0x0A,0x01
0.744008750000000,2891,0x22,0x01
0.744088625000000,2892,0x32,0x01
0.744163000000000,2892,0x16,0x01
0.744237375000000,2892,0x20,0x00
0.744317125000000,2893,0x32,0x01
0.744391625000000,2893,0x3F,0x01
0.744466000000000,2893,0x20,0x01
0.744545750000000,2894,0x32,0x01
0.744620125000000,2894,0x20,0x01
0.744694625000000,2894,0x20,0x01
0.744774375000000,2895,0x32,0x01
0.744848750000000,2895,0x20,0x00
0.744923125000000,2895,0xF5,0x01
0.745004375000000,2896,0x07,0x01
0.745078875000000,2896,0x01,0x01
0.745153250000000,2896,0x00,0x01
0.745484625000000,2897,0x07,0x0F
0.745557500000000,2897,0x00,0x00
0.745631875000000,2897,0x28,0x01
0.745710750000000,2898,0x32,0x01
0.745785125000000,2898,0x00,0x01
0.745859500000000,2898,0x00,0x01
0.745941750000000,2899,0x34,0x00
0.746016125000000,2899,0x80,0x01
0.746090500000000,2899,0x80,0x81
0.746173250000000,2900,0x32,0x01
0.746247625000000,2900,0x0A,0x81
0.746322125000000,2900,0x22,0x01
0.746401875000000,2901,0x32,0x01
0.746476250000000,2901,0x16,0x01
0.746550625000000,2901,0x20,0x01
0.746630500000000,2902,0x32,0x01
0.746704875000000,2902,0x3F,0x01
0.746779250000000,2902,0x20,0x01
0.746859000000000,2903,0x32,0x01
0.746933500000000,2903,0x20,0x01
0.747007875000000,2903,0x20,0x01
0.747087625000000,2904,0x32,0x01
0.747162000000000,2904,0x20,0x01
0.747236500000000,2904,0xF5,0x01
0.747317750000000,2905,0x07,0x01
0.747392125000000,2905,0x01,0x01
0.747466500000000,2905,0x28,0x00
0.747798875000000,2906,0x07,0x0F
0.747871750000000,2906,0x00,0x01
0.747946125000000,2906,0x0A,0x01
0.748025000000000,2907,0x32,0x01
0.748099375000000,2907,0x00,0x01
0.748173750000000,2907,0x00,0x01
0.748256000000000,2908,0x34,0x01
0.748330375000000,2908,0x80,0x01
0.748404875000000,2908,0x80,0x01
0.748487500000000,2909,0x32,0x01
0.748562000000000,2909,0x0A,0x01
0.748636375000000,2909,0x22,0x01
0.748716125000000,2910,0x32,0x01
0.748790500000000,2910,0x16,0x01
0.748864875000000,2910,0x20,0x01
0.748944750000000,2911,0x32,0x01
0.749019125000000,2911,0x3F,0x01
0.749093500000000,2911,0x20,0x01
0.749173250000000,2912,0x32,0x01
0.749247750000000,2912,0x20,0x01
0.749322125000000,2912,0x20,0x01
0.749401875000000,2913,0x32,0x00
0.749476250000000,2913,0x20,0x01
0.749550750000000,2913,0xF5,0x01
0.749632000000000,2914,0x07,0x01
0.749706375000000,2914,0x01,0x01
0.749780750000000,2914,0x0A,0x01
0.750114000000000,2915,0x07,0x0F
0.750187000000000,2915,0x00,0x01
0.750261375000000,2915,0x32,0x01
0.750340125000000,2916,0x32,0x81
0.750414625000000,2916,0x00,0x01
0.750489000000000,2916,0x00,0x01
0.750571250000000,2917,0x34,0x01
0.750645625000000,2917,0x80,0x01
0.750720000000000,2917,0x80,0x01
0.750802750000000,2918,0x32,0x01
0.750877125000000,2918,0x0A,0x01
0.750951500000000,2918,0x22,0x01
0.751031375000000,2919,0x32,0x01
0.751105750000000,2919,0x16,0x01
0.751180125000000,2919,0x20,0x01
0.751259875000000,2920,0x32,0x01
0.751334250000000,2920,0x3F,0x01
0.751408750000000,2920,0x20,0x01
0.751488500000000,2921,0x32,0x01
0.751562875000000,2921,0x20,0x01
0.751637250000000,2921,0x20,0x01
0.751717000000000,2922,0x32,0x81
0.751791500000000,2922,0x20,0x01
0.751865875000000,2922,0xF5,0x01
0.751947125000000,2923,0x07,0x01
0.752021500000000,2923,0x01,0x00
0.752095875000000,2923,0x32,0x01
0.752430250000000,2924,0x07,0x07
0.752503125000000,2924,0x00,0x01
0.752577500000000,2924,0x14,0x01
0.752656375000000,2925,0x32,0x01
0.752730750000000,2925,0x00,0x01
0.752805125000000,2925,0x00,0x01
0.752887375000000,2926,0x34,0x01
0.752961750000000,2926,0x80,0x01
0.753036125000000,2926,0x80,0x01
0.753118875000000,2927,0x32,0x01
0.753193250000000,2927,0x0A,0x01
0.753267625000000,2927,0x22,0x01
0.753347500000000,2928,0x32,0x01
0.753421875000000,2928,0x16,0x01
0.753496250000000,2928,0x20,0x01
0.753576000000000,2929,0x32,0x01
0.753650375000000,2929,0x3F,0x81
0.753724875000000,2929,0x20,0x01
0.753804625000000,2930,0x32,0x01
0.753879000000000,2930,0x20,0x00
0.753953375000000,2930,0x20,0x01
0.754033250000000,2931,0x32,0x01
0.754107625000000,2931,0x20,0x01
0.754182000000000,2931,0xF5,0x01
0.754263250000000,2932,0x07,0x01
0.754337625000000,2932,0x01,0x01
0.754412000000000,2932,0x14,0x01
0.754747375000000,2933,0x07,0x07
0.754820250000000,2933,0x00,0x01
0.754894625000000,2933,0x3C,0x01
0.754973500000000,2934,0x32,0x01
0.755047875000000,2934,0x00,0x01
0.755122250000000,2934,0x00,0x01
0.755204500000000,2935,0x34,0x01
0.755278875000000,2935,0x80,0x01
0.755353250000000,2935,0x80,0x01
0.755436000000000,2936,0x32,0x01
0.755510375000000,2936,0x0A,0x01
0.755584875000000,2936,0x22,0x01
0.755664625000000,2937,0x32,0x01
0.755739000000000,2937,0x16,0x01
0.755813375000000,2937,0x20,0x01
0.755893125000000,2938,0x32,0x01
0.755967625000000,2938,0x3F,0x01
0.756042000000000,2938,0x20,0x01
0.756121750000000,2939,0x32,0x00
0.756196125000000,2939,0x20,0x01
0.756270500000000,2939,0x20,0x81
0.756350375000000,2940,0x32,0x01
0.756424750000000,2940,0x20,0x01
0.756499125000000,2940,0xF5,0x01
0.756580375000000,2941,0x07,0x01
0.756654750000000,2941,0x01,0x01
0.756729250000000,2941,0x3C,0x01
0.757065500000000,2942,0x07,0x05
0.757138875000000,2942,0x00,0x01
0.757213250000000,2942,0x1E,0x01
0.757292125000000,2943,0x32,0x01
0.757366500000000,2943,0x00,0x01
0.757440875000000,2943,0x00,0x01
0.757523125000000,2944,0x34,0x01
0.757597500000000,2944,0x80,0x01
0.757671875000000,2944,0x80,0x01
0.757754625000000,2945,0x32,0x01
0.757829000000000,2945,0x0A,0x01
0.757903375000000,2945,0x22,0x01
0.757983250000000,2946,0x32,0x01
0.758057625000000,2946,0x16,0x01
0.758132000000000,2946,0x20,0x01
0.758211750000000,2947,0x32,0x01
0.758286125000000,2947,0x3F,0x81
0.758360625000000,2947,0x20,0x01
0.758440375000000,2948,0x32,0x01
0.758514750000000,2948,0x20,0x01
0.758589125000000,2948,0x20,0x01
0.758669000000000,2949,0x32,0x01
0.758743375000000,2949,0x20,0x01
0.758817750000000,2949,0xF5,0x00
0.758899000000000,2950,0x07,0x00
0.758973375000000,2950,0x01,0x01
0.759047750000000,2950,0x1E,0x81
0.759385000000000,2951,0x07,0x0F
0.759458000000000,2951,0x00,0x01
0.759532375000000,2951,0x46,0x01
0.759611125000000,2952,0x32,0x01
0.759685625000000,2952,0x00,0x01
0.759760000000000,2952,0x00,0x01
0.759842250000000,2953,0x34,0x01
0.759916625000000,2953,0x80,0x01
0.759991000000000,2953,0x80,0x01
0.760073750000000,2954,0x32,0x01
0.760148125000000,2954,0x0A,0x01
0.760222500000000,2954,0x22,0x01
0.760302250000000,2955,0x32,0x01
0.760376750000000,2955,0x16,0x01
0.760451125000000,2955,0x20,0x01
0.760530875000000,2956,0x32,0x01
0.760605250000000,2956,0x3F,0x01
0.760679625000000,2956,0x20,0x01
0.760759500000000,2957,0x32,0x01
0.760833875000000,2957,0x20,0x01
0.760908250000000,2957,0x20,0x01
0.760988000000000,2958,0x32,0x01
0.761062500000000,2958,0x20,0x01
0.761136875000000,2958,0xF5,0x01
0.761218125000000,2959,0x07,0x01
0.761292500000000,2959,0x01,0x01
0.761366875000000,2959,0x46,0x01
0.761697250000000,2960,0x07,0x0D
0.761770750000000,2960,0x00,0x01
0.761844625000000,2960,0x00,0x01
0.761923375000000,2961,0x32,0x01
0.761997750000000,2961,0x00,0x01
0.762072250000000,2961,0x00,0x01
0.762154500000000,2962,0x34,0x01
0.762228875000000,2962,0x80,0x01
0.762303250000000,2962,0x80,0x01
0.762386000000000,2963,0x32,0x01
0.762460375000000,2963,0x0A,0x01
0.762534750000000,2963,0x22,0x01
0.762614500000000,2964,0x32,0x01
0.762689000000000,2964,0x16,0x01
0.762763375000000,2964,0x20,0x01
0.762843125000000,2965,0x32,0x00
0.762917500000000,2965,0x3F,0x01
0.762991875000000,2965,0x20,0x81
0.763071750000000,2966,0x32,0x01
0.763146125000000,2966,0x20,0x01
0.763220500000000,2966,0x20,0x01
0.763300250000000,2967,0x32,0x01
0.763374750000000,2967,0x20,0x01
0.763449125000000,2967,0xF5,0x01
0.763530375000000,2968,0x07,0x01
0.763604750000000,2968,0x01,0x01
0.763679125000000,2968,0x00,0x01
0.764010500000000,2969,0x07,0x0F
0.764083375000000,2969,0x00,0x81
0.764157875000000,2969,0x28,0x01
0.764236625000000,2970,0x32,0x01
0.764311000000000,2970,0x00,0x01
0.764385500000000,2970,0x00,0x01
0.764467625000000,2971,0x34,0x01
0.764542125000000,2971,0x80,0x01
0.764616500000000,2971,0x80,0x01
0.764699250000000,2972,0x32,0x01
0.764773625000000,2972,0x0A,0x01
0.764848000000000,2972,0x22,0x01
0.764927750000000,2973,0x32,0x01
0.765002125000000,2973,0x16,0x01
0.765076625000000,2973,0x20,0x01
0.765156375000000,2974,0x32,0x01
0.765230750000000,2974,0x3F,0x01
0.765305125000000,2974,0x20,0x01
0.765384875000000,2975,0x32,0x81
0.765459375000000,2975,0x20,0x01
0.765533750000000,2975,0x20,0x01
0.765613500000000,2976,0x32,0x01
0.765687875000000,2976,0x20,0x01
0.765762375000000,2976,0xF5,0x01
0.765843625000000,2977,0x07,0x01
0.765918000000000,2977,0x01,0x01
0.765992375000000,2977,0x28,0x01
0.766324750000000,2978,0x07,0x0F
0.766397625000000,2978,0x00,0x01
0.766472000000000,2978,0x0A,0x01
0.766550875000000,2979,0x32,0x01
0.766625250000000,2979,0x00,0x01
0.766699625000000,2979,0x00,0x01
0.766781875000000,2980,0x34,0x00
0.766856250000000,2980,0x80,0x01
0.766930625000000,2980,0x80,0x81
0.767013375000000,2981,0x32,0x01
0.767087750000000,2981,0x0A,0x01
0.767162250000000,2981,0x22,0x01
0.767242000000000,2982,0x32,0x01
0.767316375000000,2982,0x16,0x00
0.767390750000000,2982,0x20,0x01
0.767470625000000,2983,0x32,0x01
0.767545000000000,2983,0x3F,0x01
0.767619375000000,2983,0x20,0x01
0.767699125000000,2984,0x32,0x01
0.767773500000000,2984,0x20,0x01
0.767848000000000,2984,0x20,0x01
0.767927750000000,2985,0x32,0x01
0.768002125000000,2985,0x20,0x01
0.768076500000000,2985,0xF5,0x01
0.768157750000000,2986,0x07,0x01
0.768232250000000,2986,0x01,0x01
0.768306625000000,2986,0x0A,0x01
0.768639875000000,2987,0x07,0x0F
0.768712875000000,2987,0x00,0x01
0.768787250000000,2987,0x32,0x01
0.768866000000000,2988,0x32,0x01
0.768940375000000,2988,0x00,0x81
0.769014875000000,2988,0x00,0x01
0.769097125000000,2989,0x34,0x01
0.769171500000000,2989,0x80,0x01
0.769245875000000,2989,0x80,0x01
0.769328625000000,2990,0x32,0x01
0.769403000000000,2990,0x0A,0x01
0.769477375000000,2990,0x22,0x01
0.769557125000000,2991,0x32,0x01
0.769631625000000,2991,0x16,0x01
0.769706000000000,2991,0x20,0x01
0.769785750000000,2992,0x32,0x01
0.769860125000000,2992,0x3F,0x01
0.769934625000000,2992,0x20,0x01
0.770014375000000,2993,0x32,0x01
0.770088750000000,2993,0x20,0x01
0.770163125000000,2993,0x20,0x01
0.770242875000000,2994,0x32,0x81
0.770317375000000,2994,0x20,0x01
0.770391750000000,2994,0xF5,0x01
0.770473000000000,2995,0x07,0x01
0.770547375000000,2995,0x01,0x01
0.770621750000000,2995,0x32,0x01
0.770956125000000,2996,0x07,0x0F
0.771029000000000,2996,0x00,0x01
0.771103375000000,2996,0x14,0x01
0.771182250000000,2997,0x32,0x01
0.771256625000000,2997,0x00,0x01
0.771331000000000,2997,0x00,0x01
0.771413250000000,2998,0x34,0x01
0.771487625000000,2998,0x80,0x01
0.771562000000000,2998,0x80,0x01
0.771644750000000,2999,0x32,0x01
0.771719125000000,2999,0x0A,0x01
0.771793625000000,2999,0x22,0x01
0.771873375000000,3000,0x32,0x01
0.771947750000000,3000,0x16,0x01
0.772022125000000,3000,0x20,0x01
0.772102000000000,3001,0x32,0x01
0.772176375000000,3001,0x3F,0x01
0.772250750000000,3001,0x20,0x01
0.772330500000000,3002,0x32,0x01
0.772404875000000,3002,0x20,0x01
0.772479375000000,3002,0x20,0x01
0.772559125000000,3003,0x32,0x01
0.772633500000000,3003,0x20,0x01
0.772707875000000,3003,0xF5,0x01
0.772789125000000,3004,0x07,0x01
0.772863625000000,3004,0x01,0x01
0.772938000000000,3004,0x14,0x01
0.773273250000000,3005,0x07,0x0F
0.773346125000000,3005,0x00,0x01
0.773420625000000,3005,0x3C,0x01
0.773499375000000,3006,0x32,0x01
0.773573750000000,3006,0x00,0x01
0.773648125000000,3006,0x00,0x81
0.773730375000000,3007,0x34,0x01
0.773804875000000,3007,0x80,0x01
0.773879250000000,3007,0x80,0x01
0.773961875000000,3008,0x32,0x01
0.774036375000000,3008,0x0A,0x01
0.774110750000000,3008,0x22,0x01
0.774190500000000,3009,0x32,0x01
0.774264875000000,3009,0x16,0x01
0.774339250000000,3009,0x20,0x01
0.774419125000000,3010,0x32,0x01
0.774493500000000,3010,0x3F,0x01
0.774567875000000,3010,0x20,0x01
0.774647625000000,3011,0x32,0x01
0.774722125000000,3011,0x20,0x01
0.774796500000000,3011,0x20,0x01
0.774876250000000,3012,0x32,0x01
0.774950625000000,3012,0x20,0x01
0.775025000000000,3012,0xF5,0x01
0.775106250000000,3013,0x07,0x81
0.775180750000000,3013,0x01,0x01
0.775255125000000,3013,0x3C,0x01
0.775591375000000,3014,0x07,0x0D
0.775664750000000,3014,0x00,0x01
0.775739125000000,3014,0x1E,0x01
0.775818000000000,3015,0x32,0x01
0.775892375000000,3015,0x00,0x01
0.775966750000000,3015,0x00,0x01
0.776049000000000,3016,0x34,0x01
0.776123375000000,3016,0x80,0x01
0.776197875000000,3016,0x80,0x01
0.776280500000000,3017,0x32,0x01
0.776355000000000,3017,0x0A,0x01
0.776429375000000,3017,0x22,0x01
0.776509125000000,3018,0x32,0x01
0.776583500000000,3018,0x16,0x01
0.776657875000000,3018,0x20,0x81
0.776737750000000,3019,0x32,0x01
0.776812125000000,3019,0x3F,0x01
0.776886500000000,3019,0x20,0x00
0.776966250000000,3020,0x32,0x01
0.777040750000000,3020,0x20,0x01
0.777115125000000,3020,0x20,0x01
0.777194875000000,3021,0x32,0x00
0.777269250000000,3021,0x20,0x01
0.777343750000000,3021,0xF5,0x01
0.777425000000000,3022,0x07,0x01
0.777499375000000,3022,0x01,0x01
0.777573750000000,3022,0x1E,0x01
0.777911000000000,3023,0x07,0x0F
0.777983875000000,3023,0x00,0x01
0.778058250000000,3023,0x46,0x01
0.778137125000000,3024,0x32,0x01
0.778211500000000,3024,0x00,0x00
0.778285875000000,3024,0x00,0x01
0.778368125000000,3025,0x34,0x00
0.778442500000000,3025,0x80,0x01
0.778517000000000,3025,0x80,0x01
0.778599625000000,3026,0x32,0x01
0.778674000000000,3026,0x0A,0x81
0.778748500000000,3026,0x22,0x01
0.778828250000000,3027,0x32,0x01
0.778902625000000,3027,0x16,0x01
0.778977000000000,3027,0x20,0x01
0.779056875000000,3028,0x32,0x01
0.779131250000000,3028,0x3F,0x01
0.779205625000000,3028,0x20,0x00
0.779285375000000,3029,0x32,0x01
0.779359875000000,3029,0x20,0x01
0.779434250000000,3029,0x20,0x01
0.779514000000000,3030,0x32,0x01
0.779588375000000,3030,0x20,0x01
0.779662875000000,3030,0xF5,0x01
0.779744125000000,3031,0x07,0x01
0.779818500000000,3031,0x01,0x01
0.779892875000000,3031,0x46,0x01
0.780223250000000,3032,0x07,0x0D
0.780296625000000,3032,0x00,0x09
0.780370625000000,3032,0x00,0x01
0.780449375000000,3033,0x32,0x01
0.780523750000000,3033,0x00,0x01
0.780598250000000,3033,0x00,0x01
0.780680375000000,3034,0x34,0x81
0.780754875000000,3034,0x80,0x01
0.780829250000000,3034,0x80,0x01
0.780912000000000,3035,0x32,0x01
0.780986375000000,3035,0x0A,0x01
0.781060750000000,3035,0x22,0x01
0.781140500000000,3036,0x32,0x01
0.781215000000000,3036,0x16,0x01
0.781289375000000,3036,0x20,0x01
0.781369125000000,3037,0x32,0x01
0.781443500000000,3037,0x3F,0x01
0.781517875000000,3037,0x20,0x81
0.781597750000000,3038,0x32,0x01
0.781672125000000,3038,0x20,0x01
0.781746500000000,3038,0x20,0x01
0.781826250000000,3039,0x32,0x81
0.781900750000000,3039,0x20,0x01
0.781975125000000,3039,0xF5,0x01
0.782056375000000,3040,0x07,0x01
0.782130750000000,3040,0x01,0x01
0.782205125000000,3040,0x00,0x01
0.782536500000000,3041,0x07,0x0F
0.782609500000000,3041,0x00,0x01
0.782683875000000,3041,0x28,0x01
0.782762625000000,3042,0x32,0x01
0.782837125000000,3042,0x00,0x01
0.782911500000000,3042,0x00,0x01
0.782993750000000,3043,0x34,0x01
0.783068125000000,3043,0x80,0x01
0.783142500000000,3043,0x80,0x01
0.783225250000000,3044,0x32,0x01
0.783299625000000,3044,0x0A,0x01
0.783374000000000,3044,0x22,0x01
0.783453875000000,3045,0x32,0x01
0.783528250000000,3045,0x16,0x01
0.783602625000000,3045,0x20,0x01
0.783682375000000,3046,0x32,0x01
0.783756875000000,3046,0x3F,0x01
0.783831250000000,3046,0x20,0x01
0.783911000000000,3047,0x32,0x01
0.783985375000000,3047,0x20,0x01
0.784059750000000,3047,0x20,0x01
0.784139625000000,3048,0x32,0x01
0.784214000000000,3048,0x20,0x01
0.784288375000000,3048,0xF5,0x01
0.784369625000000,3049,0x07,0x01
0.784444000000000,3049,0x01,0x01
0.784518375000000,3049,0x28,0x81
0.784850750000000,3050,0x07,0x0F
0.784923750000000,3050,0x00,0x01
0.784998125000000,3050,0x0A,0x01
0.785076875000000,3051,0x32,0x01
0.785151250000000,3051,0x00,0x01
0.785225750000000,3051,0x00,0x01
0.785308000000000,3052,0x34,0x01
0.785382375000000,3052,0x80,0x01
0.785456750000000,3052,0x80,0x01
0.785539500000000,3053,0x32,0x01
0.785613875000000,3053,0x0A,0x01
0.785688250000000,3053,0x22,0x01
0.785768000000000,3054,0x32,0x01
0.785842500000000,3054,0x16,0x01
0.785916875000000,3054,0x20,0x01
0.785996625000000,3055,0x32,0x01
0.786071000000000,3055,0x3F,0x01
0.786145375000000,3055,0x20,0x81
0.786225250000000,3056,0x32,0x01
0.786299625000000,3056,0x20,0x01
0.786374000000000,3056,0x20,0x01
0.786453750000000,3057,0x32,0x01
0.786528250000000,3057,0x20,0x01
0.786602625000000,3057,0xF5,0x01
0.786683875000000,3058,0x07,0x01
0.786758250000000,3058,0x01,0x01
0.786832625000000,3058,0x0A,0x01
0.787166000000000,3059,0x07,0x0F
0.787238875000000,3059,0x00,0x01
0.787313375000000,3059,0x32,0x01
0.787392125000000,3060,0x32,0x01
0.787466500000000,3060,0x00,0x01
0.787540875000000,3060,0x00,0x01
0.787623125000000,3061,0x34,0x01
0.787697625000000,3061,0x80,0x01
0.787772000000000,3061,0x80,0x01
0.787854625000000,3062,0x32,0x81
0.787929125000000,3062,0x0A,0x01
0.788003500000000,3062,0x22,0x01
0.788083250000000,3063,0x32,0x01
0.788157625000000,3063,0x16,0x01
0.788232125000000,3063,0x20,0x01
0.788311875000000,3064,0x32,0x01
0.788386250000000,3064,0x3F,0x00
0.788460625000000,3064,0x20,0x01
0.788540500000000,3065,0x32,0x01
0.788614875000000,3065,0x20,0x01
0.788689250000000,3065,0x20,0x01
0.788769000000000,3066,0x32,0x01
0.788843500000000,3066,0x20,0x01
0.788917875000000,3066,0xF5,0x01
0.788999125000000,3067,0x07,0x01
0.789073500000000,3067,0x01,0x01
0.789147875000000,3067,0x32,0x01
0.789482125000000,3068,0x07,0x8F
0.789555125000000,3068,0x00,0x01
0.789629500000000,3068,0x14,0x01
0.789708375000000,3069,0x32,0x01
0.789782750000000,3069,0x00,0x01
0.789857125000000,3069,0x00,0x01
0.789939375000000,3070,0x34,0x01
0.790013750000000,3070,0x80,0x00
0.790088125000000,3070,0x80,0x01
0.790170875000000,3071,0x32,0x01
0.790245250000000,3071,0x0A,0x01
0.790319625000000,3071,0x22,0x01
0.790399500000000,3072,0x32,0x01
0.790473875000000,3072,0x16,0x01
0.790548250000000,3072,0x20,0x01
0.790628000000000,3073,0x32,0x01
0.790702500000000,3073,0x3F,0x01
0.790776875000000,3073,0x20,0x01
0.790856625000000,3074,0x32,0x01
0.790931000000000,3074,0x20,0x01
0.791005500000000,3074,0x20,0x01
0.791085250000000,3075,0x32,0x01
0.791159625000000,3075,0x20,0x00
0.791234000000000,3075,0xF5,0x01
0.791315250000000,3076,0x07,0x01
0.791389625000000,3076,0x01,0x81
0.791464125000000,3076,0x14,0x01
0.791799375000000,3077,0x07,0x0F
0.791872250000000,3077,0x00,0x01
0.791946750000000,3077,0x3C,0x01
0.792025500000000,3078,0x32,0x01
0.792099875000000,3078,0x00,0x01
0.792174250000000,3078,0x00,0x01
0.792256500000000,3079,0x34,0x01
0.792330875000000,3079,0x80,0x81
0.792405375000000,3079,0x80,0x01
0.792488000000000,3080,0x32,0x01
0.792562500000000,3080,0x0A,0x01
0.792636875000000,3080,0x22,0x01
0.792716625000000,3081,0x32,0x00
0.792791000000000,3081,0x16,0x01
0.792865375000000,3081,0x20,0x81
0.792945250000000,3082,0x32,0x01
0.793019625000000,3082,0x3F,0x01
0.793094000000000,3082,0x20,0x01
0.793173750000000,3083,0x32,0x81
0.793248250000000,3083,0x20,0x01
0.793322625000000,3083,0x20,0x01
0.793402375000000,3084,0x32,0x01
0.793476750000000,3084,0x20,0x01
0.793551250000000,3084,0xF5,0x01
0.793632500000000,3085,0x07,0x01
0.793706875000000,3085,0x01,0x01
0.793781250000000,3085,0x3C,0x01
0.794117500000000,3086,0x07,0x0D
0.794190875000000,3086,0x00,0x01
0.794265250000000,3086,0x1E,0x01
0.794344125000000,3087,0x32,0x01
0.794418500000000,3087,0x00,0x01
0.794492875000000,3087,0x00,0x01
0.794575125000000,3088,0x34,0x01
0.794649500000000,3088,0x80,0x01
0.794724000000000,3088,0x80,0x01
0.794806625000000,3089,0x32,0x01
0.794881000000000,3089,0x0A,0x81
0.794955500000000,3089,0x22,0x01
0.795035250000000,3090,0x32,0x01
0.795109625000000,3090,0x16,0x01
0.795184000000000,3090,0x20,0x01
0.795263875000000,3091,0x32,0x01
0.795338250000000,3091,0x3F,0x01
0.795412625000000,3091,0x20,0x01
0.795492375000000,3092,0x32,0x00
0.795566750000000,3092,0x20,0x01
0.795641125000000,3092,0x20,0x81
0.795721000000000,3093,0x32,0x01
0.795795375000000,3093,0x20,0x01
0.795869750000000,3093,0xF5,0x01
0.795951000000000,3094,0x07,0x01
0.796025375000000,3094,0x01,0x01
0.796099750000000,3094,0x1E,0x81
0.796437000000000,3095,0x07,0x0F
0.796510000000000,3095,0x00,0x01
0.796584375000000,3095,0x46,0x01
0.796663125000000,3096,0x32,0x01
0.796737500000000,3096,0x00,0x81
0.796812000000000,3096,0x00,0x01
0.796894250000000,3097,0x34,0x01
0.796968625000000,3097,0x80,0x01
0.797043000000000,3097,0x80,0x01
0.797125750000000,3098,0x32,0x01
0.797200125000000,3098,0x0A,0x01
0.797274500000000,3098,0x22,0x01
0.797354250000000,3099,0x32,0x01
0.797428625000000,3099,0x16,0x81
0.797503125000000,3099,0x20,0x01
0.797582875000000,3100,0x32,0x01
0.797657250000000,3100,0x3F,0x01
0.797731625000000,3100,0x20,0x01
0.797811500000000,3101,0x32,0x01
0.797885875000000,3101,0x20,0x01
0.797960250000000,3101,0x20,0x01
0.798040000000000,3102,0x32,0x01
0.798114375000000,3102,0x20,0x01
0.798188875000000,3102,0xF5,0x01
0.798270125000000,3103,0x07,0x01
0.798344500000000,3103,0x01,0x01
0.798418875000000,3103,0x46,0x00
0.798749250000000,3104,0x07,0x0D
0.798822625000000,3104,0x00,0x09
0.798896625000000,3104,0x00,0x01
0.798975375000000,3105,0x32,0x01
0.799049750000000,3105,0x00,0x01
0.799124125000000,3105,0x00,0x01
0.799206375000000,3106,0x34,0x01
0.799280750000000,3106,0x80,0x81
0.799355250000000,3106,0x80,0x01
0.799437875000000,3107,0x32,0x01
0.799512375000000,3107,0x0A,0x01
0.799586750000000,3107,0x22,0x01
0.799666500000000,3108,0x32,0x01
0.799740875000000,3108,0x16,0x01
0.799815250000000,3108,0x20,0x01
0.799895125000000,3109,0x32,0x01
0.799969500000000,3109,0x3F,0x01
0.800043875000000,3109,0x20,0x01
0.800123625000000,3110,0x32,0x01
0.800198125000000,3110,0x20,0x01
0.800272500000000,3110,0x20,0x01
0.800352250000000,3111,0x32,0x01
0.800426625000000,3111,0x20,0x01
0.800501000000000,3111,0xF5,0x81
0.800582375000000,3112,0x07,0x01
0.800656750000000,3112,0x01,0x01
0.800731125000000,3112,0x00,0x01
0.801062500000000,3113,0x07,0x0F
0.801135375000000,3113,0x00,0x01
0.801209750000000,3113,0x28,0x01
0.801288625000000,3114,0x32,0x01
0.801363000000000,3114,0x00,0x01
0.801437375000000,3114,0x00,0x01
0.801519625000000,3115,0x34,0x01
0.801594000000000,3115,0x80,0x01
0.801668500000000,3115,0x80,0x01
0.801751125000000,3116,0x32,0x01
0.801825625000000,3116,0x0A,0x01
0.801900000000000,3116,0x22,0x01
0.801979750000000,3117,0x32,0x01
0.802054125000000,3117,0x16,0x01
0.802128500000000,3117,0x20,0x81
0.802208375000000,3118,0x32,0x01
0.802282750000000,3118,0x3F,0x01
0.802357125000000,3118,0x20,0x01
0.802436875000000,3119,0x32,0x01
0.802511375000000,3119,0x20,0x01
0.802585750000000,3119,0x20,0x01
0.802665500000000,3120,0x32,0x01
0.802739875000000,3120,0x20,0x01
0.802814375000000,3120,0xF5,0x01
0.802895625000000,3121,0x07,0x01
0.802970000000000,3121,0x01,0x01
0.803044375000000,3121,0x28,0x01
0.803376750000000,3122,0x07,0x0F
0.803449625000000,3122,0x00,0x01
0.803524000000000,3122,0x0A,0x01
0.803602875000000,3123,0x32,0x01
0.803677250000000,3123,0x00,0x01
0.803751625000000,3123,0x00,0x01
0.803833875000000,3124,0x34,0x01
0.803908250000000,3124,0x80,0x01
0.803982750000000,3124,0x80,0x01
0.804065375000000,3125,0x32,0x01
0.804139875000000,3125,0x0A,0x01
0.804214250000000,3125,0x22,0x01
0.804294000000000,3126,0x32,0x01
0.804368375000000,3126,0x16,0x01
0.804442750000000,3126,0x20,0x01
0.804522625000000,3127,0x32,0x01
0.804597000000000,3127,0x3F,0x01
0.804671375000000,3127,0x20,0x00
0.804751125000000,3128,0x32,0x01
0.804825625000000,3128,0x20,0x01
0.804900000000000,3128,0x20,0x01
0.804979750000000,3129,0x32,0x01
0.805054125000000,3129,0x20,0x01
0.805128625000000,3129,0xF5,0x01
0.805209875000000,3130,0x07,0x01
0.805284250000000,3130,0x01,0x01
0.805358625000000,3130,0x0A,0x01
0.805692000000000,3131,0x07,0x07
0.805764875000000,3131,0x00,0x01
0.805839250000000,3131,0x32,0x01
0.805918125000000,3132,0x32,0x01
0.805992500000000,3132,0x00,0x01
0.806066875000000,3132,0x00,0x01
0.806149125000000,3133,0x34,0x01
0.806223500000000,3133,0x80,0x01
0.806297875000000,3133,0x80,0x01
0.806380625000000,3134,0x32,0x01
0.806455000000000,3134,0x0A,0x01
0.806529500000000,3134,0x22,0x01
0.806609250000000,3135,0x32,0x01
0.806683625000000,3135,0x16,0x01
0.806758000000000,3135,0x20,0x01
0.806837750000000,3136,0x32,0x81
0.806912250000000,3136,0x3F,0x01
0.806986625000000,3136,0x20,0x01
0.807066375000000,3137,0x32,0x01
0.807140750000000,3137,0x20,0x01
0.807215250000000,3137,0x20,0x01
0.807295000000000,3138,0x32,0x01
0.807369375000000,3138,0x20,0x01
0.807443750000000,3138,0xF5,0x01
0.807525000000000,3139,0x07,0x81
0.807599500000000,3139,0x01,0x01
0.807673875000000,3139,0x32,0x01
0.808008125000000,3140,0x07,0x0F
0.808081125000000,3140,0x00,0x01
0.808155500000000,3140,0x14,0x01
0.808234250000000,3141,0x32,0x01
0.808308750000000,3141,0x00,0x01
0.808383125000000,3141,0x00,0x01
0.808465375000000,3142,0x34,0x01
0.808539750000000,3142,0x80,0x01
0.808614125000000,3142,0x80,0x01
0.808696875000000,3143,0x32,0x01
0.808771250000000,3143,0x0A,0x01
0.808845625000000,3143,0x22,0x01
0.808925500000000,3144,0x32,0x01
0.808999875000000,3144,0x16,0x01
0.809074250000000,3144,0x20,0x00
0.809154000000000,3145,0x32,0x01
0.809228500000000,3145,0x3F,0x01
0.809302875000000,3145,0x20,0x01
0.809382625000000,3146,0x32,0x01
0.809457000000000,3146,0x20,0x01
0.809531375000000,3146,0x20,0x81
0.809611250000000,3147,0x32,0x01
0.809685625000000,3147,0x20,0x01
0.809760000000000,3147,0xF5,0x01
0.809841250000000,3148,0x07,0x01
0.809915625000000,3148,0x01,0x81
0.809990125000000,3148,0x14,0x01
0.810325375000000,3149,0x07,0x0F
0.810398250000000,3149,0x00,0x01
0.810472625000000,3149,0x3C,0x01
0.810551500000000,3150,0x32,0x01
0.810625875000000,3150,0x00,0x01
0.810700250000000,3150,0x00,0x01
0.810782500000000,3151,0x34,0x01
0.810856875000000,3151,0x80,0x01
0.810931375000000,3151,0x80,0x01
0.811014000000000,3152,0x32,0x01
0.811088500000000,3152,0x0A,0x01
0.811162875000000,3152,0x22,0x01
0.811242625000000,3153,0x32,0x01
0.811317000000000,3153,0x16,0x01
0.811391375000000,3153,0x20,0x81
0.811471250000000,3154,0x32,0x01
0.811545625000000,3154,0x3F,0x01
0.811620000000000,3154,0x20,0x01
0.811699750000000,3155,0x32,0x01
0.811774250000000,3155,0x20,0x01
0.811848625000000,3155,0x20,0x01
0.811928375000000,3156,0x32,0x01
0.812002750000000,3156,0x20,0x01
0.812077250000000,3156,0xF5,0x01
0.812158500000000,3157,0x07,0x01
0.812232875000000,3157,0x01,0x01
0.812307250000000,3157,0x3C,0x01
0.812643500000000,3158,0x07,0x0D
0.812716875000000,3158,0x00,0x01
0.812791375000000,3158,0x1E,0x01
0.812870125000000,3159,0x32,0x01
0.812944500000000,3159,0x00,0x01
0.813019000000000,3159,0x00,0x01
0.813101125000000,3160,0x34,0x01
0.813175625000000,3160,0x80,0x01
0.813250000000000,3160,0x80,0x01
0.813332750000000,3161,0x32,0x01
0.813407125000000,3161,0x0A,0x01
0.813481500000000,3161,0x22,0x00
0.813561250000000,3162,0x32,0x01
0.813635750000000,3162,0x16,0x01
0.813710125000000,3162,0x20,0x01
0.813789875000000,3163,0x32,0x00
0.813864250000000,3163,0x3F,0x01
0.813938625000000,3163,0x20,0x81
0.814018500000000,3164,0x32,0x01
0.814092875000000,3164,0x20,0x01
0.814167250000000,3164,0x20,0x01
0.814247125000000,3165,0x32,0x01
0.814321500000000,3165,0x20,0x01
0.814395875000000,3165,0xF5,0x01
0.814477125000000,3166,0x07,0x01
0.814551500000000,3166,0x01,0x01
0.814625875000000,3166,0x1E,0x01
0.814963125000000,3167,0x07,0x0F
0.815036125000000,3167,0x00,0x01
0.815110500000000,3167,0x46,0x01
0.815189250000000,3168,0x32,0x01
0.815263750000000,3168,0x00,0x01
0.815338125000000,3168,0x00,0x01
0.815420375000000,3169,0x34,0x01
0.815494750000000,3169,0x80,0x01
0.815569125000000,3169,0x80,0x00
0.815651875000000,3170,0x32,0x01
0.815726250000000,3170,0x0A,0x01
0.815800625000000,3170,0x22,0x01
0.815880375000000,3171,0x32,0x81
0.815954875000000,3171,0x16,0x01
0.816029250000000,3171,0x20,0x01
0.816109000000000,3172,0x32,0x01
0.816183375000000,3172,0x3F,0x01
0.816257875000000,3172,0x20,0x01
0.816337625000000,3173,0x32,0x01
0.816412000000000,3173,0x20,0x01
0.816486375000000,3173,0x20,0x01
0.816566250000000,3174,0x32,0x01
0.816640625000000,3174,0x20,0x01
0.816715000000000,3174,0xF5,0x01
0.816796250000000,3175,0x07,0x01
0.816870625000000,3175,0x01,0x01
0.816945000000000,3175,0x46,0x01
0.817275375000000,3176,0x07,0x0D
0.817348875000000,3176,0x00,0x09
0.817422750000000,3176,0x00,0x00
0.817501625000000,3177,0x32,0x01
0.817576000000000,3177,0x00,0x01
0.817650375000000,3177,0x00,0x01
0.817732625000000,3178,0x34,0x01
0.817807000000000,3178,0x80,0x01
0.817881375000000,3178,0x80,0x01
0.817964125000000,3179,0x32,0x01
0.818038500000000,3179,0x0A,0x01
0.818112875000000,3179,0x22,0x01
0.818192750000000,3180,0x32,0x01
0.818267125000000,3180,0x16,0x01
0.818341500000000,3180,0x20,0x01
0.818421250000000,3181,0x32,0x01
0.818495625000000,3181,0x3F,0x81
0.818570125000000,3181,0x20,0x01
0.818649875000000,3182,0x32,0x01
0.818724250000000,3182,0x20,0x01
0.818798625000000,3182,0x20,0x01
0.818878500000000,3183,0x32,0x01
0.818952875000000,3183,0x20,0x01
0.819027250000000,3183,0xF5,0x00
0.819108500000000,3184,0x07,0x01
0.819182875000000,3184,0x01,0x01
0.819257250000000,3184,0x00,0x81
0.819588625000000,3185,0x07,0x0F
0.819661625000000,3185,0x00,0x01
0.819736000000000,3185,0x28,0x01
0.819814750000000,3186,0x32,0x01
0.819889125000000,3186,0x00,0x01
0.819963625000000,3186,0x00,0x01
0.820045750000000,3187,0x34,0x01
0.820120250000000,3187,0x80,0x01
0.820194625000000,3187,0x80,0x01
0.820277375000000,3188,0x32,0x01
0.820351750000000,3188,0x0A,0x01
0.820426125000000,3188,0x22,0x01
0.820505875000000,3189,0x32,0x01
0.820580250000000,3189,0x16,0x01
0.820654750000000,3189,0x20,0x01
0.820734500000000,3190,0x32,0x01
0.820808875000000,3190,0x3F,0x01
0.820883250000000,3190,0x20,0x01
0.820963125000000,3191,0x32,0x01
0.821037500000000,3191,0x20,0x01
0.821111875000000,3191,0x20,0x01
0.821191625000000,3192,0x32,0x01
0.821266000000000,3192,0x20,0x01
0.821340500000000,3192,0xF5,0x01
0.821421750000000,3193,0x07,0x01
0.821496125000000,3193,0x01,0x01
0.821570500000000,3193,0x28,0x01
0.821902875000000,3194,0x07,0x0F
0.821975750000000,3194,0x00,0x00
0.822050125000000,3194,0x0A,0x01
0.822129000000000,3195,0x32,0x01
0.822203375000000,3195,0x00,0x01
0.822277750000000,3195,0x00,0x00
0.822360000000000,3196,0x34,0x01
0.822434375000000,3196,0x80,0x01
0.822508750000000,3196,0x80,0x01
0.822591500000000,3197,0x32,0x01
0.822665875000000,3197,0x0A,0x01
0.822740250000000,3197,0x22,0x81
0.822820125000000,3198,0x32,0x01
0.822894500000000,3198,0x16,0x01
0.822968875000000,3198,0x20,0x01
0.823048625000000,3199,0x32,0x01
0.823123125000000,3199,0x3F,0x01
0.823197500000000,3199,0x20,0x01
0.823277250000000,3200,0x32,0x01
0.823351625000000,3200,0x20,0x01
0.823426000000000,3200,0x20,0x01
0.823505875000000,3201,0x32,0x01
0.823580250000000,3201,0x20,0x01
0.823654625000000,3201,0xF5,0x01
0.823735875000000,3202,0x07,0x01
0.823810250000000,3202,0x01,0x01
0.823884625000000,3202,0x0A,0x01
0.824218000000000,3203,0x07,0x0F
0.824290875000000,3203,0x00,0x01
0.824365250000000,3203,0x32,0x01
0.824444125000000,3204,0x32,0x01
0.824518500000000,3204,0x00,0x01
0.824592875000000,3204,0x00,0x01
0.824675125000000,3205,0x34,0x01
0.824749500000000,3205,0x80,0x01
0.824823875000000,3205,0x80,0x01
0.824906625000000,3206,0x32,0x01
0.824981000000000,3206,0x0A,0x01
0.825055500000000,3206,0x22,0x01
0.825135250000000,3207,0x32,0x01
0.825209625000000,3207,0x16,0x01
0.825284000000000,3207,0x20,0x01
0.825363750000000,3208,0x32,0x01
0.825438250000000,3208,0x3F,0x01
0.825512625000000,3208,0x20,0x01
0.825592375000000,3209,0x32,0x01
0.825666750000000,3209,0x20,0x01
0.825741125000000,3209,0x20,0x01
0.825821000000000,3210,0x32,0x01
0.825895375000000,3210,0x20,0x01
0.825969750000000,3210,0xF5,0x01
0.826051000000000,3211,0x07,0x01
0.826125375000000,3211,0x01,0x01
0.826199750000000,3211,0x32,0x01
0.826534125000000,3212,0x07,0x0F
0.826607000000000,3212,0x00,0x00
0.826681375000000,3212,0x14,0x01
0.826760250000000,3213,0x32,0x01
0.826834625000000,3213,0x00,0x01
0.826909000000000,3213,0x00,0x01
0.826991250000000,3214,0x34,0x01
0.827065625000000,3214,0x80,0x01
0.827140000000000,3214,0x80,0x01
0.827222750000000,3215,0x32,0x01
0.827297125000000,3215,0x0A,0x01
0.827371500000000,3215,0x22,0x81
0.827451375000000,3216,0x32,0x01
0.827525750000000,3216,0x16,0x01
0.827600125000000,3216,0x20,0x01
0.827679875000000,3217,0x32,0x01
0.827754375000000,3217,0x3F,0x01
0.827828750000000,3217,0x20,0x01
0.827908500000000,3218,0x32,0x01
0.827982875000000,3218,0x20,0x01
0.828057250000000,3218,0x20,0x01
0.828137125000000,3219,0x32,0x01
0.828211500000000,3219,0x20,0x01
0.828285875000000,3219,0xF5,0x00
0.828367125000000,3220,0x07,0x01
0.828441500000000,3220,0x01,0x01
0.828515875000000,3220,0x14,0x01
0.828851250000000,3221,0x07,0x07
0.828924125000000,3221,0x00,0x01
0.828998500000000,3221,0x3C,0x01
0.829077375000000,3222,0x32,0x01
0.829151750000000,3222,0x00,0x01
0.829226125000000,3222,0x00,0x01
0.829308375000000,3223,0x34,0x01
0.829382750000000,3223,0x80,0x01
0.829457125000000,3223,0x80,0x01
0.829539875000000,3224,0x32,0x01
0.829614250000000,3224,0x0A,0x01
0.829688625000000,3224,0x22,0x01
0.829768500000000,3225,0x32,0x01
0.829842875000000,3225,0x16,0x01
0.829917250000000,3225,0x20,0x01
0.829997000000000,3226,0x32,0x01
0.830071375000000,3226,0x3F,0x01
0.830145875000000,3226,0x20,0x01
0.830225625000000,3227,0x32,0x01
0.830300000000000,3227,0x20,0x01
0.830374375000000,3227,0x20,0x01
0.830454250000000,3228,0x32,0x01
0.830528625000000,3228,0x20,0x01
0.830603000000000,3228,0xF5,0x01
0.830684250000000,3229,0x07,0x01
0.830758625000000,3229,0x01,0x01
0.830833000000000,3229,0x3C,0x01
0.831169250000000,3230,0x07,0x0D
0.831242625000000,3230,0x00,0x81
0.831317125000000,3230,0x1E,0x01
0.831395875000000,3231,0x32,0x01
0.831470250000000,3231,0x00,0x01
0.831544625000000,3231,0x00,0x81
0.831626875000000,3232,0x34,0x01
0.831701250000000,3232,0x80,0x81
0.831775750000000,3232,0x80,0x01
0.831858375000000,3233,0x32,0x01
0.831932875000000,3233,0x0A,0x01
0.832007250000000,3233,0x22,0x01
0.832087000000000,3234,0x32,0x01
0.832161375000000,3234,0x16,0x01
0.832235750000000,3234,0x20,0x01
0.832315625000000,3235,0x32,0x01
0.832390000000000,3235,0x3F,0x01
0.832464375000000,3235,0x20,0x00
0.832544125000000,3236,0x32,0x01
0.832618625000000,3236,0x20,0x01
0.832693000000000,3236,0x20,0x01
0.832772750000000,3237,0x32,0x01
0.832847125000000,3237,0x20,0x01
0.832921500000000,3237,0xF5,0x01
0.833002750000000,3238,0x07,0x01
0.833077250000000,3238,0x01,0x01
0.833151625000000,3238,0x1E,0x01
0.833488875000000,3239,0x07,0x0F
0.833561750000000,3239,0x00,0x01
0.833636125000000,3239,0x46,0x01
0.833715000000000,3240,0x32,0x01
0.833789375000000,3240,0x00,0x01
0.833863750000000,3240,0x00,0x01
0.833946000000000,3241,0x34,0x01
0.834020375000000,3241,0x80,0x00
0.834094750000000,3241,0x80,0x01
0.834177500000000,3242,0x32,0x01
0.834251875000000,3242,0x0A,0x01
0.834326250000000,3242,0x22,0x81
0.834406125000000,3243,0x32,0x01
0.834480500000000,3243,0x16,0x01
0.834554875000000,3243,0x20,0x01
0.834634625000000,3244,0x32,0x01
0.834709125000000,3244,0x3F,0x01
0.834783500000000,3244,0x20,0x01
0.834863250000000,3245,0x32,0x01
0.834937625000000,3245,0x20,0x01
0.835012000000000,3245,0x20,0x81
0.835091875000000,3246,0x32,0x01
0.835166250000000,3246,0x20,0x01
0.835240625000000,3246,0xF5,0x01
0.835321875000000,3247,0x07,0x01
0.835396250000000,3247,0x01,0x01
0.835470750000000,3247,0x46,0x01
0.835801125000000,3248,0x07,0x0D
0.835874500000000,3248,0x00,0x09
0.835948375000000,3248,0x00,0x01
0.836027250000000,3249,0x32,0x01
0.836101625000000,3249,0x00,0x01
0.836176000000000,3249,0x00,0x00
0.836258250000000,3250,0x34,0x01
0.836332625000000,3250,0x80,0x01
0.836407000000000,3250,0x80,0x01
0.836489750000000,3251,0x32,0x01
0.836564125000000,3251,0x0A,0x01
0.836638625000000,3251,0x22,0x01
0.836718375000000,3252,0x32,0x01
0.836792750000000,3252,0x16,0x01
0.836867125000000,3252,0x20,0x01
0.836946875000000,3253,0x32,0x01
0.837021375000000,3253,0x3F,0x01
0.837095750000000,3253,0x20,0x01
0.837175500000000,3254,0x32,0x01
0.837249875000000,3254,0x20,0x01
0.837324250000000,3254,0x20,0x01
0.837404125000000,3255,0x32,0x01
0.837478500000000,3255,0x20,0x01
0.837552875000000,3255,0xF5,0x01
0.837634125000000,3256,0x07,0x01
0.837708500000000,3256,0x01,0x01
0.837783000000000,3256,0x00,0x01
0.838114250000000,3257,0x07,0x0F
0.838187250000000,3257,0x00,0x01
0.838261625000000,3257,0x28,0x01
0.838340375000000,3258,0x32,0x01
0.838414875000000,3258,0x00,0x01
0.838489250000000,3258,0x00,0x01
0.838571500000000,3259,0x34,0x01
0.838645875000000,3259,0x80,0x01
0.838720250000000,3259,0x80,0x01
0.838803000000000,3260,0x32,0x01
0.838877375000000,3260,0x0A,0x01
0.838951750000000,3260,0x22,0x00
0.839031500000000,3261,0x32,0x01
0.839106000000000,3261,0x16,0x01
0.839180375000000,3261,0x20,0x01
0.839260125000000,3262,0x32,0x01
0.839334500000000,3262,0x3F,0x01
0.839408875000000,3262,0x20,0x01
0.839488750000000,3263,0x32,0x01
0.839563125000000,3263,0x20,0x01
0.839637500000000,3263,0x20,0x01
0.839717250000000,3264,0x32,0x01
0.839791750000000,3264,0x20,0x01
0.839866125000000,3264,0xF5,0x01
0.839947375000000,3265,0x07,0x01
0.840021750000000,3265,0x01,0x01
0.840096125000000,3265,0x28,0x01
0.840428500000000,3266,0x07,0x0F
0.840501375000000,3266,0x00,0x01
0.840575750000000,3266,0x0A,0x01
0.840654625000000,3267,0x32,0x01
0.840729000000000,3267,0x00,0x01
0.840803375000000,3267,0x00,0x01
0.840885625000000,3268,0x34,0x01
0.840960000000000,3268,0x80,0x01
0.841034375000000,3268,0x80,0x01
0.841117125000000,3269,0x32,0x01
0.841191500000000,3269,0x0A,0x01
0.841265875000000,3269,0x22,0x81
0.841345750000000,3270,0x32,0x01
0.841420125000000,3270,0x16,0x01
0.841494500000000,3270,0x20,0x00
0.841574250000000,3271,0x32,0x01
0.841648750000000,3271,0x3F,0x01
0.841723125000000,3271,0x20,0x01
0.841802875000000,3272,0x32,0x01
0.841877250000000,3272,0x20,0x01
0.841951625000000,3272,0x20,0x01
0.842031500000000,3273,0x32,0x01
0.842105875000000,3273,0x20,0x01
0.842180250000000,3273,0xF5,0x01
0.842261500000000,3274,0x07,0x01
0.842335875000000,3274,0x01,0x01
0.842410375000000,3274,0x0A,0x01
0.842743625000000,3275,0x07,0x0F
0.842816500000000,3275,0x00,0x01
0.842891000000000,3275,0x32,0x01
0.842969750000000,3276,0x32,0x01
0.843044125000000,3276,0x00,0x01
0.843118500000000,3276,0x00,0x01
0.843200750000000,3277,0x34,0x01
0.843275125000000,3277,0x80,0x81
0.843349625000000,3277,0x80,0x01
0.843432250000000,3278,0x32,0x01
0.843506750000000,3278,0x0A,0x01
0.843581125000000,3278,0x22,0x01
0.843660875000000,3279,0x32,0x01
0.843735250000000,3279,0x16,0x01
0.843809625000000,3279,0x20,0x01
0.843889500000000,3280,0x32,0x01
0.843963875000000,3280,0x3F,0x01
0.844038250000000,3280,0x20,0x00
0.844118000000000,3281,0x32,0x01
0.844192500000000,3281,0x20,0x01
0.844266875000000,3281,0x20,0x01
0.844346625000000,3282,0x32,0x01
0.844421000000000,3282,0x20,0x01
0.844495375000000,3282,0xF5,0x01
0.844576625000000,3283,0x07,0x01
0.844651125000000,3283,0x01,0x01
0.844725500000000,3283,0x32,0x01
0.845059750000000,3284,0x07,0x0F
0.845132625000000,3284,0x00,0x81
0.845207125000000,3284,0x14,0x01
0.845285875000000,3285,0x32,0x00
0.845360250000000,3285,0x00,0x01
0.845434625000000,3285,0x00,0x81
0.845516875000000,3286,0x34,0x01
0.845591375000000,3286,0x80,0x01
0.845665750000000,3286,0x80,0x01
0.845748500000000,3287,0x32,0x01
0.845822875000000,3287,0x0A,0x01
0.845897250000000,3287,0x22,0x01
0.845977000000000,3288,0x32,0x01
0.846051375000000,3288,0x16,0x01
0.846125875000000,3288,0x20,0x01
0.846205625000000,3289,0x32,0x01
0.846280000000000,3289,0x3F,0x01
0.846354375000000,3289,0x20,0x01
0.846434125000000,3290,0x32,0x81
0.846508625000000,3290,0x20,0x01
0.846583000000000,3290,0x20,0x01
0.846662750000000,3291,0x32,0x01
0.846737125000000,3291,0x20,0x01
0.846811625000000,3291,0xF5,0x01
0.846892875000000,3292,0x07,0x01
0.846967250000000,3292,0x01,0x01
0.847041625000000,3292,0x14,0x01
0.847376875000000,3293,0x07,0x0F
0.847449750000000,3293,0x00,0x01
0.847524250000000,3293,0x3C,0x01
0.847603000000000,3294,0x32,0x01
0.847677375000000,3294,0x00,0x01
0.847751750000000,3294,0x00,0x01
0.847834000000000,3295,0x34,0x01
0.847908375000000,3295,0x80,0x01
0.847982875000000,3295,0x80,0x01
0.848065500000000,3296,0x32,0x01
0.848140000000000,3296,0x0A,0x01
0.848214375000000,3296,0x22,0x01
0.848294125000000,3297,0x32,0x01
0.848368500000000,3297,0x16,0x01
0.848442875000000,3297,0x20,0x01
0.848522750000000,3298,0x32,0x01
0.848597125000000,3298,0x3F,0x01
0.848671500000000,3298,0x20,0x01
0.848751250000000,3299,0x32,0x01
0.848825625000000,3299,0x20,0x01
0.848900125000000,3299,0x20,0x01
0.848979875000000,3300,0x32,0x01
0.849054250000000,3300,0x20,0x01
0.849128625000000,3300,0xF5,0x01
0.849209875000000,3301,0x07,0x01
0.849284250000000,3301,0x01,0x01
0.849358750000000,3301,0x3C,0x01
0.849695000000000,3302,0x07,0x05
0.849768375000000,3302,0x00,0x01
0.849842750000000,3302,0x1E,0x00
0.849921625000000,3303,0x32,0x01
0.849996000000000,3303,0x00,0x01
0.850070375000000,3303,0x00,0x01
0.850152625000000,3304,0x34,0x01
0.850227000000000,3304,0x80,0x01
0.850301375000000,3304,0x80,0x01
0.850384125000000,3305,0x32,0x01
0.850458500000000,3305,0x0A,0x01
0.850532875000000,3305,0x22,0x01
0.850612625000000,3306,0x32,0x81
0.850687125000000,3306,0x16,0x01
0.850761500000000,3306,0x20,0x01
0.850841250000000,3307,0x32,0x01
0.850915625000000,3307,0x3F,0x01
0.850990000000000,3307,0x20,0x01
0.851069875000000,3308,0x32,0x01
0.851144250000000,3308,0x20,0x01
0.851218625000000,3308,0x20,0x01
0.851298375000000,3309,0x32,0x01
0.851372875000000,3309,0x20,0x01
0.851447250000000,3309,0xF5,0x01
0.851528500000000,3310,0x07,0x01
0.851602875000000,3310,0x01,0x01
0.851677250000000,3310,0x1E,0x01
0.852014500000000,3311,0x07,0x0F
0.852087375000000,3311,0x00,0x01
0.852161875000000,3311,0x46,0x01
0.852240625000000,3312,0x32,0x01
0.852315000000000,3312,0x00,0x01
0.852389375000000,3312,0x00,0x01
0.852471625000000,3313,0x34,0x01
0.852546000000000,3313,0x80,0x01
0.852620500000000,3313,0x80,0x01
0.852703125000000,3314,0x32,0x01
0.852777625000000,3314,0x0A,0x01
0.852852000000000,3314,0x22,0x01
0.852931750000000,3315,0x32,0x01
0.853006125000000,3315,0x15,0x01
0.853080500000000,3315,0x20,0x01
