Time [s],Packet ID,MOSI,MISO
0.000034750000000,0,0x32,0x81
0.000109250000000,0,0x00,0x01
0.000183625000000,0,0x00,0x01
0.000265875000000,1,0x34,0x01
0.000340250000000,1,0x80,0x01
0.000414625000000,1,0x80,0x01
0.000497375000000,2,0x32,0x01
0.000571750000000,2,0x0A,0x01
0.000646125000000,2,0x22,0x01
0.000726000000000,3,0x32,0x01
0.000800375000000,3,0x18,0x01
0.000874750000000,3,0x20,0x00
0.000954500000000,4,0x32,0x01
0.001029000000000,4,0x20,0x01
0.001103375000000,4,0x20,0x01
0.001183125000000,5,0x32,0x00
0.001257500000000,5,0x20,0x01
0.001332000000000,5,0x20,0x01
0.001411750000000,6,0x32,0x01
0.001486125000000,6,0x20,0x01
0.001560500000000,6,0xD8,0x01
0.001641750000000,7,0x07,0x01
0.001716250000000,7,0x01,0x01
0.001790625000000,7,0x46,0x01
0.002121000000000,8,0x07,0x0D
0.002194375000000,8,0x00,0x09
0.002268250000000,8,0x00,0x01
0.002347125000000,9,0x32,0x01
0.002421500000000,9,0x00,0x01
0.002495875000000,9,0x00,0x01
0.002578125000000,10,0x34,0x01
0.002652500000000,10,0x80,0x01
0.002727000000000,10,0x80,0x01
0.002809625000000,11,0x32,0x01
0.002884125000000,11,0x0A,0x01
0.002958500000000,11,0x22,0x01
0.003038250000000,12,0x32,0x01
0.003112625000000,12,0x18,0x01
0.003187125000000,12,0x20,0x01
0.003266875000000,13,0x32,0x01
0.003341250000000,13,0x20,0x00
0.003415625000000,13,0x20,0x01
0.003495500000000,14,0x32,0x01
0.003569875000000,14,0x20,0x01
0.003644250000000,14,0x20,0x00
0.003724000000000,15,0x32,0x01
0.003798500000000,15,0x20,0x01
0.003872875000000,15,0xD8,0x01
0.003954125000000,16,0x07,0x01
0.004028500000000,16,0x01,0x00
0.004102875000000,16,0x00,0x01
0.004434250000000,17,0x07,0x0F
0.004507250000000,17,0x00,0x01
0.004581625000000,17,0x28,0x01
0.004660375000000,18,0x32,0x01
0.004734875000000,18,0x00,0x01
0.004809250000000,18,0x00,0x01
0.004891500000000,19,0x34,0x01
0.004965875000000,19,0x80,0x01
0.005040250000000,19,0x80,0x00
0.005123000000000,20,0x32,0x01
0.005197375000000,20,0x0A,0x01
0.005271750000000,20,0x22,0x01
0.005351625000000,21,0x32,0x01
0.005426000000000,21,0x18,0x01
0.005500375000000,21,0x20,0x00
0.005580125000000,22,0x32,0x01
0.005654625000000,22,0x20,0x01
0.005729000000000,22,0x20,0x01
0.005808750000000,23,0x32,0x01
0.005883125000000,23,0x20,0x01
0.005957625000000,23,0x20,0x01
0.006037375000000,24,0x32,0x01
0.006111750000000,24,0x20,0x00
0.006186125000000,24,0xD8,0x01
0.006267375000000,25,0x07,0x01
0.006341875000000,25,0x01,0x01
0.006416250000000,25,0x28,0x01
0.006748500000000,26,0x07,0x8F
0.006821500000000,26,0x00,0x01
0.006895875000000,26,0x0A,0x01
0.006974750000000,27,0x32,0x01
0.007049125000000,27,0x00,0x01
0.007123500000000,27,0x00,0x00
0.007205750000000,28,0x34,0x01
0.007280125000000,28,0x80,0x01
0.007354500000000,28,0x80,0x01
0.007437250000000,29,0x32,0x01
0.007511625000000,29,0x0A,0x01
0.007586125000000,29,0x22,0x01
0.007665875000000,30,0x32,0x01
0.007740250000000,30,0x18,0x00
0.007814625000000,30,0x20,0x01
0.007894500000000,31,0x32,0x01
0.007968875000000,31,0x20,0x01
0.008043250000000,31,0x20,0x01
0.008123000000000,32,0x32,0x01
0.008197375000000,32,0x20,0x01
0.008271875000000,32,0x20,0x01
0.008351625000000,33,0x32,0x01
0.008426000000000,33,0x20,0x01
0.008500375000000,33,0xD8,0x01
0.008581625000000,34,0x07,0x01
0.008656125000000,34,0x01,0x01
0.008730500000000,34,0x0A,0x01
0.009063750000000,35,0x07,0x0F
0.009136750000000,35,0x00,0x01
0.009211125000000,35,0x32,0x01
0.009289875000000,36,0x32,0x01
0.009364375000000,36,0x00,0x01
0.009438750000000,36,0x00,0x01
0.009521000000000,37,0x34,0x01
0.009595375000000,37,0x80,0x01
0.009669750000000,37,0x80,0x01
0.009752500000000,38,0x32,0x01
0.009826875000000,38,0x0A,0x01
0.009901250000000,38,0x22,0x01
0.009981125000000,39,0x32,0x01
0.010055500000000,39,0x18,0x01
0.010129875000000,39,0x20,0x01
0.010209625000000,40,0x32,0x01
0.010284000000000,40,0x20,0x81
0.010358500000000,40,0x20,0x01
0.010438250000000,41,0x32,0x01
0.010512625000000,41,0x20,0x01
0.010587000000000,41,0x20,0x01
0.010666875000000,42,0x32,0x01
0.010741250000000,42,0x20,0x01
0.010815625000000,42,0xD8,0x01
0.010896875000000,43,0x07,0x01
0.010971250000000,43,0x01,0x01
0.011045750000000,43,0x32,0x01
0.011380000000000,44,0x07,0x0F
0.011452875000000,44,0x00,0x01
0.011527375000000,44,0x14,0x01
0.011606125000000,45,0x32,0x01
0.011680500000000,45,0x00,0x01
0.011754875000000,45,0x00,0x01
0.011837125000000,46,0x34,0x01
0.011911625000000,46,0x80,0x01
0.011986000000000,46,0x80,0x01
0.012068750000000,47,0x32,0x01
0.012143125000000,47,0x0A,0x01
0.012217500000000,47,0x22,0x01
0.012297250000000,48,0x32,0x01
0.012371750000000,48,0x18,0x01
0.012446125000000,48,0x20,0x01
0.012525875000000,49,0x32,0x01
0.012600250000000,49,0x20,0x01
0.012674625000000,49,0x20,0x01
0.012754500000000,50,0x32,0x01
0.012828875000000,50,0x20,0x01
0.012903250000000,50,0x20,0x01
0.012983000000000,51,0x32,0x81
0.013057500000000,51,0x20,0x01
0.013131875000000,51,0xD8,0x01
0.013213125000000,52,0x07,0x01
0.013287500000000,52,0x01,0x01
0.013361875000000,52,0x14,0x01
0.013697250000000,53,0x07,0x0F
0.013770125000000,53,0x00,0x01
0.013844500000000,53,0x3C,0x01
0.013923375000000,54,0x32,0x01
0.013997750000000,54,0x00,0x01
0.014072125000000,54,0x00,0x01
0.014154375000000,55,0x34,0x01
0.014228750000000,55,0x80,0x01
0.014303125000000,55,0x80,0x01
0.014385875000000,56,0x32,0x01
0.014460250000000,56,0x0A,0x81
0.014534750000000,56,0x22,0x01
0.014614500000000,57,0x32,0x01
0.014688875000000,57,0x18,0x01
0.014763250000000,57,0x20,0x01
0.014843125000000,58,0x32,0x01
0.014917500000000,58,0x20,0x01
0.014991875000000,58,0x20,0x01
0.015071750000000,59,0x32,0x01
0.015146125000000,59,0x20,0x01
0.015220500000000,59,0x20,0x01
0.015300250000000,60,0x32,0x01
0.015374625000000,60,0x20,0x81
0.015449125000000,60,0xD8,0x01
0.015530375000000,61,0x07,0x01
0.015604750000000,61,0x01,0x01
0.015679125000000,61,0x3C,0x01
0.016015375000000,62,0x07,0x0D
0.016088875000000,62,0x00,0x01
0.016163250000000,62,0x1E,0x01
0.016242000000000,63,0x32,0x01
0.016316375000000,63,0x00,0x01
0.016390875000000,63,0x00,0x01
0.016473125000000,64,0x34,0x01
0.016547500000000,64,0x80,0x01
0.016621875000000,64,0x80,0x01
0.016704625000000,65,0x32,0x01
0.016779000000000,65,0x0A,0x01
0.016853375000000,65,0x22,0x01
0.016933125000000,66,0x32,0x01
0.017007625000000,66,0x18,0x01
0.017082000000000,66,0x20,0x01
0.017161750000000,67,0x32,0x01
0.017236125000000,67,0x20,0x01
0.017310625000000,67,0x20,0x01
0.017390375000000,68,0x32,0x01
0.017464750000000,68,0x20,0x01
0.017539125000000,68,0x20,0x01
0.017619000000000,69,0x32,0x01
0.017693375000000,69,0x20,0x01
0.017767750000000,69,0xD8,0x01
0.017849000000000,70,0x07,0x00
0.017923375000000,70,0x01,0x01
0.017997750000000,70,0x1E,0x81
0.018335000000000,71,0x07,0x0F
0.018408000000000,71,0x00,0x01
0.018482375000000,71,0x46,0x01
0.018561125000000,72,0x32,0x01
0.018635625000000,72,0x00,0x01
0.018710000000000,72,0x00,0x01
0.018792250000000,73,0x34,0x01
0.018866625000000,73,0x80,0x01
0.018941000000000,73,0x80,0x01
0.019023750000000,74,0x32,0x01
0.019098125000000,74,0x0A,0x01
0.019172500000000,74,0x22,0x01
0.019252375000000,75,0x32,0x01
0.019326750000000,75,0x18,0x01
0.019401125000000,75,0x20,0x01
0.019480875000000,76,0x32,0x01
0.019555250000000,76,0x20,0x01
0.019629750000000,76,0x20,0x01
0.019709500000000,77,0x32,0x01
0.019783875000000,77,0x20,0x01
0.019858250000000,77,0x20,0x01
0.019938125000000,78,0x32,0x01
0.020012500000000,78,0x20,0x01
0.020086875000000,78,0xD8,0x01
0.020168125000000,79,0x07,0x01
0.020242500000000,79,0x01,0x01
0.020317000000000,79,0x46,0x01
0.020647375000000,80,0x07,0x0D
0.020720750000000,80,0x00,0x08
0.020794625000000,80,0x00,0x01
0.020873500000000,81,0x32,0x01
0.020947875000000,81,0x00,0x01
0.021022250000000,81,0x00,0x01
0.021104500000000,82,0x34,0x01
0.021178875000000,82,0x80,0x01
0.021253250000000,82,0x80,0x01
0.021336000000000,83,0x32,0x01
0.021410375000000,83,0x0A,0x01
0.021484875000000,83,0x22,0x01
0.021564625000000,84,0x32,0x01
0.021639000000000,84,0x18,0x01
0.021713375000000,84,0x20,0x01
0.021793250000000,85,0x32,0x01
0.021867625000000,85,0x20,0x01
0.021942000000000,85,0x20,0x01
0.022021750000000,86,0x32,0x01
0.022096125000000,86,0x20,0x81
0.022170625000000,86,0x20,0x01
0.022250375000000,87,0x32,0x01
0.022324750000000,87,0x20,0x01
0.022399125000000,87,0xD8,0x81
0.022480500000000,88,0x07,0x01
0.022554875000000,88,0x01,0x01
0.022629250000000,88,0x00,0x01
0.022960625000000,89,0x07,0x0F
0.023033500000000,89,0x00,0x01
0.023108000000000,89,0x28,0x01
0.023186750000000,90,0x32,0x01
0.023261125000000,90,0x00,0x01
0.023335500000000,90,0x00,0x01
0.023417750000000,91,0x34,0x01
0.023492125000000,91,0x80,0x81
0.023566625000000,91,0x80,0x01
0.023649375000000,92,0x32,0x01
0.023723750000000,92,0x0A,0x01
0.023798125000000,92,0x22,0x01
0.023877875000000,93,0x32,0x01
0.023952250000000,93,0x18,0x01
0.024026750000000,93,0x20,0x01
0.024106500000000,94,0x32,0x01
0.024180875000000,94,0x20,0x00
0.024255250000000,94,0x20,0x01
0.024335125000000,95,0x32,0x01
0.024409500000000,95,0x20,0x01
0.024483875000000,95,0x20,0x01
0.024563625000000,96,0x32,0x01
0.024638125000000,96,0x20,0x01
0.024712500000000,96,0xD8,0x01
0.024793750000000,97,0x07,0x01
0.024868125000000,97,0x01,0x01
0.024942500000000,97,0x28,0x01
0.025274875000000,98,0x07,0x0F
0.025347750000000,98,0x00,0x01
0.025422250000000,98,0x0A,0x01
0.025501000000000,99,0x32,0x01
0.025575375000000,99,0x00,0x01
0.025649750000000,99,0x00,0x01
0.025732000000000,100,0x34,0x01
0.025806500000000,100,0x80,0x01
0.025880875000000,100,0x80,0x01
0.025963625000000,101,0x32,0x01
0.026038000000000,101,0x0A,0x01
0.026112375000000,101,0x22,0x01
0.026192125000000,102,0x32,0x01
0.026266500000000,102,0x18,0x01
0.026341000000000,102,0x20,0x01
0.026420750000000,103,0x32,0x01
0.026495125000000,103,0x20,0x01
0.026569500000000,103,0x20,0x01
0.026649375000000,104,0x32,0x01
0.026723750000000,104,0x20,0x01
0.026798125000000,104,0x20,0x01
0.026877875000000,105,0x32,0x01
0.026952375000000,105,0x20,0x01
0.027026750000000,105,0xD8,0x01
0.027108000000000,106,0x07,0x01
0.027182375000000,106,0x01,0x01
0.027256750000000,106,0x0A,0x01
0.027590125000000,107,0x07,0x0F
0.027663000000000,107,0x00,0x01
0.027737500000000,107,0x32,0x01
0.027816250000000,108,0x32,0x01
0.027890625000000,108,0x00,0x01
0.027965000000000,108,0x00,0x01
0.028047250000000,109,0x34,0x01
0.028121625000000,109,0x80,0x81
0.028196125000000,109,0x80,0x01
0.028278750000000,110,0x32,0x81
0.028353250000000,110,0x0A,0x01
0.028427625000000,110,0x22,0x01
0.028507375000000,111,0x32,0x01
0.028581750000000,111,0x18,0x01
0.028656250000000,111,0x20,0x01
0.028736000000000,112,0x32,0x01
0.028810375000000,112,0x20,0x01
0.028884750000000,112,0x20,0x01
0.028964625000000,113,0x32,0x01
0.029039000000000,113,0x20,0x01
0.029113375000000,113,0x20,0x01
0.029193125000000,114,0x32,0x01
0.029267625000000,114,0x20,0x01
0.029342000000000,114,0xD8,0x01
0.029423250000000,115,0x07,0x01
0.029497625000000,115,0x01,0x00
0.029572000000000,115,0x32,0x01
0.029906375000000,116,0x07,0x0F
0.029979250000000,116,0x00,0x01
0.030053625000000,116,0x14,0x01
0.030132500000000,117,0x32,0x01
0.030206875000000,117,0x00,0x01
0.030281250000000,117,0x00,0x01
0.030363500000000,118,0x34,0x00
0.030437875000000,118,0x80,0x01
0.030512250000000,118,0x80,0x01
0.030595000000000,119,0x32,0x01
0.030669375000000,119,0x0A,0x81
0.030743875000000,119,0x22,0x01
0.030823625000000,120,0x32,0x01
0.030898000000000,120,0x18,0x01
0.030972375000000,120,0x20,0x01
0.031052250000000,121,0x32,0x01
0.031126625000000,121,0x20,0x01
0.031201000000000,121,0x20,0x00
0.031280750000000,122,0x32,0x01
0.031355250000000,122,0x20,0x01
0.031429625000000,122,0x20,0x01
0.031509375000000,123,0x32,0x01
0.031583750000000,123,0x20,0x01
0.031658250000000,123,0xD8,0x01
0.031739500000000,124,0x07,0x01
0.031813875000000,124,0x01,0x01
0.031888250000000,124,0x14,0x01
0.032223500000000,125,0x07,0x0F
0.032296500000000,125,0x00,0x01
0.032370875000000,125,0x3C,0x01
0.032449625000000,126,0x32,0x01
0.032524000000000,126,0x00,0x81
0.032598500000000,126,0x00,0x01
0.032680750000000,127,0x34,0x01
0.032755125000000,127,0x80,0x01
0.032829500000000,127,0x80,0x01
0.032912250000000,128,0x32,0x01
0.032986625000000,128,0x0A,0x00
0.033061000000000,128,0x22,0x01
0.033140875000000,129,0x32,0x01
0.033215250000000,129,0x18,0x01
0.033289625000000,129,0x20,0x01
0.033369375000000,130,0x32,0x01
0.033443750000000,130,0x20,0x81
0.033518250000000,130,0x20,0x01
0.033598000000000,131,0x32,0x01
0.033672375000000,131,0x20,0x01
0.033746750000000,131,0x20,0x81
0.033826625000000,132,0x32,0x01
0.033901000000000,132,0x20,0x01
0.033975375000000,132,0xD8,0x01
0.034056625000000,133,0x07,0x01
0.034131000000000,133,0x01,0x01
0.034205500000000,133,0x3C,0x01
0.034541750000000,134,0x07,0x0D
0.034615125000000,134,0x00,0x01
0.034689500000000,134,0x1E,0x01
0.034768375000000,135,0x32,0x01
0.034842750000000,135,0x00,0x01
0.034917125000000,135,0x00,0x01
0.034999375000000,136,0x34,0x01
0.035073750000000,136,0x80,0x01
0.035148125000000,136,0x80,0x01
0.035230875000000,137,0x32,0x01
0.035305250000000,137,0x0A,0x01
0.035379750000000,137,0x22,0x01
0.035459500000000,138,0x32,0x01
0.035533875000000,138,0x18,0x00
0.035608250000000,138,0x20,0x01
0.035688125000000,139,0x32,0x01
0.035762500000000,139,0x20,0x01
0.035836875000000,139,0x20,0x01
0.035916625000000,140,0x32,0x01
0.035991000000000,140,0x20,0x81
0.036065500000000,140,0x20,0x01
0.036145250000000,141,0x32,0x01
0.036219625000000,141,0x20,0x01
0.036294000000000,141,0xD8,0x01
0.036375250000000,142,0x07,0x81
0.036449750000000,142,0x01,0x01
0.036524125000000,142,0x1E,0x01
0.036861375000000,143,0x07,0x0F
0.036934250000000,143,0x00,0x01
0.037008625000000,143,0x46,0x01
0.037087500000000,144,0x32,0x01
0.037161875000000,144,0x00,0x01
0.037236250000000,144,0x00,0x01
0.037318500000000,145,0x34,0x01
0.037392875000000,145,0x80,0x01
0.037467375000000,145,0x80,0x01
0.037550000000000,146,0x32,0x01
0.037624500000000,146,0x0A,0x01
0.037698875000000,146,0x22,0x01
0.037778625000000,147,0x32,0x01
0.037853000000000,147,0x18,0x01
0.037927500000000,147,0x20,0x01
0.038007250000000,148,0x32,0x01
0.038081625000000,148,0x20,0x01
0.038156000000000,148,0x20,0x01
0.038235875000000,149,0x32,0x01
0.038310250000000,149,0x20,0x01
0.038384625000000,149,0x20,0x01
0.038464375000000,150,0x32,0x01
0.038538750000000,150,0x20,0x01
0.038613250000000,150,0xD8,0x01
0.038694500000000,151,0x07,0x01
0.038768875000000,151,0x01,0x01
0.038843250000000,151,0x46,0x01
0.039173625000000,152,0x07,0x0D
0.039247000000000,152,0x00,0x89
0.039321000000000,152,0x00,0x01
0.039399750000000,153,0x32,0x01
0.039474125000000,153,0x00,0x01
0.039548625000000,153,0x00,0x01
0.039630750000000,154,0x34,0x81
0.039705250000000,154,0x80,0x01
0.039779625000000,154,0x80,0x01
0.039862375000000,155,0x32,0x01
0.039936750000000,155,0x0A,0x01
0.040011125000000,155,0x22,0x01
0.040090875000000,156,0x32,0x01
0.040165375000000,156,0x18,0x01
0.040239750000000,156,0x20,0x01
0.040319500000000,157,0x32,0x01
0.040393875000000,157,0x20,0x01
0.040468250000000,157,0x20,0x01
0.040548125000000,158,0x32,0x01
0.040622500000000,158,0x20,0x01
0.040696875000000,158,0x20,0x01
0.040776625000000,159,0x32,0x81
0.040851125000000,159,0x20,0x01
0.040925500000000,159,0xD8,0x01
0.041006750000000,160,0x07,0x01
0.041081125000000,160,0x01,0x01
0.041155500000000,160,0x00,0x01
0.041486875000000,161,0x07,0x0F
0.041559875000000,161,0x00,0x01
0.041634250000000,161,0x28,0x01
0.041713000000000,162,0x32,0x01
0.041787500000000,162,0x00,0x01
0.041861875000000,162,0x00,0x01
0.041944125000000,163,0x34,0x01
0.042018500000000,163,0x80,0x01
0.042092875000000,163,0x80,0x01
0.042175625000000,164,0x32,0x01
0.042250000000000,164,0x0A,0x01
0.042324375000000,164,0x22,0x01
0.042404125000000,165,0x32,0x81
0.042478625000000,165,0x18,0x01
0.042553000000000,165,0x20,0x01
0.042632750000000,166,0x32,0x01
0.042707125000000,166,0x20,0x01
0.042781625000000,166,0x20,0x01
0.042861375000000,167,0x32,0x01
0.042935750000000,167,0x20,0x00
0.043010125000000,167,0x20,0x01
0.043090000000000,168,0x32,0x01
0.043164375000000,168,0x20,0x01
0.043238750000000,168,0xD8,0x01
0.043320000000000,169,0x07,0x01
0.043394375000000,169,0x01,0x01
0.043468750000000,169,0x28,0x81
0.043801125000000,170,0x07,0x0F
0.043874125000000,170,0x00,0x01
0.043948500000000,170,0x0A,0x01
0.044027250000000,171,0x32,0x01
0.044101625000000,171,0x00,0x01
0.044176125000000,171,0x00,0x01
0.044258250000000,172,0x34,0x81
0.044332750000000,172,0x80,0x01
0.044407125000000,172,0x80,0x01
0.044489875000000,173,0x32,0x01
0.044564250000000,173,0x0A,0x01
0.044638625000000,173,0x22,0x00
0.044718375000000,174,0x32,0x01
0.044792875000000,174,0x18,0x01
0.044867250000000,174,0x20,0x01
0.044947000000000,175,0x32,0x01
0.045021375000000,175,0x20,0x01
0.045095750000000,175,0x20,0x01
0.045175625000000,176,0x32,0x01
0.045250000000000,176,0x20,0x01
0.045324375000000,176,0x20,0x01
0.045404125000000,177,0x32,0x81
0.045478625000000,177,0x20,0x01
0.045553000000000,177,0xD8,0x01
0.045634250000000,178,0x07,0x01
0.045708625000000,178,0x01,0x01
0.045783000000000,178,0x0A,0x01
0.046116375000000,179,0x07,0x0F
0.046189250000000,179,0x00,0x01
0.046263625000000,179,0x32,0x81
0.046342500000000,180,0x32,0x01
0.046416875000000,180,0x00,0x01
0.046491250000000,180,0x00,0x01
0.046573500000000,181,0x34,0x01
0.046647875000000,181,0x80,0x01
0.046722375000000,181,0x80,0x01
0.046805000000000,182,0x32,0x01
0.046879500000000,182,0x0A,0x01
0.046953875000000,182,0x22,0x01
0.047033625000000,183,0x32,0x00
0.047108000000000,183,0x18,0x01
0.047182375000000,183,0x20,0x01
0.047262250000000,184,0x32,0x01
0.047336625000000,184,0x20,0x01
0.047411000000000,184,0x20,0x01
0.047490750000000,185,0x32,0x01
0.047565250000000,185,0x20,0x01
0.047639625000000,185,0x20,0x01
0.047719375000000,186,0x32,0x00
0.047793750000000,186,0x20,0x01
0.047868250000000,186,0xD8,0x01
0.047949500000000,187,0x07,0x01
0.048023875000000,187,0x01,0x01
0.048098250000000,187,0x32,0x01
0.048432500000000,188,0x07,0x0F
0.048505500000000,188,0x00,0x01
0.048579875000000,188,0x14,0x01
0.048658625000000,189,0x32,0x01
0.048733000000000,189,0x00,0x81
0.048807500000000,189,0x00,0x01
0.048889750000000,190,0x34,0x01
0.048964125000000,190,0x80,0x01
0.049038500000000,190,0x80,0x01
0.049121250000000,191,0x32,0x01
0.049195625000000,191,0x0A,0x01
0.049270000000000,191,0x22,0x01
0.049349750000000,192,0x32,0x81
0.049424250000000,192,0x18,0x01
0.049498625000000,192,0x20,0x01
0.049578375000000,193,0x32,0x01
0.049652750000000,193,0x20,0x01
0.049727250000000,193,0x20,0x01
0.049807000000000,194,0x32,0x01
0.049881375000000,194,0x20,0x00
0.049955750000000,194,0x20,0x01
0.050035625000000,195,0x32,0x01
0.050110000000000,195,0x20,0x01
0.050184375000000,195,0xD8,0x00
0.050265625000000,196,0x07,0x00
0.050340000000000,196,0x01,0x01
0.050414375000000,196,0x14,0x81
0.050749750000000,197,0x07,0x0F
0.050822625000000,197,0x00,0x00
0.050897000000000,197,0x3C,0x01
0.050975875000000,198,0x32,0x01
0.051050250000000,198,0x00,0x01
0.051124625000000,198,0x00,0x01
0.051206875000000,199,0x34,0x01
0.051281250000000,199,0x80,0x01
0.051355625000000,199,0x80,0x01
0.051438375000000,200,0x32,0x01
0.051512750000000,200,0x0A,0x01
0.051587250000000,200,0x22,0x01
0.051667000000000,201,0x32,0x01
0.051741375000000,201,0x18,0x01
0.051815750000000,201,0x20,0x01
0.051895625000000,202,0x32,0x01
0.051970000000000,202,0x20,0x01
0.052044375000000,202,0x20,0x01
0.052124125000000,203,0x32,0x01
0.052198625000000,203,0x20,0x01
0.052273000000000,203,0x20,0x01
0.052352750000000,204,0x32,0x01
0.052427125000000,204,0x20,0x01
0.052501625000000,204,0xD8,0x01
0.052582875000000,205,0x07,0x01
0.052657250000000,205,0x01,0x01
0.052731625000000,205,0x3C,0x01
0.053067875000000,206,0x07,0x0D
0.053141250000000,206,0x00,0x01
0.053215750000000,206,0x1E,0x01
0.053294500000000,207,0x32,0x00
0.053368875000000,207,0x00,0x01
0.053443375000000,207,0x00,0x01
0.053525500000000,208,0x34,0x01
0.053600000000000,208,0x80,0x01
0.053674375000000,208,0x80,0x01
0.053757125000000,209,0x32,0x01
0.053831500000000,209,0x0A,0x01
0.053905875000000,209,0x22,0x01
0.053985625000000,210,0x32,0x01
0.054060125000000,210,0x18,0x01
0.054134500000000,210,0x20,0x01
0.054214250000000,211,0x32,0x01
