Time [s],Packet ID,MOSI,MISO
0.000112625000000,0,0x34,0x01
0.000187125000000,0,0x80,0x01
0.000261500000000,0,0x80,0x01
0.000344250000000,1,0x32,0x01
0.000418750000000,1,0x0A,0x00
0.000493125000000,1,0x00,0x01
0.000573000000000,2,0x32,0x01
0.000647500000000,2,0x00,0x01
0.000721875000000,2,0x20,0x01
0.000801750000000,3,0x32,0x01
0.000876125000000,3,0x20,0x01
0.000950625000000,3,0x20,0x01
0.001030375000000,4,0x32,0x81
0.001104875000000,4,0x20,0x01
0.001179375000000,4,0x60,0x01
0.001259125000000,5,0x32,0x01
0.001333625000000,5,0x20,0x01
0.001408000000000,5,0x00,0x01
0.001489375000000,6,0x07,0x01
0.001563750000000,6,0x01,0x01
0.001638250000000,6,0x0A,0x00
0.001971750000000,7,0x07,0x0F
0.002044750000000,7,0x00,0x01
0.002119125000000,7,0x32,0x01
0.002198000000000,8,0x32,0x01
0.002272375000000,8,0x00,0x81
0.002346875000000,8,0x00,0x01
0.002429125000000,9,0x34,0x01
0.002503625000000,9,0x80,0x01
0.002578000000000,9,0x80,0x01
0.002660875000000,10,0x32,0x01
0.002735250000000,10,0x0A,0x01
0.002809750000000,10,0x00,0x01
0.002889500000000,11,0x32,0x01
0.002964000000000,11,0x00,0x00
0.003038375000000,11,0x20,0x01
0.003118250000000,12,0x32,0x01
0.003192750000000,12,0x20,0x01
0.003267125000000,12,0x20,0x01
0.003347000000000,13,0x32,0x00
0.003421375000000,13,0x20,0x01
0.003495875000000,13,0x60,0x01
0.003575750000000,14,0x32,0x01
0.003650125000000,14,0x20,0x01
0.003724625000000,14,0x00,0x01
0.003805875000000,15,0x07,0x01
0.003880375000000,15,0x01,0x01
0.003954750000000,15,0x32,0x01
0.004289250000000,16,0x07,0x0F
0.004362250000000,16,0x00,0x00
0.004436625000000,16,0x14,0x01
0.004515500000000,17,0x32,0x01
0.004590000000000,17,0x00,0x01
0.004664375000000,17,0x00,0x01
0.004746625000000,18,0x34,0x81
0.004821125000000,18,0x80,0x01
0.004895625000000,18,0x80,0x01
0.004978375000000,19,0x32,0x01
0.005052750000000,19,0x0A,0x01
0.005127250000000,19,0x00,0x01
0.005207125000000,20,0x32,0x01
0.005281500000000,20,0x00,0x01
0.005356000000000,20,0x20,0x01
0.005435750000000,21,0x32,0x01
0.005510250000000,21,0x20,0x01
0.005584625000000,21,0x20,0x01
0.005664500000000,22,0x32,0x01
0.005739000000000,22,0x20,0x01
0.005813375000000,22,0x60,0x01
0.005893250000000,23,0x32,0x01
0.005967625000000,23,0x20,0x01
0.006042125000000,23,0x00,0x01
0.006123375000000,24,0x07,0x01
0.006197875000000,24,0x01,0x01
0.006272250000000,24,0x14,0x01
0.006607750000000,25,0x07,0x0F
0.006680750000000,25,0x00,0x01
0.006755125000000,25,0x3C,0x81
0.006834000000000,26,0x32,0x01
0.006908500000000,26,0x00,0x01
0.006982875000000,26,0x00,0x01
0.007065250000000,27,0x34,0x01
0.007139625000000,27,0x80,0x01
0.007214125000000,27,0x80,0x01
0.007296875000000,28,0x32,0x01
0.007371250000000,28,0x0A,0x01
0.007445750000000,28,0x00,0x01
0.007525625000000,29,0x32,0x01
0.007600000000000,29,0x00,0x01
0.007674500000000,29,0x20,0x01
0.007754250000000,30,0x32,0x01
0.007828750000000,30,0x20,0x01
0.007903125000000,30,0x20,0x81
0.007983000000000,31,0x32,0x01
0.008057500000000,31,0x20,0x01
0.008131875000000,31,0x60,0x01
0.008211750000000,32,0x32,0x01
0.008286125000000,32,0x20,0x01
0.008360625000000,32,0x00,0x01
0.008441875000000,33,0x07,0x01
0.008516375000000,33,0x01,0x01
0.008590750000000,33,0x3C,0x01
0.008927250000000,34,0x07,0x0D
0.009000750000000,34,0x00,0x01
0.009075125000000,34,0x1E,0x01
0.009154000000000,35,0x32,0x01
0.009228375000000,35,0x00,0x81
0.009302875000000,35,0x00,0x01
0.009385125000000,36,0x34,0x01
0.009459625000000,36,0x80,0x00
0.009534000000000,36,0x80,0x01
0.009616875000000,37,0x32,0x01
0.009691250000000,37,0x0A,0x01
0.009765750000000,37,0x00,0x01
0.009845500000000,38,0x32,0x01
0.009920000000000,38,0x00,0x01
0.009994375000000,38,0x20,0x01
0.010074250000000,39,0x32,0x01
0.010148750000000,39,0x20,0x01
0.010223125000000,39,0x20,0x01
0.010303000000000,40,0x32,0x01
0.010377375000000,40,0x20,0x01
0.010451875000000,40,0x60,0x01
0.010531750000000,41,0x32,0x01
0.010606125000000,41,0x20,0x01
0.010680625000000,41,0x00,0x01
0.010761875000000,42,0x07,0x01
0.010836375000000,42,0x01,0x01
0.010910750000000,42,0x1E,0x01
0.011248125000000,43,0x07,0x0F
0.011321125000000,43,0x00,0x01
0.011395625000000,43,0x46,0x01
0.011474500000000,44,0x32,0x01
0.011548875000000,44,0x00,0x01
0.011623375000000,44,0x00,0x01
0.011705625000000,45,0x34,0x01
0.011780000000000,45,0x80,0x81
0.011854500000000,45,0x80,0x01
0.011937250000000,46,0x32,0x01
0.012011750000000,46,0x0A,0x01
0.012086125000000,46,0x00,0x01
0.012166000000000,47,0x32,0x01
0.012240375000000,47,0x00,0x81
0.012314875000000,47,0x20,0x01
0.012394750000000,48,0x32,0x01
0.012469125000000,48,0x20,0x01
0.012543625000000,48,0x20,0x01
0.012623500000000,49,0x32,0x01
0.012697875000000,49,0x20,0x01
0.012772375000000,49,0x60,0x01
0.012852125000000,50,0x32,0x01
0.012926625000000,50,0x20,0x01
0.013001000000000,50,0x00,0x01
0.013082375000000,51,0x07,0x01
0.013156750000000,51,0x01,0x01
0.013231250000000,51,0x46,0x01
0.013561750000000,52,0x07,0x8D
0.013635250000000,52,0x00,0x09
0.013709250000000,52,0x00,0x01
0.013788125000000,53,0x32,0x01
0.013862500000000,53,0x00,0x01
0.013937000000000,53,0x00,0x01
0.014019250000000,54,0x34,0x01
0.014093750000000,54,0x80,0x01
0.014168125000000,54,0x80,0x01
0.014250875000000,55,0x32,0x01
0.014325375000000,55,0x0A,0x01
0.014399750000000,55,0x00,0x01
0.014479625000000,56,0x32,0x01
0.014554125000000,56,0x00,0x01
0.014628500000000,56,0x20,0x01
0.014708375000000,57,0x32,0x01
0.014782750000000,57,0x20,0x01
0.014857250000000,57,0x20,0x01
0.014937125000000,58,0x32,0x01
0.015011500000000,58,0x20,0x01
0.015086000000000,58,0x60,0x00
0.015165750000000,59,0x32,0x01
0.015240250000000,59,0x20,0x01
0.015314750000000,59,0x00,0x01
0.015396000000000,60,0x07,0x01
0.015470500000000,60,0x01,0x01
0.015544875000000,60,0x00,0x01
0.015876375000000,61,0x07,0x0F
0.015949375000000,61,0x00,0x01
0.016023875000000,61,0x28,0x00
0.016102750000000,62,0x32,0x01
0.016177125000000,62,0x00,0x01
0.016251625000000,62,0x00,0x01
0.016333875000000,63,0x34,0x01
0.016408375000000,63,0x80,0x01
0.016482750000000,63,0x80,0x01
0.016565500000000,64,0x32,0x01
0.016640000000000,64,0x0A,0x01
0.016714375000000,64,0x00,0x81
0.016794250000000,65,0x32,0x01
0.016868750000000,65,0x00,0x01
0.016943125000000,65,0x20,0x01
0.017023000000000,66,0x32,0x01
0.017097500000000,66,0x20,0x01
0.017171875000000,66,0x20,0x01
0.017251750000000,67,0x32,0x00
0.017326125000000,67,0x20,0x01
0.017400625000000,67,0x60,0x01
0.017480500000000,68,0x32,0x01
0.017554875000000,68,0x20,0x01
0.017629375000000,68,0x00,0x01
0.017710625000000,69,0x07,0x01
0.017785125000000,69,0x01,0x01
0.017859500000000,69,0x28,0x01
0.018192000000000,70,0x07,0x07
0.018265000000000,70,0x00,0x01
0.018339500000000,70,0x0A,0x01
0.018418375000000,71,0x32,0x01
0.018492750000000,71,0x00,0x01
0.018567250000000,71,0x00,0x01
0.018649500000000,72,0x34,0x01
0.018723875000000,72,0x80,0x81
0.018798375000000,72,0x80,0x01
0.018881125000000,73,0x32,0x01
0.018955625000000,73,0x0A,0x01
0.019030000000000,73,0x00,0x01
0.019109875000000,74,0x32,0x01
0.019184375000000,74,0x00,0x01
0.019258750000000,74,0x20,0x01
0.019338625000000,75,0x32,0x01
0.019413000000000,75,0x20,0x01
0.019487500000000,75,0x20,0x01
0.019567375000000,76,0x32,0x01
0.019641750000000,76,0x20,0x01
0.019716250000000,76,0x60,0x01
0.019796000000000,77,0x32,0x01
0.019870500000000,77,0x20,0x01
0.019944875000000,77,0x00,0x01
0.020026250000000,78,0x07,0x01
0.020100625000000,78,0x01,0x01
0.020175125000000,78,0x0A,0x01
0.020508625000000,79,0x07,0x0F
0.020581625000000,79,0x00,0x01
0.020656000000000,79,0x32,0x01
0.020734875000000,80,0x32,0x01
0.020809375000000,80,0x00,0x01
0.020883750000000,80,0x00,0x01
0.020966125000000,81,0x34,0x01
0.021040500000000,81,0x80,0x01
0.021115000000000,81,0x80,0x01
0.021197750000000,82,0x32,0x01
0.021272250000000,82,0x0A,0x01
0.021346625000000,82,0x00,0x01
0.021426500000000,83,0x32,0x00
0.021500875000000,83,0x00,0x01
0.021575375000000,83,0x20,0x01
0.021655250000000,84,0x32,0x01
0.021729625000000,84,0x20,0x01
0.021804125000000,84,0x20,0x01
0.021883875000000,85,0x32,0x01
0.021958375000000,85,0x20,0x01
0.022032875000000,85,0x60,0x01
0.022112625000000,86,0x32,0x01
0.022187125000000,86,0x20,0x01
0.022261500000000,86,0x00,0x01
0.022342875000000,87,0x07,0x01
0.022417250000000,87,0x01,0x01
0.022491750000000,87,0x32,0x01
0.022826250000000,88,0x07,0x0F
0.022899125000000,88,0x00,0x81
0.022973625000000,88,0x14,0x01
0.023052500000000,89,0x32,0x01
0.023126875000000,89,0x00,0x01
0.023201375000000,89,0x00,0x01
0.023283625000000,90,0x34,0x01
0.023358125000000,90,0x80,0x01
0.023432500000000,90,0x80,0x01
0.023515250000000,91,0x32,0x01
0.023589750000000,91,0x0A,0x01
0.023664250000000,91,0x00,0x01
0.023744000000000,92,0x32,0x01
0.023818500000000,92,0x00,0x00
0.023892875000000,92,0x20,0x01
0.023972750000000,93,0x32,0x01
0.024047250000000,93,0x20,0x01
0.024121625000000,93,0x20,0x01
0.024201500000000,94,0x32,0x01
0.024275875000000,94,0x20,0x81
0.024350375000000,94,0x60,0x01
0.024430250000000,95,0x32,0x01
0.024504625000000,95,0x20,0x01
0.024579125000000,95,0x00,0x01
0.024660375000000,96,0x07,0x01
0.024734875000000,96,0x01,0x00
0.024809250000000,96,0x14,0x01
0.025144750000000,97,0x07,0x0F
0.025217750000000,97,0x00,0x00
0.025292125000000,97,0x3C,0x01
0.025371000000000,98,0x32,0x01
0.025445500000000,98,0x00,0x01
0.025519875000000,98,0x00,0x01
0.025602125000000,99,0x34,0x01
0.025676625000000,99,0x80,0x01
0.025751125000000,99,0x80,0x01
0.025833875000000,100,0x32,0x01
0.025908250000000,100,0x0A,0x01
0.025982750000000,100,0x00,0x00
0.026062500000000,101,0x32,0x01
0.026137000000000,101,0x00,0x01
0.026211375000000,101,0x20,0x81
0.026291250000000,102,0x32,0x01
0.026365750000000,102,0x20,0x01
0.026440125000000,102,0x20,0x01
0.026520000000000,103,0x32,0x01
0.026594375000000,103,0x20,0x81
0.026668875000000,103,0x60,0x01
0.026748750000000,104,0x32,0x01
0.026823125000000,104,0x20,0x01
0.026897625000000,104,0x00,0x01
0.026978875000000,105,0x07,0x01
0.027053375000000,105,0x01,0x00
0.027127750000000,105,0x3C,0x01
0.027464250000000,106,0x07,0x0D
0.027537750000000,106,0x00,0x01
0.027612125000000,106,0x1E,0x01
0.027691000000000,107,0x32,0x01
0.027765375000000,107,0x00,0x01
0.027839875000000,107,0x00,0x01
0.027922125000000,108,0x34,0x01
0.027996625000000,108,0x80,0x01
0.028071000000000,108,0x80,0x01
0.028153750000000,109,0x32,0x81
0.028228250000000,109,0x0A,0x01
0.028302750000000,109,0x00,0x01
0.028382500000000,110,0x32,0x01
0.028457000000000,110,0x00,0x00
0.028531375000000,110,0x20,0x01
0.028611250000000,111,0x32,0x01
0.028685750000000,111,0x20,0x01
0.028760125000000,111,0x20,0x01
0.028840000000000,112,0x32,0x00
0.028914375000000,112,0x20,0x01
0.028988875000000,112,0x60,0x01
0.029068750000000,113,0x32,0x01
0.029143125000000,113,0x20,0x01
0.029217625000000,113,0x00,0x01
0.029298875000000,114,0x07,0x01
0.029373375000000,114,0x01,0x01
0.029447750000000,114,0x1E,0x01
0.029785250000000,115,0x07,0x0F
0.029858125000000,115,0x00,0x01
0.029932625000000,115,0x46,0x01
0.030011500000000,116,0x32,0x01
0.030085875000000,116,0x00,0x01
0.030160375000000,116,0x00,0x01
0.030242625000000,117,0x34,0x01
0.030317125000000,117,0x80,0x01
0.030391500000000,117,0x80,0x01
0.030474250000000,118,0x32,0x01
0.030548750000000,118,0x0A,0x01
0.030623250000000,118,0x00,0x01
0.030703000000000,119,0x32,0x01
0.030777500000000,119,0x00,0x01
0.030851875000000,119,0x20,0x01
0.030931750000000,120,0x32,0x01
0.031006250000000,120,0x20,0x01
0.031080625000000,120,0x20,0x01
0.031160500000000,121,0x32,0x01
0.031234875000000,121,0x20,0x01
0.031309375000000,121,0x60,0x01
0.031389250000000,122,0x32,0x01
0.031463625000000,122,0x20,0x01
0.031538125000000,122,0x00,0x01
0.031619375000000,123,0x07,0x01
0.031693875000000,123,0x01,0x01
0.031768250000000,123,0x46,0x01
0.032098875000000,124,0x07,0x0D
0.032172250000000,124,0x00,0x09
0.032246250000000,124,0x00,0x01
0.032325125000000,125,0x32,0x01
0.032399500000000,125,0x00,0x01
0.032474000000000,125,0x00,0x00
0.032556250000000,126,0x34,0x01
0.032630750000000,126,0x80,0x01
0.032705125000000,126,0x80,0x01
0.032787875000000,127,0x32,0x01
0.032862375000000,127,0x0A,0x01
0.032936750000000,127,0x00,0x01
0.033016625000000,128,0x32,0x01
0.033091125000000,128,0x00,0x01
0.033165500000000,128,0x20,0x01
0.033245375000000,129,0x32,0x00
0.033319750000000,129,0x20,0x01
0.033394250000000,129,0x20,0x01
0.033474125000000,130,0x32,0x01
0.033548500000000,130,0x20,0x01
0.033623000000000,130,0x60,0x01
0.033702750000000,131,0x32,0x01
0.033777250000000,131,0x20,0x01
0.033851625000000,131,0x00,0x01
0.033933000000000,132,0x07,0x00
0.034007375000000,132,0x01,0x01
0.034081875000000,132,0x00,0x01
0.034413375000000,133,0x07,0x0F
0.034486375000000,133,0x00,0x01
0.034560875000000,133,0x28,0x01
0.034639625000000,134,0x32,0x01
0.034714125000000,134,0x00,0x01
0.034788500000000,134,0x00,0x01
0.034870875000000,135,0x34,0x01
0.034945250000000,135,0x80,0x01
0.035019750000000,135,0x80,0x01
0.035102500000000,136,0x32,0x01
0.035176875000000,136,0x0A,0x01
0.035251375000000,136,0x00,0x01
0.035331250000000,137,0x32,0x01
0.035405625000000,137,0x00,0x01
0.035480125000000,137,0x20,0x01
0.035559875000000,138,0x32,0x01
0.035634375000000,138,0x20,0x01
0.035708875000000,138,0x20,0x01
0.035788625000000,139,0x32,0x01
0.035863125000000,139,0x20,0x01
0.035937500000000,139,0x60,0x01
0.036017375000000,140,0x32,0x01
0.036091875000000,140,0x20,0x01
0.036166250000000,140,0x00,0x01
0.036247625000000,141,0x07,0x01
0.036322000000000,141,0x01,0x01
0.036396500000000,141,0x28,0x01
0.036729000000000,142,0x07,0x0F
0.036802000000000,142,0x00,0x01
0.036876375000000,142,0x0A,0x01
0.036955250000000,143,0x32,0x01
0.037029750000000,143,0x00,0x01
0.037104125000000,143,0x00,0x01
0.037186375000000,144,0x34,0x01
0.037260875000000,144,0x80,0x01
0.037335250000000,144,0x80,0x01
0.037418125000000,145,0x32,0x01
0.037492500000000,145,0x0A,0x01
0.037567000000000,145,0x00,0x01
0.037646750000000,146,0x32,0x01
0.037721250000000,146,0x00,0x01
0.037795625000000,146,0x20,0x81
0.037875500000000,147,0x32,0x01
0.037950000000000,147,0x20,0x01
0.038024375000000,147,0x20,0x01
0.038104250000000,148,0x32,0x01
0.038178750000000,148,0x20,0x01
0.038253125000000,148,0x60,0x01
0.038333000000000,149,0x32,0x01
0.038407375000000,149,0x20,0x01
0.038481875000000,149,0x00,0x01
0.038563125000000,150,0x07,0x01
0.038637625000000,150,0x01,0x00
0.038712000000000,150,0x0A,0x01
0.039045500000000,151,0x07,0x0F
0.039118500000000,151,0x00,0x01
0.039193000000000,151,0x32,0x01
0.039271750000000,152,0x32,0x01
0.039346250000000,152,0x00,0x01
0.039420750000000,152,0x00,0x01
0.039503000000000,153,0x34,0x01
0.039577375000000,153,0x80,0x01
0.039651875000000,153,0x80,0x01
0.039734625000000,154,0x32,0x01
0.039809125000000,154,0x0A,0x01
0.039883500000000,154,0x00,0x01
0.039963375000000,155,0x32,0x01
0.040037750000000,155,0x00,0x81
0.040112250000000,155,0x20,0x01
0.040192125000000,156,0x32,0x01
0.040266500000000,156,0x20,0x01
0.040341000000000,156,0x20,0x01
0.040420875000000,157,0x32,0x01
0.040495250000000,157,0x20,0x01
0.040569750000000,157,0x60,0x01
0.040649500000000,158,0x32,0x01
0.040724000000000,158,0x20,0x01
0.040798375000000,158,0x00,0x01
0.040879750000000,159,0x07,0x01
0.040954125000000,159,0x01,0x01
0.041028625000000,159,0x32,0x01
0.041363125000000,160,0x07,0x0F
0.041436125000000,160,0x00,0x01
0.041510500000000,160,0x14,0x01
0.041589375000000,161,0x32,0x01
0.041663750000000,161,0x00,0x01
0.041738250000000,161,0x00,0x01
0.041820500000000,162,0x34,0x01
0.041895000000000,162,0x80,0x01
0.041969375000000,162,0x80,0x01
0.042052125000000,163,0x32,0x81
0.042126625000000,163,0x0A,0x01
0.042201125000000,163,0x00,0x01
0.042280875000000,164,0x32,0x01
0.042355375000000,164,0x00,0x01
0.042429750000000,164,0x20,0x01
0.042509625000000,165,0x32,0x01
0.042584000000000,165,0x20,0x81
0.042658500000000,165,0x20,0x01
0.042738375000000,166,0x32,0x01
0.042812750000000,166,0x20,0x01
0.042887250000000,166,0x60,0x01
0.042967000000000,167,0x32,0x01
0.043041500000000,167,0x20,0x01
0.043116000000000,167,0x00,0x01
0.043197250000000,168,0x07,0x01
0.043271625000000,168,0x01,0x81
0.043346125000000,168,0x14,0x01
0.043681625000000,169,0x07,0x0F
0.043754625000000,169,0x00,0x01
0.043829000000000,169,0x3C,0x01
0.043907875000000,170,0x32,0x01
0.043982250000000,170,0x00,0x01
0.044056750000000,170,0x00,0x01
0.044139000000000,171,0x34,0x01
0.044213500000000,171,0x80,0x01
0.044287875000000,171,0x80,0x01
0.044370625000000,172,0x32,0x01
0.044445125000000,172,0x0A,0x01
0.044519625000000,172,0x00,0x01
0.044599375000000,173,0x32,0x01
0.044673875000000,173,0x00,0x00
0.044748250000000,173,0x20,0x01
0.044828125000000,174,0x32,0x01
0.044902625000000,174,0x20,0x01
0.044977000000000,174,0x20,0x01
0.045056875000000,175,0x32,0x01
0.045131250000000,175,0x20,0x01
0.045205750000000,175,0x60,0x01
0.045285500000000,176,0x32,0x81
0.045360000000000,176,0x20,0x01
0.045434500000000,176,0x00,0x01
0.045515750000000,177,0x07,0x01
0.045590250000000,177,0x01,0x01
0.045664625000000,177,0x3C,0x01
0.046001125000000,178,0x07,0x0D
0.046074500000000,178,0x00,0x01
0.046149000000000,178,0x1E,0x01
0.046227875000000,179,0x32,0x01
0.046302250000000,179,0x00,0x01
0.046376750000000,179,0x00,0x01
0.046459000000000,180,0x34,0x01
0.046533375000000,180,0x80,0x01
0.046607875000000,180,0x80,0x01
0.046690625000000,181,0x32,0x01
0.046765125000000,181,0x0A,0x01
0.046839500000000,181,0x00,0x01
0.046919375000000,182,0x32,0x00
0.046993750000000,182,0x00,0x01
0.047068250000000,182,0x20,0x01
0.047148125000000,183,0x32,0x01
0.047222500000000,183,0x20,0x01
0.047297000000000,183,0x20,0x01
0.047376750000000,184,0x32,0x01
0.047451250000000,184,0x20,0x01
0.047525625000000,184,0x60,0x01
0.047605500000000,185,0x32,0x01
0.047680000000000,185,0x20,0x01
0.047754375000000,185,0x00,0x01
0.047835750000000,186,0x07,0x01
0.047910125000000,186,0x01,0x01
0.047984625000000,186,0x1E,0x01
0.048322000000000,187,0x07,0x0F
0.048395000000000,187,0x00,0x01
0.048469375000000,187,0x46,0x01
0.048548250000000,188,0x32,0x01
0.048622750000000,188,0x00,0x01
0.048697125000000,188,0x00,0x01
0.048779375000000,189,0x34,0x01
0.048853875000000,189,0x80,0x01
0.048928375000000,189,0x80,0x01
0.049011125000000,190,0x32,0x01
0.049085500000000,190,0x0A,0x01
0.049160000000000,190,0x00,0x00
0.049239750000000,191,0x32,0x01
0.049314250000000,191,0x00,0x01
0.049388750000000,191,0x20,0x01
0.049468500000000,192,0x32,0x01
0.049543000000000,192,0x20,0x01
0.049617375000000,192,0x20,0x01
0.049697250000000,193,0x32,0x01
0.049771750000000,193,0x20,0x01
0.049846125000000,193,0x60,0x01
0.049926000000000,194,0x32,0x01
0.050000375000000,194,0x20,0x01
0.050074875000000,194,0x00,0x01
0.050156125000000,195,0x07,0x01
0.050230625000000,195,0x01,0x01
0.050305000000000,195,0x46,0x01
0.050635625000000,196,0x07,0x0D
0.050709125000000,196,0x00,0x09
0.050783000000000,196,0x00,0x01
0.050861875000000,197,0x32,0x01
0.050936375000000,197,0x00,0x01
0.051010750000000,197,0x00,0x01
0.051093000000000,198,0x34,0x81
0.051167500000000,198,0x80,0x01
0.051242000000000,198,0x80,0x01
0.051324750000000,199,0x32,0x00
0.051399125000000,199,0x0A,0x01
0.051473625000000,199,0x00,0x01
0.051553500000000,200,0x32,0x01
0.051627875000000,200,0x00,0x01
0.051702375000000,200,0x20,0x01
0.051782125000000,201,0x32,0x01
0.051856625000000,201,0x20,0x01
0.051931125000000,201,0x20,0x01
0.052010875000000,202,0x32,0x01
0.052085375000000,202,0x20,0x01
0.052159750000000,202,0x60,0x01
0.052239625000000,203,0x32,0x01
0.052314125000000,203,0x20,0x01
0.052388500000000,203,0x00,0x01
0.052469875000000,204,0x07,0x01
0.052544250000000,204,0x01,0x01
0.052618750000000,204,0x00,0x01
0.052950250000000,205,0x07,0x0F
0.053023250000000,205,0x00,0x00
0.053097625000000,205,0x28,0x01
0.053176500000000,206,0x32,0x01
0.053251000000000,206,0x00,0x01
0.053325375000000,206,0x00,0x01
0.053407750000000,207,0x34,0x01
0.053482125000000,207,0x80,0x01
0.053556625000000,207,0x80,0x01
0.053639375000000,208,0x32,0x01
0.053713750000000,208,0x0A,0x01
0.053788250000000,208,0x00,0x01
0.053868125000000,209,0x32,0x01
0.053942500000000,209,0x00,0x01
0.054017000000000,209,0x20,0x01
0.054096750000000,210,0x32,0x01
0.054171250000000,210,0x20,0x01
0.054245625000000,210,0x20,0x01
0.054325500000000,211,0x32,0x01
