Time [s],Packet ID,MOSI,MISO
0.000269750000000,0,0x07,0x0F
0.000342625000000,0,0x00,0x01
0.000417125000000,0,0x28,0x01
0.000495875000000,1,0x32,0x01
0.000570375000000,1,0x00,0x01
0.000644750000000,1,0x00,0x01
0.000727000000000,2,0x34,0x01
0.000801375000000,2,0x80,0x01
0.000875875000000,2,0x80,0x01
0.000958625000000,3,0x32,0x01
0.001033000000000,3,0x0A,0x01
0.001107375000000,3,0x00,0x81
0.001187250000000,4,0x32,0x01
0.001261625000000,4,0x00,0x01
0.001336125000000,4,0x20,0x01
0.001415875000000,5,0x32,0x01
0.001490250000000,5,0x20,0x01
0.001564750000000,5,0x20,0x01
0.001644500000000,6,0x32,0x01
0.001719000000000,6,0x20,0x01
0.001793375000000,6,0x60,0x00
0.001873125000000,7,0x32,0x01
0.001947625000000,7,0x20,0x01
0.002022000000000,7,0x00,0x01
0.002103250000000,8,0x07,0x01
0.002177750000000,8,0x01,0x01
0.002252125000000,8,0x28,0x01
0.002584500000000,9,0x07,0x0F
0.002657500000000,9,0x00,0x01
0.002731875000000,9,0x0A,0x01
0.002810750000000,10,0x32,0x01
0.002885125000000,10,0x00,0x01
0.002959625000000,10,0x00,0x01
0.003041875000000,11,0x34,0x01
0.003116250000000,11,0x80,0x01
0.003190625000000,11,0x80,0x01
0.003273375000000,12,0x32,0x01
0.003347875000000,12,0x0A,0x01
0.003422250000000,12,0x00,0x00
0.003502000000000,13,0x32,0x01
0.003576500000000,13,0x00,0x01
0.003650875000000,13,0x20,0x01
0.003730750000000,14,0x32,0x01
0.003805125000000,14,0x20,0x00
0.003879500000000,14,0x20,0x01
0.003959375000000,15,0x32,0x01
0.004033750000000,15,0x20,0x01
0.004108250000000,15,0x60,0x01
0.004188000000000,16,0x32,0x01
0.004262375000000,16,0x20,0x01
0.004336875000000,16,0x00,0x01
0.004418125000000,17,0x07,0x01
0.004492500000000,17,0x01,0x01
0.004567000000000,17,0x0A,0x01
0.004900375000000,18,0x07,0x0F
0.004973250000000,18,0x00,0x01
0.005047750000000,18,0x32,0x01
0.005126500000000,19,0x32,0x01
0.005201000000000,19,0x00,0x01
0.005275375000000,19,0x00,0x01
0.005357625000000,20,0x34,0x01
0.005432125000000,20,0x80,0x01
0.005506500000000,20,0x80,0x01
0.005589250000000,21,0x32,0x01
0.005663625000000,21,0x0A,0x01
0.005738125000000,21,0x00,0x01
0.005817875000000,22,0x32,0x01
0.005892250000000,22,0x00,0x01
0.005966750000000,22,0x20,0x01
0.006046500000000,23,0x32,0x01
0.006121000000000,23,0x20,0x01
0.006195375000000,23,0x20,0x01
0.006275125000000,24,0x32,0x01
0.006349625000000,24,0x20,0x01
0.006424000000000,24,0x60,0x01
0.006503875000000,25,0x32,0x01
0.006578250000000,25,0x20,0x01
0.006652625000000,25,0x00,0x01
0.006733875000000,26,0x07,0x81
0.006808375000000,26,0x01,0x01
0.006882750000000,26,0x32,0x01
0.007217125000000,27,0x07,0x0F
0.007290125000000,27,0x00,0x01
0.007364500000000,27,0x14,0x01
0.007443375000000,28,0x32,0x01
0.007517750000000,28,0x00,0x01
0.007592250000000,28,0x00,0x01
0.007674500000000,29,0x34,0x01
0.007748875000000,29,0x80,0x01
0.007823250000000,29,0x80,0x01
0.007906000000000,30,0x32,0x01
0.007980375000000,30,0x0A,0x81
0.008054875000000,30,0x00,0x01
0.008134625000000,31,0x32,0x01
0.008209125000000,31,0x00,0x01
0.008283500000000,31,0x20,0x00
0.008363250000000,32,0x32,0x01
0.008437750000000,32,0x20,0x01
0.008512125000000,32,0x20,0x01
0.008592000000000,33,0x32,0x01
0.008666375000000,33,0x20,0x01
0.008740750000000,33,0x60,0x01
0.008820625000000,34,0x32,0x01
0.008895000000000,34,0x20,0x01
0.008969500000000,34,0x00,0x01
0.009050750000000,35,0x07,0x01
0.009125125000000,35,0x01,0x01
0.009199500000000,35,0x14,0x01
0.009534875000000,36,0x07,0x0F
0.009607875000000,36,0x00,0x01
0.009682250000000,36,0x3C,0x01
0.009761125000000,37,0x32,0x01
0.009835500000000,37,0x00,0x01
0.009910000000000,37,0x00,0x01
0.009992250000000,38,0x34,0x01
0.010066625000000,38,0x80,0x00
0.010141000000000,38,0x80,0x01
0.010223750000000,39,0x32,0x01
0.010298250000000,39,0x0A,0x01
0.010372625000000,39,0x00,0x01
0.010452375000000,40,0x32,0x01
0.010526875000000,40,0x00,0x01
0.010601250000000,40,0x20,0x01
0.010681125000000,41,0x32,0x01
0.010755500000000,41,0x20,0x01
0.010829875000000,41,0x20,0x01
0.010909750000000,42,0x32,0x01
0.010984125000000,42,0x20,0x01
0.011058625000000,42,0x60,0x01
0.011138375000000,43,0x32,0x01
0.011212750000000,43,0x20,0x01
0.011287250000000,43,0x00,0x01
0.011368500000000,44,0x07,0x00
0.011442875000000,44,0x01,0x01
0.011517375000000,44,0x3C,0x01
0.011853625000000,45,0x07,0x0F
0.011927125000000,45,0x00,0x01
0.012001500000000,45,0x1E,0x01
0.012080375000000,46,0x32,0x01
0.012154750000000,46,0x00,0x01
0.012229250000000,46,0x00,0x01
0.012311500000000,47,0x34,0x01
0.012385875000000,47,0x80,0x01
0.012460250000000,47,0x80,0x01
0.012543000000000,48,0x32,0x01
0.012617500000000,48,0x0A,0x01
0.012691875000000,48,0x00,0x01
0.012771625000000,49,0x32,0x01
0.012846125000000,49,0x00,0x01
0.012920500000000,49,0x20,0x01
0.013000375000000,50,0x32,0x01
0.013074750000000,50,0x20,0x01
0.013149125000000,50,0x20,0x01
0.013229000000000,51,0x32,0x01
0.013303375000000,51,0x20,0x01
0.013377875000000,51,0x60,0x01
0.013457625000000,52,0x32,0x01
0.013532000000000,52,0x20,0x01
0.013606500000000,52,0x00,0x01
0.013687750000000,53,0x07,0x01
0.013762125000000,53,0x01,0x01
0.013836625000000,53,0x1E,0x01
0.014173875000000,54,0x07,0x0F
0.014246875000000,54,0x00,0x01
0.014321250000000,54,0x46,0x01
0.014400125000000,55,0x32,0x01
0.014474500000000,55,0x00,0x01
0.014549000000000,55,0x00,0x01
0.014631250000000,56,0x34,0x01
0.014705625000000,56,0x80,0x01
0.014780000000000,56,0x80,0x01
0.014862750000000,57,0x32,0x01
0.014937250000000,57,0x0A,0x01
0.015011625000000,57,0x00,0x01
0.015091375000000,58,0x32,0x81
0.015165875000000,58,0x00,0x01
0.015240250000000,58,0x20,0x01
0.015320125000000,59,0x32,0x01
0.015394500000000,59,0x20,0x01
0.015468875000000,59,0x20,0x81
0.015548750000000,60,0x32,0x00
0.015623125000000,60,0x20,0x01
0.015697625000000,60,0x60,0x01
0.015777375000000,61,0x32,0x01
0.015851875000000,61,0x20,0x01
0.015926250000000,61,0x00,0x00
0.016007500000000,62,0x07,0x01
0.016081875000000,62,0x01,0x81
0.016156375000000,62,0x46,0x01
0.016486875000000,63,0x07,0x0D
0.016560250000000,63,0x00,0x09
0.016634250000000,63,0x00,0x01
0.016713000000000,64,0x32,0x01
0.016787500000000,64,0x00,0x01
0.016861875000000,64,0x00,0x01
0.016944125000000,65,0x34,0x01
0.017018500000000,65,0x80,0x01
0.017093000000000,65,0x80,0x01
0.017175750000000,66,0x32,0x01
0.017250125000000,66,0x0A,0x00
0.017324500000000,66,0x00,0x01
0.017404375000000,67,0x32,0x01
0.017478750000000,67,0x00,0x01
0.017553250000000,67,0x20,0x01
0.017633000000000,68,0x32,0x01
0.017707375000000,68,0x20,0x01
0.017781875000000,68,0x20,0x01
0.017861625000000,69,0x32,0x01
0.017936125000000,69,0x20,0x01
0.018010500000000,69,0x60,0x01
0.018090250000000,70,0x32,0x01
0.018164750000000,70,0x20,0x01
0.018239125000000,70,0x00,0x01
0.018320375000000,71,0x07,0x01
0.018394875000000,71,0x01,0x01
0.018469250000000,71,0x00,0x01
0.018800750000000,72,0x07,0x0F
0.018873625000000,72,0x00,0x01
0.018948125000000,72,0x28,0x01
0.019026875000000,73,0x32,0x01
0.019101375000000,73,0x00,0x01
0.019175750000000,73,0x00,0x01
0.019258000000000,74,0x34,0x01
0.019332375000000,74,0x80,0x01
0.019406875000000,74,0x80,0x01
0.019489625000000,75,0x32,0x01
0.019564000000000,75,0x0A,0x01
0.019638375000000,75,0x00,0x01
0.019718250000000,76,0x32,0x01
0.019792625000000,76,0x00,0x01
0.019867125000000,76,0x20,0x01
0.019946875000000,77,0x32,0x01
0.020021250000000,77,0x20,0x01
0.020095750000000,77,0x20,0x01
0.020175500000000,78,0x32,0x01
0.020250000000000,78,0x20,0x01
0.020324375000000,78,0x60,0x01
0.020404125000000,79,0x32,0x81
0.020478625000000,79,0x20,0x01
0.020553000000000,79,0x00,0x01
0.020634250000000,80,0x07,0x81
0.020708750000000,80,0x01,0x01
0.020783125000000,80,0x28,0x01
0.021115625000000,81,0x07,0x0F
0.021188500000000,81,0x00,0x01
0.021263000000000,81,0x0A,0x01
0.021341750000000,82,0x32,0x01
0.021416250000000,82,0x00,0x01
0.021490625000000,82,0x00,0x00
0.021572875000000,83,0x34,0x01
0.021647250000000,83,0x80,0x01
0.021721750000000,83,0x80,0x01
0.021804500000000,84,0x32,0x01
0.021878875000000,84,0x0A,0x01
0.021953250000000,84,0x00,0x01
0.022033125000000,85,0x32,0x01
0.022107500000000,85,0x00,0x01
0.022182000000000,85,0x20,0x01
0.022261750000000,86,0x32,0x01
0.022336125000000,86,0x20,0x81
0.022410625000000,86,0x20,0x01
0.022490375000000,87,0x32,0x01
0.022564875000000,87,0x20,0x01
0.022639250000000,87,0x60,0x01
0.022719125000000,88,0x32,0x01
0.022793500000000,88,0x20,0x01
0.022867875000000,88,0x00,0x01
0.022949250000000,89,0x07,0x01
0.023023625000000,89,0x01,0x00
0.023098000000000,89,0x0A,0x01
0.023431500000000,90,0x07,0x0F
0.023504375000000,90,0x00,0x01
0.023578875000000,90,0x32,0x01
0.023657625000000,91,0x32,0x01
0.023732125000000,91,0x00,0x01
0.023806500000000,91,0x00,0x01
0.023888750000000,92,0x34,0x00
0.023963125000000,92,0x80,0x01
0.024037625000000,92,0x80,0x01
0.024120375000000,93,0x32,0x01
0.024194750000000,93,0x0A,0x01
0.024269125000000,93,0x00,0x81
0.024349000000000,94,0x32,0x00
0.024423375000000,94,0x00,0x01
0.024497875000000,94,0x20,0x01
0.024577625000000,95,0x32,0x01
0.024652125000000,95,0x20,0x01
0.024726500000000,95,0x20,0x00
0.024806250000000,96,0x32,0x01
0.024880750000000,96,0x20,0x01
0.024955125000000,96,0x60,0x01
0.025035000000000,97,0x32,0x01
0.025109375000000,97,0x20,0x01
0.025183750000000,97,0x00,0x01
0.025265125000000,98,0x07,0x01
0.025339500000000,98,0x01,0x01
0.025413875000000,98,0x32,0x01
0.025748250000000,99,0x07,0x0F
0.025821250000000,99,0x00,0x01
0.025895625000000,99,0x14,0x01
0.025974500000000,100,0x32,0x01
0.026048875000000,100,0x00,0x01
0.026123375000000,100,0x00,0x01
0.026205625000000,101,0x34,0x01
0.026280000000000,101,0x80,0x01
0.026354500000000,101,0x80,0x01
0.026437250000000,102,0x32,0x01
0.026511625000000,102,0x0A,0x00
0.026586000000000,102,0x00,0x01
0.026665875000000,103,0x32,0x01
0.026740250000000,103,0x00,0x01
0.026814750000000,103,0x20,0x01
0.026894500000000,104,0x32,0x01
0.026968875000000,104,0x20,0x01
0.027043375000000,104,0x20,0x01
0.027123125000000,105,0x32,0x01
0.027197625000000,105,0x20,0x01
0.027272000000000,105,0x60,0x01
0.027351875000000,106,0x32,0x01
0.027426250000000,106,0x20,0x00
0.027500625000000,106,0x00,0x01
0.027582000000000,107,0x07,0x01
0.027656375000000,107,0x01,0x00
0.027730750000000,107,0x14,0x01
0.028066125000000,108,0x07,0x0F
0.028139125000000,108,0x00,0x01
0.028213500000000,108,0x3C,0x01
0.028292375000000,109,0x32,0x01
0.028366750000000,109,0x00,0x01
0.028441250000000,109,0x00,0x01
0.028523500000000,110,0x34,0x01
0.028597875000000,110,0x80,0x01
0.028672250000000,110,0x80,0x01
0.028755000000000,111,0x32,0x01
0.028829500000000,111,0x0A,0x01
0.028903875000000,111,0x00,0x01
0.028983625000000,112,0x32,0x01
0.029058125000000,112,0x00,0x01
0.029132500000000,112,0x20,0x01
0.029212375000000,113,0x32,0x01
0.029286750000000,113,0x20,0x01
0.029361125000000,113,0x20,0x01
0.029441000000000,114,0x32,0x01
0.029515375000000,114,0x20,0x01
0.029589875000000,114,0x60,0x01
0.029669625000000,115,0x32,0x01
0.029744000000000,115,0x20,0x01
0.029818500000000,115,0x00,0x01
0.029899750000000,116,0x07,0x01
0.029974125000000,116,0x01,0x01
0.030048625000000,116,0x3C,0x01
0.030384875000000,117,0x07,0x0D
0.030458375000000,117,0x00,0x01
0.030532750000000,117,0x1E,0x01
0.030611625000000,118,0x32,0x01
0.030686000000000,118,0x00,0x01
0.030760500000000,118,0x00,0x01
0.030842750000000,119,0x34,0x01
0.030917125000000,119,0x80,0x01
0.030991500000000,119,0x80,0x01
0.031074250000000,120,0x32,0x01
0.031148750000000,120,0x0A,0x01
0.031223125000000,120,0x00,0x01
0.031302875000000,121,0x32,0x81
0.031377375000000,121,0x00,0x01
0.031451750000000,121,0x20,0x01
0.031531625000000,122,0x32,0x01
0.031606000000000,122,0x20,0x01
0.031680375000000,122,0x20,0x01
0.031760250000000,123,0x32,0x01
0.031834625000000,123,0x20,0x01
0.031909125000000,123,0x60,0x01
0.031988875000000,124,0x32,0x01
0.032063250000000,124,0x20,0x81
0.032137750000000,124,0x00,0x01
0.032219000000000,125,0x07,0x01
0.032293375000000,125,0x01,0x01
0.032367875000000,125,0x1E,0x01
0.032705125000000,126,0x07,0x0F
0.032778125000000,126,0x00,0x01
0.032852500000000,126,0x46,0x01
0.032931375000000,127,0x32,0x01
0.033005750000000,127,0x00,0x01
0.033080250000000,127,0x00,0x01
0.033162500000000,128,0x34,0x01
0.033236875000000,128,0x80,0x01
0.033311250000000,128,0x80,0x01
0.033394000000000,129,0x32,0x01
0.033468500000000,129,0x0A,0x01
0.033542875000000,129,0x00,0x01
0.033622625000000,130,0x32,0x01
0.033697125000000,130,0x00,0x01
0.033771500000000,130,0x20,0x01
0.033851375000000,131,0x32,0x01
0.033925750000000,131,0x20,0x01
0.034000125000000,131,0x20,0x01
0.034080000000000,132,0x32,0x01
0.034154375000000,132,0x20,0x01
0.034228750000000,132,0x60,0x01
0.034308625000000,133,0x32,0x01
0.034383000000000,133,0x20,0x01
0.034457500000000,133,0x00,0x01
0.034538750000000,134,0x07,0x01
0.034613125000000,134,0x01,0x01
0.034687500000000,134,0x46,0x01
0.035018000000000,135,0x07,0x0D
0.035091500000000,135,0x00,0x09
0.035165375000000,135,0x00,0x01
0.035244250000000,136,0x32,0x01
0.035318625000000,136,0x00,0x01
0.035393125000000,136,0x00,0x01
0.035475375000000,137,0x34,0x01
0.035549750000000,137,0x80,0x01
0.035624125000000,137,0x80,0x01
0.035706875000000,138,0x32,0x01
0.035781375000000,138,0x0A,0x01
0.035855750000000,138,0x00,0x00
0.035935500000000,139,0x32,0x01
0.036010000000000,139,0x00,0x01
0.036084375000000,139,0x20,0x01
0.036164250000000,140,0x32,0x01
0.036238625000000,140,0x20,0x01
0.036313000000000,140,0x20,0x01
0.036392875000000,141,0x32,0x01
0.036467250000000,141,0x20,0x01
0.036541750000000,141,0x60,0x01
0.036621500000000,142,0x32,0x01
0.036695875000000,142,0x20,0x81
0.036770375000000,142,0x00,0x01
0.036851625000000,143,0x07,0x01
0.036926000000000,143,0x01,0x01
0.037000500000000,143,0x00,0x01
0.037331875000000,144,0x07,0x0F
0.037404875000000,144,0x00,0x01
0.037479250000000,144,0x28,0x01
0.037558125000000,145,0x32,0x01
0.037632500000000,145,0x00,0x01
0.037707000000000,145,0x00,0x01
0.037789250000000,146,0x34,0x01
0.037863625000000,146,0x80,0x01
0.037938000000000,146,0x80,0x01
0.038020750000000,147,0x32,0x01
0.038095250000000,147,0x0A,0x01
0.038169625000000,147,0x00,0x01
0.038249500000000,148,0x32,0x01
0.038323875000000,148,0x00,0x01
0.038398250000000,148,0x20,0x01
0.038478125000000,149,0x32,0x01
0.038552500000000,149,0x20,0x01
0.038626875000000,149,0x20,0x01
0.038706750000000,150,0x32,0x01
0.038781125000000,150,0x20,0x01
0.038855625000000,150,0x60,0x01
0.038935375000000,151,0x32,0x01
0.039009875000000,151,0x20,0x01
0.039084250000000,151,0x00,0x01
0.039165500000000,152,0x07,0x01
0.039239875000000,152,0x01,0x01
0.039314375000000,152,0x28,0x01
0.039646750000000,153,0x07,0x0F
0.039719750000000,153,0x00,0x01
0.039794125000000,153,0x0A,0x01
0.039873000000000,154,0x32,0x01
0.039947375000000,154,0x00,0x01
0.040021750000000,154,0x00,0x81
0.040104125000000,155,0x34,0x01
0.040178500000000,155,0x80,0x01
0.040252875000000,155,0x80,0x01
0.040335625000000,156,0x32,0x01
0.040410125000000,156,0x0A,0x01
0.040484500000000,156,0x00,0x00
0.040564250000000,157,0x32,0x01
0.040638750000000,157,0x00,0x01
0.040713125000000,157,0x20,0x01
0.040793000000000,158,0x32,0x01
0.040867375000000,158,0x20,0x01
0.040941750000000,158,0x20,0x01
0.041021625000000,159,0x32,0x01
0.041096000000000,159,0x20,0x01
0.041170500000000,159,0x60,0x01
0.041250250000000,160,0x32,0x01
0.041324625000000,160,0x20,0x01
0.041399125000000,160,0x00,0x01
0.041480375000000,161,0x07,0x01
0.041554750000000,161,0x01,0x01
0.041629250000000,161,0x0A,0x01
0.041962625000000,162,0x07,0x0F
0.042035500000000,162,0x00,0x01
0.042110000000000,162,0x32,0x01
0.042188750000000,163,0x32,0x01
0.042263250000000,163,0x00,0x01
0.042337625000000,163,0x00,0x01
0.042419875000000,164,0x34,0x01
0.042494375000000,164,0x80,0x01
0.042568750000000,164,0x80,0x01
0.042651500000000,165,0x32,0x01
0.042725875000000,165,0x0A,0x01
0.042800375000000,165,0x00,0x01
0.042880125000000,166,0x32,0x01
0.042954500000000,166,0x00,0x81
0.043029000000000,166,0x20,0x01
0.043108750000000,167,0x32,0x01
0.043183250000000,167,0x20,0x01
0.043257625000000,167,0x20,0x01
0.043337500000000,168,0x32,0x01
0.043411875000000,168,0x20,0x01
0.043486250000000,168,0x60,0x01
0.043566125000000,169,0x32,0x01
0.043640500000000,169,0x20,0x01
0.043714875000000,169,0x00,0x81
0.043796250000000,170,0x07,0x01
0.043870625000000,170,0x01,0x01
0.043945000000000,170,0x32,0x01
0.044279375000000,171,0x07,0x0F
0.044352375000000,171,0x00,0x01
0.044426750000000,171,0x14,0x01
0.044505625000000,172,0x32,0x01
0.044580000000000,172,0x00,0x01
0.044654500000000,172,0x00,0x01
0.044736750000000,173,0x34,0x01
0.044811125000000,173,0x80,0x01
0.044885500000000,173,0x80,0x01
0.044968250000000,174,0x32,0x01
0.045042750000000,174,0x0A,0x01
0.045117125000000,174,0x00,0x01
0.045197000000000,175,0x32,0x01
0.045271375000000,175,0x00,0x01
0.045345750000000,175,0x20,0x01
0.045425625000000,176,0x32,0x01
0.045500000000000,176,0x20,0x01
0.045574500000000,176,0x20,0x01
0.045654250000000,177,0x32,0x01
0.045728625000000,177,0x20,0x01
0.045803125000000,177,0x60,0x01
0.045882875000000,178,0x32,0x01
0.045957375000000,178,0x20,0x01
0.046031750000000,178,0x00,0x01
0.046113000000000,179,0x07,0x01
0.046187375000000,179,0x01,0x01
0.046261875000000,179,0x14,0x01
0.046597250000000,180,0x07,0x0F
0.046670125000000,180,0x00,0x01
0.046744625000000,180,0x3C,0x01
0.046823375000000,181,0x32,0x01
0.046897875000000,181,0x00,0x01
0.046972250000000,181,0x00,0x01
0.047054500000000,182,0x34,0x01
0.047128875000000,182,0x80,0x01
0.047203375000000,182,0x80,0x01
0.047286125000000,183,0x32,0x01
0.047360500000000,183,0x0A,0x01
0.047434875000000,183,0x00,0x81
0.047514750000000,184,0x32,0x00
0.047589125000000,184,0x00,0x01
0.047663625000000,184,0x20,0x01
0.047743375000000,185,0x32,0x01
0.047817875000000,185,0x20,0x01
0.047892250000000,185,0x20,0x00
0.047972000000000,186,0x32,0x01
0.048046500000000,186,0x20,0x01
0.048120875000000,186,0x60,0x01
0.048200750000000,187,0x32,0x01
0.048275125000000,187,0x20,0x00
0.048349500000000,187,0x00,0x01
0.048430875000000,188,0x07,0x01
0.048505250000000,188,0x01,0x01
0.048579625000000,188,0x3C,0x01
0.048916000000000,189,0x07,0x0D
0.048989375000000,189,0x00,0x01
0.049063875000000,189,0x1E,0x01
0.049142625000000,190,0x32,0x01
0.049217125000000,190,0x00,0x01
0.049291500000000,190,0x00,0x01
0.049373750000000,191,0x34,0x01
0.049448250000000,191,0x80,0x01
0.049522625000000,191,0x80,0x01
0.049605375000000,192,0x32,0x01
0.049679750000000,192,0x0A,0x01
0.049754250000000,192,0x00,0x01
0.049834000000000,193,0x32,0x01
0.049908375000000,193,0x00,0x01
0.049982875000000,193,0x20,0x01
0.050062625000000,194,0x32,0x01
0.050137125000000,194,0x20,0x01
0.050211500000000,194,0x20,0x00
0.050291250000000,195,0x32,0x01
0.050365750000000,195,0x20,0x01
0.050440125000000,195,0x60,0x01
0.050520000000000,196,0x32,0x01
0.050594375000000,196,0x20,0x00
0.050668750000000,196,0x00,0x01
0.050750125000000,197,0x07,0x01
0.050824500000000,197,0x01,0x01
0.050898875000000,197,0x1E,0x01
0.051236250000000,198,0x07,0x0F
0.051309125000000,198,0x00,0x01
0.051383625000000,198,0x46,0x01
0.051462375000000,199,0x32,0x01
0.051536875000000,199,0x00,0x01
0.051611250000000,199,0x00,0x01
0.051693500000000,200,0x34,0x01
0.051767875000000,200,0x80,0x01
0.051842375000000,200,0x80,0x01
0.051925125000000,201,0x32,0x01
0.051999500000000,201,0x0A,0x01
0.052074000000000,201,0x00,0x01
0.052153750000000,202,0x32,0x00
0.052228125000000,202,0x00,0x01
0.052302625000000,202,0x20,0x01
0.052382375000000,203,0x32,0x01
0.052456875000000,203,0x20,0x01
0.052531250000000,203,0x20,0x01
0.052611000000000,204,0x32,0x01
0.052685500000000,204,0x20,0x01
0.052759875000000,204,0x60,0x01
0.052839750000000,205,0x32,0x01
0.052914125000000,205,0x20,0x01
0.052988500000000,205,0x00,0x01
0.053069875000000,206,0x07,0x01
0.053144250000000,206,0x01,0x01
0.053218625000000,206,0x46,0x01
0.053549125000000,207,0x07,0x0D
0.053622500000000,207,0x00,0x09
0.053696500000000,207,0x00,0x01
0.053775250000000,208,0x32,0x01
0.053849750000000,208,0x00,0x01
0.053924125000000,208,0x00,0x01
0.054006375000000,209,0x34,0x01
0.054080875000000,209,0x80,0x01
0.054155250000000,209,0x80,0x01
0.054238000000000,210,0x32,0x01
0.054312375000000,210,0x0A,0x01
0.054386875000000,210,0x00,0x01
0.054466625000000,211,0x32,0x01
