Time [s],Packet ID,MOSI,MISO
0.000281750000000,0,0x07,0x0F
0.000354750000000,0,0x00,0x01
0.000429125000000,0,0x14,0x81
0.000508125000000,1,0x32,0x01
0.000582500000000,1,0x00,0x01
0.000657000000000,1,0x00,0x01
0.000739375000000,2,0x34,0x00
0.000813750000000,2,0x80,0x01
0.000888250000000,2,0x80,0x01
0.000971125000000,3,0x32,0x01
0.001045500000000,3,0x0A,0x01
0.001120000000000,3,0x00,0x01
0.001199875000000,4,0x32,0x01
0.001274375000000,4,0x00,0x01
0.001348875000000,4,0x20,0x01
0.001428750000000,5,0x32,0x01
0.001503125000000,5,0x20,0x01
0.001577625000000,5,0x20,0x01
0.001657500000000,6,0x32,0x01
0.001732000000000,6,0x20,0x01
0.001806500000000,6,0x60,0x01
0.001886250000000,7,0x32,0x81
0.001960750000000,7,0x20,0x01
0.002035250000000,7,0x00,0x01
0.002116625000000,8,0x07,0x01
0.002191000000000,8,0x01,0x01
0.002265500000000,8,0x14,0x01
0.002601125000000,9,0x07,0x0F
0.002674125000000,9,0x00,0x01
0.002748625000000,9,0x3C,0x01
0.002827500000000,10,0x32,0x01
0.002902000000000,10,0x00,0x01
0.002976375000000,10,0x00,0x01
0.003058750000000,11,0x34,0x01
0.003133250000000,11,0x80,0x01
0.003207625000000,11,0x80,0x81
0.003290500000000,12,0x32,0x01
0.003365000000000,12,0x0A,0x01
0.003439500000000,12,0x00,0x01
0.003519250000000,13,0x32,0x01
0.003593750000000,13,0x00,0x01
0.003668250000000,13,0x20,0x01
0.003748125000000,14,0x32,0x01
0.003822625000000,14,0x20,0x01
0.003897125000000,14,0x20,0x01
0.003976875000000,15,0x32,0x01
0.004051375000000,15,0x20,0x01
0.004125875000000,15,0x60,0x01
0.004205750000000,16,0x32,0x01
0.004280250000000,16,0x20,0x01
0.004354750000000,16,0x00,0x01
0.004436000000000,17,0x07,0x01
0.004510500000000,17,0x01,0x01
0.004585000000000,17,0x3C,0x01
0.004921500000000,18,0x07,0x0D
0.004995000000000,18,0x00,0x01
0.005069500000000,18,0x1E,0x01
0.005148375000000,19,0x32,0x01
0.005222875000000,19,0x00,0x01
0.005297375000000,19,0x00,0x01
0.005379625000000,20,0x34,0x01
0.005454125000000,20,0x80,0x01
0.005528625000000,20,0x80,0x01
0.005611375000000,21,0x32,0x01
0.005685875000000,21,0x0A,0x01
0.005760375000000,21,0x00,0x01
0.005840250000000,22,0x32,0x01
0.005914750000000,22,0x00,0x01
0.005989125000000,22,0x20,0x01
0.006069000000000,23,0x32,0x01
0.006143500000000,23,0x20,0x01
0.006218000000000,23,0x20,0x01
0.006297875000000,24,0x32,0x01
0.006372375000000,24,0x20,0x00
0.006446750000000,24,0x60,0x01
0.006526625000000,25,0x32,0x01
0.006601125000000,25,0x20,0x01
0.006675625000000,25,0x00,0x01
0.006757000000000,26,0x07,0x01
0.006831375000000,26,0x01,0x01
0.006905875000000,26,0x1E,0x01
0.007243375000000,27,0x07,0x8F
0.007316500000000,27,0x00,0x01
0.007390875000000,27,0x46,0x01
0.007469750000000,28,0x32,0x01
0.007544250000000,28,0x00,0x01
0.007618750000000,28,0x00,0x01
0.007701000000000,29,0x34,0x01
0.007775500000000,29,0x80,0x01
0.007850000000000,29,0x80,0x01
0.007932750000000,30,0x32,0x01
0.008007250000000,30,0x0A,0x01
0.008081750000000,30,0x00,0x01
0.008161625000000,31,0x32,0x01
0.008236125000000,31,0x00,0x01
0.008310625000000,31,0x20,0x01
0.008390375000000,32,0x32,0x01
0.008464875000000,32,0x20,0x01
0.008539375000000,32,0x20,0x01
0.008619250000000,33,0x32,0x01
0.008693750000000,33,0x20,0x01
0.008768250000000,33,0x60,0x01
0.008848000000000,34,0x32,0x01
0.008922500000000,34,0x20,0x01
0.008997000000000,34,0x00,0x01
0.009078375000000,35,0x07,0x01
0.009152875000000,35,0x01,0x01
0.009227250000000,35,0x46,0x01
0.009558000000000,36,0x07,0x0D
0.009631500000000,36,0x00,0x09
0.009705500000000,36,0x00,0x00
0.009784375000000,37,0x32,0x01
0.009858750000000,37,0x00,0x01
0.009933250000000,37,0x00,0x01
0.010015625000000,38,0x34,0x01
0.010090000000000,38,0x80,0x01
0.010164500000000,38,0x80,0x01
0.010247375000000,39,0x32,0x01
0.010321750000000,39,0x0A,0x01
0.010396250000000,39,0x00,0x01
0.010476125000000,40,0x32,0x01
0.010550625000000,40,0x00,0x01
0.010625125000000,40,0x20,0x00
0.010705000000000,41,0x32,0x01
0.010779375000000,41,0x20,0x01
0.010853875000000,41,0x20,0x01
0.010933750000000,42,0x32,0x01
0.011008250000000,42,0x20,0x01
0.011082750000000,42,0x60,0x01
0.011162500000000,43,0x32,0x81
0.011237000000000,43,0x20,0x01
0.011311500000000,43,0x00,0x01
0.011392875000000,44,0x07,0x01
0.011467250000000,44,0x01,0x81
0.011541750000000,44,0x00,0x01
0.011873500000000,45,0x07,0x0F
0.011946500000000,45,0x00,0x01
0.012020875000000,45,0x28,0x01
0.012099750000000,46,0x32,0x01
0.012174250000000,46,0x00,0x01
0.012248750000000,46,0x00,0x01
0.012331000000000,47,0x34,0x81
0.012405500000000,47,0x80,0x01
0.012480000000000,47,0x80,0x01
0.012562750000000,48,0x32,0x81
0.012637250000000,48,0x0A,0x01
0.012711750000000,48,0x00,0x01
0.012791625000000,49,0x32,0x01
0.012866125000000,49,0x00,0x01
0.012940625000000,49,0x20,0x00
0.013020375000000,50,0x32,0x81
0.013094875000000,50,0x20,0x01
0.013169375000000,50,0x20,0x01
0.013249250000000,51,0x32,0x01
0.013323750000000,51,0x20,0x01
0.013398250000000,51,0x60,0x01
0.013478000000000,52,0x32,0x81
0.013552500000000,52,0x20,0x01
0.013627000000000,52,0x00,0x01
0.013708375000000,53,0x07,0x01
0.013782750000000,53,0x01,0x81
0.013857250000000,53,0x28,0x01
0.014189875000000,54,0x07,0x8F
0.014262875000000,54,0x00,0x81
0.014337375000000,54,0x0A,0x01
0.014416250000000,55,0x32,0x01
0.014490750000000,55,0x00,0x01
0.014565250000000,55,0x00,0x01
0.014647500000000,56,0x34,0x01
0.014722000000000,56,0x80,0x01
0.014796500000000,56,0x80,0x01
0.014879250000000,57,0x32,0x01
0.014953750000000,57,0x0A,0x01
0.015028250000000,57,0x00,0x01
0.015108125000000,58,0x32,0x01
0.015182625000000,58,0x00,0x01
0.015257125000000,58,0x20,0x01
0.015336875000000,59,0x32,0x81
0.015411375000000,59,0x20,0x01
0.015485875000000,59,0x20,0x01
0.015565750000000,60,0x32,0x01
0.015640250000000,60,0x20,0x01
0.015714750000000,60,0x60,0x01
0.015794500000000,61,0x32,0x81
0.015869000000000,61,0x20,0x01
0.015943500000000,61,0x00,0x01
0.016024875000000,62,0x07,0x01
0.016099375000000,62,0x01,0x01
0.016173750000000,62,0x0A,0x01
0.016507375000000,63,0x07,0x0F
0.016580375000000,63,0x00,0x01
0.016654875000000,63,0x32,0x01
0.016733750000000,64,0x32,0x01
0.016808250000000,64,0x00,0x01
0.016882750000000,64,0x00,0x01
0.016965000000000,65,0x34,0x01
0.017039500000000,65,0x80,0x01
0.017114000000000,65,0x80,0x01
0.017196750000000,66,0x32,0x01
0.017271250000000,66,0x0A,0x01
0.017345750000000,66,0x00,0x01
0.017425625000000,67,0x32,0x01
0.017500125000000,67,0x00,0x00
0.017574500000000,67,0x20,0x01
0.017654375000000,68,0x32,0x01
0.017728875000000,68,0x20,0x01
0.017803375000000,68,0x20,0x01
0.017883250000000,69,0x32,0x01
0.017957750000000,69,0x20,0x00
0.018032125000000,69,0x60,0x01
0.018112000000000,70,0x32,0x01
0.018186500000000,70,0x20,0x01
0.018261000000000,70,0x00,0x01
0.018342375000000,71,0x07,0x01
0.018416750000000,71,0x01,0x01
0.018491250000000,71,0x32,0x01
0.018825875000000,72,0x07,0x0F
0.018898875000000,72,0x00,0x01
0.018973375000000,72,0x14,0x01
0.019052250000000,73,0x32,0x01
0.019126750000000,73,0x00,0x01
0.019201125000000,73,0x00,0x01
0.019283500000000,74,0x34,0x01
0.019358000000000,74,0x80,0x01
0.019432375000000,74,0x80,0x01
0.019515250000000,75,0x32,0x01
0.019589625000000,75,0x0A,0x81
0.019664125000000,75,0x00,0x01
0.019744000000000,76,0x32,0x01
0.019818500000000,76,0x00,0x01
0.019893000000000,76,0x20,0x01
0.019972875000000,77,0x32,0x01
0.020047250000000,77,0x20,0x01
0.020121750000000,77,0x20,0x01
0.020201625000000,78,0x32,0x01
0.020276125000000,78,0x20,0x01
0.020350625000000,78,0x60,0x01
0.020430500000000,79,0x32,0x01
0.020504875000000,79,0x20,0x01
0.020579375000000,79,0x00,0x01
0.020660750000000,80,0x07,0x01
0.020735250000000,80,0x01,0x01
0.020809625000000,80,0x14,0x01
0.021145250000000,81,0x07,0x0F
0.021218250000000,81,0x00,0x01
0.021292750000000,81,0x3C,0x01
0.021371625000000,82,0x32,0x01
0.021446125000000,82,0x00,0x00
0.021520500000000,82,0x00,0x01
0.021602875000000,83,0x34,0x01
0.021677375000000,83,0x80,0x00
0.021751750000000,83,0x80,0x01
0.021834625000000,84,0x32,0x01
0.021909125000000,84,0x0A,0x00
0.021983500000000,84,0x00,0x01
0.022063375000000,85,0x32,0x01
0.022137875000000,85,0x00,0x01
0.022212375000000,85,0x20,0x01
0.022292250000000,86,0x32,0x01
0.022366750000000,86,0x20,0x01
0.022441125000000,86,0x20,0x81
0.022521000000000,87,0x32,0x01
0.022595500000000,87,0x20,0x01
0.022670000000000,87,0x60,0x01
0.022749875000000,88,0x32,0x01
0.022824375000000,88,0x20,0x01
0.022898875000000,88,0x00,0x01
0.022980125000000,89,0x07,0x01
0.023054625000000,89,0x01,0x01
0.023129125000000,89,0x3C,0x01
0.023465625000000,90,0x07,0x0C
0.023539125000000,90,0x00,0x01
0.023613625000000,90,0x1E,0x01
0.023692500000000,91,0x32,0x01
0.023767000000000,91,0x00,0x01
0.023841500000000,91,0x00,0x01
0.023923750000000,92,0x34,0x01
0.023998250000000,92,0x80,0x01
0.024072750000000,92,0x80,0x01
0.024155500000000,93,0x32,0x01
0.024230000000000,93,0x0A,0x01
0.024304500000000,93,0x00,0x01
0.024384375000000,94,0x32,0x01
0.024458875000000,94,0x00,0x01
0.024533250000000,94,0x20,0x81
0.024613125000000,95,0x32,0x01
0.024687625000000,95,0x20,0x01
0.024762125000000,95,0x20,0x01
0.024842000000000,96,0x32,0x01
0.024916500000000,96,0x20,0x01
0.024990875000000,96,0x60,0x01
0.025070750000000,97,0x32,0x01
0.025145250000000,97,0x20,0x01
0.025219750000000,97,0x00,0x01
0.025301125000000,98,0x07,0x01
0.025375500000000,98,0x01,0x81
0.025450000000000,98,0x1E,0x01
0.025787625000000,99,0x07,0x0F
0.025860625000000,99,0x00,0x01
0.025935125000000,99,0x46,0x01
0.026014000000000,100,0x32,0x01
0.026088375000000,100,0x00,0x01
0.026162875000000,100,0x00,0x01
0.026245250000000,101,0x34,0x01
0.026319750000000,101,0x80,0x00
0.026394125000000,101,0x80,0x01
0.026477000000000,102,0x32,0x01
0.026551500000000,102,0x0A,0x01
0.026625875000000,102,0x00,0x01
0.026705750000000,103,0x32,0x01
0.026780250000000,103,0x00,0x01
0.026854750000000,103,0x20,0x01
0.026934625000000,104,0x32,0x01
0.027009125000000,104,0x20,0x01
0.027083500000000,104,0x20,0x81
0.027163375000000,105,0x32,0x01
0.027237875000000,105,0x20,0x01
0.027312375000000,105,0x60,0x01
0.027392250000000,106,0x32,0x01
0.027466750000000,106,0x20,0x01
0.027541250000000,106,0x00,0x01
0.027622500000000,107,0x07,0x01
0.027697000000000,107,0x01,0x01
0.027771500000000,107,0x46,0x01
0.028102125000000,108,0x07,0x0D
0.028175625000000,108,0x00,0x09
0.028249625000000,108,0x00,0x01
0.028328500000000,109,0x32,0x01
0.028403000000000,109,0x00,0x01
0.028477500000000,109,0x00,0x01
0.028559750000000,110,0x34,0x01
0.028634250000000,110,0x80,0x01
0.028708750000000,110,0x80,0x01
0.028791500000000,111,0x32,0x01
0.028866000000000,111,0x0A,0x01
0.028940500000000,111,0x00,0x01
0.029020375000000,112,0x32,0x01
0.029094875000000,112,0x00,0x00
0.029169250000000,112,0x20,0x01
0.029249125000000,113,0x32,0x01
0.029323625000000,113,0x20,0x01
0.029398125000000,113,0x20,0x01
0.029478000000000,114,0x32,0x01
0.029552500000000,114,0x20,0x01
0.029626875000000,114,0x60,0x81
0.029706750000000,115,0x32,0x01
0.029781250000000,115,0x20,0x01
0.029855750000000,115,0x00,0x01
0.029937125000000,116,0x07,0x01
0.030011500000000,116,0x01,0x81
0.030086000000000,116,0x00,0x01
0.030417750000000,117,0x07,0x0F
0.030490750000000,117,0x00,0x01
0.030565125000000,117,0x28,0x01
0.030644125000000,118,0x32,0x01
0.030718500000000,118,0x00,0x01
0.030793000000000,118,0x00,0x01
0.030875375000000,119,0x34,0x00
0.030949750000000,119,0x80,0x01
0.031024250000000,119,0x80,0x01
0.031107125000000,120,0x32,0x00
0.031181500000000,120,0x0A,0x01
0.031256000000000,120,0x00,0x01
0.031335875000000,121,0x32,0x01
0.031410375000000,121,0x00,0x01
0.031484875000000,121,0x20,0x01
0.031564750000000,122,0x32,0x01
0.031639125000000,122,0x20,0x01
0.031713625000000,122,0x20,0x01
0.031793500000000,123,0x32,0x01
0.031868000000000,123,0x20,0x01
0.031942500000000,123,0x60,0x01
0.032022375000000,124,0x32,0x01
0.032096750000000,124,0x20,0x01
0.032171250000000,124,0x00,0x01
0.032252625000000,125,0x07,0x01
0.032327125000000,125,0x01,0x01
0.032401500000000,125,0x28,0x81
0.032734250000000,126,0x07,0x0F
0.032807250000000,126,0x00,0x01
0.032881750000000,126,0x0A,0x01
0.032960625000000,127,0x32,0x01
0.033035000000000,127,0x00,0x01
0.033109500000000,127,0x00,0x01
0.033191875000000,128,0x34,0x01
0.033266250000000,128,0x80,0x81
0.033340750000000,128,0x80,0x01
0.033423625000000,129,0x32,0x01
0.033498000000000,129,0x0A,0x81
0.033572500000000,129,0x00,0x01
0.033652375000000,130,0x32,0x01
0.033726875000000,130,0x00,0x01
0.033801375000000,130,0x20,0x01
0.033881250000000,131,0x32,0x01
0.033955625000000,131,0x20,0x81
0.034030125000000,131,0x20,0x01
0.034110000000000,132,0x32,0x01
0.034184500000000,132,0x20,0x01
0.034259000000000,132,0x60,0x01
0.034338875000000,133,0x32,0x01
0.034413375000000,133,0x20,0x01
0.034487750000000,133,0x00,0x01
0.034569125000000,134,0x07,0x01
0.034643625000000,134,0x01,0x01
0.034718125000000,134,0x0A,0x01
0.035051750000000,135,0x07,0x0F
0.035124750000000,135,0x00,0x01
0.035199125000000,135,0x32,0x01
0.035278000000000,136,0x32,0x81
0.035352500000000,136,0x00,0x01
0.035427000000000,136,0x00,0x01
0.035509375000000,137,0x34,0x00
0.035583750000000,137,0x80,0x01
0.035658250000000,137,0x80,0x01
0.035741125000000,138,0x32,0x00
0.035815500000000,138,0x0A,0x01
0.035890000000000,138,0x00,0x01
0.035969875000000,139,0x32,0x01
0.036044375000000,139,0x00,0x01
0.036118875000000,139,0x20,0x01
0.036198750000000,140,0x32,0x01
0.036273125000000,140,0x20,0x01
0.036347625000000,140,0x20,0x01
0.036427500000000,141,0x32,0x01
0.036502000000000,141,0x20,0x01
0.036576500000000,141,0x60,0x01
0.036656375000000,142,0x32,0x01
0.036730750000000,142,0x20,0x01
0.036805250000000,142,0x00,0x01
0.036886625000000,143,0x07,0x01
0.036961125000000,143,0x01,0x01
0.037035500000000,143,0x32,0x81
0.037370125000000,144,0x07,0x0F
0.037443125000000,144,0x00,0x01
0.037517625000000,144,0x14,0x01
0.037596500000000,145,0x32,0x01
0.037671000000000,145,0x00,0x01
0.037745500000000,145,0x00,0x01
0.037827750000000,146,0x34,0x01
0.037902250000000,146,0x80,0x01
0.037976750000000,146,0x80,0x01
0.038059500000000,147,0x32,0x01
0.038134000000000,147,0x0A,0x01
0.038208500000000,147,0x00,0x01
0.038288375000000,148,0x32,0x01
0.038362875000000,148,0x00,0x00
0.038437250000000,148,0x20,0x01
0.038517125000000,149,0x32,0x01
0.038591625000000,149,0x20,0x01
0.038666125000000,149,0x20,0x01
0.038746000000000,150,0x32,0x01
0.038820500000000,150,0x20,0x01
0.038894875000000,150,0x60,0x01
0.038974750000000,151,0x32,0x01
0.039049250000000,151,0x20,0x01
0.039123750000000,151,0x00,0x01
0.039205125000000,152,0x07,0x01
0.039279500000000,152,0x01,0x01
0.039354000000000,152,0x14,0x01
0.039689625000000,153,0x07,0x0F
0.039762625000000,153,0x00,0x01
0.039837125000000,153,0x3C,0x01
0.039916000000000,154,0x32,0x01
0.039990375000000,154,0x00,0x81
0.040064875000000,154,0x00,0x01
0.040147250000000,155,0x34,0x01
0.040221750000000,155,0x80,0x01
0.040296125000000,155,0x80,0x01
0.040379000000000,156,0x32,0x01
0.040453500000000,156,0x0A,0x01
0.040527875000000,156,0x00,0x01
0.040607750000000,157,0x32,0x01
0.040682250000000,157,0x00,0x01
0.040756750000000,157,0x20,0x01
0.040836625000000,158,0x32,0x01
0.040911000000000,158,0x20,0x01
0.040985500000000,158,0x20,0x01
0.041065375000000,159,0x32,0x01
0.041139875000000,159,0x20,0x01
0.041214375000000,159,0x60,0x01
0.041294250000000,160,0x32,0x01
0.041368750000000,160,0x20,0x01
0.041443125000000,160,0x00,0x01
0.041524500000000,161,0x07,0x01
0.041599000000000,161,0x01,0x01
0.041673500000000,161,0x3C,0x01
0.042010000000000,162,0x07,0x0D
0.042083500000000,162,0x00,0x01
0.042158000000000,162,0x1E,0x01
0.042236875000000,163,0x32,0x01
0.042311375000000,163,0x00,0x01
0.042385750000000,163,0x00,0x81
0.042468125000000,164,0x34,0x01
0.042542625000000,164,0x80,0x01
0.042617125000000,164,0x80,0x00
0.042699875000000,165,0x32,0x01
0.042774375000000,165,0x0A,0x01
0.042848875000000,165,0x00,0x00
0.042928625000000,166,0x32,0x81
0.043003125000000,166,0x00,0x01
0.043077625000000,166,0x20,0x01
0.043157500000000,167,0x32,0x01
0.043232000000000,167,0x20,0x01
0.043306500000000,167,0x20,0x01
0.043386375000000,168,0x32,0x01
0.043460750000000,168,0x20,0x01
0.043535250000000,168,0x60,0x01
0.043615125000000,169,0x32,0x01
0.043689625000000,169,0x20,0x01
0.043764125000000,169,0x00,0x01
0.043845375000000,170,0x07,0x01
0.043919875000000,170,0x01,0x01
0.043994375000000,170,0x1E,0x01
0.044331875000000,171,0x07,0x0F
0.044404875000000,171,0x00,0x01
0.044479375000000,171,0x46,0x01
0.044558250000000,172,0x32,0x01
0.044632750000000,172,0x00,0x01
0.044707250000000,172,0x00,0x01
0.044789500000000,173,0x34,0x01
0.044864000000000,173,0x80,0x01
0.044938500000000,173,0x80,0x01
0.045021250000000,174,0x32,0x01
0.045095750000000,174,0x0A,0x01
0.045170250000000,174,0x00,0x01
0.045250125000000,175,0x32,0x01
0.045324625000000,175,0x00,0x01
0.045399000000000,175,0x20,0x01
0.045478875000000,176,0x32,0x01
0.045553375000000,176,0x20,0x01
0.045627875000000,176,0x20,0x01
0.045707750000000,177,0x32,0x01
0.045782250000000,177,0x20,0x01
0.045856625000000,177,0x60,0x81
0.045936500000000,178,0x32,0x01
0.046011000000000,178,0x20,0x01
0.046085500000000,178,0x00,0x01
0.046166875000000,179,0x07,0x01
0.046241250000000,179,0x01,0x01
0.046315750000000,179,0x46,0x01
0.046646500000000,180,0x07,0x0D
0.046720000000000,180,0x00,0x09
0.046794000000000,180,0x00,0x00
0.046872875000000,181,0x32,0x01
0.046947250000000,181,0x00,0x01
0.047021750000000,181,0x00,0x01
0.047104125000000,182,0x34,0x01
0.047178500000000,182,0x80,0x81
0.047253000000000,182,0x80,0x01
0.047335875000000,183,0x32,0x01
0.047410375000000,183,0x0A,0x01
0.047484750000000,183,0x00,0x01
0.047564625000000,184,0x32,0x01
0.047639125000000,184,0x00,0x01
0.047713625000000,184,0x20,0x01
0.047793500000000,185,0x32,0x01
0.047868000000000,185,0x20,0x01
0.047942375000000,185,0x20,0x01
0.048022250000000,186,0x32,0x01
0.048096750000000,186,0x20,0x01
0.048171250000000,186,0x60,0x01
0.048251125000000,187,0x32,0x01
0.048325625000000,187,0x20,0x01
0.048400000000000,187,0x00,0x01
0.048481375000000,188,0x07,0x01
0.048555875000000,188,0x01,0x01
0.048630375000000,188,0x00,0x01
0.048962000000000,189,0x07,0x0F
0.049035000000000,189,0x00,0x01
0.049109500000000,189,0x28,0x01
0.049188375000000,190,0x32,0x01
0.049262875000000,190,0x00,0x01
0.049337375000000,190,0x00,0x00
0.049419625000000,191,0x34,0x01
0.049494125000000,191,0x80,0x01
0.049568625000000,191,0x80,0x01
0.049651375000000,192,0x32,0x01
0.049725875000000,192,0x0A,0x01
0.049800375000000,192,0x00,0x01
0.049880250000000,193,0x32,0x01
0.049954625000000,193,0x00,0x01
0.050029125000000,193,0x20,0x01
0.050109000000000,194,0x32,0x01
0.050183500000000,194,0x20,0x01
0.050258000000000,194,0x20,0x01
0.050337875000000,195,0x32,0x01
0.050412250000000,195,0x20,0x01
0.050486750000000,195,0x60,0x01
0.050566625000000,196,0x32,0x01
0.050641125000000,196,0x20,0x01
0.050715625000000,196,0x00,0x01
0.050796875000000,197,0x07,0x01
0.050871375000000,197,0x01,0x01
0.050945875000000,197,0x28,0x01
0.051278500000000,198,0x07,0x0F
0.051351500000000,198,0x00,0x01
0.051426000000000,198,0x0A,0x01
0.051504875000000,199,0x32,0x01
0.051579375000000,199,0x00,0x01
0.051653875000000,199,0x00,0x00
0.051736125000000,200,0x34,0x01
0.051810625000000,200,0x80,0x01
0.051885125000000,200,0x80,0x01
0.051967875000000,201,0x32,0x01
0.052042375000000,201,0x0A,0x01
0.052116875000000,201,0x00,0x01
0.052196750000000,202,0x32,0x01
0.052271125000000,202,0x00,0x01
0.052345625000000,202,0x20,0x01
0.052425500000000,203,0x32,0x01
0.052500000000000,203,0x20,0x01
0.052574500000000,203,0x20,0x01
0.052654375000000,204,0x32,0x01
0.052728750000000,204,0x20,0x01
0.052803250000000,204,0x60,0x01
0.052883125000000,205,0x32,0x01
0.052957625000000,205,0x20,0x01
0.053032125000000,205,0x00,0x00
0.053113375000000,206,0x07,0x01
0.053187875000000,206,0x01,0x01
0.053262375000000,206,0x0A,0x01
0.053596000000000,207,0x07,0x0F
0.053669000000000,207,0x00,0x01
0.053743500000000,207,0x32,0x01
0.053822375000000,208,0x32,0x01
0.053896875000000,208,0x00,0x01
0.053971250000000,208,0x00,0x01
0.054053625000000,209,0x34,0x01
0.054128125000000,209,0x80,0x00
0.054202500000000,209,0x80,0x01
0.054285375000000,210,0x32,0x01
0.054359875000000,210,0x0A,0x00
0.054434250000000,210,0x00,0x01
0.054514125000000,211,0x32,0x01
0.054588625000000,211,0x00,0x01
0.054663125000000,211,0x20,0x01
0.054743000000000,212,0x32,0x01
0.054817500000000,212,0x20,0x01
0.054891875000000,212,0x20,0x01
0.054971750000000,213,0x32,0x01
0.055046250000000,213,0x20,0x01
0.055120750000000,213,0x60,0x01
0.055200625000000,214,0x32,0x01
0.055275125000000,214,0x20,0x01
0.055349500000000,214,0x00,0x01
0.055430875000000,215,0x07,0x01
0.055505375000000,215,0x01,0x01
0.055579875000000,215,0x32,0x01
0.055914375000000,216,0x07,0x0F
0.055987375000000,216,0x00,0x01
0.056061875000000,216,0x14,0x01
0.056140750000000,217,0x32,0x01
0.056215250000000,217,0x00,0x01
0.056289750000000,217,0x00,0x01
0.056372000000000,218,0x34,0x01
0.056446500000000,218,0x80,0x01
0.056521000000000,218,0x80,0x01
0.056603750000000,219,0x32,0x01
0.056678250000000,219,0x0A,0x01
0.056752750000000,219,0x00,0x01
0.056832625000000,220,0x32,0x01
0.056907125000000,220,0x00,0x01
0.056981500000000,220,0x20,0x81
0.057061375000000,221,0x32,0x01
0.057135875000000,221,0x20,0x01
0.057210375000000,221,0x20,0x01
0.057290250000000,222,0x32,0x01
0.057364750000000,222,0x20,0x01
0.057439125000000,222,0x60,0x01
0.057519000000000,223,0x32,0x01
0.057593500000000,223,0x20,0x01
0.057668000000000,223,0x00,0x01
0.057749375000000,224,0x07,0x01
0.057823750000000,224,0x01,0x01
0.057898250000000,224,0x14,0x01
0.058233875000000,225,0x07,0x0F
0.058306875000000,225,0x00,0x01
0.058381375000000,225,0x3C,0x01
0.058460250000000,226,0x32,0x01
0.058534750000000,226,0x00,0x00
0.058609125000000,226,0x00,0x01
0.058691500000000,227,0x34,0x01
0.058766000000000,227,0x80,0x01
0.058840375000000,227,0x80,0x01
0.058923250000000,228,0x32,0x01
0.058997750000000,228,0x0A,0x00
0.059072125000000,228,0x00,0x01
0.059152000000000,229,0x32,0x01
0.059226500000000,229,0x00,0x01
0.059301000000000,229,0x20,0x01
0.059380875000000,230,0x32,0x01
0.059455375000000,230,0x20,0x01
0.059529750000000,230,0x20,0x01
0.059609625000000,231,0x32,0x01
0.059684125000000,231,0x20,0x01
0.059758625000000,231,0x60,0x01
0.059838500000000,232,0x32,0x01
0.059913000000000,232,0x20,0x01
0.059987375000000,232,0x00,0x01
0.060068750000000,233,0x07,0x01
0.060143250000000,233,0x01,0x01
0.060217750000000,233,0x3C,0x01
0.060554250000000,234,0x07,0x0D
0.060627750000000,234,0x00,0x01
0.060702250000000,234,0x1E,0x01
0.060781125000000,235,0x32,0x01
0.060855625000000,235,0x00,0x01
0.060930000000000,235,0x00,0x01
0.061012375000000,236,0x34,0x01
0.061086875000000,236,0x80,0x01
0.061161250000000,236,0x80,0x01
0.061244125000000,237,0x32,0x01
0.061318625000000,237,0x0A,0x00
0.061393000000000,237,0x00,0x01
0.061472875000000,238,0x32,0x01
0.061547375000000,238,0x00,0x01
0.061621875000000,238,0x20,0x01
0.061701750000000,239,0x32,0x01
0.061776250000000,239,0x20,0x00
0.061850625000000,239,0x20,0x01
0.061930500000000,240,0x32,0x01
0.062005000000000,240,0x20,0x01
0.062079500000000,240,0x60,0x01
0.062159375000000,241,0x32,0x01
0.062233875000000,241,0x20,0x00
0.062308250000000,241,0x00,0x01
0.062389625000000,242,0x07,0x01
0.062464125000000,242,0x01,0x01
0.062538625000000,242,0x1E,0x01
0.062876125000000,243,0x07,0x0F
0.062949125000000,243,0x00,0x01
0.063023625000000,243,0x46,0x01
0.063102500000000,244,0x32,0x01
0.063176875000000,244,0x00,0x81
0.063251375000000,244,0x00,0x01
0.063333750000000,245,0x34,0x01
0.063408250000000,245,0x80,0x01
0.063482625000000,245,0x80,0x01
0.063565500000000,246,0x32,0x01
0.063640000000000,246,0x0A,0x01
0.063714375000000,246,0x00,0x01
0.063794250000000,247,0x32,0x01
0.063868750000000,247,0x00,0x01
0.063943250000000,247,0x20,0x01
0.064023125000000,248,0x32,0x01
0.064097500000000,248,0x20,0x01
0.064172000000000,248,0x20,0x01
0.064251875000000,249,0x32,0x01
0.064326375000000,249,0x20,0x01
0.064400875000000,249,0x60,0x01
0.064480750000000,250,0x32,0x01
0.064555125000000,250,0x20,0x01
0.064629625000000,250,0x00,0x01
0.064711000000000,251,0x07,0x01
0.064785500000000,251,0x01,0x01
0.064859875000000,251,0x46,0x01
0.065190625000000,252,0x07,0x0D
0.065264125000000,252,0x00,0x09
0.065338125000000,252,0x00,0x01
0.065417000000000,253,0x32,0x01
0.065491500000000,253,0x00,0x00
0.065565875000000,253,0x00,0x01
0.065648250000000,254,0x34,0x01
0.065722750000000,254,0x80,0x01
0.065797125000000,254,0x80,0x01
0.065880000000000,255,0x32,0x01
0.065954500000000,255,0x0A,0x01
0.066028875000000,255,0x00,0x01
0.066108750000000,256,0x32,0x01
0.066183250000000,256,0x00,0x01
0.066257750000000,256,0x20,0x01
0.066337625000000,257,0x32,0x01
0.066412125000000,257,0x20,0x01
0.066486500000000,257,0x20,0x01
0.066566375000000,258,0x32,0x01
0.066640875000000,258,0x20,0x01
0.066715375000000,258,0x60,0x01
0.066795250000000,259,0x32,0x01
0.066869750000000,259,0x20,0x01
0.066944125000000,259,0x00,0x81
0.067025500000000,260,0x07,0x01
0.067100000000000,260,0x01,0x01
0.067174500000000,260,0x00,0x01
0.067506125000000,261,0x07,0x0F
0.067579125000000,261,0x00,0x01
0.067653625000000,261,0x28,0x01
0.067732500000000,262,0x32,0x01
0.067807000000000,262,0x00,0x01
0.067881500000000,262,0x00,0x00
0.067963750000000,263,0x34,0x01
0.068038250000000,263,0x80,0x01
0.068112750000000,263,0x80,0x01
0.068195500000000,264,0x32,0x01
0.068270000000000,264,0x0A,0x01
0.068344500000000,264,0x00,0x01
0.068424375000000,265,0x32,0x00
0.068498750000000,265,0x00,0x01
0.068573250000000,265,0x20,0x01
0.068653125000000,266,0x32,0x01
0.068727625000000,266,0x20,0x01
0.068802125000000,266,0x20,0x01
0.068882000000000,267,0x32,0x00
0.068956375000000,267,0x20,0x01
0.069030875000000,267,0x60,0x01
0.069110750000000,268,0x32,0x01
0.069185250000000,268,0x20,0x01
0.069259750000000,268,0x00,0x01
0.069341000000000,269,0x07,0x01
0.069415500000000,269,0x01,0x01
0.069490000000000,269,0x28,0x01
0.069822625000000,270,0x07,0x0F
0.069895625000000,270,0x00,0x01
0.069970125000000,270,0x0A,0x01
0.070049000000000,271,0x32,0x01
0.070123500000000,271,0x00,0x01
0.070198000000000,271,0x00,0x01
0.070280250000000,272,0x34,0x01
0.070354750000000,272,0x80,0x01
0.070429250000000,272,0x80,0x00
0.070512000000000,273,0x32,0x01
0.070586500000000,273,0x0A,0x01
0.070661000000000,273,0x00,0x01
0.070740875000000,274,0x32,0x01
0.070815250000000,274,0x00,0x01
0.070889750000000,274,0x20,0x01
0.070969625000000,275,0x32,0x01
0.071044125000000,275,0x20,0x01
0.071118625000000,275,0x20,0x01
0.071198500000000,276,0x32,0x00
0.071272875000000,276,0x20,0x01
0.071347375000000,276,0x60,0x01
0.071427250000000,277,0x32,0x01
0.071501750000000,277,0x20,0x01
0.071576250000000,277,0x00,0x01
0.071657500000000,278,0x07,0x01
0.071732000000000,278,0x01,0x01
0.071806500000000,278,0x0A,0x01
0.072140125000000,279,0x07,0x0F
0.072213125000000,279,0x00,0x01
0.072287625000000,279,0x32,0x01
0.072366500000000,280,0x32,0x01
0.072441000000000,280,0x00,0x01
0.072515500000000,280,0x00,0x01
0.072597750000000,281,0x34,0x01
0.072672250000000,281,0x80,0x01
0.072746750000000,281,0x80,0x00
0.072829500000000,282,0x32,0x01
0.072904000000000,282,0x0A,0x01
0.072978500000000,282,0x00,0x01
0.073058375000000,283,0x32,0x00
0.073132750000000,283,0x00,0x01
0.073207250000000,283,0x20,0x01
0.073287125000000,284,0x32,0x01
0.073361625000000,284,0x20,0x01
0.073436125000000,284,0x20,0x01
0.073516000000000,285,0x32,0x01
0.073590375000000,285,0x20,0x01
0.073664875000000,285,0x60,0x01
0.073744750000000,286,0x32,0x01
0.073819250000000,286,0x20,0x01
0.073893750000000,286,0x00,0x01
0.073975000000000,287,0x07,0x01
0.074049500000000,287,0x01,0x01
0.074124000000000,287,0x32,0x01
0.074458625000000,288,0x07,0x0F
0.074531625000000,288,0x00,0x01
0.074606125000000,288,0x14,0x01
0.074685000000000,289,0x32,0x01
0.074759500000000,289,0x00,0x01
0.074833875000000,289,0x00,0x81
0.074916250000000,290,0x34,0x01
0.074990750000000,290,0x80,0x01
0.075065250000000,290,0x80,0x01
0.075148000000000,291,0x32,0x01
0.075222500000000,291,0x0A,0x01
0.075297000000000,291,0x00,0x01
0.075376875000000,292,0x32,0x01
0.075451250000000,292,0x00,0x01
0.075525750000000,292,0x20,0x01
0.075605625000000,293,0x32,0x01
0.075680125000000,293,0x20,0x01
0.075754625000000,293,0x20,0x01
0.075834500000000,294,0x32,0x01
0.075908875000000,294,0x20,0x01
0.075983375000000,294,0x60,0x01
0.076063250000000,295,0x32,0x01
0.076137750000000,295,0x20,0x01
0.076212250000000,295,0x00,0x01
0.076293500000000,296,0x07,0x01
0.076368000000000,296,0x01,0x01
0.076442500000000,296,0x14,0x01
0.076778125000000,297,0x07,0x0F
0.076851125000000,297,0x00,0x01
0.076925500000000,297,0x3C,0x81
0.077004500000000,298,0x32,0x01
0.077078875000000,298,0x00,0x01
0.077153375000000,298,0x00,0x01
0.077235750000000,299,0x34,0x00
0.077310125000000,299,0x80,0x01
0.077384625000000,299,0x80,0x01
0.077467500000000,300,0x32,0x00
0.077541875000000,300,0x0A,0x01
0.077616375000000,300,0x00,0x01
0.077696250000000,301,0x32,0x01
0.077770750000000,301,0x00,0x01
0.077845250000000,301,0x20,0x01
0.077925125000000,302,0x32,0x01
0.077999500000000,302,0x20,0x01
0.078074000000000,302,0x20,0x01
0.078153875000000,303,0x32,0x01
0.078228375000000,303,0x20,0x01
0.078302875000000,303,0x60,0x01
0.078382750000000,304,0x32,0x01
0.078457125000000,304,0x20,0x01
0.078531625000000,304,0x00,0x01
0.078613000000000,305,0x07,0x01
0.078687500000000,305,0x01,0x00
0.078761875000000,305,0x3C,0x01
0.079098500000000,306,0x07,0x0D
0.079172000000000,306,0x00,0x01
0.079246500000000,306,0x1E,0x01
0.079325375000000,307,0x32,0x01
0.079399875000000,307,0x00,0x00
0.079474250000000,307,0x00,0x01
0.079556625000000,308,0x34,0x01
0.079631125000000,308,0x80,0x01
0.079705500000000,308,0x80,0x81
0.079788375000000,309,0x32,0x01
0.079862875000000,309,0x0A,0x01
0.079937250000000,309,0x00,0x81
0.080017125000000,310,0x32,0x01
0.080091625000000,310,0x00,0x01
0.080166125000000,310,0x20,0x01
0.080246000000000,311,0x32,0x01
0.080320500000000,311,0x20,0x01
0.080395000000000,311,0x20,0x01
0.080474750000000,312,0x32,0x01
0.080549250000000,312,0x20,0x01
0.080623750000000,312,0x60,0x01
0.080703625000000,313,0x32,0x01
0.080778125000000,313,0x20,0x01
0.080852500000000,313,0x00,0x81
0.080933875000000,314,0x07,0x01
0.081008375000000,314,0x01,0x01
0.081082875000000,314,0x1E,0x01
0.081420375000000,315,0x07,0x0F
0.081493375000000,315,0x00,0x01
0.081567875000000,315,0x46,0x01
0.081646750000000,316,0x32,0x01
0.081721250000000,316,0x00,0x01
0.081795750000000,316,0x00,0x00
0.081878000000000,317,0x34,0x01
0.081952500000000,317,0x80,0x01
0.082027000000000,317,0x80,0x01
0.082109750000000,318,0x32,0x01
0.082184250000000,318,0x0A,0x01
0.082258750000000,318,0x00,0x01
0.082338625000000,319,0x32,0x01
0.082413000000000,319,0x00,0x01
0.082487500000000,319,0x20,0x01
0.082567375000000,320,0x32,0x01
0.082641875000000,320,0x20,0x01
0.082716375000000,320,0x20,0x01
0.082796250000000,321,0x32,0x01
0.082870625000000,321,0x20,0x81
0.082945125000000,321,0x60,0x01
0.083025000000000,322,0x32,0x01
0.083099500000000,322,0x20,0x01
0.083174000000000,322,0x00,0x01
0.083255250000000,323,0x07,0x81
0.083329750000000,323,0x01,0x01
0.083404250000000,323,0x46,0x01
0.083735000000000,324,0x07,0x0D
0.083808500000000,324,0x00,0x08
0.083882375000000,324,0x00,0x01
0.083961250000000,325,0x32,0x01
0.084035750000000,325,0x00,0x01
0.084110250000000,325,0x00,0x01
0.084192625000000,326,0x34,0x01
0.084267000000000,326,0x80,0x01
0.084341500000000,326,0x80,0x01
0.084424375000000,327,0x32,0x00
0.084498750000000,327,0x0A,0x01
0.084573250000000,327,0x00,0x01
0.084653125000000,328,0x32,0x01
0.084727625000000,328,0x00,0x01
0.084802125000000,328,0x20,0x01
0.084882000000000,329,0x32,0x01
0.084956375000000,329,0x20,0x81
0.085030875000000,329,0x20,0x01
0.085110750000000,330,0x32,0x01
0.085185250000000,330,0x20,0x01
0.085259750000000,330,0x60,0x01
0.085339625000000,331,0x32,0x01
0.085414125000000,331,0x20,0x01
0.085488500000000,331,0x00,0x01
0.085569875000000,332,0x07,0x01
0.085644375000000,332,0x01,0x01
0.085718875000000,332,0x00,0x00
0.086050500000000,333,0x07,0x0F
0.086123500000000,333,0x00,0x01
0.086198000000000,333,0x28,0x01
0.086276875000000,334,0x32,0x01
0.086351375000000,334,0x00,0x01
0.086425875000000,334,0x00,0x01
0.086508125000000,335,0x34,0x01
0.086582625000000,335,0x80,0x01
0.086657125000000,335,0x80,0x01
0.086739875000000,336,0x32,0x01
0.086814375000000,336,0x0A,0x01
0.086888875000000,336,0x00,0x01
0.086968750000000,337,0x32,0x01
0.087043125000000,337,0x00,0x81
0.087117625000000,337,0x20,0x01
0.087197500000000,338,0x32,0x01
0.087272000000000,338,0x20,0x01
0.087346500000000,338,0x20,0x01
0.087426375000000,339,0x32,0x01
0.087500875000000,339,0x20,0x01
0.087575250000000,339,0x60,0x01
0.087655125000000,340,0x32,0x01
0.087729625000000,340,0x20,0x01
0.087804125000000,340,0x00,0x01
0.087885500000000,341,0x07,0x00
0.087959875000000,341,0x01,0x01
0.088034375000000,341,0x28,0x01
0.088367000000000,342,0x07,0x8F
0.088440125000000,342,0x00,0x01
0.088514500000000,342,0x0A,0x01
0.088593375000000,343,0x32,0x01
0.088667875000000,343,0x00,0x01
0.088742375000000,343,0x00,0x01
0.088824750000000,344,0x34,0x01
0.088899125000000,344,0x80,0x01
0.088973625000000,344,0x80,0x01
0.089056500000000,345,0x32,0x01
0.089130875000000,345,0x0A,0x01
0.089205375000000,345,0x00,0x01
0.089285250000000,346,0x32,0x01
0.089359750000000,346,0x00,0x01
0.089434250000000,346,0x20,0x01
0.089514125000000,347,0x32,0x01
0.089588500000000,347,0x20,0x01
0.089663000000000,347,0x20,0x01
0.089742875000000,348,0x32,0x01
0.089817375000000,348,0x20,0x01
0.089891875000000,348,0x60,0x01
0.089971750000000,349,0x32,0x01
0.090046250000000,349,0x20,0x01
0.090120625000000,349,0x00,0x01
0.090202000000000,350,0x07,0x01
0.090276500000000,350,0x01,0x01
0.090351000000000,350,0x0A,0x00
0.090684625000000,351,0x07,0x0F
0.090757625000000,351,0x00,0x01
0.090832125000000,351,0x32,0x01
0.090911000000000,352,0x32,0x01
0.090985375000000,352,0x00,0x01
0.091059875000000,352,0x00,0x01
0.091142250000000,353,0x34,0x01
0.091216750000000,353,0x80,0x01
0.091291125000000,353,0x80,0x01
0.091374000000000,354,0x32,0x01
0.091448500000000,354,0x0A,0x01
0.091522875000000,354,0x00,0x01
0.091602750000000,355,0x32,0x01
0.091677250000000,355,0x00,0x01
0.091751750000000,355,0x20,0x01
0.091831625000000,356,0x32,0x01
0.091906125000000,356,0x20,0x01
0.091980625000000,356,0x20,0x00
0.092060375000000,357,0x32,0x81
0.092134875000000,357,0x20,0x01
0.092209375000000,357,0x60,0x01
0.092289250000000,358,0x32,0x01
0.092363750000000,358,0x20,0x01
0.092438250000000,358,0x00,0x01
0.092519500000000,359,0x07,0x01
0.092594000000000,359,0x01,0x01
0.092668500000000,359,0x32,0x01
0.093003125000000,360,0x07,0x0F
0.093076125000000,360,0x00,0x01
0.093150625000000,360,0x14,0x00
0.093229500000000,361,0x32,0x01
0.093303875000000,361,0x00,0x81
0.093378375000000,361,0x00,0x01
0.093460750000000,362,0x34,0x01
0.093535250000000,362,0x80,0x01
0.093609625000000,362,0x80,0x01
0.093692500000000,363,0x32,0x01
0.093767000000000,363,0x0A,0x01
0.093841375000000,363,0x00,0x01
0.093921250000000,364,0x32,0x01
0.093995750000000,364,0x00,0x01
0.094070250000000,364,0x20,0x01
0.094150125000000,365,0x32,0x01
0.094224625000000,365,0x20,0x01
0.094299000000000,365,0x20,0x01
0.094378875000000,366,0x32,0x01
0.094453375000000,366,0x20,0x01
0.094527875000000,366,0x60,0x01
0.094607750000000,367,0x32,0x01
0.094682250000000,367,0x20,0x01
0.094756625000000,367,0x00,0x81
0.094838000000000,368,0x07,0x01
0.094912500000000,368,0x01,0x01
0.094987000000000,368,0x14,0x01
0.095322500000000,369,0x07,0x0F
0.095395500000000,369,0x00,0x81
0.095470000000000,369,0x3C,0x01
0.095548875000000,370,0x32,0x01
0.095623375000000,370,0x00,0x01
0.095697875000000,370,0x00,0x01
0.095780125000000,371,0x34,0x01
0.095854625000000,371,0x80,0x01
0.095929125000000,371,0x80,0x01
0.096011875000000,372,0x32,0x01
0.096086375000000,372,0x0A,0x01
0.096160875000000,372,0x00,0x01
0.096240750000000,373,0x32,0x01
0.096315250000000,373,0x00,0x01
0.096389750000000,373,0x20,0x01
0.096469500000000,374,0x32,0x01
0.096544000000000,374,0x20,0x01
0.096618500000000,374,0x20,0x01
0.096698375000000,375,0x32,0x01
0.096772875000000,375,0x20,0x01
0.096847375000000,375,0x60,0x01
0.096927125000000,376,0x32,0x01
0.097001625000000,376,0x20,0x01
0.097076125000000,376,0x00,0x01
0.097157500000000,377,0x07,0x01
0.097231875000000,377,0x01,0x01
0.097306375000000,377,0x3C,0x01
0.097643000000000,378,0x07,0x0D
0.097716500000000,378,0x00,0x01
0.097791000000000,378,0x1E,0x01
0.097869875000000,379,0x32,0x00
0.097944250000000,379,0x00,0x01
0.098018750000000,379,0x00,0x01
0.098101125000000,380,0x34,0x01
0.098175500000000,380,0x80,0x01
0.098250000000000,380,0x80,0x01
0.098332875000000,381,0x32,0x00
0.098407250000000,381,0x0A,0x01
0.098481750000000,381,0x00,0x01
0.098561625000000,382,0x32,0x01
0.098636125000000,382,0x00,0x01
0.098710625000000,382,0x20,0x01
0.098790500000000,383,0x32,0x01
0.098864875000000,383,0x20,0x01
0.098939375000000,383,0x20,0x01
0.099019250000000,384,0x32,0x01
0.099093750000000,384,0x20,0x01
0.099168250000000,384,0x60,0x01
0.099248125000000,385,0x32,0x00
0.099322500000000,385,0x20,0x01
0.099397000000000,385,0x00,0x01
0.099478375000000,386,0x07,0x01
0.099552875000000,386,0x01,0x01
0.099627250000000,386,0x1E,0x01
0.099964875000000,387,0x07,0x0F
0.100037875000000,387,0x00,0x01
0.100112375000000,387,0x46,0x01
0.100191250000000,388,0x32,0x01
0.100265625000000,388,0x00,0x81
0.100340125000000,388,0x00,0x01
0.100422500000000,389,0x34,0x01
0.100497000000000,389,0x80,0x01
0.100571375000000,389,0x80,0x01
0.100654250000000,390,0x32,0x01
0.100728750000000,390,0x0A,0x01
0.100803125000000,390,0x00,0x01
0.100883000000000,391,0x32,0x01
0.100957500000000,391,0x00,0x01
0.101032000000000,391,0x20,0x01
0.101111875000000,392,0x32,0x01
0.101186375000000,392,0x20,0x00
0.101260750000000,392,0x20,0x01
0.101340625000000,393,0x32,0x01
0.101415125000000,393,0x20,0x01
0.101489625000000,393,0x60,0x01
0.101569500000000,394,0x32,0x01
0.101644000000000,394,0x20,0x01
0.101718375000000,394,0x00,0x01
0.101799750000000,395,0x07,0x01
0.101874250000000,395,0x01,0x01
0.101948750000000,395,0x46,0x01
0.102279375000000,396,0x07,0x05
0.102352875000000,396,0x00,0x09
0.102426875000000,396,0x00,0x01
0.102505750000000,397,0x32,0x01
0.102580250000000,397,0x00,0x01
0.102654750000000,397,0x00,0x01
0.102737000000000,398,0x34,0x01
0.102811500000000,398,0x80,0x01
0.102886000000000,398,0x80,0x01
0.102968750000000,399,0x32,0x01
0.103043250000000,399,0x0A,0x01
0.103117750000000,399,0x00,0x01
0.103197625000000,400,0x32,0x01
0.103272000000000,400,0x00,0x81
0.103346500000000,400,0x20,0x01
0.103426375000000,401,0x32,0x01
0.103500875000000,401,0x20,0x01
0.103575375000000,401,0x20,0x01
0.103655250000000,402,0x32,0x01
0.103729625000000,402,0x20,0x81
0.103804125000000,402,0x60,0x01
0.103884000000000,403,0x32,0x01
0.103958500000000,403,0x20,0x01
0.104033000000000,403,0x00,0x01
0.104114250000000,404,0x07,0x01
0.104188750000000,404,0x01,0x01
0.104263250000000,404,0x00,0x01
0.104594875000000,405,0x07,0x0F
0.104667875000000,405,0x00,0x01
0.104742375000000,405,0x28,0x01
0.104821250000000,406,0x32,0x01
0.104895750000000,406,0x00,0x01
0.104970250000000,406,0x00,0x01
0.105052500000000,407,0x34,0x01
0.105127000000000,407,0x80,0x01
0.105201500000000,407,0x80,0x01
0.105284250000000,408,0x32,0x01
0.105358750000000,408,0x0A,0x01
0.105433250000000,408,0x00,0x01
0.105513125000000,409,0x32,0x01
0.105587625000000,409,0x00,0x01
0.105662000000000,409,0x20,0x01
0.105741875000000,410,0x32,0x01
0.105816375000000,410,0x20,0x01
0.105890875000000,410,0x20,0x01
0.105970750000000,411,0x32,0x01
0.106045250000000,411,0x20,0x01
0.106119625000000,411,0x60,0x01
0.106199500000000,412,0x32,0x01
0.106274000000000,412,0x20,0x01
0.106348500000000,412,0x00,0x01
0.106429875000000,413,0x07,0x01
0.106504250000000,413,0x01,0x01
0.106578750000000,413,0x28,0x01
0.106911375000000,414,0x07,0x8F
0.106984375000000,414,0x00,0x81
0.107058875000000,414,0x0A,0x01
0.107137750000000,415,0x32,0x01
0.107212250000000,415,0x00,0x01
0.107286750000000,415,0x00,0x01
0.107369000000000,416,0x34,0x01
0.107443500000000,416,0x80,0x01
0.107518000000000,416,0x80,0x01
0.107600750000000,417,0x32,0x01
0.107675250000000,417,0x0A,0x01
0.107749750000000,417,0x00,0x01
0.107829625000000,418,0x32,0x01
0.107904125000000,418,0x00,0x01
0.107978625000000,418,0x20,0x01
0.108058375000000,419,0x32,0x01
0.108132875000000,419,0x20,0x01
0.108207375000000,419,0x20,0x01
0.108287250000000,420,0x32,0x01
0.108361750000000,420,0x20,0x01
0.108436125000000,420,0x60,0x81
0.108516000000000,421,0x32,0x01
0.108590500000000,421,0x20,0x01
0.108665000000000,421,0x00,0x01
0.108746375000000,422,0x07,0x01
0.108820750000000,422,0x01,0x81
0.108895250000000,422,0x0A,0x01
0.109228875000000,423,0x07,0x0F
0.109301875000000,423,0x00,0x01
0.109376375000000,423,0x32,0x01
0.109455250000000,424,0x32,0x01
0.109529750000000,424,0x00,0x01
0.109604250000000,424,0x00,0x01
0.109686500000000,425,0x34,0x01
0.109761000000000,425,0x80,0x01
0.109835500000000,425,0x80,0x01
0.109918250000000,426,0x32,0x01
0.109992750000000,426,0x0A,0x01
0.110067250000000,426,0x00,0x01
0.110147125000000,427,0x32,0x01
0.110221625000000,427,0x00,0x01
0.110296000000000,427,0x20,0x01
0.110375875000000,428,0x32,0x01
0.110450375000000,428,0x20,0x01
0.110524875000000,428,0x20,0x01
0.110604750000000,429,0x32,0x01
0.110679250000000,429,0x20,0x00
0.110753625000000,429,0x60,0x01
0.110833500000000,430,0x32,0x01
0.110908000000000,430,0x20,0x01
0.110982500000000,430,0x00,0x01
0.111063875000000,431,0x07,0x01
0.111138250000000,431,0x01,0x01
0.111212750000000,431,0x32,0x01
0.111547375000000,432,0x07,0x0F
0.111620375000000,432,0x00,0x01
0.111694875000000,432,0x14,0x01
0.111773750000000,433,0x32,0x01
0.111848250000000,433,0x00,0x01
0.111922625000000,433,0x00,0x01
0.112005000000000,434,0x34,0x01
0.112079500000000,434,0x80,0x01
0.112153875000000,434,0x80,0x81
0.112236750000000,435,0x32,0x01
0.112311250000000,435,0x0A,0x01
0.112385625000000,435,0x00,0x81
0.112465500000000,436,0x32,0x01
0.112540000000000,436,0x00,0x01
0.112614500000000,436,0x20,0x01
0.112694375000000,437,0x32,0x01
0.112768875000000,437,0x20,0x01
0.112843250000000,437,0x20,0x81
0.112923125000000,438,0x32,0x01
0.112997625000000,438,0x20,0x01
0.113072125000000,438,0x60,0x01
0.113152000000000,439,0x32,0x01
0.113226500000000,439,0x20,0x01
0.113300875000000,439,0x00,0x81
0.113382250000000,440,0x07,0x01
0.113456750000000,440,0x01,0x01
0.113531250000000,440,0x14,0x01
0.113866875000000,441,0x07,0x0F
0.113939875000000,441,0x00,0x01
0.114014250000000,441,0x3C,0x01
0.114093125000000,442,0x32,0x01
0.114167625000000,442,0x00,0x01
0.114242125000000,442,0x00,0x01
0.114324375000000,443,0x34,0x01
0.114398875000000,443,0x80,0x01
0.114473375000000,443,0x80,0x01
0.114556125000000,444,0x32,0x01
0.114630625000000,444,0x0A,0x01
0.114705125000000,444,0x00,0x01
0.114785000000000,445,0x32,0x01
0.114859500000000,445,0x00,0x01
0.114933875000000,445,0x20,0x81
0.115013750000000,446,0x32,0x01
0.115088250000000,446,0x20,0x01
0.115162750000000,446,0x20,0x01
0.115242625000000,447,0x32,0x01
0.115317125000000,447,0x20,0x01
0.115391625000000,447,0x60,0x01
0.115471375000000,448,0x32,0x81
0.115545875000000,448,0x20,0x01
0.115620375000000,448,0x00,0x01
0.115701750000000,449,0x07,0x01
0.115776125000000,449,0x01,0x81
0.115850625000000,449,0x3C,0x01
0.116187250000000,450,0x07,0x0D
0.116260750000000,450,0x00,0x01
0.116335250000000,450,0x1E,0x01
0.116414125000000,451,0x32,0x01
0.116488500000000,451,0x00,0x01
0.116563000000000,451,0x00,0x01
0.116645375000000,452,0x34,0x01
0.116719875000000,452,0x80,0x01
0.116794250000000,452,0x80,0x01
0.116877125000000,453,0x32,0x01
0.116951625000000,453,0x0A,0x00
0.117026000000000,453,0x00,0x01
0.117105875000000,454,0x32,0x01
0.117180375000000,454,0x00,0x01
0.117254875000000,454,0x20,0x01
0.117334750000000,455,0x32,0x01
0.117409250000000,455,0x20,0x01
0.117483625000000,455,0x20,0x01
0.117563500000000,456,0x32,0x01
0.117638000000000,456,0x20,0x01
0.117712500000000,456,0x60,0x01
0.117792375000000,457,0x32,0x01
0.117866875000000,457,0x20,0x01
0.117941250000000,457,0x00,0x81
0.118022625000000,458,0x07,0x01
0.118097125000000,458,0x01,0x01
0.118171625000000,458,0x1E,0x01
0.118509125000000,459,0x07,0x0F
0.118582125000000,459,0x00,0x01
0.118656625000000,459,0x46,0x01
0.118735500000000,460,0x32,0x01
0.118810000000000,460,0x00,0x01
0.118884500000000,460,0x00,0x01
0.118966750000000,461,0x34,0x01
0.119041250000000,461,0x80,0x01
0.119115750000000,461,0x80,0x01
0.119198500000000,462,0x32,0x01
0.119273000000000,462,0x0A,0x01
0.119347500000000,462,0x00,0x01
0.119427375000000,463,0x32,0x01
0.119501875000000,463,0x00,0x01
0.119576250000000,463,0x20,0x01
0.119656125000000,464,0x32,0x01
0.119730625000000,464,0x20,0x01
0.119805125000000,464,0x20,0x01
0.119885000000000,465,0x32,0x01
0.119959500000000,465,0x20,0x01
0.120034000000000,465,0x60,0x01
0.120113750000000,466,0x32,0x81
0.120188250000000,466,0x20,0x01
0.120262750000000,466,0x00,0x01
0.120344125000000,467,0x07,0x01
0.120418625000000,467,0x01,0x01
0.120493000000000,467,0x46,0x01
0.120823750000000,468,0x07,0x0D
0.120897250000000,468,0x00,0x09
0.120971250000000,468,0x00,0x01
0.121050125000000,469,0x32,0x01
0.121124625000000,469,0x00,0x01
0.121199000000000,469,0x00,0x01
0.121281375000000,470,0x34,0x01
0.121355875000000,470,0x80,0x01
0.121430375000000,470,0x80,0x01
0.121513125000000,471,0x32,0x01
0.121587625000000,471,0x0A,0x01
0.121662125000000,471,0x00,0x00
0.121742000000000,472,0x32,0x01
0.121816375000000,472,0x00,0x01
0.121890875000000,472,0x20,0x01
0.121970750000000,473,0x32,0x01
0.122045250000000,473,0x20,0x01
0.122119750000000,473,0x20,0x01
0.122199625000000,474,0x32,0x00
0.122274000000000,474,0x20,0x01
0.122348500000000,474,0x60,0x01
0.122428375000000,475,0x32,0x01
0.122502875000000,475,0x20,0x01
0.122577375000000,475,0x00,0x01
0.122658625000000,476,0x07,0x01
0.122733125000000,476,0x01,0x01
0.122807625000000,476,0x00,0x01
0.123139250000000,477,0x07,0x0F
0.123212250000000,477,0x00,0x01
0.123286750000000,477,0x28,0x01
0.123365625000000,478,0x32,0x01
0.123440125000000,478,0x00,0x01
0.123514625000000,478,0x00,0x01
0.123596875000000,479,0x34,0x01
0.123671375000000,479,0x80,0x01
0.123745875000000,479,0x80,0x01
0.123828625000000,480,0x32,0x01
0.123903125000000,480,0x0A,0x01
0.123977625000000,480,0x00,0x01
0.124057500000000,481,0x32,0x01
0.124132000000000,481,0x00,0x01
0.124206375000000,481,0x20,0x01
0.124286250000000,482,0x32,0x01
0.124360750000000,482,0x20,0x01
0.124435250000000,482,0x20,0x01
0.124515125000000,483,0x32,0x01
0.124589625000000,483,0x20,0x01
0.124664000000000,483,0x60,0x81
0.124743875000000,484,0x32,0x01
0.124818375000000,484,0x20,0x01
0.124892875000000,484,0x00,0x01
0.124974250000000,485,0x07,0x00
0.125048625000000,485,0x01,0x01
0.125123125000000,485,0x28,0x01
0.125455750000000,486,0x07,0x0F
0.125528750000000,486,0x00,0x01
0.125603250000000,486,0x0A,0x01
0.125682125000000,487,0x32,0x01
0.125756625000000,487,0x00,0x01
0.125831125000000,487,0x00,0x01
0.125913375000000,488,0x34,0x01
0.125987875000000,488,0x80,0x01
0.126062375000000,488,0x80,0x01
0.126145125000000,489,0x32,0x01
0.126219625000000,489,0x0A,0x01
0.126294125000000,489,0x00,0x01
0.126374000000000,490,0x32,0x01
0.126448500000000,490,0x00,0x01
0.126522875000000,490,0x20,0x01
0.126602750000000,491,0x32,0x01
0.126677250000000,491,0x20,0x01
0.126751750000000,491,0x20,0x01
0.126831625000000,492,0x32,0x01
0.126906125000000,492,0x20,0x00
0.126980500000000,492,0x60,0x01
0.127060375000000,493,0x32,0x01
0.127134875000000,493,0x20,0x01
0.127209375000000,493,0x00,0x01
0.127290750000000,494,0x07,0x00
0.127365125000000,494,0x01,0x01
0.127439625000000,494,0x0A,0x01
0.127773250000000,495,0x07,0x07
0.127846250000000,495,0x00,0x01
0.127920750000000,495,0x32,0x01
0.127999625000000,496,0x32,0x01
0.128074125000000,496,0x00,0x01
0.128148625000000,496,0x00,0x01
0.128230875000000,497,0x34,0x01
0.128305375000000,497,0x80,0x01
0.128379875000000,497,0x80,0x01
0.128462625000000,498,0x32,0x01
0.128537125000000,498,0x0A,0x01
0.128611625000000,498,0x00,0x01
0.128691500000000,499,0x32,0x01
0.128766000000000,499,0x00,0x00
0.128840375000000,499,0x20,0x01
0.128920250000000,500,0x32,0x01
0.128994750000000,500,0x20,0x01
0.129069250000000,500,0x20,0x01
0.129149125000000,501,0x32,0x01
0.129223625000000,501,0x20,0x01
0.129298000000000,501,0x60,0x81
0.129377875000000,502,0x32,0x01
0.129452375000000,502,0x20,0x01
0.129526875000000,502,0x00,0x01
0.129608250000000,503,0x07,0x01
0.129682750000000,503,0x01,0x01
0.129757125000000,503,0x32,0x01
0.130091750000000,504,0x07,0x0F
0.130164750000000,504,0x00,0x01
0.130239250000000,504,0x14,0x01
0.130318125000000,505,0x32,0x01
0.130392625000000,505,0x00,0x01
0.130467125000000,505,0x00,0x01
0.130549375000000,506,0x34,0x01
0.130623875000000,506,0x80,0x01
0.130698375000000,506,0x80,0x01
0.130781125000000,507,0x32,0x01
0.130855625000000,507,0x0A,0x01
0.130930125000000,507,0x00,0x01
0.131010000000000,508,0x32,0x00
0.131084375000000,508,0x00,0x01
0.131158875000000,508,0x20,0x01
0.131238750000000,509,0x32,0x01
0.131313250000000,509,0x20,0x01
0.131387750000000,509,0x20,0x01
0.131467625000000,510,0x32,0x00
0.131542000000000,510,0x20,0x01
0.131616500000000,510,0x60,0x01
0.131696375000000,511,0x32,0x01
0.131770875000000,511,0x20,0x01
0.131845375000000,511,0x00,0x01
0.131926625000000,512,0x07,0x01
0.132001125000000,512,0x01,0x01
0.132075625000000,512,0x14,0x01
0.132411250000000,513,0x07,0x0F
0.132484250000000,513,0x00,0x00
0.132558625000000,513,0x3C,0x01
0.132637500000000,514,0x32,0x01
0.132712000000000,514,0x00,0x01
0.132786500000000,514,0x00,0x01
0.132868750000000,515,0x34,0x81
0.132943250000000,515,0x80,0x01
0.133017750000000,515,0x80,0x01
0.133100500000000,516,0x32,0x81
0.133175000000000,516,0x0A,0x01
0.133249500000000,516,0x00,0x01
0.133329375000000,517,0x32,0x01
0.133403875000000,517,0x00,0x01
0.133478375000000,517,0x20,0x01
0.133558125000000,518,0x32,0x01
0.133632625000000,518,0x20,0x01
0.133707125000000,518,0x20,0x01
0.133787000000000,519,0x32,0x01
0.133861500000000,519,0x20,0x01
0.133936000000000,519,0x60,0x01
0.134015750000000,520,0x32,0x01
0.134090250000000,520,0x20,0x01
0.134164750000000,520,0x00,0x01
0.134246125000000,521,0x07,0x01
0.134320500000000,521,0x01,0x01
0.134395000000000,521,0x3C,0x01
0.134731625000000,522,0x07,0x0D
0.134805125000000,522,0x00,0x01
0.134879625000000,522,0x1E,0x01
0.134958500000000,523,0x32,0x00
0.135032875000000,523,0x00,0x01
0.135107375000000,523,0x00,0x01
0.135189750000000,524,0x34,0x01
0.135264125000000,524,0x80,0x01
0.135338625000000,524,0x80,0x01
0.135421500000000,525,0x32,0x01
0.135495875000000,525,0x0A,0x81
0.135570375000000,525,0x00,0x01
0.135650250000000,526,0x32,0x01
0.135724750000000,526,0x00,0x01
0.135799250000000,526,0x20,0x01
0.135879125000000,527,0x32,0x01
0.135953500000000,527,0x20,0x01
0.136028000000000,527,0x20,0x01
0.136107875000000,528,0x32,0x01
0.136182375000000,528,0x20,0x01
0.136256875000000,528,0x60,0x01
0.136336750000000,529,0x32,0x00
0.136411125000000,529,0x20,0x01
0.136485625000000,529,0x00,0x01
0.136567000000000,530,0x07,0x01
0.136641500000000,530,0x01,0x00
0.136715875000000,530,0x1E,0x01
0.137053500000000,531,0x07,0x0F
0.137126500000000,531,0x00,0x01
0.137201000000000,531,0x46,0x01
0.137279875000000,532,0x32,0x00
0.137354250000000,532,0x00,0x01
0.137428750000000,532,0x00,0x01
0.137511125000000,533,0x34,0x01
0.137585500000000,533,0x80,0x01
0.137660000000000,533,0x80,0x01
0.137742875000000,534,0x32,0x01
0.137817250000000,534,0x0A,0x01
0.137891750000000,534,0x00,0x01
0.137971625000000,535,0x32,0x01
0.138046125000000,535,0x00,0x01
0.138120625000000,535,0x20,0x01
0.138200500000000,536,0x32,0x00
0.138274875000000,536,0x20,0x01
0.138349375000000,536,0x20,0x01
0.138429250000000,537,0x32,0x01
0.138503750000000,537,0x20,0x01
0.138578250000000,537,0x60,0x01
0.138658125000000,538,0x32,0x01
0.138732500000000,538,0x20,0x01
0.138807000000000,538,0x00,0x01
0.138888375000000,539,0x07,0x01
0.138962875000000,539,0x01,0x01
0.139037250000000,539,0x46,0x01
0.139368000000000,540,0x07,0x0D
0.139441500000000,540,0x00,0x09
0.139515500000000,540,0x00,0x01
0.139594375000000,541,0x32,0x01
0.139668750000000,541,0x00,0x81
0.139743250000000,541,0x00,0x01
0.139825625000000,542,0x34,0x01
0.139900125000000,542,0x80,0x01
0.139974500000000,542,0x80,0x01
0.140057375000000,543,0x32,0x01
0.140131875000000,543,0x0A,0x01
0.140206250000000,543,0x00,0x01
0.140286125000000,544,0x32,0x01
0.140360625000000,544,0x00,0x01
0.140435125000000,544,0x20,0x01
0.140515000000000,545,0x32,0x01
0.140589500000000,545,0x20,0x01
0.140663875000000,545,0x20,0x01
0.140743750000000,546,0x32,0x01
0.140818250000000,546,0x20,0x01
0.140892750000000,546,0x60,0x01
0.140972625000000,547,0x32,0x01
0.141047125000000,547,0x20,0x01
0.141121500000000,547,0x00,0x01
0.141202875000000,548,0x07,0x01
0.141277375000000,548,0x01,0x01
0.141351875000000,548,0x00,0x01
0.141683500000000,549,0x07,0x0F
0.141756500000000,549,0x00,0x01
0.141831000000000,549,0x28,0x01
0.141909875000000,550,0x32,0x01
0.141984375000000,550,0x00,0x01
0.142058750000000,550,0x00,0x01
0.142141125000000,551,0x34,0x01
0.142215625000000,551,0x80,0x01
0.142290000000000,551,0x80,0x01
0.142372875000000,552,0x32,0x01
0.142447375000000,552,0x0A,0x01
0.142521750000000,552,0x00,0x01
0.142601625000000,553,0x32,0x01
0.142676125000000,553,0x00,0x01
0.142750625000000,553,0x20,0x01
0.142830500000000,554,0x32,0x01
0.142905000000000,554,0x20,0x01
0.142979375000000,554,0x20,0x01
0.143059250000000,555,0x32,0x01
0.143133750000000,555,0x20,0x01
0.143208250000000,555,0x60,0x01
0.143288125000000,556,0x32,0x01
0.143362625000000,556,0x20,0x01
0.143437000000000,556,0x00,0x01
0.143518375000000,557,0x07,0x01
0.143592875000000,557,0x01,0x01
0.143667375000000,557,0x28,0x01
0.144000000000000,558,0x07,0x0F
0.144073000000000,558,0x00,0x01
0.144147500000000,558,0x0A,0x01
0.144226375000000,559,0x32,0x01
0.144300750000000,559,0x00,0x01
0.144375250000000,559,0x00,0x01
0.144457625000000,560,0x34,0x01
0.144532000000000,560,0x80,0x01
0.144606500000000,560,0x80,0x01
0.144689375000000,561,0x32,0x01
0.144763750000000,561,0x0A,0x81
0.144838250000000,561,0x00,0x01
0.144918125000000,562,0x32,0x01
0.144992625000000,562,0x00,0x01
0.145067125000000,562,0x20,0x01
0.145147000000000,563,0x32,0x01
0.145221375000000,563,0x20,0x01
0.145295875000000,563,0x20,0x01
0.145375750000000,564,0x32,0x01
0.145450250000000,564,0x20,0x01
0.145524750000000,564,0x60,0x01
0.145604625000000,565,0x32,0x00
0.145679000000000,565,0x20,0x01
0.145753500000000,565,0x00,0x01
0.145834875000000,566,0x07,0x01
0.145909375000000,566,0x01,0x01
0.145983750000000,566,0x0A,0x01
0.146317375000000,567,0x07,0x8F
0.146390375000000,567,0x00,0x81
0.146464875000000,567,0x32,0x01
0.146543750000000,568,0x32,0x01
0.146618250000000,568,0x00,0x01
0.146692750000000,568,0x00,0x01
0.146775000000000,569,0x34,0x01
0.146849500000000,569,0x80,0x01
0.146924000000000,569,0x80,0x01
0.147006750000000,570,0x32,0x01
0.147081250000000,570,0x0A,0x01
0.147155750000000,570,0x00,0x01
0.147235625000000,571,0x32,0x01
0.147310125000000,571,0x00,0x01
0.147384500000000,571,0x20,0x81
0.147464375000000,572,0x32,0x01
0.147538875000000,572,0x20,0x01
0.147613375000000,572,0x20,0x01
0.147693250000000,573,0x32,0x01
0.147767750000000,573,0x20,0x01
0.147842125000000,573,0x60,0x01
0.147922000000000,574,0x32,0x01
0.147996500000000,574,0x20,0x01
0.148071000000000,574,0x00,0x01
0.148152375000000,575,0x07,0x01
0.148226750000000,575,0x01,0x01
0.148301250000000,575,0x32,0x01
0.148635875000000,576,0x07,0x0F
0.148708875000000,576,0x00,0x01
0.148783375000000,576,0x14,0x01
0.148862250000000,577,0x32,0x01
0.148936750000000,577,0x00,0x01
0.149011125000000,577,0x00,0x01
0.149093500000000,578,0x34,0x01
0.149168000000000,578,0x80,0x01
0.149242500000000,578,0x80,0x01
0.149325250000000,579,0x32,0x01
0.149399750000000,579,0x0A,0x01
0.149474250000000,579,0x00,0x01
0.149554000000000,580,0x32,0x01
0.149628500000000,580,0x00,0x01
0.149703000000000,580,0x20,0x01
0.149782875000000,581,0x32,0x01
0.149857375000000,581,0x20,0x01
0.149931875000000,581,0x20,0x01
0.150011625000000,582,0x32,0x01
0.150086125000000,582,0x20,0x01
0.150160625000000,582,0x60,0x01
0.150240500000000,583,0x32,0x01
0.150315000000000,583,0x20,0x01
0.150389500000000,583,0x00,0x01
0.150470750000000,584,0x07,0x01
0.150545250000000,584,0x01,0x01
0.150619750000000,584,0x14,0x01
0.150955250000000,585,0x07,0x0F
0.151028250000000,585,0x00,0x01
0.151102750000000,585,0x3C,0x01
0.151181625000000,586,0x32,0x01
0.151256125000000,586,0x00,0x01
0.151330625000000,586,0x00,0x01
0.151412875000000,587,0x34,0x01
0.151487375000000,587,0x80,0x01
0.151561875000000,587,0x80,0x01
0.151644625000000,588,0x32,0x01
0.151719125000000,588,0x0A,0x01
0.151793625000000,588,0x00,0x01
0.151873500000000,589,0x32,0x01
0.151948000000000,589,0x00,0x01
0.152022375000000,589,0x20,0x01
0.152102250000000,590,0x32,0x01
0.152176750000000,590,0x20,0x01
0.152251250000000,590,0x20,0x01
0.152331125000000,591,0x32,0x01
0.152405625000000,591,0x20,0x01
0.152480000000000,591,0x60,0x01
0.152559875000000,592,0x32,0x01
0.152634375000000,592,0x20,0x01
0.152708875000000,592,0x00,0x01
0.152790250000000,593,0x07,0x01
0.152864625000000,593,0x01,0x01
0.152939125000000,593,0x3C,0x01
0.153275750000000,594,0x07,0x0D
0.153349250000000,594,0x00,0x01
0.153423625000000,594,0x1E,0x01
0.153502500000000,595,0x32,0x81
0.153577000000000,595,0x00,0x01
0.153651500000000,595,0x00,0x01
0.153733875000000,596,0x34,0x01
0.153808250000000,596,0x80,0x01
0.153882750000000,596,0x80,0x01
0.153965625000000,597,0x32,0x01
0.154040000000000,597,0x0A,0x01
0.154114500000000,597,0x00,0x01
0.154194375000000,598,0x32,0x01
0.154268875000000,598,0x00,0x01
0.154343375000000,598,0x20,0x01
0.154423250000000,599,0x32,0x01
0.154497625000000,599,0x20,0x01
0.154572125000000,599,0x20,0x01
0.154652000000000,600,0x32,0x01
0.154726500000000,600,0x20,0x01
0.154801000000000,600,0x60,0x00
0.154880875000000,601,0x32,0x01
0.154955250000000,601,0x20,0x01
0.155029750000000,601,0x00,0x01
0.155111125000000,602,0x07,0x01
0.155185625000000,602,0x01,0x01
0.155260000000000,602,0x1E,0x01
0.155597625000000,603,0x07,0x0F
0.155670625000000,603,0x00,0x01
0.155745125000000,603,0x46,0x01
0.155824000000000,604,0x32,0x00
0.155898375000000,604,0x00,0x01
0.155972875000000,604,0x00,0x01
0.156055250000000,605,0x34,0x01
0.156129625000000,605,0x80,0x01
0.156204125000000,605,0x80,0x01
0.156287000000000,606,0x32,0x01
0.156361375000000,606,0x0A,0x81
0.156435875000000,606,0x00,0x01
0.156515750000000,607,0x32,0x01
0.156590250000000,607,0x00,0x01
0.156664750000000,607,0x20,0x01
0.156744625000000,608,0x32,0x01
0.156819125000000,608,0x20,0x01
0.156893500000000,608,0x20,0x01
0.156973375000000,609,0x32,0x01
0.157047875000000,609,0x20,0x01
0.157122375000000,609,0x60,0x01
0.157202250000000,610,0x32,0x01
0.157276625000000,610,0x20,0x81
0.157351125000000,610,0x00,0x01
0.157432500000000,611,0x07,0x01
0.157507000000000,611,0x01,0x01
0.157581500000000,611,0x46,0x01
0.157912125000000,612,0x07,0x0D
0.157985625000000,612,0x00,0x09
0.158059625000000,612,0x00,0x01
0.158138500000000,613,0x32,0x01
0.158213000000000,613,0x00,0x01
0.158287375000000,613,0x00,0x81
0.158369750000000,614,0x34,0x01
0.158444250000000,614,0x80,0x01
0.158518750000000,614,0x80,0x01
0.158601500000000,615,0x32,0x01
0.158676000000000,615,0x0A,0x01
0.158750500000000,615,0x00,0x01
0.158830250000000,616,0x32,0x01
0.158904750000000,616,0x00,0x01
0.158979250000000,616,0x20,0x01
0.159059125000000,617,0x32,0x01
0.159133625000000,617,0x20,0x01
0.159208125000000,617,0x20,0x01
0.159287875000000,618,0x32,0x01
0.159362375000000,618,0x20,0x01
0.159436875000000,618,0x60,0x01
0.159516750000000,619,0x32,0x01
0.159591250000000,619,0x20,0x01
0.159665625000000,619,0x00,0x81
0.159747000000000,620,0x07,0x01
0.159821500000000,620,0x01,0x01
0.159896000000000,620,0x00,0x01
0.160227625000000,621,0x07,0x0F
0.160300625000000,621,0x00,0x01
0.160375125000000,621,0x28,0x01
0.160454000000000,622,0x32,0x01
0.160528500000000,622,0x00,0x01
0.160602875000000,622,0x00,0x01
0.160685250000000,623,0x34,0x01
0.160759750000000,623,0x80,0x01
0.160834250000000,623,0x80,0x01
0.160917000000000,624,0x32,0x01
0.160991500000000,624,0x0A,0x01
0.161066000000000,624,0x00,0x00
0.161145750000000,625,0x32,0x81
0.161220250000000,625,0x00,0x01
0.161294750000000,625,0x20,0x01
0.161374625000000,626,0x32,0x01
0.161449125000000,626,0x20,0x01
0.161523625000000,626,0x20,0x00
0.161603375000000,627,0x32,0x81
0.161677875000000,627,0x20,0x01
0.161752375000000,627,0x60,0x01
0.161832250000000,628,0x32,0x01
0.161906750000000,628,0x20,0x01
0.161981250000000,628,0x00,0x00
0.162062500000000,629,0x07,0x01
0.162137000000000,629,0x01,0x01
0.162211500000000,629,0x28,0x01
0.162544125000000,630,0x07,0x0F
0.162617125000000,630,0x00,0x01
0.162691625000000,630,0x0A,0x01
0.162770500000000,631,0x32,0x01
0.162845000000000,631,0x00,0x01
0.162919375000000,631,0x00,0x01
0.163001750000000,632,0x34,0x01
0.163076250000000,632,0x80,0x01
0.163150750000000,632,0x80,0x01
0.163233500000000,633,0x32,0x01
0.163308000000000,633,0x0A,0x01
0.163382500000000,633,0x00,0x01
0.163462250000000,634,0x32,0x01
0.163536750000000,634,0x00,0x01
0.163611250000000,634,0x20,0x01
0.163691125000000,635,0x32,0x01
0.163765625000000,635,0x20,0x01
0.163840125000000,635,0x20,0x00
0.163920000000000,636,0x32,0x01
0.163994375000000,636,0x20,0x01
0.164068875000000,636,0x60,0x01
0.164148750000000,637,0x32,0x01
0.164223250000000,637,0x20,0x01
0.164297750000000,637,0x00,0x00
0.164379000000000,638,0x07,0x01
0.164453500000000,638,0x01,0x01
0.164528000000000,638,0x0A,0x01
0.164861625000000,639,0x07,0x0F
0.164934625000000,639,0x00,0x01
0.165009125000000,639,0x32,0x01
0.165088000000000,640,0x32,0x01
0.165162375000000,640,0x00,0x81
0.165236875000000,640,0x00,0x01
0.165319250000000,641,0x34,0x01
0.165393750000000,641,0x80,0x01
0.165468125000000,641,0x80,0x01
0.165551000000000,642,0x32,0x01
0.165625500000000,642,0x0A,0x01
0.165699875000000,642,0x00,0x01
0.165779750000000,643,0x32,0x01
0.165854250000000,643,0x00,0x01
0.165928750000000,643,0x20,0x01
0.166008625000000,644,0x32,0x01
0.166083125000000,644,0x20,0x00
0.166157500000000,644,0x20,0x01
0.166237375000000,645,0x32,0x01
0.166311875000000,645,0x20,0x01
0.166386375000000,645,0x60,0x01
0.166466250000000,646,0x32,0x01
0.166540750000000,646,0x20,0x00
0.166615125000000,646,0x00,0x01
0.166696500000000,647,0x07,0x01
0.166771000000000,647,0x01,0x01
0.166845500000000,647,0x32,0x00
0.167180125000000,648,0x07,0x0F
0.167253125000000,648,0x00,0x01
0.167327500000000,648,0x14,0x01
0.167406375000000,649,0x32,0x01
0.167480875000000,649,0x00,0x01
0.167555375000000,649,0x00,0x01
0.167637625000000,650,0x34,0x01
0.167712125000000,650,0x80,0x01
0.167786625000000,650,0x80,0x01
0.167869375000000,651,0x32,0x01
0.167943875000000,651,0x0A,0x01
0.168018375000000,651,0x00,0x01
0.168098250000000,652,0x32,0x01
0.168172750000000,652,0x00,0x01
0.168247250000000,652,0x20,0x01
0.168327000000000,653,0x32,0x01
0.168401500000000,653,0x20,0x01
0.168476000000000,653,0x20,0x01
0.168555875000000,654,0x32,0x01
0.168630375000000,654,0x20,0x01
0.168704875000000,654,0x60,0x01
0.168784625000000,655,0x32,0x01
0.168859125000000,655,0x20,0x01
0.168933625000000,655,0x00,0x01
0.169015000000000,656,0x07,0x01
0.169089500000000,656,0x01,0x01
0.169163875000000,656,0x14,0x01
0.169499500000000,657,0x07,0x0F
0.169572500000000,657,0x00,0x01
0.169647000000000,657,0x3C,0x01
0.169725875000000,658,0x32,0x01
0.169800375000000,658,0x00,0x01
0.169874750000000,658,0x00,0x01
0.169957125000000,659,0x34,0x01
0.170031625000000,659,0x80,0x01
0.170106125000000,659,0x80,0x01
0.170188875000000,660,0x32,0x01
0.170263375000000,660,0x0A,0x01
0.170337875000000,660,0x00,0x01
0.170417625000000,661,0x32,0x01
0.170492125000000,661,0x00,0x01
0.170566625000000,661,0x20,0x01
0.170646500000000,662,0x32,0x01
0.170721000000000,662,0x20,0x01
0.170795500000000,662,0x20,0x01
0.170875250000000,663,0x32,0x01
0.170949750000000,663,0x20,0x01
0.171024250000000,663,0x60,0x01
0.171104125000000,664,0x32,0x01
0.171178625000000,664,0x20,0x01
0.171253000000000,664,0x00,0x81
0.171334375000000,665,0x07,0x01
0.171408875000000,665,0x01,0x01
0.171483375000000,665,0x3C,0x01
0.171819875000000,666,0x07,0x05
0.171893375000000,666,0x00,0x01
0.171967875000000,666,0x1E,0x01
0.172046750000000,667,0x32,0x01
0.172121250000000,667,0x00,0x01
0.172195750000000,667,0x00,0x01
0.172278000000000,668,0x34,0x01
0.172352500000000,668,0x80,0x01
0.172427000000000,668,0x80,0x01
0.172509750000000,669,0x32,0x01
0.172584250000000,669,0x0A,0x01
0.172658750000000,669,0x00,0x01
0.172738625000000,670,0x32,0x01
0.172813000000000,670,0x00,0x01
0.172887500000000,670,0x20,0x01
0.172967375000000,671,0x32,0x01
0.173041875000000,671,0x20,0x01
0.173116375000000,671,0x20,0x01
0.173196250000000,672,0x32,0x01
0.173270625000000,672,0x20,0x81
0.173345125000000,672,0x60,0x01
0.173425000000000,673,0x32,0x01
0.173499500000000,673,0x20,0x01
0.173574000000000,673,0x00,0x01
0.173655250000000,674,0x07,0x01
0.173729750000000,674,0x01,0x01
0.173804250000000,674,0x1E,0x01
0.174141750000000,675,0x07,0x0F
0.174214750000000,675,0x00,0x01
0.174289250000000,675,0x46,0x01
0.174368125000000,676,0x32,0x01
0.174442625000000,676,0x00,0x01
0.174517125000000,676,0x00,0x01
0.174599375000000,677,0x34,0x01
0.174673875000000,677,0x80,0x01
0.174748375000000,677,0x80,0x01
0.174831125000000,678,0x32,0x01
0.174905625000000,678,0x0A,0x01
0.174980125000000,678,0x00,0x01
0.175060000000000,679,0x32,0x01
0.175134500000000,679,0x00,0x01
0.175208875000000,679,0x20,0x01
0.175288750000000,680,0x32,0x01
0.175363250000000,680,0x20,0x01
0.175437750000000,680,0x20,0x01
0.175517625000000,681,0x32,0x01
0.175592125000000,681,0x20,0x01
0.175666500000000,681,0x60,0x01
0.175746375000000,682,0x32,0x01
0.175820875000000,682,0x20,0x01
0.175895375000000,682,0x00,0x01
0.175976750000000,683,0x07,0x00
0.176051125000000,683,0x01,0x01
0.176125625000000,683,0x46,0x01
0.176456375000000,684,0x07,0x0D
0.176529875000000,684,0x00,0x0D
0.176603750000000,684,0x00,0x81
0.176682750000000,685,0x32,0x01
0.176757125000000,685,0x00,0x01
0.176831625000000,685,0x00,0x01
0.176914000000000,686,0x34,0x00
0.176988375000000,686,0x80,0x01
0.177062875000000,686,0x80,0x01
0.177145750000000,687,0x32,0x00
0.177220125000000,687,0x0A,0x01
0.177294625000000,687,0x00,0x01
0.177374500000000,688,0x32,0x01
0.177449000000000,688,0x00,0x01
0.177523500000000,688,0x20,0x01
0.177603375000000,689,0x32,0x00
0.177677750000000,689,0x20,0x01
0.177752250000000,689,0x20,0x01
0.177832125000000,690,0x32,0x01
0.177906625000000,690,0x20,0x01
0.177981125000000,690,0x60,0x01
0.178061000000000,691,0x32,0x01
0.178135375000000,691,0x20,0x01
0.178209875000000,691,0x00,0x01
0.178291250000000,692,0x07,0x01
0.178365750000000,692,0x01,0x01
0.178440125000000,692,0x00,0x01
0.178771875000000,693,0x07,0x0F
0.178844875000000,693,0x00,0x01
0.178919375000000,693,0x28,0x01
0.178998250000000,694,0x32,0x01
0.179072625000000,694,0x00,0x81
0.179147125000000,694,0x00,0x01
0.179229500000000,695,0x34,0x01
0.179304000000000,695,0x80,0x00
0.179378375000000,695,0x80,0x01
0.179461250000000,696,0x32,0x01
0.179535750000000,696,0x0A,0x01
0.179610125000000,696,0x00,0x01
0.179690000000000,697,0x32,0x01
0.179764500000000,697,0x00,0x01
0.179839000000000,697,0x20,0x01
0.179918875000000,698,0x32,0x01
0.179993375000000,698,0x20,0x01
0.180067750000000,698,0x20,0x81
0.180147625000000,699,0x32,0x01
0.180222125000000,699,0x20,0x01
0.180296625000000,699,0x60,0x01
0.180376500000000,700,0x32,0x01
0.180451000000000,700,0x20,0x01
0.180525375000000,700,0x00,0x81
0.180606750000000,701,0x07,0x01
0.180681250000000,701,0x01,0x01
0.180755750000000,701,0x28,0x01
0.181088375000000,702,0x07,0x0F
0.181161375000000,702,0x00,0x01
0.181235875000000,702,0x0A,0x01
0.181314750000000,703,0x32,0x01
0.181389250000000,703,0x00,0x01
0.181463625000000,703,0x00,0x81
0.181546000000000,704,0x34,0x01
0.181620500000000,704,0x80,0x01
0.181695000000000,704,0x80,0x01
0.181777750000000,705,0x32,0x01
0.181852250000000,705,0x0A,0x01
0.181926750000000,705,0x00,0x00
0.182006625000000,706,0x32,0x01
0.182081000000000,706,0x00,0x01
0.182155500000000,706,0x20,0x01
0.182235375000000,707,0x32,0x01
0.182309875000000,707,0x20,0x01
0.182384375000000,707,0x20,0x01
0.182464250000000,708,0x32,0x01
0.182538625000000,708,0x20,0x01
0.182613125000000,708,0x60,0x01
0.182693000000000,709,0x32,0x01
0.182767500000000,709,0x20,0x01
0.182842000000000,709,0x00,0x01
0.182923250000000,710,0x07,0x81
0.182997750000000,710,0x01,0x01
0.183072250000000,710,0x0A,0x01
0.183405875000000,711,0x07,0x0F
0.183478875000000,711,0x00,0x01
0.183553375000000,711,0x32,0x01
0.183632250000000,712,0x32,0x01
0.183706750000000,712,0x00,0x01
0.183781250000000,712,0x00,0x00
0.183863500000000,713,0x34,0x01
0.183938000000000,713,0x80,0x01
0.184012500000000,713,0x80,0x01
0.184095250000000,714,0x32,0x01
0.184169750000000,714,0x0A,0x01
0.184244250000000,714,0x00,0x01
0.184324125000000,715,0x32,0x01
0.184398500000000,715,0x00,0x01
0.184473000000000,715,0x20,0x01
0.184552875000000,716,0x32,0x01
0.184627375000000,716,0x20,0x01
0.184701875000000,716,0x20,0x01
0.184781750000000,717,0x32,0x01
0.184856250000000,717,0x20,0x01
0.184930625000000,717,0x60,0x01
0.185010500000000,718,0x32,0x01
0.185085000000000,718,0x20,0x01
0.185159500000000,718,0x00,0x01
0.185240875000000,719,0x07,0x01
0.185315250000000,719,0x01,0x01
0.185389750000000,719,0x32,0x01
0.185724375000000,720,0x07,0x0F
0.185797375000000,720,0x00,0x01
0.185871875000000,720,0x14,0x01
0.185950750000000,721,0x32,0x01
0.186025250000000,721,0x00,0x01
0.186099625000000,721,0x00,0x01
0.186182000000000,722,0x34,0x01
0.186256500000000,722,0x80,0x01
0.186331000000000,722,0x80,0x01
0.186413750000000,723,0x32,0x01
0.186488250000000,723,0x0A,0x01
0.186562750000000,723,0x00,0x01
0.186642500000000,724,0x32,0x81
0.186717000000000,724,0x00,0x01
0.186791500000000,724,0x20,0x01
0.186871375000000,725,0x32,0x01
0.186945875000000,725,0x20,0x01
0.187020375000000,725,0x20,0x00
0.187100125000000,726,0x32,0x81
0.187174625000000,726,0x20,0x01
0.187249125000000,726,0x60,0x01
0.187329000000000,727,0x32,0x01
0.187403500000000,727,0x20,0x01
0.187478000000000,727,0x00,0x01
0.187559250000000,728,0x07,0x01
0.187633750000000,728,0x01,0x01
0.187708250000000,728,0x14,0x01
0.188043875000000,729,0x07,0x0F
0.188116875000000,729,0x00,0x01
0.188191250000000,729,0x3C,0x01
0.188270250000000,730,0x32,0x01
0.188344625000000,730,0x00,0x01
0.188419125000000,730,0x00,0x01
0.188501500000000,731,0x34,0x01
0.188575875000000,731,0x80,0x01
0.188650375000000,731,0x80,0x01
0.188733250000000,732,0x32,0x01
0.188807625000000,732,0x0A,0x01
0.188882125000000,732,0x00,0x01
0.188962000000000,733,0x32,0x01
0.189036500000000,733,0x00,0x01
0.189111000000000,733,0x20,0x01
0.189190875000000,734,0x32,0x01
0.189265375000000,734,0x20,0x00
0.189339750000000,734,0x20,0x01
0.189419625000000,735,0x32,0x01
0.189494125000000,735,0x20,0x01
0.189568625000000,735,0x60,0x01
0.189648500000000,736,0x32,0x01
0.189723000000000,736,0x20,0x01
0.189797375000000,736,0x00,0x81
0.189878750000000,737,0x07,0x01
0.189953250000000,737,0x01,0x01
0.190027750000000,737,0x3C,0x01
0.190364250000000,738,0x07,0x0D
0.190437750000000,738,0x00,0x01
0.190512250000000,738,0x1E,0x01
0.190591125000000,739,0x32,0x01
0.190665625000000,739,0x00,0x01
0.190740125000000,739,0x00,0x01
0.190822375000000,740,0x34,0x01
0.190896875000000,740,0x80,0x01
0.190971375000000,740,0x80,0x00
0.191054125000000,741,0x32,0x01
0.191128625000000,741,0x0A,0x01
0.191203125000000,741,0x00,0x01
0.191282875000000,742,0x32,0x81
0.191357375000000,742,0x00,0x01
0.191431875000000,742,0x20,0x01
0.191511750000000,743,0x32,0x01
0.191586250000000,743,0x20,0x01
0.191660750000000,743,0x20,0x01
0.191740625000000,744,0x32,0x01
0.191815000000000,744,0x20,0x01
0.191889500000000,744,0x60,0x01
0.191969375000000,745,0x32,0x01
0.192043875000000,745,0x20,0x01
0.192118375000000,745,0x00,0x01
0.192199625000000,746,0x07,0x01
0.192274125000000,746,0x01,0x01
0.192348625000000,746,0x1E,0x01
0.192686125000000,747,0x07,0x0F
0.192759125000000,747,0x00,0x01
0.192833625000000,747,0x46,0x01
0.192912500000000,748,0x32,0x01
0.192987000000000,748,0x00,0x01
0.193061500000000,748,0x00,0x01
0.193143750000000,749,0x34,0x01
0.193218250000000,749,0x80,0x01
0.193292750000000,749,0x80,0x01
0.193375500000000,750,0x32,0x81
0.193450000000000,750,0x0A,0x01
0.193524500000000,750,0x00,0x01
0.193604375000000,751,0x32,0x01
0.193678875000000,751,0x00,0x01
0.193753375000000,751,0x20,0x01
0.193833250000000,752,0x32,0x00
0.193907625000000,752,0x20,0x01
0.193982125000000,752,0x20,0x01
0.194062000000000,753,0x32,0x01
0.194136500000000,753,0x20,0x01
0.194211000000000,753,0x60,0x01
0.194290875000000,754,0x32,0x01
0.194365250000000,754,0x20,0x01
0.194439750000000,754,0x00,0x01
0.194521125000000,755,0x07,0x01
0.194595625000000,755,0x01,0x01
0.194670125000000,755,0x46,0x01
0.195000750000000,756,0x07,0x0D
0.195074250000000,756,0x00,0x09
0.195148250000000,756,0x00,0x01
0.195227125000000,757,0x32,0x01
0.195301625000000,757,0x00,0x01
0.195376125000000,757,0x00,0x01
0.195458375000000,758,0x34,0x01
0.195532875000000,758,0x80,0x01
0.195607375000000,758,0x80,0x01
0.195690125000000,759,0x32,0x01
0.195764625000000,759,0x0A,0x01
0.195839125000000,759,0x00,0x01
0.195919000000000,760,0x32,0x01
0.195993500000000,760,0x00,0x01
0.196068000000000,760,0x20,0x01
0.196147750000000,761,0x32,0x81
0.196222250000000,761,0x20,0x01
0.196296750000000,761,0x20,0x01
0.196376625000000,762,0x32,0x01
0.196451125000000,762,0x20,0x01
0.196525625000000,762,0x60,0x01
0.196605500000000,763,0x32,0x01
0.196679875000000,763,0x20,0x01
0.196754375000000,763,0x00,0x01
0.196835750000000,764,0x07,0x01
0.196910250000000,764,0x01,0x01
0.196984750000000,764,0x00,0x01
0.197316375000000,765,0x07,0x0F
0.197389375000000,765,0x00,0x01
0.197463875000000,765,0x28,0x01
0.197542750000000,766,0x32,0x01
0.197617250000000,766,0x00,0x01
0.197691750000000,766,0x00,0x01
0.197774000000000,767,0x34,0x01
0.197848500000000,767,0x80,0x01
0.197923000000000,767,0x80,0x01
0.198005750000000,768,0x32,0x01
0.198080250000000,768,0x0A,0x01
0.198154750000000,768,0x00,0x01
0.198234625000000,769,0x32,0x01
0.198309125000000,769,0x00,0x00
0.198383500000000,769,0x20,0x01
0.198463375000000,770,0x32,0x01
0.198537875000000,770,0x20,0x01
0.198612375000000,770,0x20,0x01
0.198692250000000,771,0x32,0x01
0.198766750000000,771,0x20,0x01
0.198841250000000,771,0x60,0x00
0.198921000000000,772,0x32,0x81
0.198995500000000,772,0x20,0x01
0.199070000000000,772,0x00,0x01
0.199151375000000,773,0x07,0x01
0.199225875000000,773,0x01,0x00
0.199300250000000,773,0x28,0x01
0.199633000000000,774,0x07,0x0F
0.199706000000000,774,0x00,0x01
0.199780500000000,774,0x0A,0x01
0.199859375000000,775,0x32,0x01
0.199933750000000,775,0x00,0x01
0.200008250000000,775,0x00,0x01
0.200090625000000,776,0x34,0x01
0.200165125000000,776,0x80,0x00
0.200239500000000,776,0x80,0x01
0.200322375000000,777,0x32,0x01
0.200396875000000,777,0x0A,0x01
0.200471250000000,777,0x00,0x81
0.200551125000000,778,0x32,0x01
0.200625625000000,778,0x00,0x01
0.200700125000000,778,0x20,0x01
0.200780000000000,779,0x32,0x01
0.200854500000000,779,0x20,0x01
0.200929000000000,779,0x20,0x00
0.201008750000000,780,0x32,0x81
0.201083250000000,780,0x20,0x01
0.201157750000000,780,0x60,0x01
0.201237625000000,781,0x32,0x01
0.201312125000000,781,0x20,0x01
0.201386625000000,781,0x00,0x01
0.201467875000000,782,0x07,0x01
0.201542375000000,782,0x01,0x01
0.201616875000000,782,0x0A,0x01
0.201950500000000,783,0x07,0x0F
0.202023500000000,783,0x00,0x01
0.202098000000000,783,0x32,0x01
0.202176875000000,784,0x32,0x01
0.202251375000000,784,0x00,0x01
0.202325750000000,784,0x00,0x01
0.202408125000000,785,0x34,0x01
0.202482625000000,785,0x80,0x01
0.202557000000000,785,0x80,0x01
0.202639875000000,786,0x32,0x01
0.202714375000000,786,0x0A,0x01
0.202788750000000,786,0x00,0x01
0.202868625000000,787,0x32,0x01
0.202943125000000,787,0x00,0x01
0.203017625000000,787,0x20,0x01
0.203097500000000,788,0x32,0x01
0.203172000000000,788,0x20,0x01
0.203246500000000,788,0x20,0x01
0.203326250000000,789,0x32,0x01
0.203400750000000,789,0x20,0x01
0.203475250000000,789,0x60,0x01
0.203555125000000,790,0x32,0x01
0.203629625000000,790,0x20,0x01
0.203704000000000,790,0x00,0x81
0.203785375000000,791,0x07,0x01
0.203859875000000,791,0x01,0x01
0.203934375000000,791,0x32,0x01
0.204269000000000,792,0x07,0x0F
0.204342000000000,792,0x00,0x01
0.204416375000000,792,0x14,0x01
0.204495250000000,793,0x32,0x81
0.204569750000000,793,0x00,0x01
0.204644250000000,793,0x00,0x01
0.204726625000000,794,0x34,0x01
0.204801000000000,794,0x80,0x01
0.204875500000000,794,0x80,0x01
0.204958250000000,795,0x32,0x81
0.205032750000000,795,0x0A,0x01
0.205107250000000,795,0x00,0x01
0.205187125000000,796,0x32,0x01
0.205261625000000,796,0x00,0x01
0.205336125000000,796,0x20,0x00
0.205415875000000,797,0x32,0x81
0.205490375000000,797,0x20,0x01
0.205564875000000,797,0x20,0x01
0.205644750000000,798,0x32,0x01
0.205719250000000,798,0x20,0x01
0.205793750000000,798,0x60,0x01
0.205873500000000,799,0x32,0x81
0.205948000000000,799,0x20,0x01
0.206022500000000,799,0x00,0x01
0.206103875000000,800,0x07,0x01
0.206178250000000,800,0x01,0x81
0.206252750000000,800,0x14,0x01
0.206588375000000,801,0x07,0x0F
0.206661375000000,801,0x00,0x01
0.206735875000000,801,0x3C,0x01
0.206814750000000,802,0x32,0x01
0.206889250000000,802,0x00,0x00
0.206963625000000,802,0x00,0x01
0.207046000000000,803,0x34,0x01
0.207120500000000,803,0x80,0x01
0.207194875000000,803,0x80,0x81
0.207277750000000,804,0x32,0x01
0.207352250000000,804,0x0A,0x01
0.207426625000000,804,0x00,0x81
0.207506500000000,805,0x32,0x01
0.207581000000000,805,0x00,0x01
0.207655500000000,805,0x20,0x01
0.207735375000000,806,0x32,0x01
0.207809875000000,806,0x20,0x01
0.207884250000000,806,0x20,0x01
0.207964125000000,807,0x32,0x01
0.208038625000000,807,0x20,0x01
0.208113125000000,807,0x60,0x01
0.208193000000000,808,0x32,0x01
0.208267500000000,808,0x20,0x00
0.208341875000000,808,0x00,0x01
0.208423250000000,809,0x07,0x01
0.208497750000000,809,0x01,0x01
0.208572250000000,809,0x3C,0x01
0.208908750000000,810,0x07,0x05
0.208982250000000,810,0x00,0x01
0.209056750000000,810,0x1E,0x01
0.209135625000000,811,0x32,0x01
0.209210125000000,811,0x00,0x01
0.209284625000000,811,0x00,0x01
0.209366875000000,812,0x34,0x01
0.209441375000000,812,0x80,0x01
0.209515875000000,812,0x80,0x01
0.209598625000000,813,0x32,0x01
0.209673125000000,813,0x0A,0x01
0.209747625000000,813,0x00,0x01
0.209827500000000,814,0x32,0x01
0.209901875000000,814,0x00,0x01
0.209976375000000,814,0x20,0x01
0.210056250000000,815,0x32,0x01
0.210130750000000,815,0x20,0x01
0.210205250000000,815,0x20,0x01
0.210285125000000,816,0x32,0x01
0.210359500000000,816,0x20,0x81
0.210434000000000,816,0x60,0x01
0.210513875000000,817,0x32,0x01
0.210588375000000,817,0x20,0x01
0.210662875000000,817,0x00,0x01
0.210744125000000,818,0x07,0x01
0.210818625000000,818,0x01,0x01
0.210893125000000,818,0x1E,0x01
0.211230625000000,819,0x07,0x0F
0.211303625000000,819,0x00,0x01
0.211378125000000,819,0x46,0x01
0.211457000000000,820,0x32,0x01
0.211531500000000,820,0x00,0x01
0.211606000000000,820,0x00,0x01
0.211688250000000,821,0x34,0x01
0.211762750000000,821,0x80,0x01
0.211837250000000,821,0x80,0x01
0.211920000000000,822,0x32,0x01
0.211994500000000,822,0x0A,0x01
0.212069000000000,822,0x00,0x01
0.212148875000000,823,0x32,0x01
0.212223375000000,823,0x00,0x01
0.212297750000000,823,0x20,0x81
0.212377625000000,824,0x32,0x01
0.212452125000000,824,0x20,0x01
0.212526625000000,824,0x20,0x01
0.212606500000000,825,0x32,0x01
0.212681000000000,825,0x20,0x01
0.212755500000000,825,0x60,0x01
0.212835250000000,826,0x32,0x01
0.212909750000000,826,0x20,0x01
0.212984250000000,826,0x00,0x01
0.213065625000000,827,0x07,0x01
0.213140125000000,827,0x01,0x01
0.213214500000000,827,0x46,0x01
0.213545250000000,828,0x07,0x0D
0.213618750000000,828,0x00,0x09
0.213692750000000,828,0x00,0x01
0.213771625000000,829,0x32,0x01
0.213846125000000,829,0x00,0x00
0.213920500000000,829,0x00,0x01
0.214002875000000,830,0x34,0x01
0.214077375000000,830,0x80,0x01
0.214151750000000,830,0x80,0x01
0.214234625000000,831,0x32,0x01
0.214309125000000,831,0x0A,0x01
0.214383500000000,831,0x00,0x01
0.214463375000000,832,0x32,0x01
0.214537875000000,832,0x00,0x01
0.214612375000000,832,0x20,0x01
0.214692250000000,833,0x32,0x01
0.214766750000000,833,0x20,0x00
0.214841125000000,833,0x20,0x01
0.214921000000000,834,0x32,0x01
0.214995500000000,834,0x20,0x01
0.215070000000000,834,0x60,0x01
0.215149875000000,835,0x32,0x01
0.215224375000000,835,0x20,0x01
0.215298750000000,835,0x00,0x01
0.215380125000000,836,0x07,0x01
0.215454625000000,836,0x01,0x01
0.215529125000000,836,0x00,0x00
0.215860750000000,837,0x07,0x0F
0.215933750000000,837,0x00,0x01
0.216008250000000,837,0x28,0x01
0.216087125000000,838,0x32,0x01
0.216161625000000,838,0x00,0x01
0.216236000000000,838,0x00,0x01
0.216318375000000,839,0x34,0x01
0.216392875000000,839,0x80,0x01
0.216467250000000,839,0x80,0x81
0.216550125000000,840,0x32,0x01
0.216624625000000,840,0x0A,0x01
0.216699000000000,840,0x00,0x81
0.216778875000000,841,0x32,0x01
0.216853375000000,841,0x00,0x01
0.216927875000000,841,0x20,0x01
0.217007750000000,842,0x32,0x01
0.217082250000000,842,0x20,0x01
0.217156625000000,842,0x20,0x01
0.217236500000000,843,0x32,0x01
0.217311000000000,843,0x20,0x01
0.217385500000000,843,0x60,0x01
0.217465375000000,844,0x32,0x01
0.217539875000000,844,0x20,0x01
0.217614250000000,844,0x00,0x01
0.217695625000000,845,0x07,0x01
0.217770125000000,845,0x01,0x01
0.217844625000000,845,0x28,0x01
0.218177250000000,846,0x07,0x0F
0.218250250000000,846,0x00,0x01
0.218324750000000,846,0x0A,0x01
0.218403625000000,847,0x32,0x01
0.218478125000000,847,0x00,0x01
0.218552500000000,847,0x00,0x01
0.218634875000000,848,0x34,0x01
0.218709375000000,848,0x80,0x01
0.218783875000000,848,0x80,0x01
0.218866625000000,849,0x32,0x01
0.218941125000000,849,0x0A,0x01
0.219015625000000,849,0x00,0x00
0.219095375000000,850,0x32,0x81
0.219169875000000,850,0x00,0x01
0.219244375000000,850,0x20,0x01
0.219324250000000,851,0x32,0x01
0.219398750000000,851,0x20,0x01
0.219473250000000,851,0x20,0x01
0.219553000000000,852,0x32,0x01
0.219627500000000,852,0x20,0x01
0.219702000000000,852,0x60,0x01
0.219781875000000,853,0x32,0x01
0.219856375000000,853,0x20,0x01
0.219930875000000,853,0x00,0x01
0.220012125000000,854,0x07,0x01
0.220086625000000,854,0x01,0x01
0.220161125000000,854,0x0A,0x01
0.220494750000000,855,0x07,0x0F
0.220567750000000,855,0x00,0x01
0.220642250000000,855,0x32,0x01
0.220721125000000,856,0x32,0x01
0.220795625000000,856,0x00,0x01
0.220870000000000,856,0x00,0x01
0.220952375000000,857,0x34,0x01
0.221026875000000,857,0x80,0x00
0.221101250000000,857,0x80,0x01
0.221184125000000,858,0x32,0x01
0.221258625000000,858,0x0A,0x01
0.221333000000000,858,0x00,0x01
0.221412875000000,859,0x32,0x01
0.221487375000000,859,0x00,0x01
0.221561875000000,859,0x20,0x01
0.221641750000000,860,0x32,0x01
0.221716250000000,860,0x20,0x01
0.221790750000000,860,0x20,0x01
0.221870500000000,861,0x32,0x01
0.221945000000000,861,0x20,0x01
0.222019500000000,861,0x60,0x01
0.222099375000000,862,0x32,0x01
0.222173875000000,862,0x20,0x01
0.222248375000000,862,0x00,0x01
0.222329625000000,863,0x07,0x01
0.222404125000000,863,0x01,0x01
0.222478625000000,863,0x32,0x01
0.222813250000000,864,0x07,0x0F
0.222886250000000,864,0x00,0x01
0.222960625000000,864,0x14,0x81
0.223039625000000,865,0x32,0x01
0.223114000000000,865,0x00,0x01
0.223188500000000,865,0x00,0x01
0.223270875000000,866,0x34,0x01
0.223345250000000,866,0x80,0x81
0.223419750000000,866,0x80,0x01
0.223502625000000,867,0x32,0x01
0.223577125000000,867,0x0A,0x01
0.223651500000000,867,0x00,0x01
0.223731375000000,868,0x32,0x01
0.223805875000000,868,0x00,0x01
0.223880375000000,868,0x20,0x01
0.223960250000000,869,0x32,0x01
0.224034750000000,869,0x20,0x00
0.224109125000000,869,0x20,0x01
0.224189000000000,870,0x32,0x01
0.224263500000000,870,0x20,0x01
0.224338000000000,870,0x60,0x01
0.224417875000000,871,0x32,0x01
0.224492375000000,871,0x20,0x01
0.224566750000000,871,0x00,0x81
0.224648125000000,872,0x07,0x01
0.224722625000000,872,0x01,0x01
0.224797125000000,872,0x14,0x01
0.225132625000000,873,0x07,0x8F
0.225205625000000,873,0x00,0x81
0.225280125000000,873,0x3C,0x01
0.225359000000000,874,0x32,0x01
0.225433500000000,874,0x00,0x01
0.225508000000000,874,0x00,0x01
0.225590250000000,875,0x34,0x01
0.225664750000000,875,0x80,0x01
0.225739250000000,875,0x80,0x01
0.225822000000000,876,0x32,0x81
0.225896500000000,876,0x0A,0x01
0.225971000000000,876,0x00,0x01
0.226050875000000,877,0x32,0x01
0.226125375000000,877,0x00,0x01
0.226199875000000,877,0x20,0x01
0.226279750000000,878,0x32,0x01
0.226354125000000,878,0x20,0x01
0.226428625000000,878,0x20,0x01
0.226508500000000,879,0x32,0x01
0.226583000000000,879,0x20,0x01
0.226657500000000,879,0x60,0x01
0.226737250000000,880,0x32,0x81
0.226811750000000,880,0x20,0x01
0.226886250000000,880,0x00,0x01
0.226967625000000,881,0x07,0x01
0.227042125000000,881,0x01,0x00
0.227116500000000,881,0x3C,0x01
0.227453125000000,882,0x07,0x0F
0.227526625000000,882,0x00,0x01
0.227601125000000,882,0x1E,0x01
0.227680000000000,883,0x32,0x01
0.227754500000000,883,0x00,0x01
0.227828875000000,883,0x00,0x01
0.227911250000000,884,0x34,0x01
0.227985750000000,884,0x80,0x01
0.228060125000000,884,0x80,0x81
0.228143000000000,885,0x32,0x01
0.228217500000000,885,0x0A,0x01
0.228292000000000,885,0x00,0x01
0.228371750000000,886,0x32,0x01
0.228446250000000,886,0x00,0x01
0.228520750000000,886,0x20,0x01
0.228600625000000,887,0x32,0x01
0.228675125000000,887,0x20,0x01
0.228749500000000,887,0x20,0x01
0.228829375000000,888,0x32,0x01
0.228903875000000,888,0x20,0x01
0.228978375000000,888,0x60,0x01
0.229058250000000,889,0x32,0x01
0.229132750000000,889,0x20,0x01
0.229207250000000,889,0x00,0x01
0.229288500000000,890,0x07,0x01
0.229363000000000,890,0x01,0x01
0.229437500000000,890,0x1E,0x01
0.229775000000000,891,0x07,0x0F
0.229848000000000,891,0x00,0x01
0.229922500000000,891,0x46,0x01
0.230001375000000,892,0x32,0x01
0.230075875000000,892,0x00,0x01
0.230150250000000,892,0x00,0x01
0.230232625000000,893,0x34,0x01
0.230307125000000,893,0x80,0x01
0.230381500000000,893,0x80,0x81
0.230464375000000,894,0x32,0x01
0.230538875000000,894,0x0A,0x01
0.230613375000000,894,0x00,0x01
0.230693125000000,895,0x32,0x01
0.230767625000000,895,0x00,0x01
0.230842125000000,895,0x20,0x01
0.230922000000000,896,0x32,0x01
0.230996500000000,896,0x20,0x01
0.231070875000000,896,0x20,0x81
0.231150750000000,897,0x32,0x01
0.231225250000000,897,0x20,0x01
0.231299750000000,897,0x60,0x01
0.231379625000000,898,0x32,0x01
0.231454125000000,898,0x20,0x01
0.231528500000000,898,0x00,0x01
0.231609875000000,899,0x07,0x01
0.231684375000000,899,0x01,0x01
0.231758875000000,899,0x46,0x01
0.232089500000000,900,0x07,0x0D
0.232163000000000,900,0x00,0x09
0.232237000000000,900,0x00,0x01
0.232315875000000,901,0x32,0x01
0.232390375000000,901,0x00,0x01
0.232464875000000,901,0x00,0x01
0.232547125000000,902,0x34,0x01
0.232621625000000,902,0x80,0x01
0.232696125000000,902,0x80,0x01
0.232778875000000,903,0x32,0x01
0.232853375000000,903,0x0A,0x01
0.232927875000000,903,0x00,0x01
0.233007750000000,904,0x32,0x00
0.233082125000000,904,0x00,0x01
0.233156625000000,904,0x20,0x01
0.233236500000000,905,0x32,0x01
0.233311000000000,905,0x20,0x01
0.233385500000000,905,0x20,0x01
0.233465375000000,906,0x32,0x01
0.233539750000000,906,0x20,0x01
0.233614250000000,906,0x60,0x01
0.233694125000000,907,0x32,0x01
0.233768625000000,907,0x20,0x01
0.233843125000000,907,0x00,0x01
0.233924375000000,908,0x07,0x01
0.233998875000000,908,0x01,0x01
0.234073375000000,908,0x00,0x01
0.234405000000000,909,0x07,0x0F
0.234478000000000,909,0x00,0x01
0.234552500000000,909,0x28,0x01
0.234631375000000,910,0x32,0x01
0.234705875000000,910,0x00,0x01
0.234780375000000,910,0x00,0x01
0.234862625000000,911,0x34,0x01
0.234937125000000,911,0x80,0x01
0.235011625000000,911,0x80,0x01
0.235094375000000,912,0x32,0x01
0.235168875000000,912,0x0A,0x01
0.235243375000000,912,0x00,0x01
0.235323250000000,913,0x32,0x01
0.235397625000000,913,0x00,0x81
0.235472125000000,913,0x20,0x01
0.235552000000000,914,0x32,0x01
0.235626500000000,914,0x20,0x01
0.235701000000000,914,0x20,0x01
0.235780875000000,915,0x32,0x01
0.235855250000000,915,0x20,0x01
0.235929750000000,915,0x60,0x01
0.236009625000000,916,0x32,0x01
0.236084125000000,916,0x20,0x01
0.236158625000000,916,0x00,0x01
0.236239875000000,917,0x07,0x01
0.236314375000000,917,0x01,0x01
0.236388875000000,917,0x28,0x01
0.236721500000000,918,0x07,0x0F
0.236794500000000,918,0x00,0x01
0.236869000000000,918,0x0A,0x01
0.236947875000000,919,0x32,0x01
0.237022375000000,919,0x00,0x01
0.237096750000000,919,0x00,0x81
0.237179125000000,920,0x34,0x01
0.237253625000000,920,0x80,0x01
0.237328125000000,920,0x80,0x01
0.237410875000000,921,0x32,0x01
0.237485375000000,921,0x0A,0x01
0.237559875000000,921,0x00,0x01
0.237639625000000,922,0x32,0x01
0.237714125000000,922,0x00,0x01
0.237788625000000,922,0x20,0x01
0.237868500000000,923,0x32,0x01
0.237943000000000,923,0x20,0x01
0.238017500000000,923,0x20,0x01
0.238097250000000,924,0x32,0x81
0.238171750000000,924,0x20,0x01
0.238246250000000,924,0x60,0x01
0.238326125000000,925,0x32,0x01
0.238400625000000,925,0x20,0x01
0.238475125000000,925,0x00,0x00
0.238556375000000,926,0x07,0x01
0.238630875000000,926,0x01,0x01
0.238705375000000,926,0x0A,0x01
0.239039000000000,927,0x07,0x0F
0.239112000000000,927,0x00,0x01
0.239186500000000,927,0x32,0x01
0.239265375000000,928,0x32,0x01
0.239339875000000,928,0x00,0x01
0.239414250000000,928,0x00,0x01
0.239496625000000,929,0x34,0x01
0.239571125000000,929,0x80,0x00
0.239645500000000,929,0x80,0x01
0.239728375000000,930,0x32,0x01
0.239802875000000,930,0x0A,0x01
0.239877250000000,930,0x00,0x01
0.239957125000000,931,0x32,0x01
0.240031625000000,931,0x00,0x01
0.240106125000000,931,0x20,0x01
0.240186000000000,932,0x32,0x01
0.240260500000000,932,0x20,0x01
0.240334875000000,932,0x20,0x01
0.240414750000000,933,0x32,0x01
0.240489250000000,933,0x20,0x01
0.240563750000000,933,0x60,0x01
0.240643625000000,934,0x32,0x01
0.240718125000000,934,0x20,0x01
0.240792500000000,934,0x00,0x81
0.240873875000000,935,0x07,0x01
0.240948375000000,935,0x01,0x01
0.241022875000000,935,0x32,0x01
0.241357500000000,936,0x07,0x0F
0.241430500000000,936,0x00,0x01
0.241504875000000,936,0x14,0x01
0.241583875000000,937,0x32,0x01
0.241658250000000,937,0x00,0x01
0.241732750000000,937,0x00,0x01
0.241815125000000,938,0x34,0x00
0.241889500000000,938,0x80,0x01
0.241964000000000,938,0x80,0x01
0.242046875000000,939,0x32,0x01
0.242121250000000,939,0x0A,0x01
0.242195750000000,939,0x00,0x01
0.242275625000000,940,0x32,0x01
0.242350125000000,940,0x00,0x01
0.242424625000000,940,0x20,0x01
0.242504500000000,941,0x32,0x01
0.242578875000000,941,0x20,0x01
0.242653375000000,941,0x20,0x01
0.242733250000000,942,0x32,0x01
0.242807750000000,942,0x20,0x01
0.242882250000000,942,0x60,0x01
0.242962125000000,943,0x32,0x01
0.243036500000000,943,0x20,0x01
0.243111000000000,943,0x00,0x01
0.243192375000000,944,0x07,0x01
0.243266875000000,944,0x01,0x01
0.243341250000000,944,0x14,0x81
0.243676875000000,945,0x07,0x0F
0.243749875000000,945,0x00,0x01
0.243824375000000,945,0x3C,0x01
0.243903250000000,946,0x32,0x01
0.243977750000000,946,0x00,0x01
0.244052250000000,946,0x00,0x01
0.244134500000000,947,0x34,0x01
0.244209000000000,947,0x80,0x01
0.244283500000000,947,0x80,0x01
0.244366250000000,948,0x32,0x01
0.244440750000000,948,0x0A,0x01
0.244515250000000,948,0x00,0x01
0.244595125000000,949,0x32,0x01
0.244669625000000,949,0x00,0x01
0.244744125000000,949,0x20,0x01
0.244824000000000,950,0x32,0x01
0.244898375000000,950,0x20,0x01
0.244972875000000,950,0x20,0x01
0.245052750000000,951,0x32,0x01
0.245127250000000,951,0x20,0x01
0.245201750000000,951,0x60,0x01
0.245281625000000,952,0x32,0x01
0.245356000000000,952,0x20,0x81
0.245430500000000,952,0x00,0x01
0.245511875000000,953,0x07,0x01
0.245586375000000,953,0x01,0x01
0.245660875000000,953,0x3C,0x01
0.245997375000000,954,0x07,0x05
0.246070875000000,954,0x00,0x01
0.246145375000000,954,0x1E,0x01
0.246224250000000,955,0x32,0x01
0.246298750000000,955,0x00,0x01
0.246373250000000,955,0x00,0x01
0.246455500000000,956,0x34,0x01
0.246530000000000,956,0x80,0x01
0.246604500000000,956,0x80,0x01
0.246687250000000,957,0x32,0x01
0.246761750000000,957,0x0A,0x01
0.246836250000000,957,0x00,0x01
0.246916125000000,958,0x32,0x01
0.246990625000000,958,0x00,0x00
0.247065000000000,958,0x20,0x01
0.247144875000000,959,0x32,0x01
0.247219375000000,959,0x20,0x01
0.247293875000000,959,0x20,0x01
0.247373750000000,960,0x32,0x01
0.247448250000000,960,0x20,0x01
0.247522625000000,960,0x60,0x01
0.247602500000000,961,0x32,0x01
0.247677000000000,961,0x20,0x01
0.247751500000000,961,0x00,0x01
0.247832875000000,962,0x07,0x01
0.247907250000000,962,0x01,0x01
0.247981750000000,962,0x1E,0x01
0.248319375000000,963,0x07,0x0F
0.248392375000000,963,0x00,0x01
0.248466875000000,963,0x46,0x01
0.248545750000000,964,0x32,0x00
0.248620125000000,964,0x00,0x01
0.248694625000000,964,0x00,0x01
0.248777000000000,965,0x34,0x01
0.248851500000000,965,0x80,0x01
0.248925875000000,965,0x80,0x01
0.249008750000000,966,0x32,0x01
0.249083250000000,966,0x0A,0x01
0.249157625000000,966,0x00,0x01
0.249237500000000,967,0x32,0x01
0.249312000000000,967,0x00,0x01
0.249386500000000,967,0x20,0x01
0.249466375000000,968,0x32,0x01
0.249540875000000,968,0x20,0x01
0.249615250000000,968,0x20,0x01
0.249695125000000,969,0x32,0x01
0.249769625000000,969,0x20,0x01
0.249844125000000,969,0x60,0x01
0.249924000000000,970,0x32,0x01
0.249998500000000,970,0x20,0x01
0.250073000000000,970,0x00,0x01
0.250154250000000,971,0x07,0x01
0.250228750000000,971,0x01,0x01
0.250303250000000,971,0x46,0x01
0.250633875000000,972,0x07,0x0C
0.250707375000000,972,0x00,0x09
0.250781375000000,972,0x00,0x01
0.250860250000000,973,0x32,0x01
0.250934750000000,973,0x00,0x01
0.251009250000000,973,0x00,0x01
0.251091500000000,974,0x34,0x81
0.251166000000000,974,0x80,0x01
0.251240500000000,974,0x80,0x01
0.251323250000000,975,0x32,0x81
0.251397750000000,975,0x0A,0x01
0.251472250000000,975,0x00,0x01
0.251552125000000,976,0x32,0x01
0.251626625000000,976,0x00,0x01
0.251701125000000,976,0x20,0x01
0.251781000000000,977,0x32,0x01
0.251855375000000,977,0x20,0x01
0.251929875000000,977,0x20,0x01
0.252009750000000,978,0x32,0x01
0.252084250000000,978,0x20,0x01
0.252158750000000,978,0x60,0x01
0.252238625000000,979,0x32,0x01
0.252313000000000,979,0x20,0x01
0.252387500000000,979,0x00,0x01
0.252468875000000,980,0x07,0x01
0.252543375000000,980,0x01,0x00
0.252617750000000,980,0x00,0x01
0.252949500000000,981,0x07,0x0F
0.253022500000000,981,0x00,0x01
0.253097000000000,981,0x28,0x01
0.253175875000000,982,0x32,0x00
0.253250250000000,982,0x00,0x01
0.253324750000000,982,0x00,0x01
0.253407125000000,983,0x34,0x01
0.253481500000000,983,0x80,0x01
0.253556000000000,983,0x80,0x01
0.253638875000000,984,0x32,0x01
0.253713375000000,984,0x0A,0x01
0.253787750000000,984,0x00,0x01
0.253867625000000,985,0x32,0x01
0.253942125000000,985,0x00,0x01
0.254016625000000,985,0x20,0x01
0.254096500000000,986,0x32,0x01
0.254170875000000,986,0x20,0x81
0.254245375000000,986,0x20,0x01
0.254325250000000,987,0x32,0x01
0.254399750000000,987,0x20,0x01
0.254474250000000,987,0x60,0x01
0.254554125000000,988,0x32,0x01
0.254628500000000,988,0x20,0x81
0.254703000000000,988,0x00,0x01
0.254784375000000,989,0x07,0x01
0.254858875000000,989,0x01,0x01
0.254933250000000,989,0x28,0x81
0.255266000000000,990,0x07,0x0F
0.255339000000000,990,0x00,0x01
0.255413500000000,990,0x0A,0x01
0.255492375000000,991,0x32,0x00
0.255566750000000,991,0x00,0x01
0.255641250000000,991,0x00,0x01
0.255723625000000,992,0x34,0x01
0.255798125000000,992,0x80,0x01
0.255872500000000,992,0x80,0x01
0.255955375000000,993,0x32,0x01
0.256029875000000,993,0x0A,0x01
0.256104250000000,993,0x00,0x01
0.256184125000000,994,0x32,0x01
0.256258625000000,994,0x00,0x01
0.256333125000000,994,0x20,0x01
0.256413000000000,995,0x32,0x01
0.256487500000000,995,0x20,0x00
0.256561875000000,995,0x20,0x01
0.256641750000000,996,0x32,0x01
0.256716250000000,996,0x20,0x01
0.256790750000000,996,0x60,0x01
0.256870625000000,997,0x32,0x01
0.256945125000000,997,0x20,0x01
0.257019625000000,997,0x00,0x01
0.257100875000000,998,0x07,0x01
0.257175375000000,998,0x01,0x01
0.257249875000000,998,0x0A,0x01
0.257583500000000,999,0x07,0x0F
0.257656500000000,999,0x00,0x01
0.257731000000000,999,0x32,0x01
0.257809875000000,1000,0x32,0x01
0.257884375000000,1000,0x00,0x01
0.257958750000000,1000,0x00,0x01
0.258041125000000,1001,0x34,0x01
0.258115625000000,1001,0x80,0x01
0.258190000000000,1001,0x80,0x01
0.258272875000000,1002,0x32,0x01
0.258347375000000,1002,0x0A,0x01
0.258421750000000,1002,0x00,0x01
0.258501625000000,1003,0x32,0x01
0.258576125000000,1003,0x00,0x01
0.258650625000000,1003,0x20,0x01
0.258730500000000,1004,0x32,0x01
0.258805000000000,1004,0x20,0x01
0.258879375000000,1004,0x20,0x81
0.258959250000000,1005,0x32,0x01
0.259033750000000,1005,0x20,0x01
0.259108250000000,1005,0x60,0x01
0.259188125000000,1006,0x32,0x01
0.259262625000000,1006,0x20,0x01
0.259337125000000,1006,0x00,0x01
0.259418375000000,1007,0x07,0x01
0.259492875000000,1007,0x01,0x01
0.259567375000000,1007,0x32,0x01
0.259902000000000,1008,0x07,0x0F
0.259975000000000,1008,0x00,0x01
0.260049500000000,1008,0x14,0x01
0.260128375000000,1009,0x32,0x00
0.260202750000000,1009,0x00,0x01
0.260277250000000,1009,0x00,0x01
0.260359625000000,1010,0x34,0x01
0.260434000000000,1010,0x80,0x81
0.260508500000000,1010,0x80,0x01
0.260591375000000,1011,0x32,0x01
0.260665875000000,1011,0x0A,0x01
0.260740250000000,1011,0x00,0x01
0.260820125000000,1012,0x32,0x01
0.260894625000000,1012,0x00,0x01
0.260969125000000,1012,0x20,0x01
0.261049000000000,1013,0x32,0x01
0.261123500000000,1013,0x20,0x00
0.261197875000000,1013,0x20,0x01
0.261277750000000,1014,0x32,0x01
0.261352250000000,1014,0x20,0x01
0.261426750000000,1014,0x60,0x01
0.261506625000000,1015,0x32,0x01
0.261581125000000,1015,0x20,0x01
0.261655500000000,1015,0x00,0x01
0.261736875000000,1016,0x07,0x01
0.261811375000000,1016,0x01,0x01
0.261885875000000,1016,0x14,0x01
0.262221375000000,1017,0x07,0x8F
0.262294500000000,1017,0x00,0x01
0.262368875000000,1017,0x3C,0x01
0.262447750000000,1018,0x32,0x01
0.262522250000000,1018,0x00,0x01
0.262596750000000,1018,0x00,0x01
0.262679125000000,1019,0x34,0x01
0.262753500000000,1019,0x80,0x01
0.262828000000000,1019,0x80,0x01
0.262910875000000,1020,0x32,0x00
0.262985250000000,1020,0x0A,0x01
0.263059750000000,1020,0x00,0x01
0.263139625000000,1021,0x32,0x01
0.263214125000000,1021,0x00,0x01
0.263288625000000,1021,0x20,0x01
0.263368500000000,1022,0x32,0x01
0.263443000000000,1022,0x20,0x01
0.263517375000000,1022,0x20,0x01
0.263597250000000,1023,0x32,0x01
0.263671750000000,1023,0x20,0x01
0.263746250000000,1023,0x60,0x01
0.263826125000000,1024,0x32,0x01
0.263900625000000,1024,0x20,0x00
0.263975000000000,1024,0x00,0x01
0.264056375000000,1025,0x07,0x01
0.264130875000000,1025,0x01,0x01
0.264205375000000,1025,0x3C,0x00
0.264541875000000,1026,0x07,0x0D
0.264615375000000,1026,0x00,0x01
0.264689875000000,1026,0x1E,0x01
0.264768750000000,1027,0x32,0x01
0.264843250000000,1027,0x00,0x01
0.264917750000000,1027,0x00,0x01
0.265000000000000,1028,0x34,0x01
0.265074500000000,1028,0x80,0x01
0.265149000000000,1028,0x80,0x01
0.265231750000000,1029,0x32,0x01
0.265306250000000,1029,0x0A,0x01
0.265380750000000,1029,0x00,0x01
0.265460625000000,1030,0x32,0x01
0.265535125000000,1030,0x00,0x01
0.265609500000000,1030,0x20,0x01
0.265689375000000,1031,0x32,0x01
0.265763875000000,1031,0x20,0x01
0.265838375000000,1031,0x20,0x01
0.265918250000000,1032,0x32,0x01
0.265992750000000,1032,0x20,0x00
0.266067125000000,1032,0x60,0x01
0.266147000000000,1033,0x32,0x01
0.266221500000000,1033,0x20,0x01
0.266296000000000,1033,0x00,0x01
0.266377375000000,1034,0x07,0x00
0.266451750000000,1034,0x01,0x01
0.266526250000000,1034,0x1E,0x01
0.266863875000000,1035,0x07,0x0F
0.266936875000000,1035,0x00,0x01
0.267011375000000,1035,0x46,0x00
0.267090250000000,1036,0x32,0x01
0.267164625000000,1036,0x00,0x01
0.267239125000000,1036,0x00,0x01
0.267321500000000,1037,0x34,0x01
0.267396000000000,1037,0x80,0x01
0.267470375000000,1037,0x80,0x01
0.267553250000000,1038,0x32,0x01
0.267627750000000,1038,0x0A,0x01
0.267702125000000,1038,0x00,0x01
0.267782000000000,1039,0x32,0x01
0.267856500000000,1039,0x00,0x01
0.267931000000000,1039,0x20,0x01
0.268010875000000,1040,0x32,0x01
0.268085375000000,1040,0x20,0x00
0.268159750000000,1040,0x20,0x01
0.268239625000000,1041,0x32,0x01
0.268314125000000,1041,0x20,0x01
0.268388625000000,1041,0x60,0x01
0.268468500000000,1042,0x32,0x01
0.268543000000000,1042,0x20,0x01
0.268617375000000,1042,0x00,0x01
0.268698750000000,1043,0x07,0x01
0.268773250000000,1043,0x01,0x01
0.268847750000000,1043,0x46,0x01
0.269178375000000,1044,0x07,0x0D
0.269251875000000,1044,0x00,0x09
0.269325875000000,1044,0x00,0x01
0.269404750000000,1045,0x32,0x01
0.269479250000000,1045,0x00,0x01
0.269553750000000,1045,0x00,0x01
0.269636000000000,1046,0x34,0x01
0.269710500000000,1046,0x80,0x01
0.269785000000000,1046,0x80,0x01
0.269867750000000,1047,0x32,0x01
0.269942250000000,1047,0x0A,0x01
0.270016750000000,1047,0x00,0x01
0.270096625000000,1048,0x32,0x01
0.270171125000000,1048,0x00,0x01
0.270245500000000,1048,0x20,0x01
0.270325375000000,1049,0x32,0x01
0.270399875000000,1049,0x20,0x01
0.270474375000000,1049,0x20,0x01
0.270554250000000,1050,0x32,0x01
0.270628750000000,1050,0x20,0x01
0.270703125000000,1050,0x60,0x01
0.270783000000000,1051,0x32,0x01
0.270857500000000,1051,0x20,0x01
0.270932000000000,1051,0x00,0x01
0.271013375000000,1052,0x07,0x01
0.271087750000000,1052,0x01,0x01
0.271162250000000,1052,0x00,0x01
0.271494000000000,1053,0x07,0x0F
0.271567000000000,1053,0x00,0x01
0.271641375000000,1053,0x28,0x01
0.271720250000000,1054,0x32,0x01
0.271794750000000,1054,0x00,0x01
0.271869250000000,1054,0x00,0x01
0.271951500000000,1055,0x34,0x81
0.272026000000000,1055,0x80,0x01
0.272100500000000,1055,0x80,0x01
0.272183250000000,1056,0x32,0x01
0.272257750000000,1056,0x0A,0x01
0.272332250000000,1056,0x00,0x01
0.272412125000000,1057,0x32,0x01
0.272486625000000,1057,0x00,0x01
0.272561125000000,1057,0x20,0x01
0.272640875000000,1058,0x32,0x01
0.272715375000000,1058,0x20,0x01
0.272789875000000,1058,0x20,0x01
0.272869750000000,1059,0x32,0x01
0.272944250000000,1059,0x20,0x01
0.273018625000000,1059,0x60,0x81
0.273098500000000,1060,0x32,0x01
0.273173000000000,1060,0x20,0x01
0.273247500000000,1060,0x00,0x01
0.273328875000000,1061,0x07,0x00
0.273403250000000,1061,0x01,0x01
0.273477750000000,1061,0x28,0x01
0.273810375000000,1062,0x07,0x0F
0.273883375000000,1062,0x00,0x81
0.273957875000000,1062,0x0A,0x01
0.274036750000000,1063,0x32,0x01
0.274111250000000,1063,0x00,0x01
0.274185750000000,1063,0x00,0x01
0.274268000000000,1064,0x34,0x01
0.274342500000000,1064,0x80,0x01
0.274417000000000,1064,0x80,0x01
0.274499750000000,1065,0x32,0x81
0.274574250000000,1065,0x0A,0x01
0.274648750000000,1065,0x00,0x01
0.274728625000000,1066,0x32,0x01
0.274803125000000,1066,0x00,0x01
0.274877625000000,1066,0x20,0x01
0.274957500000000,1067,0x32,0x01
0.275031875000000,1067,0x20,0x01
0.275106375000000,1067,0x20,0x01
0.275186250000000,1068,0x32,0x01
0.275260750000000,1068,0x20,0x01
0.275335250000000,1068,0x60,0x01
0.275415125000000,1069,0x32,0x01
0.275489500000000,1069,0x20,0x01
0.275564000000000,1069,0x00,0x01
0.275645375000000,1070,0x07,0x01
0.275719875000000,1070,0x01,0x01
0.275794250000000,1070,0x0A,0x81
0.276128000000000,1071,0x07,0x0F
0.276201000000000,1071,0x00,0x01
0.276275375000000,1071,0x32,0x01
0.276354250000000,1072,0x32,0x81
0.276428750000000,1072,0x00,0x01
0.276503250000000,1072,0x00,0x01
0.276585625000000,1073,0x34,0x00
0.276660000000000,1073,0x80,0x01
0.276734500000000,1073,0x80,0x01
0.276817375000000,1074,0x32,0x01
0.276891750000000,1074,0x0A,0x01
0.276966250000000,1074,0x00,0x01
0.277046125000000,1075,0x32,0x01
0.277120625000000,1075,0x00,0x01
0.277195125000000,1075,0x20,0x01
0.277275000000000,1076,0x32,0x01
0.277349500000000,1076,0x20,0x01
0.277423875000000,1076,0x20,0x01
0.277503750000000,1077,0x32,0x01
0.277578250000000,1077,0x20,0x01
0.277652750000000,1077,0x60,0x01
0.277732625000000,1078,0x32,0x01
0.277807125000000,1078,0x20,0x01
0.277881500000000,1078,0x00,0x01
0.277962875000000,1079,0x07,0x01
0.278037375000000,1079,0x01,0x01
0.278111875000000,1079,0x32,0x01
0.278446500000000,1080,0x07,0x0F
0.278519500000000,1080,0x00,0x01
0.278593875000000,1080,0x14,0x01
0.278672875000000,1081,0x32,0x01
0.278747250000000,1081,0x00,0x01
0.278821750000000,1081,0x00,0x01
0.278904125000000,1082,0x34,0x01
0.278978500000000,1082,0x80,0x01
0.279053000000000,1082,0x80,0x01
0.279135875000000,1083,0x32,0x01
0.279210250000000,1083,0x0A,0x01
0.279284750000000,1083,0x00,0x01
0.279364625000000,1084,0x32,0x01
0.279439125000000,1084,0x00,0x01
0.279513625000000,1084,0x20,0x01
0.279593500000000,1085,0x32,0x01
0.279667875000000,1085,0x20,0x81
0.279742375000000,1085,0x20,0x01
0.279822250000000,1086,0x32,0x01
0.279896750000000,1086,0x20,0x01
0.279971250000000,1086,0x60,0x01
0.280051125000000,1087,0x32,0x01
0.280125625000000,1087,0x20,0x00
0.280200000000000,1087,0x00,0x01
0.280281375000000,1088,0x07,0x01
0.280355875000000,1088,0x01,0x01
0.280430375000000,1088,0x14,0x01
0.280765875000000,1089,0x07,0x0F
0.280838875000000,1089,0x00,0x01
0.280913375000000,1089,0x3C,0x01
0.280992250000000,1090,0x32,0x01
0.281066750000000,1090,0x00,0x01
0.281141250000000,1090,0x00,0x01
0.281223500000000,1091,0x34,0x01
0.281298000000000,1091,0x80,0x01
0.281372500000000,1091,0x80,0x01
0.281455250000000,1092,0x32,0x01
0.281529750000000,1092,0x0A,0x01
0.281604250000000,1092,0x00,0x01
0.281684125000000,1093,0x32,0x01
0.281758625000000,1093,0x00,0x01
0.281833125000000,1093,0x20,0x01
0.281912875000000,1094,0x32,0x01
0.281987375000000,1094,0x20,0x01
0.282061875000000,1094,0x20,0x01
0.282141750000000,1095,0x32,0x01
0.282216250000000,1095,0x20,0x01
0.282290750000000,1095,0x60,0x01
0.282370500000000,1096,0x32,0x81
0.282445000000000,1096,0x20,0x01
0.282519500000000,1096,0x00,0x01
0.282600875000000,1097,0x07,0x01
0.282675375000000,1097,0x01,0x01
0.282749750000000,1097,0x3C,0x01
0.283086375000000,1098,0x07,0x0D
0.283159875000000,1098,0x00,0x01
0.283234375000000,1098,0x1E,0x00
0.283313250000000,1099,0x32,0x01
0.283387625000000,1099,0x00,0x81
0.283462125000000,1099,0x00,0x01
0.283544500000000,1100,0x34,0x01
0.283619000000000,1100,0x80,0x01
0.283693375000000,1100,0x80,0x01
0.283776250000000,1101,0x32,0x01
0.283850750000000,1101,0x0A,0x01
0.283925125000000,1101,0x00,0x01
0.284005000000000,1102,0x32,0x01
0.284079500000000,1102,0x00,0x01
0.284154000000000,1102,0x20,0x01
0.284233875000000,1103,0x32,0x01
0.284308375000000,1103,0x20,0x01
0.284382750000000,1103,0x20,0x01
0.284462625000000,1104,0x32,0x01
0.284537125000000,1104,0x20,0x01
0.284611625000000,1104,0x60,0x01
0.284691500000000,1105,0x32,0x01
0.284765875000000,1105,0x20,0x81
0.284840375000000,1105,0x00,0x01
0.284921750000000,1106,0x07,0x01
0.284996250000000,1106,0x01,0x01
0.285070625000000,1106,0x1E,0x01
0.285408250000000,1107,0x07,0x0F
0.285481250000000,1107,0x00,0x01
0.285555750000000,1107,0x46,0x01
0.285634625000000,1108,0x32,0x01
0.285709125000000,1108,0x00,0x01
0.285783500000000,1108,0x00,0x01
0.285865875000000,1109,0x34,0x01
0.285940375000000,1109,0x80,0x01
0.286014875000000,1109,0x80,0x01
0.286097625000000,1110,0x32,0x01
0.286172125000000,1110,0x0A,0x01
0.286246625000000,1110,0x00,0x01
0.286326375000000,1111,0x32,0x81
0.286400875000000,1111,0x00,0x01
0.286475375000000,1111,0x20,0x01
0.286555250000000,1112,0x32,0x01
0.286629750000000,1112,0x20,0x01
0.286704250000000,1112,0x20,0x01
0.286784000000000,1113,0x32,0x81
0.286858500000000,1113,0x20,0x01
0.286933000000000,1113,0x60,0x01
0.287012875000000,1114,0x32,0x01
0.287087375000000,1114,0x20,0x01
0.287161875000000,1114,0x00,0x01
0.287243125000000,1115,0x07,0x01
0.287317625000000,1115,0x01,0x01
0.287392125000000,1115,0x46,0x01
0.287722750000000,1116,0x07,0x0D
0.287796250000000,1116,0x00,0x09
0.287870250000000,1116,0x00,0x01
0.287949125000000,1117,0x32,0x01
0.288023625000000,1117,0x00,0x01
0.288098125000000,1117,0x00,0x01
0.288180375000000,1118,0x34,0x01
0.288254875000000,1118,0x80,0x01
0.288329375000000,1118,0x80,0x01
0.288412125000000,1119,0x32,0x81
0.288486625000000,1119,0x0A,0x01
0.288561125000000,1119,0x00,0x01
0.288641000000000,1120,0x32,0x01
0.288715500000000,1120,0x00,0x01
0.288790000000000,1120,0x20,0x01
0.288869875000000,1121,0x32,0x01
0.288944250000000,1121,0x20,0x01
0.289018750000000,1121,0x20,0x01
0.289098625000000,1122,0x32,0x01
0.289173125000000,1122,0x20,0x01
0.289247625000000,1122,0x60,0x01
0.289327500000000,1123,0x32,0x01
0.289401875000000,1123,0x20,0x01
0.289476375000000,1123,0x00,0x01
0.289557750000000,1124,0x07,0x01
0.289632250000000,1124,0x01,0x01
0.289706750000000,1124,0x00,0x01
0.290038375000000,1125,0x07,0x0F
0.290111375000000,1125,0x00,0x01
0.290185875000000,1125,0x28,0x01
0.290264750000000,1126,0x32,0x01
0.290339250000000,1126,0x00,0x01
0.290413750000000,1126,0x00,0x01
0.290496000000000,1127,0x34,0x01
0.290570500000000,1127,0x80,0x01
0.290645000000000,1127,0x80,0x00
0.290727750000000,1128,0x32,0x01
0.290802250000000,1128,0x0A,0x01
0.290876750000000,1128,0x00,0x00
0.290956625000000,1129,0x32,0x01
0.291031000000000,1129,0x00,0x01
0.291105500000000,1129,0x20,0x01
0.291185375000000,1130,0x32,0x01
0.291259875000000,1130,0x20,0x01
0.291334375000000,1130,0x20,0x01
0.291414250000000,1131,0x32,0x01
0.291488625000000,1131,0x20,0x01
0.291563125000000,1131,0x60,0x01
0.291643000000000,1132,0x32,0x01
0.291717500000000,1132,0x20,0x01
0.291792000000000,1132,0x00,0x01
0.291873250000000,1133,0x07,0x01
0.291947750000000,1133,0x01,0x01
0.292022250000000,1133,0x28,0x01
0.292354875000000,1134,0x07,0x0F
0.292427875000000,1134,0x00,0x01
0.292502375000000,1134,0x0A,0x01
0.292581250000000,1135,0x32,0x01
0.292655750000000,1135,0x00,0x01
0.292730250000000,1135,0x00,0x00
0.292812500000000,1136,0x34,0x01
0.292887000000000,1136,0x80,0x01
0.292961500000000,1136,0x80,0x01
0.293044250000000,1137,0x32,0x01
0.293118750000000,1137,0x0A,0x01
0.293193250000000,1137,0x00,0x01
0.293273125000000,1138,0x32,0x00
0.293347500000000,1138,0x00,0x01
0.293422000000000,1138,0x20,0x01
0.293501875000000,1139,0x32,0x01
0.293576375000000,1139,0x20,0x01
0.293650875000000,1139,0x20,0x01
0.293730750000000,1140,0x32,0x01
0.293805125000000,1140,0x20,0x01
0.293879625000000,1140,0x60,0x01
0.293959500000000,1141,0x32,0x01
0.294034000000000,1141,0x20,0x01
0.294108500000000,1141,0x00,0x01
0.294189750000000,1142,0x07,0x01
0.294264250000000,1142,0x01,0x01
0.294338750000000,1142,0x0A,0x01
0.294672375000000,1143,0x07,0x0F
0.294745375000000,1143,0x00,0x01
0.294819875000000,1143,0x32,0x01
0.294898750000000,1144,0x32,0x01
0.294973250000000,1144,0x00,0x01
0.295047625000000,1144,0x00,0x81
0.295130000000000,1145,0x34,0x01
0.295204500000000,1145,0x80,0x01
0.295279000000000,1145,0x80,0x01
0.295361750000000,1146,0x32,0x01
0.295436250000000,1146,0x0A,0x01
0.295510750000000,1146,0x00,0x01
0.295590500000000,1147,0x32,0x81
0.295665000000000,1147,0x00,0x01
0.295739500000000,1147,0x20,0x01
0.295819375000000,1148,0x32,0x01
0.295893875000000,1148,0x20,0x01
0.295968375000000,1148,0x20,0x01
0.296048125000000,1149,0x32,0x81
0.296122625000000,1149,0x20,0x01
0.296197125000000,1149,0x60,0x01
0.296277000000000,1150,0x32,0x01
0.296351500000000,1150,0x20,0x01
0.296426000000000,1150,0x00,0x01
0.296507250000000,1151,0x07,0x01
0.296581750000000,1151,0x01,0x01
0.296656250000000,1151,0x32,0x01
0.296990875000000,1152,0x07,0x0F
0.297063875000000,1152,0x00,0x01
0.297138250000000,1152,0x14,0x81
0.297217250000000,1153,0x32,0x01
0.297291625000000,1153,0x00,0x01
0.297366125000000,1153,0x00,0x01
0.297448500000000,1154,0x34,0x01
0.297522875000000,1154,0x80,0x01
0.297597375000000,1154,0x80,0x01
0.297680250000000,1155,0x32,0x01
0.297754625000000,1155,0x0A,0x81
0.297829125000000,1155,0x00,0x01
0.297909000000000,1156,0x32,0x01
0.297983500000000,1156,0x00,0x01
0.298058000000000,1156,0x20,0x01
0.298137875000000,1157,0x32,0x01
0.298212250000000,1157,0x20,0x81
0.298286750000000,1157,0x20,0x01
0.298366625000000,1158,0x32,0x01
0.298441125000000,1158,0x20,0x01
0.298515625000000,1158,0x60,0x01
0.298595500000000,1159,0x32,0x01
0.298670000000000,1159,0x20,0x01
0.298744375000000,1159,0x00,0x01
0.298825750000000,1160,0x07,0x01
0.298900250000000,1160,0x01,0x01
0.298974750000000,1160,0x14,0x01
0.299310250000000,1161,0x07,0x0F
0.299383250000000,1161,0x00,0x01
0.299457750000000,1161,0x3C,0x01
0.299536625000000,1162,0x32,0x01
0.299611125000000,1162,0x00,0x01
0.299685625000000,1162,0x00,0x01
0.299767875000000,1163,0x34,0x01
0.299842375000000,1163,0x80,0x01
0.299916875000000,1163,0x80,0x01
0.299999625000000,1164,0x32,0x01
0.300074125000000,1164,0x0A,0x01
0.300148625000000,1164,0x00,0x01
0.300228500000000,1165,0x32,0x01
0.300303000000000,1165,0x00,0x01
0.300377375000000,1165,0x20,0x01
0.300457250000000,1166,0x32,0x01
0.300531750000000,1166,0x20,0x01
0.300606250000000,1166,0x20,0x01
0.300686125000000,1167,0x32,0x01
0.300760625000000,1167,0x20,0x01
0.300835000000000,1167,0x60,0x01
0.300914875000000,1168,0x32,0x01
0.300989375000000,1168,0x20,0x01
0.301063875000000,1168,0x00,0x01
0.301145125000000,1169,0x07,0x81
0.301219625000000,1169,0x01,0x01
0.301294125000000,1169,0x3C,0x01
0.301630750000000,1170,0x07,0x0D
0.301704250000000,1170,0x00,0x01
0.301778625000000,1170,0x1E,0x01
0.301857500000000,1171,0x32,0x01
0.301932000000000,1171,0x00,0x01
0.302006500000000,1171,0x00,0x01
0.302088750000000,1172,0x34,0x81
0.302163250000000,1172,0x80,0x01
0.302237750000000,1172,0x80,0x01
0.302320625000000,1173,0x32,0x01
0.302395000000000,1173,0x0A,0x01
0.302469500000000,1173,0x00,0x01
0.302549375000000,1174,0x32,0x01
0.302623875000000,1174,0x00,0x01
0.302698375000000,1174,0x20,0x01
0.302778250000000,1175,0x32,0x01
0.302852625000000,1175,0x20,0x01
0.302927125000000,1175,0x20,0x01
0.303007000000000,1176,0x32,0x01
0.303081500000000,1176,0x20,0x01
0.303156000000000,1176,0x60,0x01
0.303235875000000,1177,0x32,0x00
0.303310250000000,1177,0x20,0x01
0.303384750000000,1177,0x00,0x01
0.303466125000000,1178,0x07,0x01
0.303540625000000,1178,0x01,0x01
0.303615000000000,1178,0x1E,0x81
0.303952625000000,1179,0x07,0x0F
0.304025625000000,1179,0x00,0x01
0.304100125000000,1179,0x46,0x01
0.304179000000000,1180,0x32,0x01
0.304253500000000,1180,0x00,0x00
0.304327875000000,1180,0x00,0x01
0.304410250000000,1181,0x34,0x01
0.304484750000000,1181,0x80,0x01
0.304559125000000,1181,0x80,0x01
0.304642000000000,1182,0x32,0x01
0.304716500000000,1182,0x0A,0x01
0.304790875000000,1182,0x00,0x81
0.304870750000000,1183,0x32,0x01
0.304945250000000,1183,0x00,0x01
0.305019750000000,1183,0x20,0x01
0.305099625000000,1184,0x32,0x01
0.305174125000000,1184,0x20,0x01
0.305248625000000,1184,0x20,0x01
0.305328375000000,1185,0x32,0x81
0.305402875000000,1185,0x20,0x01
0.305477375000000,1185,0x60,0x01
0.305557250000000,1186,0x32,0x01
0.305631750000000,1186,0x20,0x01
0.305706250000000,1186,0x00,0x01
0.305787500000000,1187,0x07,0x01
0.305862000000000,1187,0x01,0x01
0.305936500000000,1187,0x46,0x01
0.306267250000000,1188,0x07,0x0D
0.306340625000000,1188,0x00,0x89
0.306414625000000,1188,0x00,0x01
0.306493500000000,1189,0x32,0x01
0.306568000000000,1189,0x00,0x01
0.306642500000000,1189,0x00,0x01
0.306724875000000,1190,0x34,0x00
0.306799250000000,1190,0x80,0x01
0.306873750000000,1190,0x80,0x01
0.306956625000000,1191,0x32,0x01
0.307031000000000,1191,0x0A,0x01
0.307105500000000,1191,0x00,0x01
0.307185375000000,1192,0x32,0x01
0.307259875000000,1192,0x00,0x01
0.307334375000000,1192,0x20,0x01
0.307414250000000,1193,0x32,0x01
0.307488750000000,1193,0x20,0x01
0.307563125000000,1193,0x20,0x01
0.307643000000000,1194,0x32,0x01
0.307717500000000,1194,0x20,0x01
0.307792000000000,1194,0x60,0x01
0.307871875000000,1195,0x32,0x01
0.307946375000000,1195,0x20,0x01
0.308020750000000,1195,0x00,0x01
0.308102125000000,1196,0x07,0x01
0.308176625000000,1196,0x01,0x01
0.308251125000000,1196,0x00,0x01
0.308582750000000,1197,0x07,0x0F
0.308655750000000,1197,0x00,0x01
0.308730250000000,1197,0x28,0x01
0.308809125000000,1198,0x32,0x01
0.308883625000000,1198,0x00,0x00
0.308958000000000,1198,0x00,0x01
0.309040375000000,1199,0x34,0x01
0.309114875000000,1199,0x80,0x01
0.309189250000000,1199,0x80,0x01
0.309272125000000,1200,0x32,0x01
0.309346625000000,1200,0x0A,0x01
0.309421000000000,1200,0x00,0x81
0.309500875000000,1201,0x32,0x01
0.309575375000000,1201,0x00,0x01
0.309649875000000,1201,0x20,0x01
0.309729750000000,1202,0x32,0x01
0.309804250000000,1202,0x20,0x01
0.309878625000000,1202,0x20,0x81
0.309958500000000,1203,0x32,0x01
0.310033000000000,1203,0x20,0x01
0.310107500000000,1203,0x60,0x01
0.310187375000000,1204,0x32,0x01
0.310261875000000,1204,0x20,0x01
0.310336250000000,1204,0x00,0x81
0.310417625000000,1205,0x07,0x01
0.310492125000000,1205,0x01,0x01
0.310566625000000,1205,0x28,0x01
0.310899250000000,1206,0x07,0x0F
0.310972250000000,1206,0x00,0x01
0.311046750000000,1206,0x0A,0x01
0.311125625000000,1207,0x32,0x01
0.311200125000000,1207,0x00,0x01
0.311274500000000,1207,0x00,0x01
0.311356875000000,1208,0x34,0x01
0.311431375000000,1208,0x80,0x01
0.311505875000000,1208,0x80,0x01
0.311588625000000,1209,0x32,0x01
0.311663125000000,1209,0x0A,0x01
0.311737625000000,1209,0x00,0x01
0.311817375000000,1210,0x32,0x81
0.311891875000000,1210,0x00,0x01
0.311966375000000,1210,0x20,0x01
0.312046250000000,1211,0x32,0x01
0.312120750000000,1211,0x20,0x01
0.312195250000000,1211,0x20,0x00
0.312275000000000,1212,0x32,0x81
0.312349500000000,1212,0x20,0x01
0.312424000000000,1212,0x60,0x01
0.312503875000000,1213,0x32,0x01
0.312578375000000,1213,0x20,0x01
0.312652875000000,1213,0x00,0x01
0.312734125000000,1214,0x07,0x01
0.312808625000000,1214,0x01,0x01
0.312883125000000,1214,0x0A,0x01
0.313216750000000,1215,0x07,0x0F
0.313289750000000,1215,0x00,0x01
0.313364250000000,1215,0x32,0x01
0.313443125000000,1216,0x32,0x01
0.313517625000000,1216,0x00,0x01
0.313592125000000,1216,0x00,0x01
0.313674375000000,1217,0x34,0x01
0.313748875000000,1217,0x80,0x01
0.313823375000000,1217,0x80,0x01
0.313906125000000,1218,0x32,0x01
0.313980625000000,1218,0x0A,0x01
0.314055125000000,1218,0x00,0x01
0.314135000000000,1219,0x32,0x01
0.314209375000000,1219,0x00,0x01
0.314283875000000,1219,0x20,0x01
0.314363750000000,1220,0x32,0x01
0.314438250000000,1220,0x20,0x01
0.314512750000000,1220,0x20,0x01
0.314592625000000,1221,0x32,0x01
0.314667000000000,1221,0x20,0x01
0.314741500000000,1221,0x60,0x01
0.314821375000000,1222,0x32,0x01
0.314895875000000,1222,0x20,0x01
0.314970375000000,1222,0x00,0x01
0.315051625000000,1223,0x07,0x81
0.315126125000000,1223,0x01,0x01
0.315200625000000,1223,0x32,0x01
0.315535250000000,1224,0x07,0x0F
0.315608250000000,1224,0x00,0x01
0.315682750000000,1224,0x14,0x01
0.315761625000000,1225,0x32,0x01
0.315836125000000,1225,0x00,0x01
0.315910500000000,1225,0x00,0x81
0.315992875000000,1226,0x34,0x01
0.316067375000000,1226,0x80,0x01
0.316141875000000,1226,0x80,0x00
0.316224625000000,1227,0x32,0x01
0.316299125000000,1227,0x0A,0x01
0.316373625000000,1227,0x00,0x01
0.316453500000000,1228,0x32,0x01
0.316527875000000,1228,0x00,0x01
0.316602375000000,1228,0x20,0x01
0.316682250000000,1229,0x32,0x01
0.316756750000000,1229,0x20,0x01
0.316831250000000,1229,0x20,0x01
0.316911125000000,1230,0x32,0x00
0.316985500000000,1230,0x20,0x01
0.317060000000000,1230,0x60,0x01
0.317139875000000,1231,0x32,0x01
0.317214375000000,1231,0x20,0x01
0.317288875000000,1231,0x00,0x01
0.317370125000000,1232,0x07,0x81
0.317444625000000,1232,0x01,0x01
0.317519125000000,1232,0x14,0x01
0.317854750000000,1233,0x07,0x0F
0.317927750000000,1233,0x00,0x01
0.318002250000000,1233,0x3C,0x01
0.318081125000000,1234,0x32,0x01
0.318155625000000,1234,0x00,0x00
0.318230000000000,1234,0x00,0x01
0.318312375000000,1235,0x34,0x01
0.318386875000000,1235,0x80,0x01
0.318461250000000,1235,0x80,0x81
0.318544125000000,1236,0x32,0x01
0.318618625000000,1236,0x0A,0x01
0.318693000000000,1236,0x00,0x81
0.318772875000000,1237,0x32,0x01
0.318847375000000,1237,0x00,0x01
0.318921875000000,1237,0x20,0x01
0.319001750000000,1238,0x32,0x01
0.319076250000000,1238,0x20,0x01
0.319150750000000,1238,0x20,0x01
0.319230500000000,1239,0x32,0x01
0.319305000000000,1239,0x20,0x01
0.319379500000000,1239,0x60,0x01
0.319459375000000,1240,0x32,0x01
0.319533875000000,1240,0x20,0x01
0.319608375000000,1240,0x00,0x01
0.319689625000000,1241,0x07,0x01
0.319764125000000,1241,0x01,0x01
0.319838625000000,1241,0x3C,0x01
0.320175125000000,1242,0x07,0x0D
0.320248625000000,1242,0x00,0x01
0.320323125000000,1242,0x1E,0x01
0.320402000000000,1243,0x32,0x01
0.320476500000000,1243,0x00,0x01
0.320551000000000,1243,0x00,0x01
0.320633250000000,1244,0x34,0x01
0.320707750000000,1244,0x80,0x01
0.320782250000000,1244,0x80,0x01
0.320865000000000,1245,0x32,0x01
0.320939500000000,1245,0x0A,0x01
0.321014000000000,1245,0x00,0x01
0.321093875000000,1246,0x32,0x01
0.321168375000000,1246,0x00,0x01
0.321242875000000,1246,0x20,0x01
0.321322625000000,1247,0x32,0x81
0.321397125000000,1247,0x20,0x01
0.321471625000000,1247,0x20,0x01
0.321551500000000,1248,0x32,0x01
0.321626000000000,1248,0x20,0x01
0.321700500000000,1248,0x60,0x01
0.321780375000000,1249,0x32,0x00
0.321854750000000,1249,0x20,0x01
0.321929250000000,1249,0x00,0x01
0.322010625000000,1250,0x07,0x01
0.322085125000000,1250,0x01,0x01
0.322159500000000,1250,0x1E,0x81
0.322497125000000,1251,0x07,0x0F
0.322570125000000,1251,0x00,0x01
0.322644625000000,1251,0x46,0x01
0.322723500000000,1252,0x32,0x01
0.322798000000000,1252,0x00,0x01
0.322872375000000,1252,0x00,0x81
0.322954750000000,1253,0x34,0x01
0.323029250000000,1253,0x80,0x01
0.323103750000000,1253,0x80,0x01
0.323186500000000,1254,0x32,0x01
0.323261000000000,1254,0x0A,0x01
0.323335500000000,1254,0x00,0x00
0.323415250000000,1255,0x32,0x81
0.323489750000000,1255,0x00,0x01
0.323564250000000,1255,0x20,0x01
0.323644125000000,1256,0x32,0x01
0.323718625000000,1256,0x20,0x01
0.323793125000000,1256,0x20,0x01
0.323873000000000,1257,0x32,0x01
0.323947375000000,1257,0x20,0x01
0.324021875000000,1257,0x60,0x01
0.324101750000000,1258,0x32,0x01
0.324176250000000,1258,0x20,0x01
0.324250750000000,1258,0x00,0x01
0.324332000000000,1259,0x07,0x01
0.324406500000000,1259,0x01,0x01
0.324481000000000,1259,0x46,0x01
0.324811750000000,1260,0x07,0x0D
0.324885125000000,1260,0x00,0x89
0.324959125000000,1260,0x00,0x01
0.325038000000000,1261,0x32,0x01
0.325112500000000,1261,0x00,0x01
0.325187000000000,1261,0x00,0x01
0.325269375000000,1262,0x34,0x01
0.325343750000000,1262,0x80,0x01
0.325418250000000,1262,0x80,0x01
0.325501125000000,1263,0x32,0x00
0.325575500000000,1263,0x0A,0x01
0.325650000000000,1263,0x00,0x01
0.325729875000000,1264,0x32,0x01
0.325804375000000,1264,0x00,0x01
0.325878875000000,1264,0x20,0x01
0.325958750000000,1265,0x32,0x01
0.326033125000000,1265,0x20,0x81
0.326107625000000,1265,0x20,0x01
0.326187500000000,1266,0x32,0x01
0.326262000000000,1266,0x20,0x01
0.326336500000000,1266,0x60,0x01
0.326416375000000,1267,0x32,0x01
0.326490875000000,1267,0x20,0x00
0.326565250000000,1267,0x00,0x01
0.326646625000000,1268,0x07,0x01
0.326721125000000,1268,0x01,0x01
0.326795625000000,1268,0x00,0x00
0.327127250000000,1269,0x07,0x0F
0.327200250000000,1269,0x00,0x01
0.327274750000000,1269,0x28,0x01
0.327353625000000,1270,0x32,0x01
0.327428125000000,1270,0x00,0x01
0.327502625000000,1270,0x00,0x00
0.327584875000000,1271,0x34,0x01
0.327659375000000,1271,0x80,0x01
0.327733875000000,1271,0x80,0x01
0.327816625000000,1272,0x32,0x01
0.327891125000000,1272,0x0A,0x01
0.327965625000000,1272,0x00,0x01
0.328045500000000,1273,0x32,0x01
0.328119875000000,1273,0x00,0x01
0.328194375000000,1273,0x20,0x01
0.328274250000000,1274,0x32,0x01
0.328348750000000,1274,0x20,0x01
0.328423250000000,1274,0x20,0x01
0.328503125000000,1275,0x32,0x00
0.328577500000000,1275,0x20,0x01
0.328652000000000,1275,0x60,0x01
0.328731875000000,1276,0x32,0x01
0.328806375000000,1276,0x20,0x01
0.328880875000000,1276,0x00,0x01
0.328962125000000,1277,0x07,0x01
0.329036625000000,1277,0x01,0x01
0.329111125000000,1277,0x28,0x01
0.329443750000000,1278,0x07,0x0F
0.329516750000000,1278,0x00,0x01
0.329591250000000,1278,0x0A,0x01
0.329670125000000,1279,0x32,0x01
0.329744625000000,1279,0x00,0x01
0.329819125000000,1279,0x00,0x01
0.329901375000000,1280,0x34,0x01
0.329975875000000,1280,0x80,0x01
0.330050375000000,1280,0x80,0x01
0.330133125000000,1281,0x32,0x01
0.330207625000000,1281,0x0A,0x01
0.330282125000000,1281,0x00,0x01
0.330362000000000,1282,0x32,0x01
0.330436500000000,1282,0x00,0x00
0.330510875000000,1282,0x20,0x01
0.330590750000000,1283,0x32,0x01
0.330665250000000,1283,0x20,0x01
0.330739750000000,1283,0x20,0x01
0.330819625000000,1284,0x32,0x01
0.330894125000000,1284,0x20,0x01
0.330968500000000,1284,0x60,0x01
0.331048375000000,1285,0x32,0x01
0.331122875000000,1285,0x20,0x01
0.331197375000000,1285,0x00,0x01
0.331278750000000,1286,0x07,0x00
0.331353125000000,1286,0x01,0x01
0.331427625000000,1286,0x0A,0x01
0.331761250000000,1287,0x07,0x0F
0.331834250000000,1287,0x00,0x01
0.331908750000000,1287,0x32,0x01
0.331987625000000,1288,0x32,0x01
0.332062125000000,1288,0x00,0x01
0.332136625000000,1288,0x00,0x01
0.332218875000000,1289,0x34,0x01
0.332293375000000,1289,0x80,0x01
0.332367875000000,1289,0x80,0x01
0.332450625000000,1290,0x32,0x01
0.332525125000000,1290,0x0A,0x01
0.332599625000000,1290,0x00,0x01
0.332679500000000,1291,0x32,0x01
0.332754000000000,1291,0x00,0x01
0.332828500000000,1291,0x20,0x01
0.332908250000000,1292,0x32,0x81
0.332982750000000,1292,0x20,0x01
0.333057250000000,1292,0x20,0x01
0.333137125000000,1293,0x32,0x01
0.333211625000000,1293,0x20,0x01
0.333286125000000,1293,0x60,0x01
0.333366000000000,1294,0x32,0x01
0.333440375000000,1294,0x20,0x01
0.333514875000000,1294,0x00,0x01
0.333596250000000,1295,0x07,0x01
0.333670750000000,1295,0x01,0x01
