Time [s],Packet ID,MOSI,MISO
0.000281750000000,0,0x07,0x0F
0.000354750000000,0,0x00,0x01
0.000429125000000,0,0x14,0x81
0.000508125000000,1,0x32,0x01
0.000582500000000,1,0x00,0x01
0.000657000000000,1,0x00,0x01
0.000739375000000,2,0x34,0x00
0.000813750000000,2,0x80,0x01
0.000888250000000,2,0x80,0x01
0.000971125000000,3,0x32,0x01
0.001045500000000,3,0x0A,0x01
0.001120000000000,3,0x00,0x01
0.001199875000000,4,0x32,0x01
0.001274375000000,4,0x00,0x01
0.001348875000000,4,0x20,0x01
0.001428750000000,5,0x32,0x01
0.001503125000000,5,0x20,0x01
0.001577625000000,5,0x20,0x01
0.001657500000000,6,0x32,0x01
0.001732000000000,6,0x20,0x01
0.001806500000000,6,0x60,0x01
0.001886250000000,7,0x32,0x81
0.001960750000000,7,0x20,0x01
0.002035250000000,7,0x00,0x01
0.002116625000000,8,0x07,0x01
0.002191000000000,8,0x01,0x01
0.002265500000000,8,0x14,0x01
0.002601125000000,9,0x07,0x0F
0.002674125000000,9,0x00,0x01
0.002748625000000,9,0x3C,0x01
0.002827500000000,10,0x32,0x01
0.002902000000000,10,0x00,0x01
0.002976375000000,10,0x00,0x01
0.003058750000000,11,0x34,0x01
0.003133250000000,11,0x80,0x01
0.003207625000000,11,0x80,0x81
0.003290500000000,12,0x32,0x01
0.003365000000000,12,0x0A,0x01
0.003439500000000,12,0x00,0x01
0.003519250000000,13,0x32,0x01
0.003593750000000,13,0x00,0x01
0.003668250000000,13,0x20,0x01
0.003748125000000,14,0x32,0x01
0.003822625000000,14,0x20,0x01
0.003897125000000,14,0x20,0x01
0.003976875000000,15,0x32,0x01
0.004051375000000,15,0x20,0x01
0.004125875000000,15,0x60,0x01
0.004205750000000,16,0x32,0x01
0.004280250000000,16,0x20,0x01
0.004354750000000,16,0x00,0x01
0.004436000000000,17,0x07,0x01
0.004510500000000,17,0x01,0x01
0.004585000000000,17,0x3C,0x01
0.004921500000000,18,0x07,0x0D
0.004995000000000,18,0x00,0x01
0.005069500000000,18,0x1E,0x01
0.005148375000000,19,0x32,0x01
0.005222875000000,19,0x00,0x01
0.005297375000000,19,0x00,0x01
0.005379625000000,20,0x34,0x01
0.005454125000000,20,0x80,0x01
0.005528625000000,20,0x80,0x01
0.005611375000000,21,0x32,0x01
0.005685875000000,21,0x0A,0x01
0.005760375000000,21,0x00,0x01
0.005840250000000,22,0x32,0x01
0.005914750000000,22,0x00,0x01
0.005989125000000,22,0x20,0x01
0.006069000000000,23,0x32,0x01
0.006143500000000,23,0x20,0x01
0.006218000000000,23,0x20,0x01
0.006297875000000,24,0x32,0x01
0.006372375000000,24,0x20,0x00
0.006446750000000,24,0x60,0x01
0.006526625000000,25,0x32,0x01
0.006601125000000,25,0x20,0x01
0.006675625000000,25,0x00,0x01
0.006757000000000,26,0x07,0x01
0.006831375000000,26,0x01,0x01
0.006905875000000,26,0x1E,0x01
0.007243375000000,27,0x07,0x8F
0.007316500000000,27,0x00,0x01
0.007390875000000,27,0x46,0x01
0.007469750000000,28,0x32,0x01
0.007544250000000,28,0x00,0x01
0.007618750000000,28,0x00,0x01
0.007701000000000,29,0x34,0x01
0.007775500000000,29,0x80,0x01
0.007850000000000,29,0x80,0x01
0.007932750000000,30,0x32,0x01
0.008007250000000,30,0x0A,0x01
0.008081750000000,30,0x00,0x01
0.008161625000000,31,0x32,0x01
0.008236125000000,31,0x00,0x01
0.008310625000000,31,0x20,0x01
0.008390375000000,32,0x32,0x01
0.008464875000000,32,0x20,0x01
0.008539375000000,32,0x20,0x01
0.008619250000000,33,0x32,0x01
0.008693750000000,33,0x20,0x01
0.008768250000000,33,0x60,0x01
0.008848000000000,34,0x32,0x01
0.008922500000000,34,0x20,0x01
0.008997000000000,34,0x00,0x01
0.009078375000000,35,0x07,0x01
0.009152875000000,35,0x01,0x01
0.009227250000000,35,0x46,0x01
0.009558000000000,36,0x07,0x0D
0.009631500000000,36,0x00,0x09
0.009705500000000,36,0x00,0x00
0.009784375000000,37,0x32,0x01
0.009858750000000,37,0x00,0x01
0.009933250000000,37,0x00,0x01
0.010015625000000,38,0x34,0x01
0.010090000000000,38,0x80,0x01
0.010164500000000,38,0x80,0x01
0.010247375000000,39,0x32,0x01
0.010321750000000,39,0x0A,0x01
0.010396250000000,39,0x00,0x01
0.010476125000000,40,0x32,0x01
0.010550625000000,40,0x00,0x01
0.010625125000000,40,0x20,0x00
0.010705000000000,41,0x32,0x01
0.010779375000000,41,0x20,0x01
0.010853875000000,41,0x20,0x01
0.010933750000000,42,0x32,0x01
0.011008250000000,42,0x20,0x01
0.011082750000000,42,0x60,0x01
0.011162500000000,43,0x32,0x81
0.011237000000000,43,0x20,0x01
0.011311500000000,43,0x00,0x01
0.011392875000000,44,0x07,0x01
0.011467250000000,44,0x01,0x81
0.011541750000000,44,0x00,0x01
0.011873500000000,45,0x07,0x0F
0.011946500000000,45,0x00,0x01
0.012020875000000,45,0x28,0x01
0.012099750000000,46,0x32,0x01
0.012174250000000,46,0x00,0x01
0.012248750000000,46,0x00,0x01
0.012331000000000,47,0x34,0x81
0.012405500000000,47,0x80,0x01
0.012480000000000,47,0x80,0x01
0.012562750000000,48,0x32,0x81
0.012637250000000,48,0x0A,0x01
0.012711750000000,48,0x00,0x01
0.012791625000000,49,0x32,0x01
0.012866125000000,49,0x00,0x01
0.012940625000000,49,0x20,0x00
0.013020375000000,50,0x32,0x81
0.013094875000000,50,0x20,0x01
0.013169375000000,50,0x20,0x01
0.013249250000000,51,0x32,0x01
0.013323750000000,51,0x20,0x01
0.013398250000000,51,0x60,0x01
0.013478000000000,52,0x32,0x81
0.013552500000000,52,0x20,0x01
0.013627000000000,52,0x00,0x01
0.013708375000000,53,0x07,0x01
0.013782750000000,53,0x01,0x81
0.013857250000000,53,0x28,0x01
0.014189875000000,54,0x07,0x8F
0.014262875000000,54,0x00,0x81
0.014337375000000,54,0x0A,0x01
0.014416250000000,55,0x32,0x01
0.014490750000000,55,0x00,0x01
0.014565250000000,55,0x00,0x01
0.014647500000000,56,0x34,0x01
0.014722000000000,56,0x80,0x01
0.014796500000000,56,0x80,0x01
0.014879250000000,57,0x32,0x01
0.014953750000000,57,0x0A,0x01
0.015028250000000,57,0x00,0x01
0.015108125000000,58,0x32,0x01
0.015182625000000,58,0x00,0x01
0.015257125000000,58,0x20,0x01
0.015336875000000,59,0x32,0x81
0.015411375000000,59,0x20,0x01
0.015485875000000,59,0x20,0x01
0.015565750000000,60,0x32,0x01
0.015640250000000,60,0x20,0x01
0.015714750000000,60,0x60,0x01
0.015794500000000,61,0x32,0x81
0.015869000000000,61,0x20,0x01
0.015943500000000,61,0x00,0x01
0.016024875000000,62,0x07,0x01
0.016099375000000,62,0x01,0x01
0.016173750000000,62,0x0A,0x01
0.016507375000000,63,0x07,0x0F
0.016580375000000,63,0x00,0x01
0.016654875000000,63,0x32,0x01
0.016733750000000,64,0x32,0x01
0.016808250000000,64,0x00,0x01
0.016882750000000,64,0x00,0x01
0.016965000000000,65,0x34,0x01
0.017039500000000,65,0x80,0x01
0.017114000000000,65,0x80,0x01
0.017196750000000,66,0x32,0x01
0.017271250000000,66,0x0A,0x01
0.017345750000000,66,0x00,0x01
0.017425625000000,67,0x32,0x01
0.017500125000000,67,0x00,0x00
0.017574500000000,67,0x20,0x01
0.017654375000000,68,0x32,0x01
0.017728875000000,68,0x20,0x01
0.017803375000000,68,0x20,0x01
0.017883250000000,69,0x32,0x01
0.017957750000000,69,0x20,0x00
0.018032125000000,69,0x60,0x01
0.018112000000000,70,0x32,0x01
0.018186500000000,70,0x20,0x01
0.018261000000000,70,0x00,0x01
0.018342375000000,71,0x07,0x01
0.018416750000000,71,0x01,0x01
0.018491250000000,71,0x32,0x01
0.018825875000000,72,0x07,0x0F
0.018898875000000,72,0x00,0x01
0.018973375000000,72,0x14,0x01
0.019052250000000,73,0x32,0x01
0.019126750000000,73,0x00,0x01
0.019201125000000,73,0x00,0x01
0.019283500000000,74,0x34,0x01
0.019358000000000,74,0x80,0x01
0.019432375000000,74,0x80,0x01
0.019515250000000,75,0x32,0x01
0.019589625000000,75,0x0A,0x81
0.019664125000000,75,0x00,0x01
0.019744000000000,76,0x32,0x01
0.019818500000000,76,0x00,0x01
0.019893000000000,76,0x20,0x01
0.019972875000000,77,0x32,0x01
0.020047250000000,77,0x20,0x01
0.020121750000000,77,0x20,0x01
0.020201625000000,78,0x32,0x01
0.020276125000000,78,0x20,0x01
0.020350625000000,78,0x60,0x01
0.020430500000000,79,0x32,0x01
0.020504875000000,79,0x20,0x01
0.020579375000000,79,0x00,0x01
0.020660750000000,80,0x07,0x01
0.020735250000000,80,0x01,0x01
0.020809625000000,80,0x14,0x01
0.021145250000000,81,0x07,0x0F
0.021218250000000,81,0x00,0x01
0.021292750000000,81,0x3C,0x01
0.021371625000000,82,0x32,0x01
0.021446125000000,82,0x00,0x00
0.021520500000000,82,0x00,0x01
0.021602875000000,83,0x34,0x01
0.021677375000000,83,0x80,0x00
0.021751750000000,83,0x80,0x01
0.021834625000000,84,0x32,0x01
0.021909125000000,84,0x0A,0x00
0.021983500000000,84,0x00,0x01
0.022063375000000,85,0x32,0x01
0.022137875000000,85,0x00,0x01
0.022212375000000,85,0x20,0x01
0.022292250000000,86,0x32,0x01
0.022366750000000,86,0x20,0x01
0.022441125000000,86,0x20,0x81
0.022521000000000,87,0x32,0x01
0.022595500000000,87,0x20,0x01
0.022670000000000,87,0x60,0x01
0.022749875000000,88,0x32,0x01
0.022824375000000,88,0x20,0x01
0.022898875000000,88,0x00,0x01
0.022980125000000,89,0x07,0x01
0.023054625000000,89,0x01,0x01
0.023129125000000,89,0x3C,0x01
0.023465625000000,90,0x07,0x0C
0.023539125000000,90,0x00,0x01
0.023613625000000,90,0x1E,0x01
0.023692500000000,91,0x32,0x01
0.023767000000000,91,0x00,0x01
0.023841500000000,91,0x00,0x01
0.023923750000000,92,0x34,0x01
0.023998250000000,92,0x80,0x01
0.024072750000000,92,0x80,0x01
0.024155500000000,93,0x32,0x01
0.024230000000000,93,0x0A,0x01
0.024304500000000,93,0x00,0x01
0.024384375000000,94,0x32,0x01
0.024458875000000,94,0x00,0x01
0.024533250000000,94,0x20,0x81
0.024613125000000,95,0x32,0x01
0.024687625000000,95,0x20,0x01
0.024762125000000,95,0x20,0x01
0.024842000000000,96,0x32,0x01
0.024916500000000,96,0x20,0x01
0.024990875000000,96,0x60,0x01
0.025070750000000,97,0x32,0x01
0.025145250000000,97,0x20,0x01
0.025219750000000,97,0x00,0x01
0.025301125000000,98,0x07,0x01
0.025375500000000,98,0x01,0x81
0.025450000000000,98,0x1E,0x01
0.025787625000000,99,0x07,0x0F
0.025860625000000,99,0x00,0x01
0.025935125000000,99,0x46,0x01
0.026014000000000,100,0x32,0x01
0.026088375000000,100,0x00,0x01
0.026162875000000,100,0x00,0x01
0.026245250000000,101,0x34,0x01
0.026319750000000,101,0x80,0x00
0.026394125000000,101,0x80,0x01
0.026477000000000,102,0x32,0x01
0.026551500000000,102,0x0A,0x01
0.026625875000000,102,0x00,0x01
0.026705750000000,103,0x32,0x01
0.026780250000000,103,0x00,0x01
0.026854750000000,103,0x20,0x01
0.026934625000000,104,0x32,0x01
0.027009125000000,104,0x20,0x01
0.027083500000000,104,0x20,0x81
0.027163375000000,105,0x32,0x01
0.027237875000000,105,0x20,0x01
0.027312375000000,105,0x60,0x01
0.027392250000000,106,0x32,0x01
0.027466750000000,106,0x20,0x01
0.027541250000000,106,0x00,0x01
0.027622500000000,107,0x07,0x01
0.027697000000000,107,0x01,0x01
0.027771500000000,107,0x46,0x01
0.028102125000000,108,0x07,0x0D
0.028175625000000,108,0x00,0x09
0.028249625000000,108,0x00,0x01
0.028328500000000,109,0x32,0x01
0.028403000000000,109,0x00,0x01
0.028477500000000,109,0x00,0x01
0.028559750000000,110,0x34,0x01
0.028634250000000,110,0x80,0x01
0.028708750000000,110,0x80,0x01
0.028791500000000,111,0x32,0x01
0.028866000000000,111,0x0A,0x01
0.028940500000000,111,0x00,0x01
0.029020375000000,112,0x32,0x01
0.029094875000000,112,0x00,0x00
0.029169250000000,112,0x20,0x01
0.029249125000000,113,0x32,0x01
0.029323625000000,113,0x20,0x01
0.029398125000000,113,0x20,0x01
0.029478000000000,114,0x32,0x01
0.029552500000000,114,0x20,0x01
0.029626875000000,114,0x60,0x81
0.029706750000000,115,0x32,0x01
0.029781250000000,115,0x20,0x01
0.029855750000000,115,0x00,0x01
0.029937125000000,116,0x07,0x01
0.030011500000000,116,0x01,0x81
0.030086000000000,116,0x00,0x01
0.030417750000000,117,0x07,0x0F
0.030490750000000,117,0x00,0x01
0.030565125000000,117,0x28,0x01
0.030644125000000,118,0x32,0x01
0.030718500000000,118,0x00,0x01
0.030793000000000,118,0x00,0x01
0.030875375000000,119,0x34,0x00
0.030949750000000,119,0x80,0x01
0.031024250000000,119,0x80,0x01
0.031107125000000,120,0x32,0x00
0.031181500000000,120,0x0A,0x01
0.031256000000000,120,0x00,0x01
0.031335875000000,121,0x32,0x01
0.031410375000000,121,0x00,0x01
0.031484875000000,121,0x20,0x01
0.031564750000000,122,0x32,0x01
0.031639125000000,122,0x20,0x01
0.031713625000000,122,0x20,0x01
0.031793500000000,123,0x32,0x01
0.031868000000000,123,0x20,0x01
0.031942500000000,123,0x60,0x01
0.032022375000000,124,0x32,0x01
0.032096750000000,124,0x20,0x01
0.032171250000000,124,0x00,0x01
0.032252625000000,125,0x07,0x01
0.032327125000000,125,0x01,0x01
0.032401500000000,125,0x28,0x81
0.032734250000000,126,0x07,0x0F
0.032807250000000,126,0x00,0x01
0.032881750000000,126,0x0A,0x01
0.032960625000000,127,0x32,0x01
0.033035000000000,127,0x00,0x01
0.033109500000000,127,0x00,0x01
0.033191875000000,128,0x34,0x01
0.033266250000000,128,0x80,0x81
0.033340750000000,128,0x80,0x01
0.033423625000000,129,0x32,0x01
0.033498000000000,129,0x0A,0x81
0.033572500000000,129,0x00,0x01
0.033652375000000,130,0x32,0x01
0.033726875000000,130,0x00,0x01
0.033801375000000,130,0x20,0x01
0.033881250000000,131,0x32,0x01
0.033955625000000,131,0x20,0x81
0.034030125000000,131,0x20,0x01
0.034110000000000,132,0x32,0x01
0.034184500000000,132,0x20,0x01
0.034259000000000,132,0x60,0x01
0.034338875000000,133,0x32,0x01
0.034413375000000,133,0x20,0x01
0.034487750000000,133,0x00,0x01
0.034569125000000,134,0x07,0x01
0.034643625000000,134,0x01,0x01
0.034718125000000,134,0x0A,0x01
0.035051750000000,135,0x07,0x0F
0.035124750000000,135,0x00,0x01
0.035199125000000,135,0x32,0x01
0.035278000000000,136,0x32,0x81
0.035352500000000,136,0x00,0x01
0.035427000000000,136,0x00,0x01
0.035509375000000,137,0x34,0x00
0.035583750000000,137,0x80,0x01
0.035658250000000,137,0x80,0x01
0.035741125000000,138,0x32,0x00
0.035815500000000,138,0x0A,0x01
0.035890000000000,138,0x00,0x01
0.035969875000000,139,0x32,0x01
0.036044375000000,139,0x00,0x01
0.036118875000000,139,0x20,0x01
0.036198750000000,140,0x32,0x01
0.036273125000000,140,0x20,0x01
0.036347625000000,140,0x20,0x01
0.036427500000000,141,0x32,0x01
0.036502000000000,141,0x20,0x01
0.036576500000000,141,0x60,0x01
0.036656375000000,142,0x32,0x01
0.036730750000000,142,0x20,0x01
0.036805250000000,142,0x00,0x01
0.036886625000000,143,0x07,0x01
0.036961125000000,143,0x01,0x01
0.037035500000000,143,0x32,0x81
0.037370125000000,144,0x07,0x0F
0.037443125000000,144,0x00,0x01
0.037517625000000,144,0x14,0x01
0.037596500000000,145,0x32,0x01
0.037671000000000,145,0x00,0x01
0.037745500000000,145,0x00,0x01
0.037827750000000,146,0x34,0x01
0.037902250000000,146,0x80,0x01
0.037976750000000,146,0x80,0x01
0.038059500000000,147,0x32,0x01
0.038134000000000,147,0x0A,0x01
0.038208500000000,147,0x00,0x01
0.038288375000000,148,0x32,0x01
0.038362875000000,148,0x00,0x00
0.038437250000000,148,0x20,0x01
0.038517125000000,149,0x32,0x01
0.038591625000000,149,0x20,0x01
0.038666125000000,149,0x20,0x01
0.038746000000000,150,0x32,0x01
0.038820500000000,150,0x20,0x01
0.038894875000000,150,0x60,0x01
0.038974750000000,151,0x32,0x01
0.039049250000000,151,0x20,0x01
0.039123750000000,151,0x00,0x01
0.039205125000000,152,0x07,0x01
0.039279500000000,152,0x01,0x01
0.039354000000000,152,0x14,0x01
0.039689625000000,153,0x07,0x0F
0.039762625000000,153,0x00,0x01
0.039837125000000,153,0x3C,0x01
0.039916000000000,154,0x32,0x01
0.039990375000000,154,0x00,0x81
0.040064875000000,154,0x00,0x01
0.040147250000000,155,0x34,0x01
0.040221750000000,155,0x80,0x01
0.040296125000000,155,0x80,0x01
0.040379000000000,156,0x32,0x01
0.040453500000000,156,0x0A,0x01
0.040527875000000,156,0x00,0x01
0.040607750000000,157,0x32,0x01
0.040682250000000,157,0x00,0x01
0.040756750000000,157,0x20,0x01
0.040836625000000,158,0x32,0x01
0.040911000000000,158,0x20,0x01
0.040985500000000,158,0x20,0x01
0.041065375000000,159,0x32,0x01
0.041139875000000,159,0x20,0x01
0.041214375000000,159,0x60,0x01
0.041294250000000,160,0x32,0x01
0.041368750000000,160,0x20,0x01
0.041443125000000,160,0x00,0x01
0.041524500000000,161,0x07,0x01
0.041599000000000,161,0x01,0x01
0.041673500000000,161,0x3C,0x01
0.042010000000000,162,0x07,0x0D
0.042083500000000,162,0x00,0x01
0.042158000000000,162,0x1E,0x01
0.042236875000000,163,0x32,0x01
0.042311375000000,163,0x00,0x01
0.042385750000000,163,0x00,0x81
0.042468125000000,164,0x34,0x01
0.042542625000000,164,0x80,0x01
0.042617125000000,164,0x80,0x00
0.042699875000000,165,0x32,0x01
0.042774375000000,165,0x0A,0x01
0.042848875000000,165,0x00,0x00
0.042928625000000,166,0x32,0x81
0.043003125000000,166,0x00,0x01
0.043077625000000,166,0x20,0x01
0.043157500000000,167,0x32,0x01
0.043232000000000,167,0x20,0x01
0.043306500000000,167,0x20,0x01
0.043386375000000,168,0x32,0x01
0.043460750000000,168,0x20,0x01
0.043535250000000,168,0x60,0x01
0.043615125000000,169,0x32,0x01
0.043689625000000,169,0x20,0x01
0.043764125000000,169,0x00,0x01
0.043845375000000,170,0x07,0x01
0.043919875000000,170,0x01,0x01
0.043994375000000,170,0x1E,0x01
0.044331875000000,171,0x07,0x0F
0.044404875000000,171,0x00,0x01
0.044479375000000,171,0x46,0x01
0.044558250000000,172,0x32,0x01
0.044632750000000,172,0x00,0x01
0.044707250000000,172,0x00,0x01
0.044789500000000,173,0x34,0x01
0.044864000000000,173,0x80,0x01
0.044938500000000,173,0x80,0x01
0.045021250000000,174,0x32,0x01
0.045095750000000,174,0x0A,0x01
0.045170250000000,174,0x00,0x01
0.045250125000000,175,0x32,0x01
0.045324625000000,175,0x00,0x01
0.045399000000000,175,0x20,0x01
0.045478875000000,176,0x32,0x01
0.045553375000000,176,0x20,0x01
0.045627875000000,176,0x20,0x01
0.045707750000000,177,0x32,0x01
0.045782250000000,177,0x20,0x01
0.045856625000000,177,0x60,0x81
0.045936500000000,178,0x32,0x01
0.046011000000000,178,0x20,0x01
0.046085500000000,178,0x00,0x01
0.046166875000000,179,0x07,0x01
0.046241250000000,179,0x01,0x01
0.046315750000000,179,0x46,0x01
0.046646500000000,180,0x07,0x0D
0.046720000000000,180,0x00,0x09
0.046794000000000,180,0x00,0x00
0.046872875000000,181,0x32,0x01
0.046947250000000,181,0x00,0x01
0.047021750000000,181,0x00,0x01
0.047104125000000,182,0x34,0x01
0.047178500000000,182,0x80,0x81
0.047253000000000,182,0x80,0x01
0.047335875000000,183,0x32,0x01
0.047410375000000,183,0x0A,0x01
0.047484750000000,183,0x00,0x01
0.047564625000000,184,0x32,0x01
0.047639125000000,184,0x00,0x01
0.047713625000000,184,0x20,0x01
0.047793500000000,185,0x32,0x01
0.047868000000000,185,0x20,0x01
0.047942375000000,185,0x20,0x01
0.048022250000000,186,0x32,0x01
0.048096750000000,186,0x20,0x01
0.048171250000000,186,0x60,0x01
0.048251125000000,187,0x32,0x01
0.048325625000000,187,0x20,0x01
0.048400000000000,187,0x00,0x01
0.048481375000000,188,0x07,0x01
0.048555875000000,188,0x01,0x01
0.048630375000000,188,0x00,0x01
0.048962000000000,189,0x07,0x0F
0.049035000000000,189,0x00,0x01
0.049109500000000,189,0x28,0x01
0.049188375000000,190,0x32,0x01
0.049262875000000,190,0x00,0x01
0.049337375000000,190,0x00,0x00
0.049419625000000,191,0x34,0x01
0.049494125000000,191,0x80,0x01
0.049568625000000,191,0x80,0x01
0.049651375000000,192,0x32,0x01
0.049725875000000,192,0x0A,0x01
0.049800375000000,192,0x00,0x01
0.049880250000000,193,0x32,0x01
0.049954625000000,193,0x00,0x01
0.050029125000000,193,0x20,0x01
0.050109000000000,194,0x32,0x01
0.050183500000000,194,0x20,0x01
0.050258000000000,194,0x20,0x01
0.050337875000000,195,0x32,0x01
0.050412250000000,195,0x20,0x01
0.050486750000000,195,0x60,0x01
0.050566625000000,196,0x32,0x01
0.050641125000000,196,0x20,0x01
0.050715625000000,196,0x00,0x01
0.050796875000000,197,0x07,0x01
0.050871375000000,197,0x01,0x01
0.050945875000000,197,0x28,0x01
0.051278500000000,198,0x07,0x0F
0.051351500000000,198,0x00,0x01
0.051426000000000,198,0x0A,0x01
0.051504875000000,199,0x32,0x01
0.051579375000000,199,0x00,0x01
0.051653875000000,199,0x00,0x00
0.051736125000000,200,0x34,0x01
0.051810625000000,200,0x80,0x01
0.051885125000000,200,0x80,0x01
0.051967875000000,201,0x32,0x01
0.052042375000000,201,0x0A,0x01
0.052116875000000,201,0x00,0x01
0.052196750000000,202,0x32,0x01
0.052271125000000,202,0x00,0x01
0.052345625000000,202,0x20,0x01
0.052425500000000,203,0x32,0x01
0.052500000000000,203,0x20,0x01
0.052574500000000,203,0x20,0x01
0.052654375000000,204,0x32,0x01
0.052728750000000,204,0x20,0x01
0.052803250000000,204,0x60,0x01
0.052883125000000,205,0x32,0x01
0.052957625000000,205,0x20,0x01
0.053032125000000,205,0x00,0x00
0.053113375000000,206,0x07,0x01
0.053187875000000,206,0x01,0x01
0.053262375000000,206,0x0A,0x01
0.053596000000000,207,0x07,0x0F
0.053669000000000,207,0x00,0x01
0.053743500000000,207,0x32,0x01
0.053822375000000,208,0x32,0x01
0.053896875000000,208,0x00,0x01
0.053971250000000,208,0x00,0x01
0.054053625000000,209,0x34,0x01
0.054128125000000,209,0x80,0x00
0.054202500000000,209,0x80,0x01
0.054285375000000,210,0x32,0x01
0.054359875000000,210,0x0A,0x00
0.054434250000000,210,0x00,0x01
0.054514125000000,211,0x32,0x01
