Time [s],Packet ID,MOSI,MISO
0.000000000000000,0,0x07,0x0F
0.000073000000000,0,0x00,0x01
0.000147500000000,0,0x46,0x01
0.000226375000000,1,0x32,0x01
0.000300875000000,1,0x00,0x01
0.000375375000000,1,0x00,0x01
0.000457625000000,2,0x34,0x01
0.000532125000000,2,0x80,0x01
0.000606625000000,2,0x80,0x01
0.000689500000000,3,0x32,0x01
0.000764000000000,3,0x0A,0x01
0.000838375000000,3,0x00,0x81
0.000918250000000,4,0x32,0x81
0.000992750000000,4,0x00,0x01
0.001067250000000,4,0x20,0x01
0.001147125000000,5,0x32,0x01
0.001221625000000,5,0x20,0x01
0.001296125000000,5,0x20,0x01
0.001376000000000,6,0x32,0x01
0.001450500000000,6,0x20,0x01
0.001525000000000,6,0x60,0x01
0.001604875000000,7,0x32,0x01
0.001679375000000,7,0x20,0x01
0.001753875000000,7,0x00,0x01
0.001835125000000,8,0x07,0x01
0.001909625000000,8,0x01,0x01
0.001984125000000,8,0x46,0x01
0.002314875000000,9,0x07,0x05
0.002388375000000,9,0x00,0x09
0.002462375000000,9,0x00,0x01
0.002541250000000,10,0x32,0x01
0.002615750000000,10,0x00,0x01
0.002690250000000,10,0x00,0x01
0.002772625000000,11,0x34,0x01
0.002847125000000,11,0x80,0x01
0.002921625000000,11,0x80,0x00
0.003004375000000,12,0x32,0x01
0.003078875000000,12,0x0A,0x01
0.003153375000000,12,0x00,0x01
0.003233250000000,13,0x32,0x01
0.003307750000000,13,0x00,0x01
0.003382250000000,13,0x20,0x01
0.003462125000000,14,0x32,0x01
0.003536500000000,14,0x20,0x81
0.003611000000000,14,0x20,0x01
0.003690875000000,15,0x32,0x01
0.003765375000000,15,0x20,0x01
0.003839875000000,15,0x60,0x01
0.003919750000000,16,0x32,0x01
0.003994250000000,16,0x20,0x01
0.004068750000000,16,0x00,0x01
0.004150125000000,17,0x07,0x01
0.004224625000000,17,0x01,0x01
0.004299000000000,17,0x00,0x01
0.004630750000000,18,0x07,0x07
0.004703750000000,18,0x00,0x01
0.004778250000000,18,0x28,0x01
0.004857125000000,19,0x32,0x01
0.004931625000000,19,0x00,0x01
0.005006125000000,19,0x00,0x01
0.005088500000000,20,0x34,0x01
0.005163000000000,20,0x80,0x01
0.005237500000000,20,0x80,0x00
0.005320250000000,21,0x32,0x01
0.005394750000000,21,0x0A,0x01
0.005469250000000,21,0x00,0x01
0.005549125000000,22,0x32,0x01
0.005623625000000,22,0x00,0x01
0.005698125000000,22,0x20,0x01
0.005778000000000,23,0x32,0x01
0.005852375000000,23,0x20,0x81
0.005926875000000,23,0x20,0x01
0.006006750000000,24,0x32,0x01
0.006081250000000,24,0x20,0x01
0.006155750000000,24,0x60,0x01
0.006235625000000,25,0x32,0x01
0.006310125000000,25,0x20,0x01
0.006384625000000,25,0x00,0x01
0.006466000000000,26,0x07,0x01
0.006540500000000,26,0x01,0x01
0.006614875000000,26,0x28,0x81
0.006947625000000,27,0x07,0x0F
0.007020625000000,27,0x00,0x01
0.007095125000000,27,0x0A,0x01
0.007174000000000,28,0x32,0x01
0.007248500000000,28,0x00,0x01
0.007323000000000,28,0x00,0x01
0.007405375000000,29,0x34,0x01
0.007479750000000,29,0x80,0x81
0.007554250000000,29,0x80,0x01
0.007637125000000,30,0x32,0x01
0.007711625000000,30,0x0A,0x01
0.007786125000000,30,0x00,0x01
0.007866000000000,31,0x32,0x01
0.007940500000000,31,0x00,0x01
0.008014875000000,31,0x20,0x01
0.008094750000000,32,0x32,0x01
0.008169250000000,32,0x20,0x01
0.008243750000000,32,0x20,0x01
0.008323625000000,33,0x32,0x01
0.008398125000000,33,0x20,0x01
0.008472625000000,33,0x60,0x01
0.008552500000000,34,0x32,0x01
0.008627000000000,34,0x20,0x01
0.008701500000000,34,0x00,0x01
0.008782750000000,35,0x07,0x81
0.008857250000000,35,0x01,0x01
0.008931750000000,35,0x0A,0x01
0.009265500000000,36,0x07,0x0F
0.009338500000000,36,0x00,0x01
0.009413000000000,36,0x32,0x01
0.009491875000000,37,0x32,0x01
0.009566375000000,37,0x00,0x01
0.009640875000000,37,0x00,0x00
0.009723125000000,38,0x34,0x01
0.009797625000000,38,0x80,0x01
0.009872125000000,38,0x80,0x01
0.009954875000000,39,0x32,0x01
0.010029375000000,39,0x0A,0x01
0.010103875000000,39,0x00,0x01
0.010183750000000,40,0x32,0x01
0.010258250000000,40,0x00,0x01
0.010332750000000,40,0x20,0x01
0.010412625000000,41,0x32,0x01
0.010487125000000,41,0x20,0x01
0.010561625000000,41,0x20,0x01
0.010641500000000,42,0x32,0x01
0.010716000000000,42,0x20,0x01
0.010790375000000,42,0x60,0x01
0.010870250000000,43,0x32,0x01
0.010944750000000,43,0x20,0x01
0.011019250000000,43,0x00,0x01
0.011100625000000,44,0x07,0x01
0.011175125000000,44,0x01,0x01
0.011249625000000,44,0x32,0x01
0.011584250000000,45,0x07,0x0F
0.011657250000000,45,0x00,0x01
0.011731750000000,45,0x14,0x01
0.011810625000000,46,0x32,0x01
0.011885125000000,46,0x00,0x01
0.011959625000000,46,0x00,0x01
0.012041875000000,47,0x34,0x01
0.012116375000000,47,0x80,0x01
0.012190875000000,47,0x80,0x01
0.012273750000000,48,0x32,0x01
0.012348250000000,48,0x0A,0x00
0.012422625000000,48,0x00,0x01
0.012502500000000,49,0x32,0x01
0.012577000000000,49,0x00,0x01
0.012651500000000,49,0x20,0x01
0.012731375000000,50,0x32,0x01
0.012805875000000,50,0x20,0x01
0.012880375000000,50,0x20,0x01
0.012960250000000,51,0x32,0x01
0.013034750000000,51,0x20,0x01
0.013109250000000,51,0x60,0x01
0.013189125000000,52,0x32,0x01
0.013263625000000,52,0x20,0x00
0.013338000000000,52,0x00,0x01
0.013419375000000,53,0x07,0x01
0.013493875000000,53,0x01,0x01
0.013568375000000,53,0x14,0x01
0.013904000000000,54,0x07,0x0F
0.013977000000000,54,0x00,0x01
0.014051500000000,54,0x3C,0x01
0.014130375000000,55,0x32,0x01
0.014204875000000,55,0x00,0x01
0.014279375000000,55,0x00,0x01
0.014361750000000,56,0x34,0x00
0.014436125000000,56,0x80,0x01
0.014510625000000,56,0x80,0x01
0.014593500000000,57,0x32,0x01
0.014668000000000,57,0x0A,0x01
0.014742500000000,57,0x00,0x01
0.014822375000000,58,0x32,0x01
0.014896750000000,58,0x00,0x81
0.014971250000000,58,0x20,0x01
0.015051125000000,59,0x32,0x01
0.015125625000000,59,0x20,0x01
0.015200125000000,59,0x20,0x01
0.015280000000000,60,0x32,0x01
0.015354500000000,60,0x20,0x01
0.015429000000000,60,0x60,0x01
0.015508875000000,61,0x32,0x01
0.015583375000000,61,0x20,0x01
0.015657875000000,61,0x00,0x01
0.015739250000000,62,0x07,0x01
0.015813625000000,62,0x01,0x01
0.015888125000000,62,0x3C,0x01
0.016224750000000,63,0x07,0x05
0.016298250000000,63,0x00,0x01
0.016372750000000,63,0x1E,0x01
0.016451625000000,64,0x32,0x01
0.016526125000000,64,0x00,0x01
0.016600625000000,64,0x00,0x01
0.016683000000000,65,0x34,0x01
0.016757375000000,65,0x80,0x81
0.016831875000000,65,0x80,0x01
0.016914750000000,66,0x32,0x01
0.016989250000000,66,0x0A,0x01
0.017063750000000,66,0x00,0x01
0.017143625000000,67,0x32,0x01
0.017218000000000,67,0x00,0x81
0.017292500000000,67,0x20,0x01
0.017372375000000,68,0x32,0x01
0.017446875000000,68,0x20,0x01
0.017521375000000,68,0x20,0x01
0.017601250000000,69,0x32,0x01
0.017675750000000,69,0x20,0x01
0.017750250000000,69,0x60,0x01
0.017830125000000,70,0x32,0x01
0.017904625000000,70,0x20,0x01
0.017979125000000,70,0x00,0x01
0.018060375000000,71,0x07,0x81
0.018134875000000,71,0x01,0x01
0.018209375000000,71,0x1E,0x01
0.018547000000000,72,0x07,0x0F
0.018620000000000,72,0x00,0x01
0.018694500000000,72,0x46,0x01
0.018773375000000,73,0x32,0x01
0.018847875000000,73,0x00,0x01
0.018922375000000,73,0x00,0x01
0.019004750000000,74,0x34,0x01
0.019079125000000,74,0x80,0x01
0.019153625000000,74,0x80,0x01
0.019236500000000,75,0x32,0x01
0.019311000000000,75,0x0A,0x01
0.019385500000000,75,0x00,0x01
0.019465375000000,76,0x32,0x01
0.019539750000000,76,0x00,0x81
0.019614250000000,76,0x20,0x01
0.019694125000000,77,0x32,0x01
0.019768625000000,77,0x20,0x01
0.019843125000000,77,0x20,0x01
0.019923000000000,78,0x32,0x01
0.019997500000000,78,0x20,0x01
0.020072000000000,78,0x60,0x01
0.020151875000000,79,0x32,0x01
0.020226375000000,79,0x20,0x01
0.020300875000000,79,0x00,0x01
0.020382125000000,80,0x07,0x01
0.020456625000000,80,0x01,0x01
0.020531125000000,80,0x46,0x01
0.020861875000000,81,0x07,0x0D
0.020935375000000,81,0x00,0x09
0.021009375000000,81,0x00,0x01
0.021088250000000,82,0x32,0x01
0.021162750000000,82,0x00,0x01
0.021237250000000,82,0x00,0x01
0.021319625000000,83,0x34,0x01
0.021394000000000,83,0x80,0x81
0.021468500000000,83,0x80,0x01
0.021551375000000,84,0x32,0x01
0.021625875000000,84,0x0A,0x01
0.021700375000000,84,0x00,0x01
0.021780250000000,85,0x32,0x01
0.021854750000000,85,0x00,0x00
0.021929125000000,85,0x20,0x01
0.022009000000000,86,0x32,0x01
0.022083500000000,86,0x20,0x01
0.022158000000000,86,0x20,0x01
0.022237875000000,87,0x32,0x01
0.022312375000000,87,0x20,0x01
0.022386875000000,87,0x60,0x01
0.022466750000000,88,0x32,0x01
0.022541250000000,88,0x20,0x01
0.022615750000000,88,0x00,0x01
0.022697125000000,89,0x07,0x00
0.022771500000000,89,0x01,0x01
0.022846000000000,89,0x00,0x01
0.023177750000000,90,0x07,0x0F
0.023250750000000,90,0x00,0x01
0.023325250000000,90,0x28,0x01
0.023404125000000,91,0x32,0x01
0.023478625000000,91,0x00,0x01
0.023553125000000,91,0x00,0x01
0.023635500000000,92,0x34,0x01
0.023709875000000,92,0x80,0x81
0.023784375000000,92,0x80,0x01
0.023867250000000,93,0x32,0x01
0.023941750000000,93,0x0A,0x01
0.024016250000000,93,0x00,0x01
0.024096125000000,94,0x32,0x01
0.024170500000000,94,0x00,0x81
0.024245000000000,94,0x20,0x01
0.024324875000000,95,0x32,0x01
0.024399375000000,95,0x20,0x01
0.024473875000000,95,0x20,0x01
0.024553750000000,96,0x32,0x01
0.024628250000000,96,0x20,0x01
0.024702750000000,96,0x60,0x01
0.024782625000000,97,0x32,0x01
0.024857125000000,97,0x20,0x01
0.024931625000000,97,0x00,0x01
0.025012875000000,98,0x07,0x81
0.025087375000000,98,0x01,0x01
0.025161875000000,98,0x28,0x01
0.025494625000000,99,0x07,0x0F
0.025567625000000,99,0x00,0x01
0.025642125000000,99,0x0A,0x01
0.025721000000000,100,0x32,0x01
0.025795500000000,100,0x00,0x01
0.025870000000000,100,0x00,0x01
0.025952250000000,101,0x34,0x01
0.026026750000000,101,0x80,0x01
0.026101250000000,101,0x80,0x01
0.026184125000000,102,0x32,0x01
0.026258500000000,102,0x0A,0x01
0.026333000000000,102,0x00,0x01
0.026412875000000,103,0x32,0x01
0.026487375000000,103,0x00,0x01
0.026561875000000,103,0x20,0x01
0.026641750000000,104,0x32,0x01
0.026716250000000,104,0x20,0x01
0.026790750000000,104,0x20,0x01
0.026870625000000,105,0x32,0x01
0.026945125000000,105,0x20,0x01
0.027019625000000,105,0x60,0x01
0.027099500000000,106,0x32,0x01
0.027174000000000,106,0x20,0x01
0.027248375000000,106,0x00,0x80
0.027329750000000,107,0x07,0x01
0.027404250000000,107,0x01,0x01
0.027478750000000,107,0x0A,0x01
0.027812500000000,108,0x07,0x0F
0.027885500000000,108,0x00,0x01
0.027960000000000,108,0x32,0x00
0.028038875000000,109,0x32,0x01
0.028113375000000,109,0x00,0x01
0.028187750000000,109,0x00,0x01
0.028270125000000,110,0x34,0x01
0.028344625000000,110,0x80,0x01
0.028419125000000,110,0x80,0x01
0.028501875000000,111,0x32,0x01
0.028576375000000,111,0x0A,0x01
0.028650875000000,111,0x00,0x01
0.028730750000000,112,0x32,0x01
0.028805250000000,112,0x00,0x01
0.028879750000000,112,0x20,0x01
0.028959625000000,113,0x32,0x01
0.029034125000000,113,0x20,0x01
0.029108625000000,113,0x20,0x01
0.029188500000000,114,0x32,0x01
0.029262875000000,114,0x20,0x01
0.029337375000000,114,0x60,0x01
0.029417250000000,115,0x32,0x01
0.029491750000000,115,0x20,0x01
0.029566250000000,115,0x00,0x01
0.029647625000000,116,0x07,0x01
0.029722125000000,116,0x01,0x01
0.029796625000000,116,0x32,0x01
0.030131250000000,117,0x07,0x0F
0.030204250000000,117,0x00,0x01
0.030278750000000,117,0x14,0x01
0.030357625000000,118,0x32,0x01
0.030432125000000,118,0x00,0x01
0.030506625000000,118,0x00,0x01
0.030588875000000,119,0x34,0x01
0.030663375000000,119,0x80,0x01
0.030737875000000,119,0x80,0x01
0.030820750000000,120,0x32,0x01
0.030895250000000,120,0x0A,0x00
0.030969625000000,120,0x00,0x01
0.031049500000000,121,0x32,0x01
0.031124000000000,121,0x00,0x01
0.031198500000000,121,0x20,0x01
0.031278375000000,122,0x32,0x01
0.031352875000000,122,0x20,0x01
0.031427375000000,122,0x20,0x01
0.031507250000000,123,0x32,0x01
0.031581750000000,123,0x20,0x01
0.031656250000000,123,0x60,0x01
0.031736125000000,124,0x32,0x01
0.031810625000000,124,0x20,0x01
0.031885125000000,124,0x00,0x01
0.031966375000000,125,0x07,0x01
0.032040875000000,125,0x01,0x01
0.032115375000000,125,0x14,0x01
0.032451000000000,126,0x07,0x07
0.032524000000000,126,0x00,0x01
0.032598500000000,126,0x3C,0x01
0.032677375000000,127,0x32,0x01
0.032751875000000,127,0x00,0x01
0.032826375000000,127,0x00,0x01
0.032908750000000,128,0x34,0x01
0.032983250000000,128,0x80,0x01
0.033057750000000,128,0x80,0x01
0.033140500000000,129,0x32,0x01
0.033215000000000,129,0x0A,0x01
0.033289500000000,129,0x00,0x01
0.033369375000000,130,0x32,0x01
0.033443875000000,130,0x00,0x01
0.033518375000000,130,0x20,0x01
0.033598250000000,131,0x32,0x01
0.033672750000000,131,0x20,0x01
0.033747125000000,131,0x20,0x81
0.033827125000000,132,0x32,0x00
0.033901500000000,132,0x20,0x01
0.033976000000000,132,0x60,0x01
0.034055875000000,133,0x32,0x01
0.034130375000000,133,0x20,0x01
0.034204875000000,133,0x00,0x01
0.034286250000000,134,0x07,0x01
0.034360750000000,134,0x01,0x01
0.034435250000000,134,0x3C,0x00
0.034771875000000,135,0x07,0x0D
0.034845375000000,135,0x00,0x00
0.034919750000000,135,0x1E,0x01
0.034998750000000,136,0x32,0x01
0.035073125000000,136,0x00,0x01
0.035147625000000,136,0x00,0x01
0.035230000000000,137,0x34,0x01
0.035304500000000,137,0x80,0x01
0.035379000000000,137,0x80,0x01
0.035461750000000,138,0x32,0x01
0.035536250000000,138,0x0A,0x01
0.035610750000000,138,0x00,0x01
0.035690625000000,139,0x32,0x01
0.035765125000000,139,0x00,0x01
0.035839625000000,139,0x20,0x01
0.035919500000000,140,0x32,0x01
0.035994000000000,140,0x20,0x01
0.036068500000000,140,0x20,0x01
0.036148375000000,141,0x32,0x01
0.036222875000000,141,0x20,0x01
0.036297250000000,141,0x60,0x01
0.036377125000000,142,0x32,0x81
0.036451625000000,142,0x20,0x01
0.036526125000000,142,0x00,0x01
0.036607500000000,143,0x07,0x01
0.036682000000000,143,0x01,0x01
0.036756500000000,143,0x1E,0x01
0.037094125000000,144,0x07,0x0F
0.037167125000000,144,0x00,0x01
0.037241625000000,144,0x46,0x01
0.037320500000000,145,0x32,0x01
0.037395000000000,145,0x00,0x01
0.037469500000000,145,0x00,0x01
0.037551750000000,146,0x34,0x01
0.037626250000000,146,0x80,0x01
0.037700750000000,146,0x80,0x01
0.037783625000000,147,0x32,0x00
0.037858000000000,147,0x0A,0x01
0.037932500000000,147,0x00,0x01
0.038012375000000,148,0x32,0x01
0.038086875000000,148,0x00,0x01
0.038161375000000,148,0x20,0x01
0.038241250000000,149,0x32,0x01
0.038315750000000,149,0x20,0x01
0.038390250000000,149,0x20,0x01
0.038470125000000,150,0x32,0x01
0.038544625000000,150,0x20,0x01
0.038619125000000,150,0x60,0x01
0.038699000000000,151,0x32,0x01
0.038773500000000,151,0x20,0x01
0.038847875000000,151,0x00,0x81
0.038929250000000,152,0x07,0x01
0.039003750000000,152,0x01,0x01
0.039078250000000,152,0x46,0x01
0.039409000000000,153,0x07,0x0D
0.039482500000000,153,0x00,0x09
0.039556500000000,153,0x00,0x01
0.039635375000000,154,0x32,0x01
0.039709875000000,154,0x00,0x01
0.039784375000000,154,0x00,0x01
0.039866625000000,155,0x34,0x81
0.039941125000000,155,0x80,0x01
0.040015625000000,155,0x80,0x01
0.040098500000000,156,0x32,0x01
0.040173000000000,156,0x0A,0x01
0.040247375000000,156,0x00,0x81
0.040327375000000,157,0x32,0x00
0.040401750000000,157,0x00,0x01
0.040476250000000,157,0x20,0x01
0.040556125000000,158,0x32,0x01
0.040630625000000,158,0x20,0x01
0.040705125000000,158,0x20,0x01
0.040785000000000,159,0x32,0x01
0.040859500000000,159,0x20,0x01
0.040934000000000,159,0x60,0x01
0.041013875000000,160,0x32,0x01
0.041088375000000,160,0x20,0x01
0.041162875000000,160,0x00,0x01
0.041244125000000,161,0x07,0x01
0.041318625000000,161,0x01,0x01
0.041393125000000,161,0x00,0x01
0.041724875000000,162,0x07,0x0F
0.041797875000000,162,0x00,0x01
0.041872375000000,162,0x28,0x01
0.041951250000000,163,0x32,0x01
0.042025750000000,163,0x00,0x01
0.042100250000000,163,0x00,0x01
0.042182625000000,164,0x34,0x01
0.042257000000000,164,0x80,0x01
0.042331500000000,164,0x80,0x01
0.042414375000000,165,0x32,0x01
0.042488875000000,165,0x0A,0x01
0.042563375000000,165,0x00,0x01
0.042643250000000,166,0x32,0x01
0.042717750000000,166,0x00,0x01
0.042792125000000,166,0x20,0x01
0.042872000000000,167,0x32,0x01
0.042946500000000,167,0x20,0x01
0.043021000000000,167,0x20,0x01
0.043100875000000,168,0x32,0x01
0.043175375000000,168,0x20,0x01
0.043249875000000,168,0x60,0x01
0.043329750000000,169,0x32,0x01
0.043404250000000,169,0x20,0x01
0.043478750000000,169,0x00,0x01
0.043560125000000,170,0x07,0x01
0.043634625000000,170,0x01,0x01
0.043709000000000,170,0x28,0x01
0.044041750000000,171,0x07,0x0F
0.044114750000000,171,0x00,0x01
0.044189250000000,171,0x0A,0x01
0.044268125000000,172,0x32,0x01
0.044342625000000,172,0x00,0x01
0.044417125000000,172,0x00,0x01
0.044499500000000,173,0x34,0x01
0.044573875000000,173,0x80,0x01
0.044648375000000,173,0x80,0x01
0.044731250000000,174,0x32,0x01
0.044805750000000,174,0x0A,0x01
0.044880250000000,174,0x00,0x01
0.044960125000000,175,0x32,0x01
0.045034625000000,175,0x00,0x00
0.045109000000000,175,0x20,0x01
0.045188875000000,176,0x32,0x01
0.045263375000000,176,0x20,0x01
0.045337875000000,176,0x20,0x01
0.045417750000000,177,0x32,0x01
0.045492250000000,177,0x20,0x01
0.045566750000000,177,0x60,0x01
0.045646625000000,178,0x32,0x01
0.045721125000000,178,0x20,0x01
0.045795625000000,178,0x00,0x01
0.045877000000000,179,0x07,0x01
0.045951375000000,179,0x01,0x81
0.046025875000000,179,0x0A,0x01
0.046359625000000,180,0x07,0x0F
0.046432625000000,180,0x00,0x01
0.046507125000000,180,0x32,0x01
0.046586000000000,181,0x32,0x01
0.046660500000000,181,0x00,0x01
0.046735000000000,181,0x00,0x01
0.046817250000000,182,0x34,0x01
0.046891750000000,182,0x80,0x01
0.046966250000000,182,0x80,0x01
0.047049125000000,183,0x32,0x01
0.047123625000000,183,0x0A,0x00
0.047198000000000,183,0x00,0x01
0.047277875000000,184,0x32,0x01
0.047352375000000,184,0x00,0x01
0.047426875000000,184,0x20,0x01
0.047506750000000,185,0x32,0x01
0.047581250000000,185,0x20,0x01
0.047655750000000,185,0x20,0x01
0.047735625000000,186,0x32,0x01
0.047810125000000,186,0x20,0x01
0.047884625000000,186,0x60,0x01
0.047964500000000,187,0x32,0x01
0.048039000000000,187,0x20,0x01
0.048113500000000,187,0x00,0x00
0.048194750000000,188,0x07,0x01
0.048269250000000,188,0x01,0x01
0.048343750000000,188,0x32,0x01
0.048678375000000,189,0x07,0x0F
0.048751500000000,189,0x00,0x00
0.048825875000000,189,0x14,0x01
0.048904875000000,190,0x32,0x01
0.048979250000000,190,0x00,0x81
0.049053750000000,190,0x00,0x01
0.049136125000000,191,0x34,0x01
0.049210625000000,191,0x80,0x01
0.049285125000000,191,0x80,0x01
0.049367875000000,192,0x32,0x01
0.049442375000000,192,0x0A,0x01
0.049516875000000,192,0x00,0x01
0.049596750000000,193,0x32,0x01
0.049671250000000,193,0x00,0x01
0.049745750000000,193,0x20,0x01
0.049825625000000,194,0x32,0x01
0.049900125000000,194,0x20,0x01
0.049974625000000,194,0x20,0x00
0.050054500000000,195,0x32,0x00
0.050128875000000,195,0x20,0x01
0.050203375000000,195,0x60,0x01
0.050283250000000,196,0x32,0x01
0.050357750000000,196,0x20,0x01
0.050432250000000,196,0x00,0x01
0.050513625000000,197,0x07,0x01
0.050588125000000,197,0x01,0x01
0.050662625000000,197,0x14,0x01
0.050998250000000,198,0x07,0x0F
0.051071250000000,198,0x00,0x01
0.051145750000000,198,0x3C,0x01
0.051224625000000,199,0x32,0x01
0.051299125000000,199,0x00,0x01
0.051373625000000,199,0x00,0x01
0.051455875000000,200,0x34,0x01
0.051530375000000,200,0x80,0x01
0.051604875000000,200,0x80,0x01
0.051687750000000,201,0x32,0x01
0.051762250000000,201,0x0A,0x00
0.051836625000000,201,0x00,0x01
0.051916500000000,202,0x32,0x01
0.051991000000000,202,0x00,0x01
0.052065500000000,202,0x20,0x01
0.052145375000000,203,0x32,0x01
0.052219875000000,203,0x20,0x01
0.052294375000000,203,0x20,0x01
0.052374250000000,204,0x32,0x01
0.052448750000000,204,0x20,0x01
0.052523250000000,204,0x60,0x01
0.052603125000000,205,0x32,0x01
0.052677625000000,205,0x20,0x01
0.052752125000000,205,0x00,0x01
0.052833375000000,206,0x07,0x01
0.052907875000000,206,0x01,0x01
0.052982375000000,206,0x3C,0x01
0.053319000000000,207,0x07,0x0D
0.053392500000000,207,0x00,0x01
0.053467000000000,207,0x1E,0x01
0.053545875000000,208,0x32,0x01
0.053620375000000,208,0x00,0x01
0.053694875000000,208,0x00,0x01
0.053777125000000,209,0x34,0x01
0.053851625000000,209,0x80,0x01
0.053926125000000,209,0x80,0x01
0.054009000000000,210,0x32,0x01
0.054083500000000,210,0x0A,0x01
0.054157875000000,210,0x00,0x01
0.054237750000000,211,0x32,0x01
