Time [s],Packet ID,MOSI,MISO
0.000018000000000,0,0x32,0x01
0.000092000000000,0,0x20,0x01
0.000166125000000,0,0xC0,0x01
0.000246875000000,1,0x07,0x01
0.000321000000000,1,0x01,0x01
0.000395000000000,1,0x0A,0x01
0.000726750000000,2,0x07,0x0F
0.000799250000000,2,0x00,0x01
0.000873250000000,2,0x32,0x01
0.000951750000000,3,0x32,0x01
0.001025750000000,3,0x00,0x01
0.001099750000000,3,0x00,0x80
0.001181625000000,4,0x34,0x01
0.001255625000000,4,0x80,0x01
0.001329750000000,4,0x80,0x01
0.001412000000000,5,0x32,0x01
0.001486125000000,5,0x0A,0x01
0.001560125000000,5,0x11,0x01
0.001639500000000,6,0x32,0x01
0.001713500000000,6,0x00,0x80
0.001787625000000,6,0x20,0x01
0.001867000000000,7,0x32,0x01
0.001941000000000,7,0x20,0x01
0.002015125000000,7,0x20,0x01
0.002094500000000,8,0x32,0x01
0.002168500000000,8,0x20,0x01
0.002242500000000,8,0x20,0x01
0.002322000000000,9,0x32,0x01
0.002396000000000,9,0x20,0x01
0.002470000000000,9,0xC0,0x01
0.002550875000000,10,0x07,0x01
0.002624875000000,10,0x01,0x01
0.002699000000000,10,0x32,0x01
0.003031625000000,11,0x07,0x0F
0.003104250000000,11,0x00,0x01
0.003178250000000,11,0x14,0x01
0.003256625000000,12,0x32,0x01
0.003330750000000,12,0x00,0x01
0.003404750000000,12,0x00,0x01
0.003486625000000,13,0x34,0x01
0.003560625000000,13,0x80,0x01
0.003634625000000,13,0x80,0x01
0.003717000000000,14,0x32,0x01
0.003791000000000,14,0x0A,0x01
0.003865000000000,14,0x11,0x01
0.003944500000000,15,0x32,0x01
0.004018500000000,15,0x00,0x01
0.004092500000000,15,0x20,0x01
0.004171875000000,16,0x32,0x01
0.004246000000000,16,0x20,0x01
0.004320000000000,16,0x20,0x01
0.004399375000000,17,0x32,0x01
0.004473500000000,17,0x20,0x01
0.004547500000000,17,0x20,0x01
0.004626875000000,18,0x32,0x01
0.004700875000000,18,0x20,0x01
0.004775000000000,18,0xC0,0x01
0.004855875000000,19,0x07,0x01
0.004929875000000,19,0x01,0x01
0.005003875000000,19,0x14,0x01
0.005337500000000,20,0x07,0x0F
0.005410125000000,20,0x00,0x01
0.005484125000000,20,0x3C,0x01
0.005562625000000,21,0x32,0x01
0.005636625000000,21,0x00,0x01
0.005710625000000,21,0x00,0x01
0.005792500000000,22,0x34,0x01
0.005866500000000,22,0x80,0x01
0.005940500000000,22,0x80,0x01
0.006022875000000,23,0x32,0x01
0.006096875000000,23,0x0A,0x01
0.006171000000000,23,0x11,0x01
0.006250375000000,24,0x32,0x01
0.006324375000000,24,0x00,0x01
0.006398375000000,24,0x20,0x01
0.006477875000000,25,0x32,0x01
0.006551875000000,25,0x20,0x01
0.006625875000000,25,0x20,0x01
0.006705250000000,26,0x32,0x01
0.006779375000000,26,0x20,0x01
0.006853375000000,26,0x20,0x01
0.006932750000000,27,0x32,0x01
0.007006750000000,27,0x20,0x01
0.007080875000000,27,0xC0,0x01
0.007161750000000,28,0x07,0x01
0.007235750000000,28,0x01,0x01
0.007309750000000,28,0x3C,0x01
0.007644375000000,29,0x07,0x0F
0.007716875000000,29,0x00,0x80
0.007791000000000,29,0x1E,0x01
0.007869375000000,30,0x32,0x01
0.007943375000000,30,0x00,0x01
0.008017500000000,30,0x00,0x01
0.008099250000000,31,0x34,0x01
0.008173375000000,31,0x80,0x01
0.008247375000000,31,0x80,0x01
0.008329750000000,32,0x32,0x01
0.008403750000000,32,0x0A,0x01
0.008477750000000,32,0x11,0x01
0.008557125000000,33,0x32,0x01
0.008631250000000,33,0x00,0x01
0.008705250000000,33,0x20,0x01
0.008784625000000,34,0x32,0x01
0.008858625000000,34,0x20,0x80
0.008932750000000,34,0x20,0x01
0.009012125000000,35,0x32,0x01
0.009086125000000,35,0x20,0x01
0.009160250000000,35,0x20,0x01
0.009239625000000,36,0x32,0x01
0.009313625000000,36,0x20,0x01
0.009387625000000,36,0xC0,0x01
0.009468500000000,37,0x07,0x01
0.009542625000000,37,0x01,0x01
0.009616625000000,37,0x1E,0x01
0.009952125000000,38,0x07,0x0F
0.010024750000000,38,0x00,0x01
0.010098750000000,38,0x46,0x01
0.010177250000000,39,0x32,0x01
0.010251250000000,39,0x00,0x01
0.010325250000000,39,0x00,0x01
0.010407125000000,40,0x34,0x01
0.010481125000000,40,0x80,0x01
0.010555250000000,40,0x80,0x01
0.010637500000000,41,0x32,0x01
0.010711500000000,41,0x0A,0x80
0.010785625000000,41,0x11,0x01
0.010865000000000,42,0x32,0x01
0.010939000000000,42,0x00,0x01
0.011013125000000,42,0x20,0x01
0.011092500000000,43,0x32,0x01
0.011166500000000,43,0x20,0x01
0.011240625000000,43,0x20,0x01
0.011320000000000,44,0x32,0x01
0.011394000000000,44,0x20,0x01
0.011468000000000,44,0x20,0x01
0.011547500000000,45,0x32,0x01
0.011621500000000,45,0x20,0x01
0.011695500000000,45,0xC0,0x01
0.011776375000000,46,0x07,0x01
0.011850375000000,46,0x01,0x01
0.011924500000000,46,0x46,0x01
0.012253250000000,47,0x07,0x0D
0.012326250000000,47,0x00,0x01
0.012400250000000,47,0x00,0x01
0.012478750000000,48,0x32,0x01
0.012552750000000,48,0x00,0x01
0.012626750000000,48,0x00,0x01
0.012708625000000,49,0x34,0x01
0.012782625000000,49,0x80,0x01
0.012856750000000,49,0x80,0x01
0.012939000000000,50,0x32,0x01
0.013013125000000,50,0x0A,0x01
0.013087125000000,50,0x11,0x01
0.013166500000000,51,0x32,0x01
0.013240500000000,51,0x00,0x01
0.013314625000000,51,0x20,0x01
0.013394000000000,52,0x32,0x01
0.013468000000000,52,0x20,0x01
0.013542125000000,52,0x20,0x01
0.013621500000000,53,0x32,0x01
0.013695500000000,53,0x20,0x01
0.013769500000000,53,0x20,0x01
0.013849000000000,54,0x32,0x01
0.013923000000000,54,0x20,0x01
0.013997000000000,54,0xC0,0x01
0.014077875000000,55,0x07,0x01
0.014151875000000,55,0x01,0x01
0.014226000000000,55,0x00,0x01
0.014555750000000,56,0x07,0x0D
0.014628750000000,56,0x00,0x01
0.014702750000000,56,0x28,0x01
0.014781250000000,57,0x32,0x01
0.014855250000000,57,0x00,0x01
0.014929250000000,57,0x00,0x01
0.015011125000000,58,0x34,0x01
0.015085125000000,58,0x80,0x01
0.015159250000000,58,0x80,0x01
0.015241500000000,59,0x32,0x01
0.015315625000000,59,0x0A,0x01
0.015389625000000,59,0x11,0x01
0.015469000000000,60,0x32,0x01
0.015543000000000,60,0x00,0x01
0.015617125000000,60,0x20,0x01
0.015696500000000,61,0x32,0x01
0.015770500000000,61,0x20,0x01
0.015844625000000,61,0x20,0x01
0.015924000000000,62,0x32,0x01
0.015998000000000,62,0x20,0x01
0.016072000000000,62,0x20,0x00
0.016151500000000,63,0x32,0x01
0.016225500000000,63,0x20,0x01
0.016299500000000,63,0xC0,0x01
0.016380375000000,64,0x07,0x01
0.016454375000000,64,0x01,0x80
0.016528500000000,64,0x28,0x01
0.016859125000000,65,0x07,0x8D
0.016932250000000,65,0x00,0x01
0.017006250000000,65,0x0A,0x01
0.017084750000000,66,0x32,0x01
0.017158750000000,66,0x00,0x01
0.017232750000000,66,0x00,0x01
0.017314625000000,67,0x34,0x01
0.017388625000000,67,0x80,0x01
0.017462750000000,67,0x80,0x01
0.017545000000000,68,0x32,0x01
0.017619000000000,68,0x0A,0x01
0.017693125000000,68,0x11,0x01
0.017772500000000,69,0x32,0x01
0.017846500000000,69,0x00,0x01
0.017920625000000,69,0x20,0x01
0.018000000000000,70,0x32,0x01
0.018074000000000,70,0x20,0x01
0.018148000000000,70,0x20,0x80
0.018227500000000,71,0x32,0x01
0.018301500000000,71,0x20,0x01
0.018375500000000,71,0x20,0x01
0.018454875000000,72,0x32,0x80
0.018529000000000,72,0x20,0x01
0.018603000000000,72,0xC0,0x01
0.018683875000000,73,0x07,0x01
0.018757875000000,73,0x01,0x01
0.018832000000000,73,0x0A,0x01
0.019163625000000,74,0x07,0x0F
0.019236250000000,74,0x00,0x01
0.019310250000000,74,0x32,0x01
0.019388625000000,75,0x32,0x01
0.019462750000000,75,0x00,0x01
0.019536750000000,75,0x00,0x01
0.019618625000000,76,0x34,0x01
0.019692625000000,76,0x80,0x01
0.019766625000000,76,0x80,0x01
0.019849000000000,77,0x32,0x01
0.019923000000000,77,0x0A,0x01
0.019997000000000,77,0x11,0x01
0.020076375000000,78,0x32,0x80
0.020150500000000,78,0x00,0x01
0.020224500000000,78,0x20,0x01
0.020303875000000,79,0x32,0x01
0.020378000000000,79,0x20,0x01
0.020452000000000,79,0x20,0x01
0.020531375000000,80,0x32,0x01
0.020605375000000,80,0x20,0x01
0.020679500000000,80,0x20,0x01
0.020758875000000,81,0x32,0x01
0.020832875000000,81,0x20,0x01
0.020907000000000,81,0xC0,0x01
0.020987750000000,82,0x07,0x01
0.021061875000000,82,0x01,0x01
0.021135875000000,82,0x32,0x01
0.021468500000000,83,0x07,0x0F
0.021541125000000,83,0x00,0x01
0.021615125000000,83,0x14,0x01
0.021693500000000,84,0x32,0x01
0.021767625000000,84,0x00,0x01
0.021841625000000,84,0x00,0x01
0.021923500000000,85,0x34,0x01
0.021997500000000,85,0x80,0x01
0.022071500000000,85,0x80,0x01
0.022153875000000,86,0x32,0x01
0.022227875000000,86,0x0A,0x01
0.022301875000000,86,0x11,0x01
0.022381375000000,87,0x32,0x01
0.022455375000000,87,0x00,0x01
0.022529375000000,87,0x20,0x01
0.022608750000000,88,0x32,0x80
0.022682875000000,88,0x20,0x01
0.022756875000000,88,0x20,0x01
0.022836250000000,89,0x32,0x01
0.022910375000000,89,0x20,0x01
0.022984375000000,89,0x20,0x01
0.023063750000000,90,0x32,0x01
0.023137750000000,90,0x20,0x01
0.023211875000000,90,0xC0,0x01
0.023292750000000,91,0x07,0x01
0.023366750000000,91,0x01,0x01
0.023440750000000,91,0x14,0x01
0.023774375000000,92,0x07,0x0F
0.023847000000000,92,0x00,0x01
0.023921000000000,92,0x3C,0x01
0.023999375000000,93,0x32,0x01
0.024073500000000,93,0x00,0x01
0.024147500000000,93,0x00,0x01
0.024229375000000,94,0x34,0x01
0.024303375000000,94,0x80,0x01
0.024377375000000,94,0x80,0x01
0.024459750000000,95,0x32,0x01
0.024533750000000,95,0x0A,0x01
0.024607750000000,95,0x11,0x80
0.024687250000000,96,0x32,0x01
0.024761250000000,96,0x00,0x01
0.024835250000000,96,0x20,0x01
0.024914625000000,97,0x32,0x01
0.024988750000000,97,0x20,0x01
0.025062750000000,97,0x20,0x01
0.025142125000000,98,0x32,0x01
0.025216250000000,98,0x20,0x01
0.025290250000000,98,0x20,0x01
0.025369625000000,99,0x32,0x01
0.025443625000000,99,0x20,0x01
0.025517750000000,99,0xC0,0x01
0.025598625000000,100,0x07,0x01
0.025672625000000,100,0x01,0x01
0.025746625000000,100,0x3C,0x01
0.026081250000000,101,0x07,0x0F
0.026153875000000,101,0x00,0x01
0.026227875000000,101,0x1E,0x01
0.026306250000000,102,0x32,0x01
0.026380375000000,102,0x00,0x01
0.026454375000000,102,0x00,0x01
0.026536250000000,103,0x34,0x00
0.026610250000000,103,0x80,0x01
0.026684250000000,103,0x80,0x01
0.026766625000000,104,0x32,0x01
0.026840625000000,104,0x0A,0x01
0.026914625000000,104,0x11,0x01
0.026994000000000,105,0x32,0x80
0.027068125000000,105,0x00,0x01
0.027142125000000,105,0x20,0x01
0.027221500000000,106,0x32,0x01
0.027295625000000,106,0x20,0x01
0.027369625000000,106,0x20,0x01
0.027449000000000,107,0x32,0x01
0.027523000000000,107,0x20,0x80
0.027597125000000,107,0x20,0x01
0.027676500000000,108,0x32,0x01
0.027750500000000,108,0x20,0x01
0.027824625000000,108,0xC0,0x01
0.027905375000000,109,0x07,0x80
0.027979500000000,109,0x01,0x01
0.028053500000000,109,0x1E,0x01
0.028389125000000,110,0x07,0x0F
0.028461625000000,110,0x00,0x01
0.028535750000000,110,0x46,0x01
0.028614125000000,111,0x32,0x01
0.028688125000000,111,0x00,0x01
0.028762250000000,111,0x00,0x01
0.028844000000000,112,0x34,0x01
0.028918125000000,112,0x80,0x00
0.028992125000000,112,0x80,0x01
0.029074375000000,113,0x32,0x01
0.029148500000000,113,0x0A,0x01
0.029222500000000,113,0x11,0x01
0.029301875000000,114,0x32,0x01
0.029375875000000,114,0x00,0x81
0.029450000000000,114,0x20,0x01
0.029529375000000,115,0x32,0x01
0.029603375000000,115,0x20,0x01
0.029677500000000,115,0x20,0x01
0.029756875000000,116,0x32,0x01
0.029830875000000,116,0x20,0x01
0.029904875000000,116,0x20,0x01
0.029984375000000,117,0x32,0x01
0.030058375000000,117,0x20,0x01
0.030132375000000,117,0xC0,0x01
0.030213250000000,118,0x07,0x01
0.030287250000000,118,0x01,0x01
0.030361375000000,118,0x46,0x01
0.030690125000000,119,0x07,0x0D
0.030763125000000,119,0x00,0x01
0.030837250000000,119,0x00,0x01
0.030915625000000,120,0x32,0x01
0.030989625000000,120,0x00,0x01
0.031063750000000,120,0x00,0x01
0.031145500000000,121,0x34,0x01
0.031219500000000,121,0x80,0x81
0.031293625000000,121,0x80,0x01
0.031375875000000,122,0x32,0x01
0.031450000000000,122,0x0A,0x01
0.031524000000000,122,0x11,0x01
0.031603375000000,123,0x32,0x01
0.031677375000000,123,0x00,0x00
0.031751500000000,123,0x20,0x01
0.031830875000000,124,0x32,0x01
0.031904875000000,124,0x20,0x01
0.031979000000000,124,0x20,0x01
0.032058375000000,125,0x32,0x01
0.032132375000000,125,0x20,0x01
0.032206375000000,125,0x20,0x01
0.032285875000000,126,0x32,0x01
0.032359875000000,126,0x20,0x01
0.032433875000000,126,0xC0,0x01
0.032514750000000,127,0x07,0x01
0.032588750000000,127,0x01,0x01
0.032662875000000,127,0x00,0x01
0.032992625000000,128,0x07,0x0D
0.033065625000000,128,0x00,0x01
0.033139625000000,128,0x28,0x01
0.033218125000000,129,0x32,0x01
0.033292125000000,129,0x00,0x01
0.033366125000000,129,0x00,0x01
0.033448000000000,130,0x34,0x01
0.033522000000000,130,0x80,0x01
0.033596125000000,130,0x80,0x01
0.033678375000000,131,0x32,0x01
0.033752375000000,131,0x0A,0x01
0.033826500000000,131,0x11,0x01
0.033905875000000,132,0x32,0x01
0.033979875000000,132,0x00,0x01
0.034054000000000,132,0x20,0x01
0.034133375000000,133,0x32,0x01
0.034207375000000,133,0x20,0x01
0.034281375000000,133,0x20,0x01
0.034360875000000,134,0x32,0x01
0.034434875000000,134,0x20,0x01
0.034508875000000,134,0x20,0x01
0.034588250000000,135,0x32,0x01
0.034662375000000,135,0x20,0x01
0.034736375000000,135,0xC0,0x01
0.034817250000000,136,0x07,0x01
0.034891250000000,136,0x01,0x01
0.034965375000000,136,0x28,0x01
0.035296000000000,137,0x07,0x0D
0.035369125000000,137,0x00,0x01
0.035443125000000,137,0x0A,0x01
0.035521500000000,138,0x32,0x01
0.035595625000000,138,0x00,0x01
0.035669625000000,138,0x00,0x01
0.035751500000000,139,0x34,0x01
0.035825500000000,139,0x80,0x01
0.035899500000000,139,0x80,0x01
0.035981875000000,140,0x32,0x01
0.036055875000000,140,0x0A,0x01
0.036129875000000,140,0x11,0x00
0.036209375000000,141,0x32,0x01
0.036283375000000,141,0x00,0x01
0.036357375000000,141,0x20,0x01
0.036436750000000,142,0x32,0x80
0.036510875000000,142,0x20,0x01
0.036584875000000,142,0x20,0x01
0.036664250000000,143,0x32,0x01
0.036738375000000,143,0x20,0x01
0.036812375000000,143,0x20,0x01
0.036891750000000,144,0x32,0x01
0.036965750000000,144,0x20,0x01
0.037039875000000,144,0xC0,0x01
0.037120750000000,145,0x07,0x01
0.037194750000000,145,0x01,0x01
0.037268750000000,145,0x0A,0x01
0.037600500000000,146,0x07,0x0F
0.037673000000000,146,0x00,0x01
0.037747125000000,146,0x32,0x01
0.037825500000000,147,0x32,0x01
0.037899500000000,147,0x00,0x01
0.037973625000000,147,0x00,0x01
0.038055375000000,148,0x34,0x01
0.038129375000000,148,0x80,0x80
0.038203500000000,148,0x80,0x01
0.038285750000000,149,0x32,0x01
0.038359875000000,149,0x0A,0x01
0.038433875000000,149,0x11,0x01
0.038513250000000,150,0x32,0x01
0.038587375000000,150,0x00,0x01
0.038661375000000,150,0x20,0x01
0.038740750000000,151,0x32,0x01
0.038814750000000,151,0x20,0x01
0.038888875000000,151,0x20,0x01
0.038968250000000,152,0x32,0x01
0.039042250000000,152,0x20,0x01
0.039116250000000,152,0x20,0x00
0.039195750000000,153,0x32,0x01
0.039269750000000,153,0x20,0x01
0.039343750000000,153,0xC0,0x01
0.039424625000000,154,0x07,0x01
0.039498625000000,154,0x01,0x01
0.039572750000000,154,0x32,0x01
0.039905375000000,155,0x07,0x0F
0.039978000000000,155,0x00,0x01
0.040052000000000,155,0x14,0x01
0.040130375000000,156,0x32,0x01
0.040204500000000,156,0x00,0x01
0.040278500000000,156,0x00,0x01
0.040360375000000,157,0x34,0x01
0.040434375000000,157,0x80,0x01
0.040508375000000,157,0x80,0x01
0.040590750000000,158,0x32,0x01
0.040664750000000,158,0x0A,0x01
0.040738750000000,158,0x11,0x01
0.040818250000000,159,0x32,0x01
0.040892250000000,159,0x00,0x01
0.040966250000000,159,0x20,0x01
0.041045625000000,160,0x32,0x01
0.041119750000000,160,0x20,0x01
0.041193750000000,160,0x20,0x01
0.041273125000000,161,0x32,0x01
0.041347250000000,161,0x20,0x01
0.041421250000000,161,0x20,0x01
0.041500625000000,162,0x32,0x01
0.041574625000000,162,0x20,0x01
0.041648750000000,162,0xC0,0x01
0.041729625000000,163,0x07,0x01
0.041803625000000,163,0x01,0x01
0.041877625000000,163,0x14,0x01
0.042211250000000,164,0x07,0x0F
0.042283875000000,164,0x00,0x01
0.042357875000000,164,0x3C,0x01
0.042436375000000,165,0x32,0x01
0.042510375000000,165,0x00,0x01
0.042584375000000,165,0x00,0x01
0.042666250000000,166,0x34,0x01
0.042740250000000,166,0x80,0x01
0.042814250000000,166,0x80,0x01
0.042896625000000,167,0x32,0x01
0.042970625000000,167,0x0A,0x01
0.043044750000000,167,0x11,0x01
0.043124125000000,168,0x32,0x01
0.043198125000000,168,0x00,0x01
0.043272125000000,168,0x20,0x01
0.043351625000000,169,0x32,0x01
0.043425625000000,169,0x20,0x01
0.043499625000000,169,0x20,0x01
0.043579000000000,170,0x32,0x01
0.043653125000000,170,0x20,0x01
0.043727125000000,170,0x20,0x01
0.043806500000000,171,0x32,0x01
0.043880625000000,171,0x20,0x01
0.043954625000000,171,0xC0,0x01
0.044035500000000,172,0x07,0x01
0.044109500000000,172,0x01,0x01
0.044183500000000,172,0x3C,0x01
0.044518125000000,173,0x07,0x0F
0.044590750000000,173,0x00,0x01
0.044664750000000,173,0x1E,0x01
0.044743250000000,174,0x32,0x01
0.044817250000000,174,0x00,0x01
0.044891250000000,174,0x00,0x01
0.044973125000000,175,0x34,0x01
0.045047125000000,175,0x80,0x01
0.045121125000000,175,0x80,0x01
0.045203500000000,176,0x32,0x01
0.045277500000000,176,0x0A,0x01
0.045351625000000,176,0x11,0x01
0.045431000000000,177,0x32,0x01
0.045505000000000,177,0x00,0x01
0.045579000000000,177,0x20,0x01
0.045658500000000,178,0x32,0x01
0.045732500000000,178,0x20,0x01
0.045806500000000,178,0x20,0x01
0.045885875000000,179,0x32,0x01
0.045960000000000,179,0x20,0x01
0.046034000000000,179,0x20,0x01
0.046113375000000,180,0x32,0x01
0.046187500000000,180,0x20,0x01
0.046261500000000,180,0xC0,0x01
0.046342375000000,181,0x07,0x01
0.046416375000000,181,0x01,0x01
0.046490375000000,181,0x1E,0x01
0.046826000000000,182,0x07,0x07
0.046898500000000,182,0x00,0x80
0.046972625000000,182,0x46,0x01
0.047051000000000,183,0x32,0x01
0.047125000000000,183,0x00,0x80
0.047199125000000,183,0x00,0x01
0.047280875000000,184,0x34,0x80
0.047355000000000,184,0x80,0x01
0.047429000000000,184,0x80,0x01
0.047511375000000,185,0x32,0x01
0.047585375000000,185,0x0A,0x01
0.047659375000000,185,0x11,0x01
0.047738750000000,186,0x32,0x01
0.047812875000000,186,0x00,0x01
0.047886875000000,186,0x20,0x01
0.047966250000000,187,0x32,0x01
0.048040375000000,187,0x20,0x01
0.048114375000000,187,0x20,0x01
0.048193750000000,188,0x32,0x01
0.048267750000000,188,0x20,0x01
0.048341875000000,188,0x20,0x01
0.048421250000000,189,0x32,0x01
0.048495250000000,189,0x20,0x01
0.048569375000000,189,0xC0,0x01
0.048650125000000,190,0x07,0x01
0.048724250000000,190,0x01,0x01
0.048798250000000,190,0x46,0x01
0.049127000000000,191,0x07,0x0D
0.049200125000000,191,0x00,0x01
0.049274125000000,191,0x00,0x01
0.049352500000000,192,0x32,0x01
0.049426625000000,192,0x00,0x01
0.049500625000000,192,0x00,0x01
0.049582500000000,193,0x34,0x00
0.049656500000000,193,0x80,0x01
0.049730500000000,193,0x80,0x01
0.049812875000000,194,0x32,0x01
0.049886875000000,194,0x0A,0x01
0.049960875000000,194,0x11,0x01
0.050040375000000,195,0x32,0x01
0.050114375000000,195,0x00,0x01
0.050188375000000,195,0x20,0x01
0.050267750000000,196,0x32,0x01
0.050341875000000,196,0x20,0x01
0.050415875000000,196,0x20,0x01
0.050495250000000,197,0x32,0x01
0.050569250000000,197,0x20,0x81
0.050643375000000,197,0x20,0x01
0.050722750000000,198,0x32,0x01
0.050796750000000,198,0x20,0x01
0.050870875000000,198,0xC0,0x01
0.050951750000000,199,0x07,0x01
0.051025750000000,199,0x01,0x01
0.051099750000000,199,0x00,0x01
0.051429500000000,200,0x07,0x0D
0.051502500000000,200,0x00,0x80
0.051576625000000,200,0x28,0x01
0.051655000000000,201,0x32,0x01
0.051729000000000,201,0x00,0x80
0.051803125000000,201,0x00,0x01
0.051884875000000,202,0x34,0x01
0.051959000000000,202,0x80,0x01
0.052033000000000,202,0x80,0x01
0.052115375000000,203,0x32,0x01
0.052189375000000,203,0x0A,0x01
0.052263375000000,203,0x11,0x01
0.052342750000000,204,0x32,0x01
0.052416875000000,204,0x00,0x01
0.052490875000000,204,0x20,0x01
0.052570250000000,205,0x32,0x01
0.052644250000000,205,0x20,0x80
0.052718375000000,205,0x20,0x01
0.052797750000000,206,0x32,0x01
0.052871750000000,206,0x20,0x01
0.052945875000000,206,0x20,0x01
0.053025250000000,207,0x32,0x01
0.053099250000000,207,0x20,0x01
0.053173250000000,207,0xC0,0x81
0.053254125000000,208,0x07,0x01
0.053328250000000,208,0x01,0x01
0.053402250000000,208,0x28,0x01
0.053733000000000,209,0x07,0x0D
0.053806000000000,209,0x00,0x01
0.053880000000000,209,0x0A,0x80
0.053958500000000,210,0x32,0x01
0.054032500000000,210,0x00,0x01
0.054106500000000,210,0x00,0x80
0.054188375000000,211,0x34,0x01
0.054262375000000,211,0x80,0x01
0.054336500000000,211,0x80,0x01
0.054418750000000,212,0x32,0x01
0.054492875000000,212,0x0A,0x01
0.054566875000000,212,0x11,0x01
0.054646250000000,213,0x32,0x01
0.054720250000000,213,0x00,0x80
0.054794375000000,213,0x20,0x01
0.054873750000000,214,0x32,0x01
0.054947750000000,214,0x20,0x01
0.055021875000000,214,0x20,0x01
0.055101250000000,215,0x32,0x01
0.055175250000000,215,0x20,0x01
0.055249250000000,215,0x20,0x01
0.055328750000000,216,0x32,0x01
0.055402750000000,216,0x20,0x01
0.055476750000000,216,0xC0,0x01
0.055557625000000,217,0x07,0x01
0.055631625000000,217,0x01,0x01
0.055705750000000,217,0x0A,0x01
0.056037375000000,218,0x07,0x0F
0.056110000000000,218,0x00,0x01
0.056184000000000,218,0x32,0x01
0.056262500000000,219,0x32,0x01
0.056336500000000,219,0x00,0x01
0.056410500000000,219,0x00,0x01
0.056492375000000,220,0x34,0x01
0.056566375000000,220,0x80,0x01
0.056640375000000,220,0x80,0x01
0.056722750000000,221,0x32,0x01
0.056796750000000,221,0x0A,0x01
0.056870875000000,221,0x11,0x01
0.056950250000000,222,0x32,0x01
0.057024250000000,222,0x00,0x01
0.057098250000000,222,0x20,0x81
0.057177750000000,223,0x32,0x01
0.057251750000000,223,0x20,0x01
0.057325750000000,223,0x20,0x01
0.057405250000000,224,0x32,0x01
0.057479250000000,224,0x20,0x01
0.057553250000000,224,0x20,0x01
0.057632625000000,225,0x32,0x01
0.057706750000000,225,0x20,0x01
0.057780750000000,225,0xC0,0x01
0.057861625000000,226,0x07,0x01
0.057935625000000,226,0x01,0x01
0.058009750000000,226,0x32,0x01
0.058342375000000,227,0x07,0x0F
0.058414875000000,227,0x00,0x01
0.058489000000000,227,0x14,0x01
0.058567375000000,228,0x32,0x01
0.058641375000000,228,0x00,0x01
0.058715500000000,228,0x00,0x01
0.058797250000000,229,0x34,0x01
0.058871375000000,229,0x80,0x01
0.058945375000000,229,0x80,0x01
0.059027750000000,230,0x32,0x01
0.059101750000000,230,0x0A,0x01
0.059175750000000,230,0x11,0x01
0.059255125000000,231,0x32,0x01
0.059329250000000,231,0x00,0x01
0.059403250000000,231,0x20,0x01
0.059482625000000,232,0x32,0x01
0.059556750000000,232,0x20,0x01
0.059630750000000,232,0x20,0x01
0.059710125000000,233,0x32,0x01
0.059784125000000,233,0x20,0x01
0.059858250000000,233,0x20,0x01
0.059937625000000,234,0x32,0x01
0.060011625000000,234,0x20,0x01
0.060085750000000,234,0xC0,0x01
0.060166625000000,235,0x07,0x00
0.060240625000000,235,0x01,0x01
0.060314625000000,235,0x14,0x01
0.060648250000000,236,0x07,0x0F
0.060720875000000,236,0x00,0x01
0.060794875000000,236,0x3C,0x01
0.060873250000000,237,0x32,0x01
0.060947375000000,237,0x00,0x01
0.061021375000000,237,0x00,0x01
0.061103250000000,238,0x34,0x01
0.061177250000000,238,0x80,0x01
0.061251250000000,238,0x80,0x01
0.061333625000000,239,0x32,0x01
0.061407625000000,239,0x0A,0x01
0.061481625000000,239,0x11,0x01
0.061561125000000,240,0x32,0x01
0.061635125000000,240,0x00,0x01
0.061709125000000,240,0x20,0x01
0.061788500000000,241,0x32,0x01
0.061862625000000,241,0x20,0x01
0.061936625000000,241,0x20,0x01
0.062016000000000,242,0x32,0x01
0.062090000000000,242,0x20,0x01
0.062164125000000,242,0x20,0x01
0.062243500000000,243,0x32,0x01
0.062317500000000,243,0x20,0x01
0.062391625000000,243,0xC0,0x01
0.062472375000000,244,0x07,0x01
0.062546500000000,244,0x01,0x01
0.062620500000000,244,0x3C,0x01
0.062955125000000,245,0x07,0x07
0.063027750000000,245,0x00,0x01
0.063101750000000,245,0x1E,0x01
0.063180125000000,246,0x32,0x01
0.063254250000000,246,0x00,0x01
0.063328250000000,246,0x00,0x01
0.063410125000000,247,0x34,0x01
0.063484125000000,247,0x80,0x01
0.063558125000000,247,0x80,0x01
0.063640500000000,248,0x32,0x01
0.063714500000000,248,0x0A,0x01
0.063788500000000,248,0x11,0x01
0.063868000000000,249,0x32,0x01
0.063942000000000,249,0x00,0x01
0.064016000000000,249,0x20,0x01
0.064095375000000,250,0x32,0x01
0.064169500000000,250,0x20,0x01
0.064243500000000,250,0x20,0x01
0.064322875000000,251,0x32,0x01
0.064397000000000,251,0x20,0x01
0.064471000000000,251,0x20,0x01
0.064550375000000,252,0x32,0x01
0.064624375000000,252,0x20,0x01
0.064698500000000,252,0xC0,0x01
0.064779375000000,253,0x07,0x01
0.064853375000000,253,0x01,0x01
0.064927375000000,253,0x1E,0x01
0.065263000000000,254,0x07,0x0F
0.065335500000000,254,0x00,0x01
0.065409625000000,254,0x46,0x01
0.065488000000000,255,0x32,0x01
0.065562000000000,255,0x00,0x01
0.065636125000000,255,0x00,0x01
0.065717875000000,256,0x34,0x01
0.065792000000000,256,0x80,0x01
0.065866000000000,256,0x80,0x01
0.065948375000000,257,0x32,0x01
0.066022375000000,257,0x0A,0x01
0.066096375000000,257,0x11,0x01
0.066175750000000,258,0x32,0x01
0.066249875000000,258,0x00,0x01
0.066323875000000,258,0x20,0x01
0.066403250000000,259,0x32,0x01
0.066477375000000,259,0x20,0x01
0.066551375000000,259,0x20,0x01
0.066630750000000,260,0x32,0x01
0.066704750000000,260,0x20,0x01
0.066778875000000,260,0x20,0x01
0.066858250000000,261,0x32,0x01
0.066932250000000,261,0x20,0x01
0.067006375000000,261,0xC0,0x01
0.067087125000000,262,0x07,0x01
0.067161250000000,262,0x01,0x01
0.067235250000000,262,0x46,0x01
0.067564000000000,263,0x07,0x0D
0.067637125000000,263,0x00,0x01
0.067711125000000,263,0x00,0x01
0.067789500000000,264,0x32,0x01
0.067863625000000,264,0x00,0x01
0.067937625000000,264,0x00,0x01
0.068019500000000,265,0x34,0x01
0.068093500000000,265,0x80,0x01
0.068167500000000,265,0x80,0x01
0.068249875000000,266,0x32,0x01
0.068323875000000,266,0x0A,0x01
0.068398000000000,266,0x11,0x01
0.068477375000000,267,0x32,0x01
0.068551375000000,267,0x00,0x01
0.068625375000000,267,0x20,0x01
0.068704875000000,268,0x32,0x01
0.068778875000000,268,0x20,0x01
0.068852875000000,268,0x20,0x01
0.068932250000000,269,0x32,0x01
0.069006375000000,269,0x20,0x01
0.069080375000000,269,0x20,0x01
0.069159750000000,270,0x32,0x01
0.069233875000000,270,0x20,0x01
0.069307875000000,270,0xC0,0x01
0.069388750000000,271,0x07,0x01
0.069462750000000,271,0x01,0x01
0.069536750000000,271,0x00,0x01
0.069866500000000,272,0x07,0x0D
0.069939625000000,272,0x00,0x01
0.070013625000000,272,0x28,0x01
0.070092125000000,273,0x32,0x01
0.070166125000000,273,0x00,0x01
0.070240125000000,273,0x00,0x01
0.070322000000000,274,0x34,0x01
0.070396000000000,274,0x80,0x01
0.070470125000000,274,0x80,0x01
0.070552375000000,275,0x32,0x01
0.070626375000000,275,0x0A,0x01
0.070700500000000,275,0x11,0x01
0.070779875000000,276,0x32,0x01
0.070853875000000,276,0x00,0x01
0.070928000000000,276,0x20,0x01
0.071007375000000,277,0x32,0x01
0.071081375000000,277,0x20,0x01
0.071155375000000,277,0x20,0x01
0.071234875000000,278,0x32,0x01
0.071308875000000,278,0x20,0x01
0.071382875000000,278,0x20,0x01
0.071462250000000,279,0x32,0x01
0.071536375000000,279,0x20,0x01
0.071610375000000,279,0xC0,0x01
0.071691250000000,280,0x07,0x01
0.071765250000000,280,0x01,0x01
0.071839250000000,280,0x28,0x80
0.072170000000000,281,0x07,0x0D
0.072243125000000,281,0x00,0x01
0.072317125000000,281,0x0A,0x01
0.072395500000000,282,0x32,0x01
0.072469625000000,282,0x00,0x01
0.072543625000000,282,0x00,0x01
0.072625500000000,283,0x34,0x01
0.072699500000000,283,0x80,0x01
0.072773500000000,283,0x80,0x01
0.072855875000000,284,0x32,0x01
0.072929875000000,284,0x0A,0x01
0.073003875000000,284,0x11,0x01
0.073083375000000,285,0x32,0x01
0.073157375000000,285,0x00,0x01
0.073231375000000,285,0x20,0x01
0.073310750000000,286,0x32,0x01
0.073384875000000,286,0x20,0x01
0.073458875000000,286,0x20,0x01
0.073538250000000,287,0x32,0x01
0.073612375000000,287,0x20,0x01
0.073686375000000,287,0x20,0x01
0.073765750000000,288,0x32,0x01
0.073839750000000,288,0x20,0x01
0.073913875000000,288,0xC0,0x01
0.073994750000000,289,0x07,0x01
0.074068750000000,289,0x01,0x01
0.074142750000000,289,0x0A,0x01
0.074474500000000,290,0x07,0x0F
0.074547000000000,290,0x00,0x01
0.074621125000000,290,0x32,0x01
0.074699500000000,291,0x32,0x01
0.074773500000000,291,0x00,0x01
0.074847625000000,291,0x00,0x01
0.074929375000000,292,0x34,0x01
0.075003500000000,292,0x80,0x01
0.075077500000000,292,0x80,0x01
0.075159750000000,293,0x32,0x01
0.075233875000000,293,0x0A,0x01
0.075307875000000,293,0x11,0x01
0.075387250000000,294,0x32,0x01
0.075461375000000,294,0x00,0x01
0.075535375000000,294,0x20,0x01
0.075614750000000,295,0x32,0x01
0.075688750000000,295,0x20,0x01
0.075762875000000,295,0x20,0x01
0.075842250000000,296,0x32,0x01
0.075916250000000,296,0x20,0x01
0.075990375000000,296,0x20,0x01
0.076069750000000,297,0x32,0x01
0.076143750000000,297,0x20,0x01
0.076217750000000,297,0xC0,0x01
0.076298625000000,298,0x07,0x01
0.076372750000000,298,0x01,0x01
0.076446750000000,298,0x32,0x01
0.076779375000000,299,0x07,0x0F
0.076852000000000,299,0x00,0x01
0.076926000000000,299,0x14,0x01
0.077004375000000,300,0x32,0x01
0.077078500000000,300,0x00,0x01
0.077152500000000,300,0x00,0x01
0.077234375000000,301,0x34,0x01
0.077308375000000,301,0x80,0x01
0.077382375000000,301,0x80,0x01
0.077464750000000,302,0x32,0x01
0.077538750000000,302,0x0A,0x01
0.077612750000000,302,0x11,0x01
0.077692250000000,303,0x32,0x01
0.077766250000000,303,0x00,0x01
0.077840250000000,303,0x20,0x01
0.077919625000000,304,0x32,0x01
0.077993750000000,304,0x20,0x01
0.078067750000000,304,0x20,0x01
0.078147125000000,305,0x32,0x01
0.078221250000000,305,0x20,0x01
0.078295250000000,305,0x20,0x01
0.078374625000000,306,0x32,0x01
0.078448625000000,306,0x20,0x01
0.078522750000000,306,0xC0,0x01
0.078603625000000,307,0x07,0x01
0.078677625000000,307,0x01,0x01
0.078751625000000,307,0x14,0x01
0.079085250000000,308,0x07,0x0F
0.079157875000000,308,0x00,0x01
0.079231875000000,308,0x3C,0x01
0.079310375000000,309,0x32,0x01
0.079384375000000,309,0x00,0x01
0.079458375000000,309,0x00,0x01
0.079540250000000,310,0x34,0x01
0.079614250000000,310,0x80,0x01
0.079688375000000,310,0x80,0x01
0.079770625000000,311,0x32,0x01
0.079844625000000,311,0x0A,0x01
0.079918750000000,311,0x11,0x01
0.079998125000000,312,0x32,0x01
0.080072125000000,312,0x00,0x01
0.080146250000000,312,0x20,0x01
0.080225625000000,313,0x32,0x01
0.080299625000000,313,0x20,0x01
0.080373625000000,313,0x20,0x81
0.080453125000000,314,0x32,0x01
0.080527125000000,314,0x20,0x01
0.080601125000000,314,0x20,0x01
0.080680500000000,315,0x32,0x01
0.080754625000000,315,0x20,0x01
0.080828625000000,315,0xC0,0x01
0.080909500000000,316,0x07,0x01
0.080983500000000,316,0x01,0x01
0.081057625000000,316,0x3C,0x01
0.081392125000000,317,0x07,0x0F
0.081464750000000,317,0x00,0x01
0.081538750000000,317,0x1E,0x01
0.081617250000000,318,0x32,0x01
0.081691250000000,318,0x00,0x01
0.081765250000000,318,0x00,0x01
0.081847125000000,319,0x34,0x01
0.081921125000000,319,0x80,0x01
0.081995250000000,319,0x80,0x01
0.082077500000000,320,0x32,0x01
0.082151500000000,320,0x0A,0x80
0.082225625000000,320,0x11,0x01
0.082305000000000,321,0x32,0x01
0.082379000000000,321,0x00,0x01
0.082453125000000,321,0x20,0x01
0.082532500000000,322,0x32,0x01
0.082606500000000,322,0x20,0x01
0.082680500000000,322,0x20,0x81
0.082760000000000,323,0x32,0x01
0.082834000000000,323,0x20,0x01
0.082908000000000,323,0x20,0x01
0.082987500000000,324,0x32,0x01
0.083061500000000,324,0x20,0x01
0.083135500000000,324,0xC0,0x01
0.083216375000000,325,0x07,0x01
0.083290375000000,325,0x01,0x01
0.083364500000000,325,0x1E,0x01
0.083700000000000,326,0x07,0x0F
0.083772625000000,326,0x00,0x01
0.083846625000000,326,0x46,0x01
0.083925125000000,327,0x32,0x01
0.083999125000000,327,0x00,0x01
0.084073125000000,327,0x00,0x01
0.084155000000000,328,0x34,0x01
0.084229000000000,328,0x80,0x01
0.084303125000000,328,0x80,0x01
0.084385375000000,329,0x32,0x01
0.084459375000000,329,0x0A,0x01
0.084533500000000,329,0x11,0x01
0.084612875000000,330,0x32,0x01
0.084686875000000,330,0x00,0x01
0.084761000000000,330,0x20,0x01
0.084840375000000,331,0x32,0x01
0.084914375000000,331,0x20,0x01
0.084988375000000,331,0x20,0x01
0.085067875000000,332,0x32,0x01
0.085141875000000,332,0x20,0x01
0.085215875000000,332,0x20,0x01
0.085295375000000,333,0x32,0x01
0.085369375000000,333,0x20,0x01
0.085443375000000,333,0xC0,0x01
0.085524250000000,334,0x07,0x01
0.085598250000000,334,0x01,0x01
0.085672375000000,334,0x46,0x01
0.086001125000000,335,0x07,0x0D
0.086074125000000,335,0x00,0x01
0.086148250000000,335,0x00,0x01
0.086226625000000,336,0x32,0x01
0.086300625000000,336,0x00,0x01
0.086374750000000,336,0x00,0x01
0.086456500000000,337,0x34,0x01
0.086530625000000,337,0x80,0x01
0.086604625000000,337,0x80,0x01
0.086687000000000,338,0x32,0x01
0.086761000000000,338,0x0A,0x01
0.086835000000000,338,0x11,0x01
0.086914375000000,339,0x32,0x01
0.086988500000000,339,0x00,0x01
0.087062500000000,339,0x20,0x01
0.087141875000000,340,0x32,0x01
0.087216000000000,340,0x20,0x01
0.087290000000000,340,0x20,0x01
0.087369375000000,341,0x32,0x01
0.087443500000000,341,0x20,0x01
0.087517500000000,341,0x20,0x01
0.087596875000000,342,0x32,0x01
0.087670875000000,342,0x20,0x00
0.087745000000000,342,0xC0,0x01
0.087825875000000,343,0x07,0x01
0.087899875000000,343,0x01,0x01
0.087973875000000,343,0x00,0x01
0.088303625000000,344,0x07,0x0D
0.088376750000000,344,0x00,0x01
0.088450750000000,344,0x28,0x01
0.088529125000000,345,0x32,0x01
0.088603250000000,345,0x00,0x01
0.088677250000000,345,0x00,0x01
0.088759125000000,346,0x34,0x01
0.088833125000000,346,0x80,0x01
0.088907125000000,346,0x80,0x01
0.088989500000000,347,0x32,0x01
0.089063500000000,347,0x0A,0x01
0.089137625000000,347,0x11,0x01
0.089217000000000,348,0x32,0x01
0.089291000000000,348,0x00,0x01
0.089365000000000,348,0x20,0x81
0.089444500000000,349,0x32,0x01
0.089518500000000,349,0x20,0x01
0.089592500000000,349,0x20,0x01
0.089672000000000,350,0x32,0x01
0.089746000000000,350,0x20,0x01
0.089820000000000,350,0x20,0x01
0.089899375000000,351,0x32,0x01
0.089973500000000,351,0x20,0x01
0.090047500000000,351,0xC0,0x01
0.090128375000000,352,0x07,0x01
0.090202375000000,352,0x01,0x01
0.090276375000000,352,0x28,0x01
0.090607125000000,353,0x07,0x0D
0.090680250000000,353,0x00,0x01
0.090754250000000,353,0x0A,0x01
0.090832625000000,354,0x32,0x01
0.090906750000000,354,0x00,0x01
0.090980750000000,354,0x00,0x01
0.091062625000000,355,0x34,0x01
0.091136625000000,355,0x80,0x01
0.091210625000000,355,0x80,0x01
0.091293000000000,356,0x32,0x01
0.091367000000000,356,0x0A,0x01
0.091441000000000,356,0x11,0x80
0.091520500000000,357,0x32,0x01
0.091594500000000,357,0x00,0x01
0.091668500000000,357,0x20,0x01
0.091747875000000,358,0x32,0x80
0.091822000000000,358,0x20,0x01
0.091896000000000,358,0x20,0x01
0.091975375000000,359,0x32,0x01
0.092049500000000,359,0x20,0x01
0.092123500000000,359,0x20,0x01
0.092202875000000,360,0x32,0x01
0.092276875000000,360,0x20,0x81
0.092351000000000,360,0xC0,0x01
0.092431875000000,361,0x07,0x01
0.092505875000000,361,0x01,0x01
0.092579875000000,361,0x0A,0x01
0.092911625000000,362,0x07,0x0F
0.092984125000000,362,0x00,0x01
0.093058250000000,362,0x32,0x01
0.093136625000000,363,0x32,0x01
0.093210625000000,363,0x00,0x80
0.093284750000000,363,0x00,0x01
0.093366500000000,364,0x34,0x80
0.093440625000000,364,0x80,0x01
0.093514625000000,364,0x80,0x01
0.093597000000000,365,0x32,0x01
0.093671000000000,365,0x0A,0x01
0.093745000000000,365,0x11,0x01
0.093824500000000,366,0x32,0x01
0.093898500000000,366,0x00,0x01
0.093972500000000,366,0x20,0x01
0.094051875000000,367,0x32,0x01
0.094126000000000,367,0x20,0x01
0.094200000000000,367,0x20,0x01
0.094279375000000,368,0x32,0x01
0.094353375000000,368,0x20,0x80
0.094427500000000,368,0x20,0x01
0.094506875000000,369,0x32,0x01
0.094580875000000,369,0x20,0x01
0.094655000000000,369,0xC0,0x01
0.094735875000000,370,0x07,0x00
0.094809875000000,370,0x01,0x01
0.094883875000000,370,0x32,0x01
0.095216500000000,371,0x07,0x0F
0.095289125000000,371,0x00,0x01
0.095363125000000,371,0x14,0x01
0.095441625000000,372,0x32,0x01
0.095515625000000,372,0x00,0x01
0.095589625000000,372,0x00,0x01
0.095671500000000,373,0x34,0x01
0.095745500000000,373,0x80,0x01
0.095819625000000,373,0x80,0x01
0.095901875000000,374,0x32,0x01
0.095975875000000,374,0x0A,0x01
0.096050000000000,374,0x11,0x01
0.096129375000000,375,0x32,0x01
0.096203375000000,375,0x00,0x01
0.096277500000000,375,0x20,0x01
0.096356875000000,376,0x32,0x01
0.096430875000000,376,0x20,0x01
0.096504875000000,376,0x20,0x01
0.096584375000000,377,0x32,0x01
0.096658375000000,377,0x20,0x01
0.096732375000000,377,0x20,0x01
0.096811750000000,378,0x32,0x01
0.096885875000000,378,0x20,0x01
0.096959875000000,378,0xC0,0x01
0.097040750000000,379,0x07,0x01
0.097114750000000,379,0x01,0x01
0.097188875000000,379,0x14,0x01
0.097522500000000,380,0x07,0x0F
0.097595000000000,380,0x00,0x01
0.097669125000000,380,0x3C,0x01
0.097747500000000,381,0x32,0x01
0.097821500000000,381,0x00,0x01
0.097895625000000,381,0x00,0x01
0.097977375000000,382,0x34,0x01
0.098051500000000,382,0x80,0x01
0.098125500000000,382,0x80,0x01
0.098207750000000,383,0x32,0x01
0.098281875000000,383,0x0A,0x01
0.098355875000000,383,0x11,0x01
0.098435250000000,384,0x32,0x01
0.098509375000000,384,0x00,0x01
0.098583375000000,384,0x20,0x01
0.098662750000000,385,0x32,0x01
0.098736750000000,385,0x20,0x01
0.098810875000000,385,0x20,0x01
0.098890250000000,386,0x32,0x01
0.098964250000000,386,0x20,0x01
0.099038375000000,386,0x20,0x01
0.099117750000000,387,0x32,0x01
0.099191750000000,387,0x20,0x01
0.099265750000000,387,0xC0,0x01
0.099346625000000,388,0x07,0x01
0.099420750000000,388,0x01,0x01
0.099494750000000,388,0x3C,0x01
0.099829375000000,389,0x07,0x0F
0.099901875000000,389,0x00,0x01
0.099976000000000,389,0x1E,0x01
0.100054375000000,390,0x32,0x01
0.100128375000000,390,0x00,0x01
0.100202500000000,390,0x00,0x01
0.100284250000000,391,0x34,0x01
0.100358375000000,391,0x80,0x01
0.100432375000000,391,0x80,0x01
0.100514750000000,392,0x32,0x01
0.100588750000000,392,0x0A,0x01
0.100662750000000,392,0x11,0x01
0.100742125000000,393,0x32,0x01
0.100816250000000,393,0x00,0x01
0.100890250000000,393,0x20,0x01
0.100969625000000,394,0x32,0x01
0.101043750000000,394,0x20,0x01
0.101117750000000,394,0x20,0x01
0.101197125000000,395,0x32,0x01
0.101271125000000,395,0x20,0x01
0.101345250000000,395,0x20,0x01
0.101424625000000,396,0x32,0x01
0.101498625000000,396,0x20,0x01
0.101572750000000,396,0xC0,0x01
0.101653500000000,397,0x07,0x00
0.101727625000000,397,0x01,0x01
0.101801625000000,397,0x1E,0x01
0.102137250000000,398,0x07,0x0F
0.102209750000000,398,0x00,0x00
0.102283875000000,398,0x46,0x01
0.102362250000000,399,0x32,0x01
0.102436250000000,399,0x00,0x80
0.102510375000000,399,0x00,0x01
0.102592125000000,400,0x34,0x81
0.102666250000000,400,0x80,0x01
0.102740250000000,400,0x80,0x01
0.102822625000000,401,0x32,0x01
0.102896625000000,401,0x0A,0x01
0.102970625000000,401,0x11,0x01
0.103050125000000,402,0x32,0x01
0.103124125000000,402,0x00,0x01
0.103198125000000,402,0x20,0x01
0.103277500000000,403,0x32,0x01
0.103351625000000,403,0x20,0x01
0.103425625000000,403,0x20,0x01
0.103505000000000,404,0x32,0x01
0.103579125000000,404,0x20,0x01
0.103653125000000,404,0x20,0x01
0.103732500000000,405,0x32,0x01
0.103806500000000,405,0x20,0x81
0.103880625000000,405,0xC0,0x01
0.103961500000000,406,0x07,0x01
0.104035500000000,406,0x01,0x01
0.104109500000000,406,0x46,0x01
0.104438375000000,407,0x07,0x0D
0.104511375000000,407,0x00,0x01
0.104585375000000,407,0x00,0x01
0.104663875000000,408,0x32,0x01
0.104737875000000,408,0x00,0x01
0.104811875000000,408,0x00,0x01
0.104893750000000,409,0x34,0x01
0.104967750000000,409,0x80,0x01
0.105041875000000,409,0x80,0x01
0.105124125000000,410,0x32,0x01
0.105198250000000,410,0x0A,0x01
0.105272250000000,410,0x11,0x01
0.105351625000000,411,0x32,0x01
0.105425750000000,411,0x00,0x01
0.105499750000000,411,0x20,0x01
0.105579125000000,412,0x32,0x01
0.105653125000000,412,0x20,0x01
0.105727250000000,412,0x20,0x01
0.105806625000000,413,0x32,0x01
0.105880625000000,413,0x20,0x01
0.105954750000000,413,0x20,0x01
0.106034125000000,414,0x32,0x01
0.106108125000000,414,0x20,0x01
0.106182125000000,414,0xC0,0x01
0.106263000000000,415,0x07,0x01
0.106337125000000,415,0x01,0x01
0.106411125000000,415,0x00,0x01
0.106740875000000,416,0x07,0x0D
0.106813875000000,416,0x00,0x01
0.106888000000000,416,0x28,0x01
0.106966375000000,417,0x32,0x01
0.107040375000000,417,0x00,0x80
0.107114500000000,417,0x00,0x01
0.107196250000000,418,0x34,0x01
0.107270375000000,418,0x80,0x01
0.107344375000000,418,0x80,0x01
0.107426750000000,419,0x32,0x01
0.107500750000000,419,0x0A,0x01
0.107574750000000,419,0x11,0x01
0.107654250000000,420,0x32,0x01
0.107728250000000,420,0x00,0x01
0.107802250000000,420,0x20,0x01
0.107881625000000,421,0x32,0x01
0.107955750000000,421,0x20,0x01
0.108029750000000,421,0x20,0x01
0.108109125000000,422,0x32,0x01
0.108183250000000,422,0x20,0x01
0.108257250000000,422,0x20,0x01
0.108336625000000,423,0x32,0x01
0.108410750000000,423,0x20,0x01
0.108484750000000,423,0xC0,0x01
0.108565625000000,424,0x07,0x01
0.108639625000000,424,0x01,0x01
0.108713750000000,424,0x28,0x01
0.109044375000000,425,0x07,0x0C
0.109117500000000,425,0x00,0x01
0.109191500000000,425,0x0A,0x01
0.109270000000000,426,0x32,0x01
0.109344000000000,426,0x00,0x01
0.109418000000000,426,0x00,0x01
0.109499875000000,427,0x34,0x01
0.109573875000000,427,0x80,0x01
0.109648000000000,427,0x80,0x01
0.109730250000000,428,0x32,0x01
0.109804250000000,428,0x0A,0x81
0.109878375000000,428,0x11,0x01
0.109957750000000,429,0x32,0x01
0.110031750000000,429,0x00,0x01
0.110105875000000,429,0x20,0x01
0.110185250000000,430,0x32,0x01
0.110259250000000,430,0x20,0x01
0.110333375000000,430,0x20,0x01
0.110412750000000,431,0x32,0x01
0.110486750000000,431,0x20,0x01
0.110560875000000,431,0x20,0x01
0.110640250000000,432,0x32,0x01
0.110714250000000,432,0x20,0x01
0.110788250000000,432,0xC0,0x81
0.110869125000000,433,0x07,0x01
0.110943250000000,433,0x01,0x01
0.111017250000000,433,0x0A,0x01
0.111349000000000,434,0x07,0x0F
0.111421500000000,434,0x00,0x01
0.111495625000000,434,0x32,0x01
0.111574000000000,435,0x32,0x01
0.111648000000000,435,0x00,0x01
0.111722125000000,435,0x00,0x01
0.111803875000000,436,0x34,0x01
0.111878000000000,436,0x80,0x01
0.111952000000000,436,0x80,0x01
0.112034375000000,437,0x32,0x01
0.112108375000000,437,0x0A,0x01
0.112182375000000,437,0x11,0x01
0.112261750000000,438,0x32,0x01
0.112335875000000,438,0x00,0x01
0.112409875000000,438,0x20,0x01
0.112489250000000,439,0x32,0x01
0.112563375000000,439,0x20,0x01
0.112637375000000,439,0x20,0x01
0.112716750000000,440,0x32,0x01
0.112790875000000,440,0x20,0x01
0.112864875000000,440,0x20,0x01
0.112944250000000,441,0x32,0x01
0.113018250000000,441,0x20,0x01
0.113092375000000,441,0xC0,0x01
0.113173250000000,442,0x07,0x01
0.113247250000000,442,0x01,0x01
0.113321250000000,442,0x32,0x01
0.113654000000000,443,0x07,0x0F
0.113726500000000,443,0x00,0x01
0.113800625000000,443,0x14,0x01
0.113879000000000,444,0x32,0x01
0.113953000000000,444,0x00,0x01
0.114027125000000,444,0x00,0x01
0.114108875000000,445,0x34,0x01
0.114183000000000,445,0x80,0x01
0.114257000000000,445,0x80,0x01
0.114339250000000,446,0x32,0x00
0.114413375000000,446,0x0A,0x01
0.114487375000000,446,0x11,0x01
0.114566750000000,447,0x32,0x01
0.114640875000000,447,0x00,0x01
0.114714875000000,447,0x20,0x01
0.114794250000000,448,0x32,0x01
0.114868375000000,448,0x20,0x01
0.114942375000000,448,0x20,0x01
0.115021750000000,449,0x32,0x01
0.115095750000000,449,0x20,0x01
0.115169875000000,449,0x20,0x01
0.115249250000000,450,0x32,0x01
0.115323250000000,450,0x20,0x01
0.115397375000000,450,0xC0,0x01
0.115478125000000,451,0x07,0x81
0.115552250000000,451,0x01,0x01
0.115626250000000,451,0x14,0x01
0.115959875000000,452,0x07,0x0F
0.116032500000000,452,0x00,0x01
0.116106500000000,452,0x3C,0x01
0.116185000000000,453,0x32,0x01
0.116259000000000,453,0x00,0x01
0.116333000000000,453,0x00,0x01
0.116414875000000,454,0x34,0x01
0.116488875000000,454,0x80,0x01
0.116563000000000,454,0x80,0x01
0.116645250000000,455,0x32,0x01
0.116719250000000,455,0x0A,0x00
0.116793375000000,455,0x11,0x01
0.116872750000000,456,0x32,0x01
0.116946750000000,456,0x00,0x01
0.117020875000000,456,0x20,0x01
0.117100250000000,457,0x32,0x01
0.117174250000000,457,0x20,0x01
0.117248375000000,457,0x20,0x01
0.117327750000000,458,0x32,0x01
0.117401750000000,458,0x20,0x01
0.117475750000000,458,0x20,0x81
0.117555250000000,459,0x32,0x01
0.117629250000000,459,0x20,0x01
0.117703250000000,459,0xC0,0x01
0.117784125000000,460,0x07,0x01
0.117858250000000,460,0x01,0x01
0.117932250000000,460,0x3C,0x01
0.118266875000000,461,0x07,0x0F
0.118339375000000,461,0x00,0x01
0.118413500000000,461,0x1E,0x01
0.118491875000000,462,0x32,0x01
0.118565875000000,462,0x00,0x00
0.118640000000000,462,0x00,0x01
0.118721750000000,463,0x34,0x80
0.118795875000000,463,0x80,0x01
0.118869875000000,463,0x80,0x01
0.118952250000000,464,0x32,0x01
0.119026250000000,464,0x0A,0x01
0.119100250000000,464,0x11,0x01
0.119179750000000,465,0x32,0x01
0.119253750000000,465,0x00,0x01
0.119327750000000,465,0x20,0x01
0.119407125000000,466,0x32,0x81
0.119481250000000,466,0x20,0x01
0.119555250000000,466,0x20,0x01
0.119634625000000,467,0x32,0x01
0.119708750000000,467,0x20,0x01
0.119782750000000,467,0x20,0x01
0.119862125000000,468,0x32,0x01
0.119936250000000,468,0x20,0x01
0.120010250000000,468,0xC0,0x01
0.120091125000000,469,0x07,0x01
0.120165125000000,469,0x01,0x01
0.120239250000000,469,0x1E,0x01
0.120574750000000,470,0x07,0x0F
0.120647375000000,470,0x00,0x01
0.120721375000000,470,0x46,0x01
0.120799875000000,471,0x32,0x01
0.120873875000000,471,0x00,0x01
0.120947875000000,471,0x00,0x01
0.121029750000000,472,0x34,0x01
0.121103750000000,472,0x80,0x01
0.121177875000000,472,0x80,0x01
0.121260125000000,473,0x32,0x01
0.121334250000000,473,0x0A,0x01
0.121408250000000,473,0x11,0x01
0.121487625000000,474,0x32,0x01
0.121561625000000,474,0x00,0x01
0.121635750000000,474,0x20,0x01
0.121715125000000,475,0x32,0x01
0.121789125000000,475,0x20,0x01
0.121863250000000,475,0x20,0x01
0.121942625000000,476,0x32,0x01
0.122016625000000,476,0x20,0x01
0.122090750000000,476,0x20,0x01
0.122170125000000,477,0x32,0x01
0.122244125000000,477,0x20,0x01
0.122318125000000,477,0xC0,0x81
0.122399000000000,478,0x07,0x01
0.122473125000000,478,0x01,0x01
0.122547125000000,478,0x46,0x01
0.122875875000000,479,0x07,0x0D
0.122949000000000,479,0x00,0x01
0.123023000000000,479,0x00,0x01
0.123101375000000,480,0x32,0x81
0.123175500000000,480,0x00,0x01
0.123249500000000,480,0x00,0x01
0.123331375000000,481,0x34,0x01
0.123405375000000,481,0x80,0x01
0.123479500000000,481,0x80,0x01
0.123561750000000,482,0x32,0x01
0.123635750000000,482,0x0A,0x01
0.123709875000000,482,0x11,0x01
0.123789250000000,483,0x32,0x01
0.123863250000000,483,0x00,0x01
0.123937375000000,483,0x20,0x01
0.124016750000000,484,0x32,0x01
0.124090750000000,484,0x20,0x01
0.124164875000000,484,0x20,0x01
0.124244250000000,485,0x32,0x01
0.124318250000000,485,0x20,0x01
0.124392250000000,485,0x20,0x01
0.124471750000000,486,0x32,0x01
0.124545750000000,486,0x20,0x01
0.124619750000000,486,0xC0,0x01
0.124700625000000,487,0x07,0x01
0.124774625000000,487,0x01,0x80
0.124848750000000,487,0x00,0x01
0.125178500000000,488,0x07,0x0D
0.125251500000000,488,0x00,0x01
0.125325625000000,488,0x28,0x01
0.125404000000000,489,0x32,0x01
0.125478000000000,489,0x00,0x01
0.125552125000000,489,0x00,0x01
0.125633875000000,490,0x34,0x01
0.125708000000000,490,0x80,0x01
0.125782000000000,490,0x80,0x01
0.125864375000000,491,0x32,0x01
0.125938375000000,491,0x0A,0x01
0.126012375000000,491,0x11,0x01
0.126091750000000,492,0x32,0x80
0.126165875000000,492,0x00,0x01
0.126239875000000,492,0x20,0x01
0.126319250000000,493,0x32,0x01
0.126393375000000,493,0x20,0x01
0.126467375000000,493,0x20,0x01
0.126546750000000,494,0x32,0x01
0.126620750000000,494,0x20,0x81
0.126694875000000,494,0x20,0x01
0.126774250000000,495,0x32,0x01
0.126848250000000,495,0x20,0x01
0.126922375000000,495,0xC0,0x01
0.127003250000000,496,0x07,0x01
0.127077250000000,496,0x01,0x01
0.127151250000000,496,0x28,0x01
0.127482000000000,497,0x07,0x0F
0.127554500000000,497,0x00,0x81
0.127628625000000,497,0x0A,0x01
0.127707000000000,498,0x32,0x01
0.127781000000000,498,0x00,0x00
0.127855125000000,498,0x00,0x01
0.127936875000000,499,0x34,0x01
0.128011000000000,499,0x80,0x01
0.128085000000000,499,0x80,0x01
0.128167375000000,500,0x32,0x01
0.128241375000000,500,0x0A,0x01
0.128315375000000,500,0x11,0x01
0.128394750000000,501,0x32,0x01
0.128468875000000,501,0x00,0x01
0.128542875000000,501,0x20,0x01
0.128622250000000,502,0x32,0x01
0.128696375000000,502,0x20,0x01
0.128770375000000,502,0x20,0x01
0.128849750000000,503,0x32,0x01
0.128923750000000,503,0x20,0x01
0.128997875000000,503,0x20,0x01
0.129077250000000,504,0x32,0x01
0.129151250000000,504,0x20,0x01
0.129225375000000,504,0xC0,0x01
0.129306125000000,505,0x07,0x81
0.129380250000000,505,0x01,0x01
0.129454250000000,505,0x0A,0x01
0.129786000000000,506,0x07,0x0F
0.129858500000000,506,0x00,0x01
0.129932625000000,506,0x32,0x01
0.130011000000000,507,0x32,0x01
0.130085000000000,507,0x00,0x01
0.130159125000000,507,0x00,0x01
0.130240875000000,508,0x34,0x01
0.130314875000000,508,0x80,0x80
0.130389000000000,508,0x80,0x01
0.130471250000000,509,0x32,0x01
0.130545375000000,509,0x0A,0x01
0.130619375000000,509,0x11,0x01
0.130698750000000,510,0x32,0x01
0.130772875000000,510,0x00,0x01
0.130846875000000,510,0x20,0x01
0.130926250000000,511,0x32,0x01
0.131000250000000,511,0x20,0x01
0.131074375000000,511,0x20,0x01
0.131153750000000,512,0x32,0x01
0.131227750000000,512,0x20,0x01
0.131301875000000,512,0x20,0x01
0.131381250000000,513,0x32,0x01
0.131455250000000,513,0x20,0x01
0.131529250000000,513,0xC0,0x01
0.131610125000000,514,0x07,0x01
0.131684250000000,514,0x01,0x01
0.131758250000000,514,0x32,0x01
0.132090875000000,515,0x07,0x0F
0.132163500000000,515,0x00,0x01
0.132237500000000,515,0x14,0x01
0.132315875000000,516,0x32,0x81
0.132390000000000,516,0x00,0x01
0.132464000000000,516,0x00,0x01
0.132545875000000,517,0x34,0x01
0.132619875000000,517,0x80,0x01
0.132693875000000,517,0x80,0x01
0.132776250000000,518,0x32,0x01
0.132850250000000,518,0x0A,0x01
0.132924375000000,518,0x11,0x01
0.133003750000000,519,0x32,0x01
0.133077750000000,519,0x00,0x01
0.133151750000000,519,0x20,0x81
0.133231250000000,520,0x32,0x01
0.133305250000000,520,0x20,0x01
0.133379250000000,520,0x20,0x01
0.133458625000000,521,0x32,0x81
0.133532750000000,521,0x20,0x01
0.133606750000000,521,0x20,0x01
0.133686125000000,522,0x32,0x01
0.133760250000000,522,0x20,0x01
0.133834250000000,522,0xC0,0x01
0.133915125000000,523,0x07,0x01
0.133989125000000,523,0x01,0x01
0.134063250000000,523,0x14,0x01
0.134396875000000,524,0x07,0x0F
0.134469375000000,524,0x00,0x01
0.134543500000000,524,0x3C,0x01
0.134621875000000,525,0x32,0x01
0.134695875000000,525,0x00,0x01
0.134770000000000,525,0x00,0x01
0.134851750000000,526,0x34,0x01
0.134925875000000,526,0x80,0x01
0.134999875000000,526,0x80,0x01
0.135082250000000,527,0x32,0x01
0.135156250000000,527,0x0A,0x01
0.135230250000000,527,0x11,0x01
0.135309625000000,528,0x32,0x80
0.135383750000000,528,0x00,0x01
0.135457750000000,528,0x20,0x01
0.135537125000000,529,0x32,0x01
0.135611250000000,529,0x20,0x01
0.135685250000000,529,0x20,0x01
0.135764625000000,530,0x32,0x01
0.135838750000000,530,0x20,0x01
0.135912750000000,530,0x20,0x01
0.135992125000000,531,0x32,0x01
0.136066250000000,531,0x20,0x01
0.136140250000000,531,0xC0,0x01
0.136221125000000,532,0x07,0x01
0.136295125000000,532,0x01,0x01
0.136369125000000,532,0x3C,0x01
0.136703750000000,533,0x07,0x0F
0.136776375000000,533,0x00,0x01
0.136850375000000,533,0x1E,0x01
0.136928875000000,534,0x32,0x01
0.137002875000000,534,0x00,0x01
0.137076875000000,534,0x00,0x01
0.137158750000000,535,0x34,0x01
0.137232750000000,535,0x80,0x01
0.137306875000000,535,0x80,0x01
0.137389125000000,536,0x32,0x01
0.137463250000000,536,0x0A,0x01
0.137537250000000,536,0x11,0x01
0.137616625000000,537,0x32,0x01
0.137690625000000,537,0x00,0x80
0.137764750000000,537,0x20,0x01
0.137844125000000,538,0x32,0x01
0.137918125000000,538,0x20,0x01
0.137992250000000,538,0x20,0x01
0.138071625000000,539,0x32,0x01
0.138145625000000,539,0x20,0x01
0.138219750000000,539,0x20,0x01
0.138299125000000,540,0x32,0x01
0.138373125000000,540,0x20,0x01
0.138447250000000,540,0xC0,0x01
0.138528000000000,541,0x07,0x01
0.138602125000000,541,0x01,0x01
0.138676125000000,541,0x1E,0x01
0.139011750000000,542,0x07,0x0F
0.139084250000000,542,0x00,0x01
0.139158375000000,542,0x46,0x01
0.139236750000000,543,0x32,0x01
0.139310750000000,543,0x00,0x01
0.139384875000000,543,0x00,0x01
0.139466625000000,544,0x34,0x01
0.139540750000000,544,0x80,0x01
0.139614750000000,544,0x80,0x01
0.139697000000000,545,0x32,0x80
0.139771125000000,545,0x0A,0x01
0.139845125000000,545,0x11,0x01
0.139924500000000,546,0x32,0x01
0.139998625000000,546,0x00,0x01
0.140072625000000,546,0x20,0x01
0.140152000000000,547,0x32,0x01
0.140226000000000,547,0x20,0x80
0.140300125000000,547,0x20,0x01
0.140379500000000,548,0x32,0x01
0.140453500000000,548,0x20,0x01
0.140527625000000,548,0x20,0x01
0.140607000000000,549,0x32,0x01
0.140681000000000,549,0x20,0x01
0.140755125000000,549,0xC0,0x01
0.140835875000000,550,0x07,0x01
0.140910000000000,550,0x01,0x01
0.140984000000000,550,0x46,0x01
0.141312750000000,551,0x07,0x0D
0.141385875000000,551,0x00,0x01
0.141459875000000,551,0x00,0x01
0.141538250000000,552,0x32,0x01
0.141612375000000,552,0x00,0x01
0.141686375000000,552,0x00,0x01
0.141768250000000,553,0x34,0x01
0.141842250000000,553,0x80,0x01
0.141916250000000,553,0x80,0x01
0.141998625000000,554,0x32,0x01
0.142072625000000,554,0x0A,0x01
0.142146750000000,554,0x11,0x01
0.142226125000000,555,0x32,0x01
0.142300125000000,555,0x00,0x01
0.142374250000000,555,0x20,0x00
0.142453625000000,556,0x32,0x01
0.142527625000000,556,0x20,0x01
0.142601625000000,556,0x20,0x01
0.142681125000000,557,0x32,0x01
0.142755125000000,557,0x20,0x01
0.142829125000000,557,0x20,0x01
0.142908500000000,558,0x32,0x01
0.142982625000000,558,0x20,0x01
0.143056625000000,558,0xC0,0x01
0.143137500000000,559,0x07,0x01
0.143211500000000,559,0x01,0x01
0.143285625000000,559,0x00,0x01
0.143615375000000,560,0x07,0x0D
0.143688375000000,560,0x00,0x01
0.143762375000000,560,0x28,0x80
0.143840875000000,561,0x32,0x01
0.143914875000000,561,0x00,0x01
0.143989000000000,561,0x00,0x00
0.144070750000000,562,0x34,0x01
0.144144750000000,562,0x80,0x81
0.144218875000000,562,0x80,0x01
0.144301125000000,563,0x32,0x01
0.144375250000000,563,0x0A,0x01
0.144449250000000,563,0x11,0x01
0.144528625000000,564,0x32,0x01
0.144602625000000,564,0x00,0x01
0.144676750000000,564,0x20,0x01
0.144756125000000,565,0x32,0x01
0.144830125000000,565,0x20,0x01
0.144904250000000,565,0x20,0x01
0.144983625000000,566,0x32,0x01
0.145057625000000,566,0x20,0x01
0.145131625000000,566,0x20,0x01
0.145211125000000,567,0x32,0x01
0.145285125000000,567,0x20,0x01
0.145359125000000,567,0xC0,0x01
0.145440000000000,568,0x07,0x01
0.145514000000000,568,0x01,0x01
0.145588125000000,568,0x28,0x01
0.145918750000000,569,0x07,0x0D
0.145991875000000,569,0x00,0x01
0.146065875000000,569,0x0A,0x01
0.146144375000000,570,0x32,0x01
0.146218375000000,570,0x00,0x01
0.146292375000000,570,0x00,0x01
0.146374250000000,571,0x34,0x01
0.146448250000000,571,0x80,0x01
0.146522250000000,571,0x80,0x80
0.146604625000000,572,0x32,0x01
0.146678625000000,572,0x0A,0x01
0.146752750000000,572,0x11,0x01
0.146832125000000,573,0x32,0x01
0.146906125000000,573,0x00,0x01
0.146980250000000,573,0x20,0x01
0.147059625000000,574,0x32,0x01
0.147133625000000,574,0x20,0x01
0.147207625000000,574,0x20,0x01
0.147287125000000,575,0x32,0x01
0.147361125000000,575,0x20,0x01
0.147435125000000,575,0x20,0x01
0.147514500000000,576,0x32,0x01
0.147588625000000,576,0x20,0x01
0.147662625000000,576,0xC0,0x01
0.147743500000000,577,0x07,0x01
0.147817500000000,577,0x01,0x01
0.147891625000000,577,0x0A,0x01
0.148223250000000,578,0x07,0x0F
0.148295875000000,578,0x00,0x01
0.148369875000000,578,0x32,0x01
0.148448250000000,579,0x32,0x01
0.148522375000000,579,0x00,0x01
0.148596375000000,579,0x00,0x01
0.148678250000000,580,0x34,0x01
0.148752250000000,580,0x80,0x01
0.148826250000000,580,0x80,0x01
0.148908625000000,581,0x32,0x01
0.148982625000000,581,0x0A,0x01
0.149056750000000,581,0x11,0x01
0.149136125000000,582,0x32,0x01
0.149210125000000,582,0x00,0x01
0.149284125000000,582,0x20,0x01
0.149363625000000,583,0x32,0x01
0.149437625000000,583,0x20,0x01
0.149511625000000,583,0x20,0x01
0.149591000000000,584,0x32,0x81
0.149665125000000,584,0x20,0x01
0.149739125000000,584,0x20,0x01
0.149818500000000,585,0x32,0x01
0.149892625000000,585,0x20,0x01
0.149966625000000,585,0xC0,0x01
0.150047500000000,586,0x07,0x01
0.150121500000000,586,0x01,0x01
0.150195500000000,586,0x32,0x81
0.150528250000000,587,0x07,0x0F
0.150600750000000,587,0x00,0x01
0.150674875000000,587,0x14,0x01
0.150753250000000,588,0x32,0x01
0.150827250000000,588,0x00,0x01
0.150901375000000,588,0x00,0x01
0.150983125000000,589,0x34,0x01
0.151057250000000,589,0x80,0x01
0.151131250000000,589,0x80,0x01
0.151213625000000,590,0x32,0x01
0.151287625000000,590,0x0A,0x01
0.151361625000000,590,0x11,0x01
0.151441000000000,591,0x32,0x80
0.151515125000000,591,0x00,0x01
0.151589125000000,591,0x20,0x01
0.151668500000000,592,0x32,0x01
0.151742625000000,592,0x20,0x01
0.151816625000000,592,0x20,0x01
0.151896000000000,593,0x32,0x01
0.151970125000000,593,0x20,0x01
0.152044125000000,593,0x20,0x01
0.152123500000000,594,0x32,0x01
0.152197500000000,594,0x20,0x01
0.152271625000000,594,0xC0,0x01
0.152352500000000,595,0x07,0x00
0.152426500000000,595,0x01,0x01
0.152500500000000,595,0x14,0x01
0.152834125000000,596,0x07,0x0F
0.152906750000000,596,0x00,0x01
0.152980750000000,596,0x3C,0x01
0.153059125000000,597,0x32,0x01
0.153133250000000,597,0x00,0x01
0.153207250000000,597,0x00,0x01
0.153289125000000,598,0x34,0x01
0.153363125000000,598,0x80,0x01
0.153437125000000,598,0x80,0x01
0.153519500000000,599,0x32,0x01
0.153593500000000,599,0x0A,0x01
0.153667625000000,599,0x11,0x01
0.153747000000000,600,0x32,0x01
0.153821000000000,600,0x00,0x01
0.153895000000000,600,0x20,0x01
0.153974500000000,601,0x32,0x01
0.154048500000000,601,0x20,0x01
0.154122500000000,601,0x20,0x01
0.154201875000000,602,0x32,0x00
0.154276000000000,602,0x20,0x01
0.154350000000000,602,0x20,0x01
0.154429375000000,603,0x32,0x01
0.154503500000000,603,0x20,0x01
0.154577500000000,603,0xC0,0x01
0.154658375000000,604,0x07,0x01
0.154732375000000,604,0x01,0x01
0.154806375000000,604,0x3C,0x01
0.155141000000000,605,0x07,0x0F
0.155213625000000,605,0x00,0x01
0.155287625000000,605,0x1E,0x01
0.155366125000000,606,0x32,0x01
0.155440125000000,606,0x00,0x01
0.155514125000000,606,0x00,0x01
0.155596000000000,607,0x34,0x01
0.155670000000000,607,0x80,0x01
0.155744125000000,607,0x80,0x01
0.155826375000000,608,0x32,0x01
0.155900375000000,608,0x0A,0x01
0.155974500000000,608,0x11,0x01
0.156053875000000,609,0x32,0x01
0.156127875000000,609,0x00,0x01
0.156202000000000,609,0x20,0x01
0.156281375000000,610,0x32,0x01
0.156355375000000,610,0x20,0x01
0.156429375000000,610,0x20,0x00
0.156508875000000,611,0x32,0x01
0.156582875000000,611,0x20,0x01
0.156656875000000,611,0x20,0x01
0.156736250000000,612,0x32,0x80
0.156810375000000,612,0x20,0x01
0.156884375000000,612,0xC0,0x01
0.156965250000000,613,0x07,0x01
0.157039250000000,613,0x01,0x01
0.157113375000000,613,0x1E,0x01
0.157448875000000,614,0x07,0x0F
0.157521500000000,614,0x00,0x01
0.157595500000000,614,0x46,0x01
0.157674000000000,615,0x32,0x01
0.157748000000000,615,0x00,0x01
0.157822000000000,615,0x00,0x01
0.157903875000000,616,0x34,0x01
0.157977875000000,616,0x80,0x01
0.158052000000000,616,0x80,0x01
0.158134250000000,617,0x32,0x01
0.158208375000000,617,0x0A,0x01
0.158282375000000,617,0x11,0x01
0.158361750000000,618,0x32,0x01
0.158435750000000,618,0x00,0x00
0.158509875000000,618,0x20,0x01
0.158589250000000,619,0x32,0x01
0.158663250000000,619,0x20,0x01
0.158737375000000,619,0x20,0x01
0.158816750000000,620,0x32,0x01
0.158890750000000,620,0x20,0x01
0.158964750000000,620,0x20,0x80
0.159044250000000,621,0x32,0x01
0.159118250000000,621,0x20,0x01
0.159192250000000,621,0xC0,0x01
0.159273125000000,622,0x07,0x01
0.159347250000000,622,0x01,0x01
0.159421250000000,622,0x46,0x01
0.159750000000000,623,0x07,0x0D
0.159823000000000,623,0x00,0x80
0.159897125000000,623,0x00,0x01
0.159975500000000,624,0x32,0x01
0.160049625000000,624,0x00,0x01
0.160123625000000,624,0x00,0x01
0.160205500000000,625,0x34,0x01
0.160279500000000,625,0x80,0x01
0.160353500000000,625,0x80,0x01
0.160435875000000,626,0x32,0x01
0.160509875000000,626,0x0A,0x01
0.160583875000000,626,0x11,0x01
0.160663375000000,627,0x32,0x01
0.160737375000000,627,0x00,0x01
0.160811375000000,627,0x20,0x01
0.160890875000000,628,0x32,0x00
0.160964875000000,628,0x20,0x01
0.161038875000000,628,0x20,0x01
0.161118250000000,629,0x32,0x01
0.161192375000000,629,0x20,0x01
0.161266375000000,629,0x20,0x01
0.161345750000000,630,0x32,0x01
0.161419875000000,630,0x20,0x01
0.161493875000000,630,0xC0,0x01
0.161574750000000,631,0x07,0x01
0.161648750000000,631,0x01,0x01
0.161722750000000,631,0x00,0x01
0.162052500000000,632,0x07,0x0D
0.162125625000000,632,0x00,0x01
0.162199625000000,632,0x28,0x01
0.162278125000000,633,0x32,0x01
0.162352125000000,633,0x00,0x01
0.162426125000000,633,0x00,0x01
0.162508000000000,634,0x34,0x01
0.162582000000000,634,0x80,0x01
0.162656000000000,634,0x80,0x81
0.162738375000000,635,0x32,0x01
0.162812375000000,635,0x0A,0x01
0.162886500000000,635,0x11,0x01
0.162965875000000,636,0x32,0x01
0.163039875000000,636,0x00,0x01
0.163114000000000,636,0x20,0x01
0.163193375000000,637,0x32,0x01
0.163267375000000,637,0x20,0x01
0.163341375000000,637,0x20,0x01
0.163420875000000,638,0x32,0x01
0.163494875000000,638,0x20,0x01
0.163568875000000,638,0x20,0x01
0.163648250000000,639,0x32,0x80
0.163722375000000,639,0x20,0x01
0.163796375000000,639,0xC0,0x01
0.163877250000000,640,0x07,0x01
0.163951250000000,640,0x01,0x01
0.164025375000000,640,0x28,0x01
0.164356000000000,641,0x07,0x0D
0.164429125000000,641,0x00,0x01
0.164503125000000,641,0x0A,0x01
0.164581625000000,642,0x32,0x01
0.164655625000000,642,0x00,0x01
0.164729625000000,642,0x00,0x01
0.164811500000000,643,0x34,0x01
0.164885500000000,643,0x80,0x01
0.164959625000000,643,0x80,0x01
0.165041875000000,644,0x32,0x01
0.165115875000000,644,0x0A,0x00
0.165190000000000,644,0x11,0x01
0.165269375000000,645,0x32,0x01
0.165343375000000,645,0x00,0x01
0.165417500000000,645,0x20,0x01
0.165496875000000,646,0x32,0x01
0.165570875000000,646,0x20,0x01
0.165644875000000,646,0x20,0x80
0.165724375000000,647,0x32,0x01
0.165798375000000,647,0x20,0x01
0.165872375000000,647,0x20,0x01
0.165951875000000,648,0x32,0x01
0.166025875000000,648,0x20,0x01
0.166099875000000,648,0xC0,0x01
0.166180750000000,649,0x07,0x01
0.166254750000000,649,0x01,0x01
0.166328875000000,649,0x0A,0x01
0.166660500000000,650,0x07,0x0F
0.166733125000000,650,0x00,0x01
0.166807125000000,650,0x32,0x01
0.166885625000000,651,0x32,0x01
0.166959625000000,651,0x00,0x01
0.167033625000000,651,0x00,0x01
0.167115500000000,652,0x34,0x01
0.167189500000000,652,0x80,0x01
0.167263500000000,652,0x80,0x81
0.167345875000000,653,0x32,0x01
0.167419875000000,653,0x0A,0x01
0.167494000000000,653,0x11,0x01
0.167573375000000,654,0x32,0x01
0.167647375000000,654,0x00,0x01
0.167721500000000,654,0x20,0x01
0.167800875000000,655,0x32,0x01
0.167874875000000,655,0x20,0x01
0.167948875000000,655,0x20,0x80
0.168028375000000,656,0x32,0x01
0.168102375000000,656,0x20,0x01
0.168176375000000,656,0x20,0x01
0.168255875000000,657,0x32,0x01
0.168329875000000,657,0x20,0x01
0.168403875000000,657,0xC0,0x01
0.168484750000000,658,0x07,0x01
0.168558750000000,658,0x01,0x01
0.168632875000000,658,0x32,0x01
0.168965500000000,659,0x07,0x0F
0.169038125000000,659,0x00,0x01
0.169112125000000,659,0x14,0x01
0.169190500000000,660,0x32,0x01
0.169264625000000,660,0x00,0x01
0.169338625000000,660,0x00,0x01
0.169420500000000,661,0x34,0x01
0.169494500000000,661,0x80,0x01
0.169568500000000,661,0x80,0x01
0.169650875000000,662,0x32,0x01
0.169724875000000,662,0x0A,0x01
0.169799000000000,662,0x11,0x01
0.169878375000000,663,0x32,0x01
0.169952375000000,663,0x00,0x01
0.170026500000000,663,0x20,0x01
0.170105875000000,664,0x32,0x01
0.170179875000000,664,0x20,0x01
0.170253875000000,664,0x20,0x00
0.170333375000000,665,0x32,0x01
0.170407375000000,665,0x20,0x01
0.170481375000000,665,0x20,0x01
0.170560875000000,666,0x32,0x01
0.170634875000000,666,0x20,0x01
0.170708875000000,666,0xC0,0x01
0.170789750000000,667,0x07,0x01
0.170863750000000,667,0x01,0x01
0.170937875000000,667,0x14,0x01
0.171271500000000,668,0x07,0x0F
0.171344000000000,668,0x00,0x01
0.171418125000000,668,0x3C,0x01
0.171496500000000,669,0x32,0x01
0.171570500000000,669,0x00,0x81
0.171644625000000,669,0x00,0x01
0.171726500000000,670,0x34,0x01
0.171800500000000,670,0x80,0x01
0.171874500000000,670,0x80,0x01
0.171956875000000,671,0x32,0x01
0.172030875000000,671,0x0A,0x01
0.172104875000000,671,0x11,0x01
0.172184375000000,672,0x32,0x01
0.172258375000000,672,0x00,0x01
0.172332375000000,672,0x20,0x01
0.172411750000000,673,0x32,0x01
0.172485875000000,673,0x20,0x01
0.172559875000000,673,0x20,0x01
0.172639250000000,674,0x32,0x01
0.172713375000000,674,0x20,0x01
0.172787375000000,674,0x20,0x01
0.172866750000000,675,0x32,0x01
0.172940875000000,675,0x20,0x01
0.173014875000000,675,0xC0,0x01
0.173095750000000,676,0x07,0x01
0.173169750000000,676,0x01,0x01
0.173243750000000,676,0x3C,0x01
0.173578375000000,677,0x07,0x0F
0.173651000000000,677,0x00,0x01
0.173725000000000,677,0x1E,0x01
0.173803500000000,678,0x32,0x01
0.173877500000000,678,0x00,0x01
0.173951500000000,678,0x00,0x01
0.174033375000000,679,0x34,0x01
0.174107375000000,679,0x80,0x01
0.174181500000000,679,0x80,0x01
0.174263750000000,680,0x32,0x01
0.174337750000000,680,0x0A,0x01
0.174411875000000,680,0x11,0x01
0.174491250000000,681,0x32,0x01
0.174565250000000,681,0x00,0x01
0.174639375000000,681,0x20,0x01
0.174718750000000,682,0x32,0x01
0.174792750000000,682,0x20,0x01
0.174866750000000,682,0x20,0x01
0.174946250000000,683,0x32,0x01
0.175020250000000,683,0x20,0x01
0.175094250000000,683,0x20,0x01
0.175173625000000,684,0x32,0x00
0.175247750000000,684,0x20,0x01
0.175321750000000,684,0xC0,0x01
0.175402625000000,685,0x07,0x01
0.175476625000000,685,0x01,0x01
0.175550750000000,685,0x1E,0x01
0.175886250000000,686,0x07,0x0F
0.175958875000000,686,0x00,0x01
0.176032875000000,686,0x46,0x01
0.176111375000000,687,0x32,0x00
0.176185375000000,687,0x00,0x01
0.176259375000000,687,0x00,0x01
0.176341250000000,688,0x34,0x01
0.176415250000000,688,0x80,0x01
0.176489250000000,688,0x80,0x01
0.176571625000000,689,0x32,0x01
0.176645625000000,689,0x0A,0x01
0.176719750000000,689,0x11,0x01
0.176799125000000,690,0x32,0x01
0.176873125000000,690,0x00,0x01
0.176947125000000,690,0x20,0x01
0.177026625000000,691,0x32,0x01
0.177100625000000,691,0x20,0x01
0.177174625000000,691,0x20,0x01
0.177254000000000,692,0x32,0x01
0.177328125000000,692,0x20,0x01
0.177402125000000,692,0x20,0x01
0.177481500000000,693,0x32,0x01
0.177555500000000,693,0x20,0x80
0.177629625000000,693,0xC0,0x01
0.177710500000000,694,0x07,0x01
0.177784500000000,694,0x01,0x01
0.177858500000000,694,0x46,0x01
0.178187250000000,695,0x07,0x0D
0.178260375000000,695,0x00,0x01
0.178334375000000,695,0x00,0x01
0.178412875000000,696,0x32,0x01
0.178486875000000,696,0x00,0x01
0.178560875000000,696,0x00,0x01
0.178642750000000,697,0x34,0x01
0.178716750000000,697,0x80,0x01
0.178790750000000,697,0x80,0x80
0.178873125000000,698,0x32,0x01
0.178947125000000,698,0x0A,0x01
0.179021250000000,698,0x11,0x01
0.179100625000000,699,0x32,0x01
0.179174625000000,699,0x00,0x01
0.179248750000000,699,0x20,0x01
0.179328125000000,700,0x32,0x01
0.179402125000000,700,0x20,0x01
0.179476125000000,700,0x20,0x01
0.179555625000000,701,0x32,0x01
0.179629625000000,701,0x20,0x01
0.179703625000000,701,0x20,0x01
0.179783000000000,702,0x32,0x01
0.179857125000000,702,0x20,0x01
0.179931125000000,702,0xC0,0x01
0.180012000000000,703,0x07,0x01
0.180086000000000,703,0x01,0x01
0.180160125000000,703,0x00,0x01
0.180489750000000,704,0x07,0x0F
0.180562875000000,704,0x00,0x01
0.180636875000000,704,0x28,0x01
0.180715375000000,705,0x32,0x01
0.180789375000000,705,0x00,0x01
0.180863375000000,705,0x00,0x01
0.180945250000000,706,0x34,0x01
0.181019250000000,706,0x80,0x01
0.181093250000000,706,0x80,0x80
0.181175625000000,707,0x32,0x01
0.181249625000000,707,0x0A,0x01
0.181323750000000,707,0x11,0x01
0.181403125000000,708,0x32,0x01
0.181477125000000,708,0x00,0x01
0.181551125000000,708,0x20,0x80
0.181630625000000,709,0x32,0x01
0.181704625000000,709,0x20,0x01
0.181778625000000,709,0x20,0x01
0.181858000000000,710,0x32,0x01
0.181932125000000,710,0x20,0x01
0.182006125000000,710,0x20,0x01
0.182085500000000,711,0x32,0x01
0.182159625000000,711,0x20,0x01
0.182233625000000,711,0xC0,0x01
0.182314500000000,712,0x07,0x01
0.182388500000000,712,0x01,0x01
0.182462500000000,712,0x28,0x01
0.182793250000000,713,0x07,0x0D
0.182866250000000,713,0x00,0x80
0.182940375000000,713,0x0A,0x01
0.183018750000000,714,0x32,0x01
0.183092875000000,714,0x00,0x00
0.183166875000000,714,0x00,0x01
0.183248625000000,715,0x34,0x80
0.183322750000000,715,0x80,0x01
0.183396750000000,715,0x80,0x01
0.183479125000000,716,0x32,0x01
0.183553125000000,716,0x0A,0x01
0.183627125000000,716,0x11,0x01
0.183706500000000,717,0x32,0x81
0.183780625000000,717,0x00,0x01
0.183854625000000,717,0x20,0x01
0.183934000000000,718,0x32,0x01
0.184008125000000,718,0x20,0x01
0.184082125000000,718,0x20,0x01
0.184161500000000,719,0x32,0x01
0.184235500000000,719,0x20,0x01
0.184309625000000,719,0x20,0x01
0.184389000000000,720,0x32,0x01
0.184463000000000,720,0x20,0x01
0.184537125000000,720,0xC0,0x01
0.184617875000000,721,0x07,0x01
0.184692000000000,721,0x01,0x01
0.184766000000000,721,0x0A,0x01
0.185097625000000,722,0x07,0x0F
0.185170250000000,722,0x00,0x01
0.185244250000000,722,0x32,0x01
0.185322750000000,723,0x32,0x01
0.185396750000000,723,0x00,0x01
0.185470750000000,723,0x00,0x01
0.185552625000000,724,0x34,0x01
0.185626625000000,724,0x80,0x01
0.185700750000000,724,0x80,0x01
0.185783000000000,725,0x32,0x01
0.185857000000000,725,0x0A,0x01
0.185931125000000,725,0x11,0x01
0.186010500000000,726,0x32,0x01
0.186084500000000,726,0x00,0x01
0.186158625000000,726,0x20,0x01
0.186238000000000,727,0x32,0x01
0.186312000000000,727,0x20,0x01
0.186386000000000,727,0x20,0x01
0.186465500000000,728,0x32,0x01
0.186539500000000,728,0x20,0x01
0.186613500000000,728,0x20,0x01
0.186692875000000,729,0x32,0x01
0.186767000000000,729,0x20,0x01
0.186841000000000,729,0xC0,0x01
0.186921875000000,730,0x07,0x01
0.186995875000000,730,0x01,0x01
0.187070000000000,730,0x32,0x01
0.187402625000000,731,0x07,0x0F
0.187475125000000,731,0x00,0x01
0.187549250000000,731,0x14,0x01
0.187627625000000,732,0x32,0x01
0.187701625000000,732,0x00,0x01
0.187775750000000,732,0x00,0x01
0.187857500000000,733,0x34,0x01
0.187931625000000,733,0x80,0x01
0.188005625000000,733,0x80,0x01
0.188088000000000,734,0x32,0x01
0.188162000000000,734,0x0A,0x01
0.188236000000000,734,0x11,0x01
0.188315375000000,735,0x32,0x01
0.188389500000000,735,0x00,0x01
0.188463500000000,735,0x20,0x01
0.188542875000000,736,0x32,0x01
0.188617000000000,736,0x20,0x01
0.188691000000000,736,0x20,0x01
0.188770375000000,737,0x32,0x01
0.188844375000000,737,0x20,0x01
0.188918500000000,737,0x20,0x01
0.188997875000000,738,0x32,0x01
0.189071875000000,738,0x20,0x01
0.189146000000000,738,0xC0,0x01
0.189226750000000,739,0x07,0x01
0.189300875000000,739,0x01,0x01
0.189374875000000,739,0x14,0x01
0.189708500000000,740,0x07,0x0F
0.189781125000000,740,0x00,0x01
0.189855125000000,740,0x3C,0x01
0.189933500000000,741,0x32,0x01
0.190007625000000,741,0x00,0x01
0.190081625000000,741,0x00,0x01
0.190163500000000,742,0x34,0x01
0.190237500000000,742,0x80,0x01
0.190311500000000,742,0x80,0x01
0.190393875000000,743,0x32,0x01
0.190467875000000,743,0x0A,0x01
0.190541875000000,743,0x11,0x00
0.190621375000000,744,0x32,0x01
0.190695375000000,744,0x00,0x01
0.190769375000000,744,0x20,0x01
0.190848750000000,745,0x32,0x80
0.190922875000000,745,0x20,0x01
0.190996875000000,745,0x20,0x01
0.191076250000000,746,0x32,0x01
0.191150375000000,746,0x20,0x01
0.191224375000000,746,0x20,0x01
0.191303750000000,747,0x32,0x01
0.191377750000000,747,0x20,0x01
0.191451875000000,747,0xC0,0x01
0.191532750000000,748,0x07,0x01
0.191606750000000,748,0x01,0x01
0.191680750000000,748,0x3C,0x01
0.192015375000000,749,0x07,0x0F
0.192088000000000,749,0x00,0x01
0.192162000000000,749,0x1E,0x01
0.192240375000000,750,0x32,0x01
0.192314500000000,750,0x00,0x01
0.192388500000000,750,0x00,0x01
0.192470375000000,751,0x34,0x01
0.192544375000000,751,0x80,0x01
0.192618375000000,751,0x80,0x01
0.192700750000000,752,0x32,0x01
0.192774750000000,752,0x0A,0x01
0.192848750000000,752,0x11,0x80
0.192928250000000,753,0x32,0x01
0.193002250000000,753,0x00,0x01
0.193076250000000,753,0x20,0x01
0.193155750000000,754,0x32,0x01
0.193229750000000,754,0x20,0x01
0.193303750000000,754,0x20,0x01
0.193383125000000,755,0x32,0x01
0.193457250000000,755,0x20,0x01
0.193531250000000,755,0x20,0x01
0.193610625000000,756,0x32,0x01
0.193684750000000,756,0x20,0x01
0.193758750000000,756,0xC0,0x01
0.193839625000000,757,0x07,0x01
0.193913625000000,757,0x01,0x01
0.193987750000000,757,0x1E,0x01
0.194323250000000,758,0x07,0x0F
0.194395875000000,758,0x00,0x01
0.194469875000000,758,0x46,0x01
0.194548375000000,759,0x32,0x01
0.194622375000000,759,0x00,0x01
0.194696375000000,759,0x00,0x01
0.194778250000000,760,0x34,0x01
0.194852250000000,760,0x80,0x01
0.194926250000000,760,0x80,0x00
0.195008625000000,761,0x32,0x01
0.195082625000000,761,0x0A,0x01
0.195156750000000,761,0x11,0x01
0.195236125000000,762,0x32,0x01
0.195310125000000,762,0x00,0x01
0.195384250000000,762,0x20,0x01
0.195463625000000,763,0x32,0x01
0.195537625000000,763,0x20,0x01
0.195611625000000,763,0x20,0x01
0.195691125000000,764,0x32,0x01
0.195765125000000,764,0x20,0x01
0.195839125000000,764,0x20,0x01
0.195918625000000,765,0x32,0x01
0.195992625000000,765,0x20,0x01
0.196066625000000,765,0xC0,0x01
0.196147500000000,766,0x07,0x01
0.196221500000000,766,0x01,0x01
0.196295625000000,766,0x46,0x01
0.196624375000000,767,0x07,0x0D
0.196697375000000,767,0x00,0x01
0.196771500000000,767,0x00,0x01
0.196849875000000,768,0x32,0x01
0.196923875000000,768,0x00,0x01
0.196998000000000,768,0x00,0x01
0.197079750000000,769,0x34,0x01
0.197153875000000,769,0x80,0x01
0.197227875000000,769,0x80,0x01
0.197310250000000,770,0x32,0x01
0.197384250000000,770,0x0A,0x01
0.197458250000000,770,0x11,0x01
0.197537625000000,771,0x32,0x01
0.197611750000000,771,0x00,0x01
0.197685750000000,771,0x20,0x01
0.197765125000000,772,0x32,0x01
0.197839250000000,772,0x20,0x01
0.197913250000000,772,0x20,0x01
0.197992625000000,773,0x32,0x01
0.198066625000000,773,0x20,0x81
0.198140750000000,773,0x20,0x01
0.198220125000000,774,0x32,0x01
0.198294125000000,774,0x20,0x01
0.198368250000000,774,0xC0,0x01
0.198449125000000,775,0x07,0x01
0.198523125000000,775,0x01,0x01
0.198597125000000,775,0x00,0x01
0.198926875000000,776,0x07,0x0D
0.199000000000000,776,0x00,0x01
0.199074000000000,776,0x28,0x01
0.199152375000000,777,0x32,0x01
0.199226500000000,777,0x00,0x01
0.199300500000000,777,0x00,0x01
0.199382375000000,778,0x34,0x01
0.199456375000000,778,0x80,0x01
0.199530375000000,778,0x80,0x01
0.199612750000000,779,0x32,0x01
0.199686750000000,779,0x0A,0x01
0.199760875000000,779,0x11,0x01
0.199840250000000,780,0x32,0x01
0.199914250000000,780,0x00,0x01
0.199988375000000,780,0x20,0x01
0.200067750000000,781,0x32,0x01
0.200141750000000,781,0x20,0x01
0.200215750000000,781,0x20,0x01
0.200295250000000,782,0x32,0x01
0.200369250000000,782,0x20,0x01
0.200443250000000,782,0x20,0x01
0.200522625000000,783,0x32,0x01
0.200596750000000,783,0x20,0x01
0.200670750000000,783,0xC0,0x01
0.200751625000000,784,0x07,0x01
0.200825625000000,784,0x01,0x01
0.200899750000000,784,0x28,0x01
0.201230375000000,785,0x07,0x0D
0.201303500000000,785,0x00,0x01
0.201377500000000,785,0x0A,0x01
0.201455875000000,786,0x32,0x01
0.201530000000000,786,0x00,0x01
0.201604000000000,786,0x00,0x01
0.201685875000000,787,0x34,0x01
0.201759875000000,787,0x80,0x01
0.201833875000000,787,0x80,0x01
0.201916250000000,788,0x32,0x01
0.201990250000000,788,0x0A,0x01
0.202064375000000,788,0x11,0x01
0.202143750000000,789,0x32,0x01
0.202217750000000,789,0x00,0x01
0.202291750000000,789,0x20,0x01
0.202371250000000,790,0x32,0x01
0.202445250000000,790,0x20,0x01
0.202519250000000,790,0x20,0x01
0.202598625000000,791,0x32,0x81
0.202672750000000,791,0x20,0x01
0.202746750000000,791,0x20,0x01
0.202826125000000,792,0x32,0x01
0.202900250000000,792,0x20,0x01
0.202974250000000,792,0xC0,0x01
0.203055125000000,793,0x07,0x01
0.203129125000000,793,0x01,0x01
0.203203250000000,793,0x0A,0x01
0.203534875000000,794,0x07,0x0F
0.203607500000000,794,0x00,0x01
0.203681500000000,794,0x32,0x01
0.203759875000000,795,0x32,0x01
0.203834000000000,795,0x00,0x01
0.203908000000000,795,0x00,0x01
0.203989875000000,796,0x34,0x01
0.204063875000000,796,0x80,0x01
0.204137875000000,796,0x80,0x01
0.204220250000000,797,0x32,0x01
0.204294250000000,797,0x0A,0x01
0.204368375000000,797,0x11,0x01
0.204447750000000,798,0x32,0x01
0.204521750000000,798,0x00,0x01
0.204595750000000,798,0x20,0x81
0.204675250000000,799,0x32,0x01
0.204749250000000,799,0x20,0x01
0.204823250000000,799,0x20,0x01
0.204902750000000,800,0x32,0x01
0.204976750000000,800,0x20,0x01
0.205050750000000,800,0x20,0x01
0.205130250000000,801,0x32,0x01
0.205204250000000,801,0x20,0x01
0.205278250000000,801,0xC0,0x01
0.205359125000000,802,0x07,0x01
0.205433125000000,802,0x01,0x01
0.205507250000000,802,0x32,0x01
0.205839875000000,803,0x07,0x0F
0.205912500000000,803,0x00,0x01
0.205986500000000,803,0x14,0x01
0.206064875000000,804,0x32,0x01
0.206139000000000,804,0x00,0x01
0.206213000000000,804,0x00,0x01
0.206294875000000,805,0x34,0x01
0.206368875000000,805,0x80,0x01
0.206442875000000,805,0x80,0x01
0.206525250000000,806,0x32,0x01
0.206599250000000,806,0x0A,0x01
0.206673250000000,806,0x11,0x81
0.206752750000000,807,0x32,0x01
0.206826750000000,807,0x00,0x01
0.206900750000000,807,0x20,0x01
0.206980250000000,808,0x32,0x01
0.207054250000000,808,0x20,0x01
0.207128250000000,808,0x20,0x01
0.207207625000000,809,0x32,0x01
0.207281750000000,809,0x20,0x01
0.207355750000000,809,0x20,0x01
0.207435125000000,810,0x32,0x01
0.207509250000000,810,0x20,0x01
0.207583250000000,810,0xC0,0x01
0.207664125000000,811,0x07,0x01
0.207738125000000,811,0x01,0x01
0.207812125000000,811,0x14,0x01
0.208145875000000,812,0x07,0x0F
0.208218375000000,812,0x00,0x01
0.208292375000000,812,0x3C,0x80
0.208370875000000,813,0x32,0x01
0.208444875000000,813,0x00,0x01
0.208518875000000,813,0x00,0x81
0.208600750000000,814,0x34,0x01
0.208674750000000,814,0x80,0x01
0.208748875000000,814,0x80,0x01
0.208831125000000,815,0x32,0x01
0.208905250000000,815,0x0A,0x01
0.208979250000000,815,0x11,0x01
0.209058625000000,816,0x32,0x01
0.209132750000000,816,0x00,0x01
0.209206750000000,816,0x20,0x01
0.209286125000000,817,0x32,0x01
0.209360125000000,817,0x20,0x01
0.209434250000000,817,0x20,0x01
0.209513625000000,818,0x32,0x01
0.209587625000000,818,0x20,0x01
0.209661750000000,818,0x20,0x01
0.209741125000000,819,0x32,0x01
0.209815125000000,819,0x20,0x01
0.209889125000000,819,0xC0,0x80
0.209970000000000,820,0x07,0x01
0.210044125000000,820,0x01,0x01
0.210118125000000,820,0x3C,0x01
0.210452750000000,821,0x07,0x0F
0.210525250000000,821,0x00,0x01
0.210599375000000,821,0x1E,0x01
0.210677750000000,822,0x32,0x01
0.210751750000000,822,0x00,0x80
0.210825875000000,822,0x00,0x01
0.210907625000000,823,0x34,0x80
0.210981750000000,823,0x80,0x01
0.211055750000000,823,0x80,0x01
0.211138125000000,824,0x32,0x01
0.211212125000000,824,0x0A,0x01
0.211286125000000,824,0x11,0x01
0.211365625000000,825,0x32,0x01
0.211439625000000,825,0x00,0x01
0.211513625000000,825,0x20,0x01
0.211593000000000,826,0x32,0x01
0.211667125000000,826,0x20,0x01
0.211741125000000,826,0x20,0x01
0.211820500000000,827,0x32,0x01
0.211894625000000,827,0x20,0x01
0.211968625000000,827,0x20,0x01
0.212048000000000,828,0x32,0x01
0.212122000000000,828,0x20,0x01
0.212196125000000,828,0xC0,0x01
0.212277000000000,829,0x07,0x01
0.212351000000000,829,0x01,0x01
0.212425000000000,829,0x1E,0x01
0.212760625000000,830,0x07,0x07
0.212833250000000,830,0x00,0x01
0.212907250000000,830,0x46,0x01
0.212985625000000,831,0x32,0x01
0.213059750000000,831,0x00,0x01
0.213133750000000,831,0x00,0x01
0.213215625000000,832,0x34,0x01
0.213289625000000,832,0x80,0x01
0.213363625000000,832,0x80,0x01
0.213446000000000,833,0x32,0x01
0.213520000000000,833,0x0A,0x01
0.213594000000000,833,0x11,0x01
0.213673500000000,834,0x32,0x01
0.213747500000000,834,0x00,0x01
0.213821500000000,834,0x20,0x01
0.213900875000000,835,0x32,0x81
0.213975000000000,835,0x20,0x01
0.214049000000000,835,0x20,0x01
0.214128375000000,836,0x32,0x01
0.214202500000000,836,0x20,0x01
0.214276500000000,836,0x20,0x01
0.214355875000000,837,0x32,0x01
0.214430000000000,837,0x20,0x01
0.214504000000000,837,0xC0,0x01
0.214584875000000,838,0x07,0x01
0.214658875000000,838,0x01,0x01
0.214732875000000,838,0x46,0x80
0.215061750000000,839,0x07,0x0D
0.215134750000000,839,0x00,0x01
0.215208750000000,839,0x00,0x01
0.215287250000000,840,0x32,0x01
0.215361250000000,840,0x00,0x01
0.215435250000000,840,0x00,0x80
0.215517125000000,841,0x34,0x01
0.215591125000000,841,0x80,0x01
0.215665250000000,841,0x80,0x01
0.215747500000000,842,0x32,0x01
0.215821625000000,842,0x0A,0x01
0.215895625000000,842,0x11,0x01
0.215975000000000,843,0x32,0x01
0.216049125000000,843,0x00,0x01
0.216123125000000,843,0x20,0x01
0.216202500000000,844,0x32,0x01
0.216276500000000,844,0x20,0x01
0.216350625000000,844,0x20,0x01
0.216430000000000,845,0x32,0x01
0.216504000000000,845,0x20,0x01
0.216578125000000,845,0x20,0x01
0.216657500000000,846,0x32,0x01
0.216731500000000,846,0x20,0x01
0.216805500000000,846,0xC0,0x80
0.216886375000000,847,0x07,0x01
0.216960500000000,847,0x01,0x01
0.217034500000000,847,0x00,0x01
0.217364250000000,848,0x07,0x0D
0.217437375000000,848,0x00,0x01
0.217511375000000,848,0x28,0x01
0.217589750000000,849,0x32,0x01
0.217663875000000,849,0x00,0x01
0.217737875000000,849,0x00,0x01
0.217819750000000,850,0x34,0x01
0.217893750000000,850,0x80,0x01
0.217967750000000,850,0x80,0x01
0.218050125000000,851,0x32,0x01
0.218124125000000,851,0x0A,0x01
0.218198125000000,851,0x11,0x80
0.218277625000000,852,0x32,0x01
0.218351625000000,852,0x00,0x01
0.218425625000000,852,0x20,0x01
0.218505125000000,853,0x32,0x01
0.218579125000000,853,0x20,0x01
0.218653125000000,853,0x20,0x01
0.218732500000000,854,0x32,0x01
0.218806625000000,854,0x20,0x01
0.218880625000000,854,0x20,0x01
0.218960000000000,855,0x32,0x01
0.219034125000000,855,0x20,0x01
0.219108125000000,855,0xC0,0x01
0.219189000000000,856,0x07,0x01
0.219263000000000,856,0x01,0x01
0.219337125000000,856,0x28,0x01
0.219667750000000,857,0x07,0x0C
0.219740875000000,857,0x00,0x01
0.219814875000000,857,0x0A,0x01
0.219893375000000,858,0x32,0x01
0.219967375000000,858,0x00,0x01
0.220041375000000,858,0x00,0x01
0.220123250000000,859,0x34,0x01
0.220197250000000,859,0x80,0x01
0.220271375000000,859,0x80,0x01
0.220353625000000,860,0x32,0x01
0.220427625000000,860,0x0A,0x80
0.220501750000000,860,0x11,0x01
0.220581125000000,861,0x32,0x01
0.220655125000000,861,0x00,0x01
0.220729250000000,861,0x20,0x01
0.220808625000000,862,0x32,0x01
0.220882625000000,862,0x20,0x01
0.220956625000000,862,0x20,0x80
0.221036125000000,863,0x32,0x01
0.221110125000000,863,0x20,0x01
0.221184125000000,863,0x20,0x01
0.221263625000000,864,0x32,0x01
0.221337625000000,864,0x20,0x01
0.221411625000000,864,0xC0,0x01
0.221492500000000,865,0x07,0x01
0.221566500000000,865,0x01,0x00
0.221640625000000,865,0x0A,0x01
0.221972250000000,866,0x07,0x0F
0.222044875000000,866,0x00,0x01
0.222118875000000,866,0x32,0x01
0.222197375000000,867,0x32,0x01
0.222271375000000,867,0x00,0x01
0.222345375000000,867,0x00,0x01
0.222427250000000,868,0x34,0x01
0.222501250000000,868,0x80,0x01
0.222575375000000,868,0x80,0x01
0.222657625000000,869,0x32,0x01
0.222731750000000,869,0x0A,0x01
0.222805750000000,869,0x11,0x01
0.222885125000000,870,0x32,0x01
0.222959125000000,870,0x00,0x01
0.223033250000000,870,0x20,0x01
0.223112625000000,871,0x32,0x01
0.223186625000000,871,0x20,0x01
0.223260750000000,871,0x20,0x01
0.223340125000000,872,0x32,0x01
0.223414125000000,872,0x20,0x01
0.223488125000000,872,0x20,0x00
0.223567625000000,873,0x32,0x01
0.223641625000000,873,0x20,0x01
0.223715625000000,873,0xC0,0x01
0.223796500000000,874,0x07,0x01
0.223870500000000,874,0x01,0x80
0.223944625000000,874,0x32,0x01
0.224277250000000,875,0x07,0x0F
0.224349875000000,875,0x00,0x01
0.224423875000000,875,0x14,0x01
0.224502250000000,876,0x32,0x01
0.224576375000000,876,0x00,0x01
0.224650375000000,876,0x00,0x01
0.224732250000000,877,0x34,0x01
0.224806250000000,877,0x80,0x01
0.224880250000000,877,0x80,0x01
0.224962625000000,878,0x32,0x01
0.225036625000000,878,0x0A,0x01
0.225110750000000,878,0x11,0x01
0.225190125000000,879,0x32,0x01
0.225264125000000,879,0x00,0x01
0.225338125000000,879,0x20,0x01
0.225417625000000,880,0x32,0x01
0.225491625000000,880,0x20,0x01
0.225565625000000,880,0x20,0x01
0.225645000000000,881,0x32,0x01
0.225719125000000,881,0x20,0x01
0.225793125000000,881,0x20,0x01
0.225872500000000,882,0x32,0x01
0.225946625000000,882,0x20,0x01
0.226020625000000,882,0xC0,0x01
0.226101500000000,883,0x07,0x01
0.226175500000000,883,0x01,0x01
0.226249500000000,883,0x14,0x01
0.226583125000000,884,0x07,0x0F
0.226655750000000,884,0x00,0x01
0.226729750000000,884,0x3C,0x01
0.226808250000000,885,0x32,0x01
0.226882250000000,885,0x00,0x01
0.226956250000000,885,0x00,0x01
0.227038125000000,886,0x34,0x01
0.227112125000000,886,0x80,0x01
0.227186250000000,886,0x80,0x01
0.227268500000000,887,0x32,0x01
0.227342500000000,887,0x0A,0x01
0.227416625000000,887,0x11,0x01
0.227496000000000,888,0x32,0x01
0.227570000000000,888,0x00,0x01
0.227644125000000,888,0x20,0x01
0.227723500000000,889,0x32,0x01
0.227797500000000,889,0x20,0x01
0.227871500000000,889,0x20,0x01
0.227951000000000,890,0x32,0x01
0.228025000000000,890,0x20,0x01
0.228099000000000,890,0x20,0x01
0.228178375000000,891,0x32,0x01
0.228252500000000,891,0x20,0x01
0.228326500000000,891,0xC0,0x01
0.228407375000000,892,0x07,0x01
0.228481375000000,892,0x01,0x01
0.228555500000000,892,0x3C,0x01
0.228890000000000,893,0x07,0x0F
0.228962625000000,893,0x00,0x01
0.229036625000000,893,0x1E,0x01
0.229115125000000,894,0x32,0x01
0.229189125000000,894,0x00,0x01
0.229263125000000,894,0x00,0x01
0.229345000000000,895,0x34,0x01
0.229419000000000,895,0x80,0x01
0.229493125000000,895,0x80,0x01
0.229575375000000,896,0x32,0x01
0.229649500000000,896,0x0A,0x01
0.229723500000000,896,0x11,0x01
0.229802875000000,897,0x32,0x01
0.229876875000000,897,0x00,0x01
0.229951000000000,897,0x20,0x01
0.230030375000000,898,0x32,0x01
0.230104375000000,898,0x20,0x01
0.230178500000000,898,0x20,0x01
0.230257875000000,899,0x32,0x01
0.230331875000000,899,0x20,0x01
0.230405875000000,899,0x20,0x01
0.230485375000000,900,0x32,0x01
0.230559375000000,900,0x20,0x01
0.230633375000000,900,0xC0,0x01
0.230714250000000,901,0x07,0x01
0.230788250000000,901,0x01,0x01
0.230862375000000,901,0x1E,0x01
0.231197875000000,902,0x07,0x0F
0.231270500000000,902,0x00,0x01
0.231344500000000,902,0x46,0x01
0.231423000000000,903,0x32,0x01
0.231497000000000,903,0x00,0x01
0.231571000000000,903,0x00,0x01
0.231652875000000,904,0x34,0x01
0.231726875000000,904,0x80,0x01
0.231801000000000,904,0x80,0x01
0.231883250000000,905,0x32,0x01
0.231957375000000,905,0x0A,0x01
0.232031375000000,905,0x11,0x01
0.232110750000000,906,0x32,0x01
0.232184750000000,906,0x00,0x80
0.232258875000000,906,0x20,0x01
0.232338250000000,907,0x32,0x01
0.232412250000000,907,0x20,0x01
0.232486375000000,907,0x20,0x01
0.232565750000000,908,0x32,0x01
0.232639750000000,908,0x20,0x01
0.232713875000000,908,0x20,0x01
0.232793250000000,909,0x32,0x01
0.232867250000000,909,0x20,0x01
0.232941250000000,909,0xC0,0x01
0.233022125000000,910,0x07,0x01
0.233096250000000,910,0x01,0x01
0.233170250000000,910,0x46,0x01
0.233499000000000,911,0x07,0x0D
0.233572125000000,911,0x00,0x01
0.233646125000000,911,0x00,0x01
0.233724500000000,912,0x32,0x01
0.233798625000000,912,0x00,0x01
0.233872625000000,912,0x00,0x01
0.233954500000000,913,0x34,0x01
0.234028500000000,913,0x80,0x01
0.234102500000000,913,0x80,0x01
0.234184875000000,914,0x32,0x01
0.234258875000000,914,0x0A,0x01
0.234333000000000,914,0x11,0x01
0.234412375000000,915,0x32,0x01
0.234486375000000,915,0x00,0x01
0.234560375000000,915,0x20,0x81
0.234639875000000,916,0x32,0x01
0.234713875000000,916,0x20,0x01
0.234787875000000,916,0x20,0x01
0.234867375000000,917,0x32,0x01
0.234941375000000,917,0x20,0x01
0.235015375000000,917,0x20,0x01
0.235094750000000,918,0x32,0x01
0.235168875000000,918,0x20,0x01
0.235242875000000,918,0xC0,0x01
0.235323750000000,919,0x07,0x01
0.235397750000000,919,0x01,0x01
0.235471875000000,919,0x00,0x01
0.235801500000000,920,0x07,0x0D
0.235874625000000,920,0x00,0x01
0.235948625000000,920,0x28,0x01
0.236027125000000,921,0x32,0x01
0.236101125000000,921,0x00,0x01
0.236175125000000,921,0x00,0x01
0.236257000000000,922,0x34,0x01
0.236331000000000,922,0x80,0x01
0.236405125000000,922,0x80,0x01
0.236487375000000,923,0x32,0x01
0.236561375000000,923,0x0A,0x01
0.236635500000000,923,0x11,0x01
0.236714875000000,924,0x32,0x01
0.236788875000000,924,0x00,0x01
0.236863000000000,924,0x20,0x01
0.236942375000000,925,0x32,0x01
0.237016375000000,925,0x20,0x01
0.237090500000000,925,0x20,0x01
0.237169875000000,926,0x32,0x01
0.237243875000000,926,0x20,0x01
0.237317875000000,926,0x20,0x01
0.237397375000000,927,0x32,0x01
0.237471375000000,927,0x20,0x01
0.237545375000000,927,0xC0,0x01
0.237626250000000,928,0x07,0x01
0.237700250000000,928,0x01,0x80
0.237774375000000,928,0x28,0x01
0.238105000000000,929,0x07,0x8F
0.238177625000000,929,0x00,0x01
0.238251625000000,929,0x0A,0x01
0.238330125000000,930,0x32,0x01
0.238404125000000,930,0x00,0x01
0.238478125000000,930,0x00,0x01
0.238560000000000,931,0x34,0x01
0.238634000000000,931,0x80,0x01
0.238708125000000,931,0x80,0x01
0.238790375000000,932,0x32,0x01
0.238864500000000,932,0x0A,0x01
0.238938500000000,932,0x11,0x01
0.239017875000000,933,0x32,0x01
0.239091875000000,933,0x00,0x01
0.239166000000000,933,0x20,0x01
0.239245375000000,934,0x32,0x01
0.239319375000000,934,0x20,0x01
0.239393500000000,934,0x20,0x01
0.239472875000000,935,0x32,0x01
0.239546875000000,935,0x20,0x01
0.239620875000000,935,0x20,0x80
0.239700375000000,936,0x32,0x01
0.239774375000000,936,0x20,0x01
0.239848375000000,936,0xC0,0x01
0.239929250000000,937,0x07,0x01
0.240003375000000,937,0x01,0x01
0.240077375000000,937,0x0A,0x01
0.240409000000000,938,0x07,0x0F
0.240481625000000,938,0x00,0x01
0.240555625000000,938,0x32,0x01
0.240634125000000,939,0x32,0x01
0.240708125000000,939,0x00,0x01
0.240782125000000,939,0x00,0x01
0.240864000000000,940,0x34,0x01
0.240938000000000,940,0x80,0x01
0.241012125000000,940,0x80,0x01
0.241094375000000,941,0x32,0x01
0.241168500000000,941,0x0A,0x01
0.241242500000000,941,0x11,0x01
0.241321875000000,942,0x32,0x01
0.241395875000000,942,0x00,0x01
0.241470000000000,942,0x20,0x01
0.241549375000000,943,0x32,0x01
0.241623375000000,943,0x20,0x01
0.241697500000000,943,0x20,0x01
0.241776875000000,944,0x32,0x01
0.241850875000000,944,0x20,0x01
0.241924875000000,944,0x20,0x01
0.242004375000000,945,0x32,0x01
0.242078375000000,945,0x20,0x01
0.242152375000000,945,0xC0,0x01
0.242233250000000,946,0x07,0x01
0.242307250000000,946,0x01,0x01
0.242381375000000,946,0x32,0x01
0.242714000000000,947,0x07,0x0F
0.242786625000000,947,0x00,0x01
0.242860625000000,947,0x14,0x01
0.242939000000000,948,0x32,0x01
0.243013125000000,948,0x00,0x01
0.243087125000000,948,0x00,0x01
0.243169000000000,949,0x34,0x01
0.243243000000000,949,0x80,0x01
0.243317000000000,949,0x80,0x01
0.243399375000000,950,0x32,0x01
0.243473375000000,950,0x0A,0x01
0.243547375000000,950,0x11,0x01
0.243626875000000,951,0x32,0x01
0.243700875000000,951,0x00,0x01
0.243774875000000,951,0x20,0x01
0.243854250000000,952,0x32,0x01
0.243928375000000,952,0x20,0x01
0.244002375000000,952,0x20,0x01
0.244081750000000,953,0x32,0x01
0.244155875000000,953,0x20,0x01
0.244229875000000,953,0x20,0x01
0.244309250000000,954,0x32,0x01
0.244383250000000,954,0x20,0x01
0.244457375000000,954,0xC0,0x01
0.244538250000000,955,0x07,0x01
0.244612250000000,955,0x01,0x01
0.244686250000000,955,0x14,0x01
0.245019875000000,956,0x07,0x0F
0.245092500000000,956,0x00,0x01
0.245166500000000,956,0x3C,0x01
0.245245000000000,957,0x32,0x01
0.245319000000000,957,0x00,0x01
0.245393000000000,957,0x00,0x01
0.245474875000000,958,0x34,0x01
0.245548875000000,958,0x80,0x01
0.245623000000000,958,0x80,0x01
0.245705250000000,959,0x32,0x01
0.245779375000000,959,0x0A,0x01
0.245853375000000,959,0x11,0x01
0.245932750000000,960,0x32,0x01
0.246006750000000,960,0x00,0x80
0.246080875000000,960,0x20,0x01
0.246160250000000,961,0x32,0x01
0.246234250000000,961,0x20,0x01
0.246308375000000,961,0x20,0x01
0.246387750000000,962,0x32,0x01
0.246461750000000,962,0x20,0x01
0.246535875000000,962,0x20,0x01
0.246615250000000,963,0x32,0x01
0.246689250000000,963,0x20,0x01
0.246763250000000,963,0xC0,0x01
0.246844125000000,964,0x07,0x01
0.246918250000000,964,0x01,0x01
0.246992250000000,964,0x3C,0x01
0.247326875000000,965,0x07,0x0F
0.247399375000000,965,0x00,0x01
0.247473500000000,965,0x1E,0x01
0.247551875000000,966,0x32,0x01
0.247625875000000,966,0x00,0x01
0.247700000000000,966,0x00,0x01
0.247781750000000,967,0x34,0x01
0.247855875000000,967,0x80,0x01
0.247929875000000,967,0x80,0x01
0.248012250000000,968,0x32,0x01
0.248086250000000,968,0x0A,0x01
0.248160250000000,968,0x11,0x01
0.248239625000000,969,0x32,0x01
0.248313750000000,969,0x00,0x01
0.248387750000000,969,0x20,0x01
0.248467125000000,970,0x32,0x01
0.248541250000000,970,0x20,0x01
0.248615250000000,970,0x20,0x01
0.248694625000000,971,0x32,0x01
0.248768625000000,971,0x20,0x80
0.248842750000000,971,0x20,0x01
0.248922125000000,972,0x32,0x01
0.248996125000000,972,0x20,0x01
0.249070250000000,972,0xC0,0x01
0.249151125000000,973,0x07,0x01
0.249225125000000,973,0x01,0x01
0.249299125000000,973,0x1E,0x01
0.249634750000000,974,0x07,0x0F
0.249707250000000,974,0x00,0x01
0.249781375000000,974,0x46,0x01
0.249859750000000,975,0x32,0x01
0.249933750000000,975,0x00,0x01
0.250007875000000,975,0x00,0x01
0.250089625000000,976,0x34,0x01
0.250163750000000,976,0x80,0x01
0.250237750000000,976,0x80,0x01
0.250320125000000,977,0x32,0x01
0.250394125000000,977,0x0A,0x01
0.250468125000000,977,0x11,0x01
0.250547500000000,978,0x32,0x01
0.250621625000000,978,0x00,0x01
0.250695625000000,978,0x20,0x01
0.250775000000000,979,0x32,0x01
0.250849125000000,979,0x20,0x01
0.250923125000000,979,0x20,0x01
0.251002500000000,980,0x32,0x01
0.251076625000000,980,0x20,0x01
0.251150625000000,980,0x20,0x01
0.251230000000000,981,0x32,0x01
0.251304000000000,981,0x20,0x01
0.251378125000000,981,0xC0,0x01
0.251459000000000,982,0x07,0x01
0.251533000000000,982,0x01,0x01
0.251607000000000,982,0x46,0x01
0.251935750000000,983,0x07,0x0D
0.252008875000000,983,0x00,0x01
0.252082875000000,983,0x00,0x01
0.252161375000000,984,0x32,0x01
0.252235375000000,984,0x00,0x01
0.252309375000000,984,0x00,0x01
0.252391250000000,985,0x34,0x01
0.252465250000000,985,0x80,0x01
0.252539250000000,985,0x80,0x81
0.252621625000000,986,0x32,0x01
0.252695625000000,986,0x0A,0x01
0.252769750000000,986,0x11,0x01
0.252849125000000,987,0x32,0x01
0.252923125000000,987,0x00,0x01
0.252997250000000,987,0x20,0x01
0.253076625000000,988,0x32,0x01
0.253150625000000,988,0x20,0x01
0.253224625000000,988,0x20,0x01
0.253304125000000,989,0x32,0x01
0.253378125000000,989,0x20,0x01
0.253452125000000,989,0x20,0x01
0.253531500000000,990,0x32,0x01
0.253605625000000,990,0x20,0x01
0.253679625000000,990,0xC0,0x01
0.253760500000000,991,0x07,0x01
0.253834500000000,991,0x01,0x01
0.253908625000000,991,0x00,0x01
0.254238250000000,992,0x07,0x8D
0.254311375000000,992,0x00,0x01
0.254385375000000,992,0x28,0x01
0.254463875000000,993,0x32,0x01
0.254537875000000,993,0x00,0x01
0.254611875000000,993,0x00,0x01
0.254693750000000,994,0x34,0x01
0.254767750000000,994,0x80,0x01
0.254841875000000,994,0x80,0x01
0.254924125000000,995,0x32,0x01
0.254998250000000,995,0x0A,0x01
0.255072250000000,995,0x11,0x01
0.255151625000000,996,0x32,0x01
0.255225625000000,996,0x00,0x01
0.255299750000000,996,0x20,0x01
0.255379125000000,997,0x32,0x01
0.255453125000000,997,0x20,0x01
0.255527250000000,997,0x20,0x01
0.255606625000000,998,0x32,0x01
0.255680625000000,998,0x20,0x01
0.255754750000000,998,0x20,0x01
0.255834125000000,999,0x32,0x01
0.255908125000000,999,0x20,0x01
0.255982125000000,999,0xC0,0x01
0.256063000000000,1000,0x07,0x01
0.256137125000000,1000,0x01,0x01
0.256211125000000,1000,0x28,0x01
0.256541875000000,1001,0x07,0x0D
0.256614875000000,1001,0x00,0x01
0.256689000000000,1001,0x0A,0x01
0.256767375000000,1002,0x32,0x01
0.256841375000000,1002,0x00,0x01
0.256915500000000,1002,0x00,0x01
0.256997250000000,1003,0x34,0x01
0.257071375000000,1003,0x80,0x01
0.257145375000000,1003,0x80,0x01
0.257227625000000,1004,0x32,0x01
0.257301750000000,1004,0x0A,0x01
0.257375750000000,1004,0x11,0x01
0.257455125000000,1005,0x32,0x01
0.257529250000000,1005,0x00,0x01
0.257603250000000,1005,0x20,0x01
0.257682625000000,1006,0x32,0x01
0.257756625000000,1006,0x20,0x80
0.257830750000000,1006,0x20,0x01
0.257910125000000,1007,0x32,0x01
0.257984125000000,1007,0x20,0x01
0.258058250000000,1007,0x20,0x01
0.258137625000000,1008,0x32,0x01
0.258211625000000,1008,0x20,0x01
0.258285750000000,1008,0xC0,0x01
0.258366500000000,1009,0x07,0x01
0.258440625000000,1009,0x01,0x01
0.258514625000000,1009,0x0A,0x01
0.258846375000000,1010,0x07,0x0F
0.258918875000000,1010,0x00,0x01
0.258993000000000,1010,0x32,0x01
0.259071375000000,1011,0x32,0x01
0.259145375000000,1011,0x00,0x01
0.259219500000000,1011,0x00,0x01
0.259301250000000,1012,0x34,0x01
0.259375375000000,1012,0x80,0x01
0.259449375000000,1012,0x80,0x01
0.259531625000000,1013,0x32,0x80
0.259605750000000,1013,0x0A,0x01
0.259679750000000,1013,0x11,0x01
0.259759125000000,1014,0x32,0x01
0.259833250000000,1014,0x00,0x01
0.259907250000000,1014,0x20,0x01
0.259986625000000,1015,0x32,0x01
0.260060750000000,1015,0x20,0x01
0.260134750000000,1015,0x20,0x01
0.260214125000000,1016,0x32,0x01
0.260288125000000,1016,0x20,0x00
0.260362250000000,1016,0x20,0x01
0.260441625000000,1017,0x32,0x01
0.260515625000000,1017,0x20,0x01
0.260589750000000,1017,0xC0,0x01
0.260670625000000,1018,0x07,0x01
0.260744625000000,1018,0x01,0x01
0.260818625000000,1018,0x32,0x01
0.261151250000000,1019,0x07,0x8F
0.261223875000000,1019,0x00,0x01
0.261297875000000,1019,0x14,0x01
0.261376375000000,1020,0x32,0x01
0.261450375000000,1020,0x00,0x01
0.261524375000000,1020,0x00,0x01
0.261606250000000,1021,0x34,0x01
0.261680250000000,1021,0x80,0x01
0.261754375000000,1021,0x80,0x01
0.261836625000000,1022,0x32,0x01
0.261910750000000,1022,0x0A,0x01
0.261984750000000,1022,0x11,0x01
0.262064125000000,1023,0x32,0x01
0.262138125000000,1023,0x00,0x01
0.262212250000000,1023,0x20,0x01
0.262291625000000,1024,0x32,0x01
0.262365625000000,1024,0x20,0x01
0.262439750000000,1024,0x20,0x01
0.262519125000000,1025,0x32,0x01
0.262593125000000,1025,0x20,0x01
0.262667125000000,1025,0x20,0x01
0.262746625000000,1026,0x32,0x01
0.262820625000000,1026,0x20,0x01
0.262894625000000,1026,0xC0,0x01
0.262975500000000,1027,0x07,0x01
0.263049500000000,1027,0x01,0x80
0.263123625000000,1027,0x14,0x01
0.263457250000000,1028,0x07,0x07
0.263529875000000,1028,0x00,0x01
0.263603875000000,1028,0x3C,0x01
0.263682250000000,1029,0x32,0x01
0.263756375000000,1029,0x00,0x01
0.263830375000000,1029,0x00,0x01
0.263912250000000,1030,0x34,0x01
0.263986250000000,1030,0x80,0x01
0.264060250000000,1030,0x80,0x01
0.264142625000000,1031,0x32,0x01
0.264216625000000,1031,0x0A,0x01
0.264290625000000,1031,0x11,0x01
0.264370125000000,1032,0x32,0x01
0.264444125000000,1032,0x00,0x01
0.264518125000000,1032,0x20,0x01
0.264597500000000,1033,0x32,0x01
0.264671625000000,1033,0x20,0x01
0.264745625000000,1033,0x20,0x01
0.264825000000000,1034,0x32,0x01
0.264899125000000,1034,0x20,0x01
0.264973125000000,1034,0x20,0x01
0.265052500000000,1035,0x32,0x01
0.265126500000000,1035,0x20,0x01
0.265200625000000,1035,0xC0,0x01
0.265281500000000,1036,0x07,0x01
0.265355500000000,1036,0x01,0x01
0.265429500000000,1036,0x3C,0x01
0.265764125000000,1037,0x07,0x0F
0.265836750000000,1037,0x00,0x01
0.265910750000000,1037,0x1E,0x01
0.265989125000000,1038,0x32,0x01
0.266063250000000,1038,0x00,0x01
0.266137250000000,1038,0x00,0x01
0.266219125000000,1039,0x34,0x01
0.266293125000000,1039,0x80,0x01
0.266367125000000,1039,0x80,0x01
0.266449500000000,1040,0x32,0x01
0.266523500000000,1040,0x0A,0x01
0.266597625000000,1040,0x11,0x01
0.266677000000000,1041,0x32,0x01
0.266751000000000,1041,0x00,0x01
0.266825000000000,1041,0x20,0x01
0.266904500000000,1042,0x32,0x01
0.266978500000000,1042,0x20,0x01
0.267052500000000,1042,0x20,0x01
0.267131875000000,1043,0x32,0x01
0.267206000000000,1043,0x20,0x01
0.267280000000000,1043,0x20,0x01
0.267359375000000,1044,0x32,0x01
0.267433500000000,1044,0x20,0x01
0.267507500000000,1044,0xC0,0x01
0.267588375000000,1045,0x07,0x01
0.267662375000000,1045,0x01,0x01
0.267736375000000,1045,0x1E,0x01
0.268072000000000,1046,0x07,0x0F
0.268144625000000,1046,0x00,0x01
0.268218625000000,1046,0x46,0x01
0.268297000000000,1047,0x32,0x01
0.268371125000000,1047,0x00,0x01
0.268445125000000,1047,0x00,0x01
0.268527000000000,1048,0x34,0x01
0.268601000000000,1048,0x80,0x01
0.268675000000000,1048,0x80,0x01
0.268757375000000,1049,0x32,0x01
0.268831375000000,1049,0x0A,0x01
0.268905375000000,1049,0x11,0x00
0.268984875000000,1050,0x32,0x01
0.269058875000000,1050,0x00,0x01
0.269132875000000,1050,0x20,0x01
0.269212250000000,1051,0x32,0x81
0.269286375000000,1051,0x20,0x01
0.269360375000000,1051,0x20,0x01
0.269439750000000,1052,0x32,0x01
0.269513875000000,1052,0x20,0x01
0.269587875000000,1052,0x20,0x01
0.269667250000000,1053,0x32,0x01
0.269741375000000,1053,0x20,0x01
0.269815375000000,1053,0xC0,0x01
0.269896250000000,1054,0x07,0x01
0.269970250000000,1054,0x01,0x01
0.270044250000000,1054,0x46,0x80
0.270373125000000,1055,0x07,0x0D
0.270446125000000,1055,0x00,0x01
0.270520125000000,1055,0x00,0x01
0.270598625000000,1056,0x32,0x01
0.270672625000000,1056,0x00,0x01
0.270746750000000,1056,0x00,0x01
0.270828500000000,1057,0x34,0x01
0.270902625000000,1057,0x80,0x01
0.270976625000000,1057,0x80,0x01
0.271058875000000,1058,0x32,0x01
0.271133000000000,1058,0x0A,0x01
0.271207000000000,1058,0x11,0x01
0.271286375000000,1059,0x32,0x01
0.271360500000000,1059,0x00,0x01
0.271434500000000,1059,0x20,0x01
0.271513875000000,1060,0x32,0x01
0.271587875000000,1060,0x20,0x81
0.271662000000000,1060,0x20,0x01
0.271741375000000,1061,0x32,0x01
0.271815375000000,1061,0x20,0x01
0.271889500000000,1061,0x20,0x01
0.271968875000000,1062,0x32,0x01
0.272042875000000,1062,0x20,0x01
0.272117000000000,1062,0xC0,0x01
0.272197750000000,1063,0x07,0x80
0.272271875000000,1063,0x01,0x01
0.272345875000000,1063,0x00,0x01
0.272675625000000,1064,0x07,0x0D
0.272748750000000,1064,0x00,0x01
0.272822750000000,1064,0x28,0x01
0.272901125000000,1065,0x32,0x01
0.272975250000000,1065,0x00,0x01
0.273049250000000,1065,0x00,0x01
0.273131125000000,1066,0x34,0x01
0.273205125000000,1066,0x80,0x01
0.273279125000000,1066,0x80,0x01
0.273361500000000,1067,0x32,0x01
0.273435500000000,1067,0x0A,0x01
0.273509625000000,1067,0x11,0x01
0.273589000000000,1068,0x32,0x01
0.273663000000000,1068,0x00,0x01
0.273737000000000,1068,0x20,0x01
0.273816500000000,1069,0x32,0x01
0.273890500000000,1069,0x20,0x01
0.273964500000000,1069,0x20,0x01
0.274043875000000,1070,0x32,0x01
0.274118000000000,1070,0x20,0x01
0.274192000000000,1070,0x20,0x01
0.274271375000000,1071,0x32,0x01
0.274345500000000,1071,0x20,0x01
0.274419500000000,1071,0xC0,0x01
0.274500375000000,1072,0x07,0x01
0.274574375000000,1072,0x01,0x01
0.274648375000000,1072,0x28,0x01
0.274979125000000,1073,0x07,0x0D
0.275052250000000,1073,0x00,0x01
0.275126250000000,1073,0x0A,0x01
0.275204625000000,1074,0x32,0x01
0.275278750000000,1074,0x00,0x01
0.275352750000000,1074,0x00,0x01
0.275434625000000,1075,0x34,0x01
0.275508625000000,1075,0x80,0x01
0.275582625000000,1075,0x80,0x01
0.275665000000000,1076,0x32,0x01
0.275739000000000,1076,0x0A,0x01
0.275813000000000,1076,0x11,0x01
0.275892500000000,1077,0x32,0x01
0.275966500000000,1077,0x00,0x01
0.276040500000000,1077,0x20,0x01
0.276119875000000,1078,0x32,0x01
0.276194000000000,1078,0x20,0x01
0.276268000000000,1078,0x20,0x01
0.276347375000000,1079,0x32,0x01
0.276421500000000,1079,0x20,0x01
0.276495500000000,1079,0x20,0x01
0.276574875000000,1080,0x32,0x01
0.276648875000000,1080,0x20,0x00
0.276723000000000,1080,0xC0,0x01
0.276803875000000,1081,0x07,0x01
0.276877875000000,1081,0x01,0x01
0.276951875000000,1081,0x0A,0x01
0.277283625000000,1082,0x07,0x07
0.277356250000000,1082,0x00,0x01
0.277430250000000,1082,0x32,0x01
0.277508625000000,1083,0x32,0x01
0.277582750000000,1083,0x00,0x01
0.277656750000000,1083,0x00,0x01
0.277738625000000,1084,0x34,0x01
0.277812625000000,1084,0x80,0x01
0.277886625000000,1084,0x80,0x01
0.277969000000000,1085,0x32,0x01
0.278043000000000,1085,0x0A,0x01
0.278117000000000,1085,0x11,0x01
0.278196500000000,1086,0x32,0x01
0.278270500000000,1086,0x00,0x01
0.278344500000000,1086,0x20,0x01
0.278424000000000,1087,0x32,0x01
0.278498000000000,1087,0x20,0x01
0.278572000000000,1087,0x20,0x01
0.278651375000000,1088,0x32,0x01
0.278725500000000,1088,0x20,0x01
0.278799500000000,1088,0x20,0x01
0.278878875000000,1089,0x32,0x01
0.278953000000000,1089,0x20,0x01
0.279027000000000,1089,0xC0,0x01
0.279107875000000,1090,0x07,0x01
0.279181875000000,1090,0x01,0x01
0.279255875000000,1090,0x32,0x80
0.279588625000000,1091,0x07,0x0F
0.279661125000000,1091,0x00,0x01
0.279735250000000,1091,0x14,0x01
0.279813625000000,1092,0x32,0x01
0.279887625000000,1092,0x00,0x01
0.279961750000000,1092,0x00,0x01
0.280043500000000,1093,0x34,0x01
0.280117625000000,1093,0x80,0x01
0.280191625000000,1093,0x80,0x01
0.280274000000000,1094,0x32,0x01
0.280348000000000,1094,0x0A,0x01
0.280422000000000,1094,0x11,0x01
0.280501375000000,1095,0x32,0x01
0.280575500000000,1095,0x00,0x01
0.280649500000000,1095,0x20,0x01
0.280728875000000,1096,0x32,0x01
0.280803000000000,1096,0x20,0x01
0.280877000000000,1096,0x20,0x01
0.280956375000000,1097,0x32,0x01
0.281030375000000,1097,0x20,0x01
0.281104500000000,1097,0x20,0x01
0.281183875000000,1098,0x32,0x01
0.281257875000000,1098,0x20,0x01
0.281332000000000,1098,0xC0,0x01
0.281412875000000,1099,0x07,0x01
0.281486875000000,1099,0x01,0x01
0.281560875000000,1099,0x14,0x01
0.281894500000000,1100,0x07,0x0F
0.281967125000000,1100,0x00,0x01
0.282041125000000,1100,0x3C,0x01
0.282119500000000,1101,0x32,0x01
0.282193625000000,1101,0x00,0x01
0.282267625000000,1101,0x00,0x01
0.282349500000000,1102,0x34,0x01
0.282423500000000,1102,0x80,0x01
0.282497500000000,1102,0x80,0x01
0.282579875000000,1103,0x32,0x01
0.282653875000000,1103,0x0A,0x01
0.282728000000000,1103,0x11,0x01
0.282807375000000,1104,0x32,0x01
0.282881375000000,1104,0x00,0x01
0.282955375000000,1104,0x20,0x01
0.283034875000000,1105,0x32,0x01
0.283108875000000,1105,0x20,0x01
0.283182875000000,1105,0x20,0x01
0.283262250000000,1106,0x32,0x01
0.283336375000000,1106,0x20,0x01
0.283410375000000,1106,0x20,0x01
0.283489750000000,1107,0x32,0x01
0.283563875000000,1107,0x20,0x01
0.283637875000000,1107,0xC0,0x01
0.283718750000000,1108,0x07,0x01
0.283792750000000,1108,0x01,0x01
0.283866875000000,1108,0x3C,0x01
0.284201375000000,1109,0x07,0x8F
0.284274000000000,1109,0x00,0x01
0.284348000000000,1109,0x1E,0x01
0.284426500000000,1110,0x32,0x01
0.284500500000000,1110,0x00,0x01
0.284574500000000,1110,0x00,0x81
0.284656375000000,1111,0x34,0x01
0.284730375000000,1111,0x80,0x80
0.284804500000000,1111,0x80,0x01
0.284886750000000,1112,0x32,0x01
0.284960875000000,1112,0x0A,0x01
0.285034875000000,1112,0x11,0x01
0.285114250000000,1113,0x32,0x01
0.285188375000000,1113,0x00,0x01
0.285262375000000,1113,0x20,0x01
0.285341750000000,1114,0x32,0x01
0.285415750000000,1114,0x20,0x01
0.285489875000000,1114,0x20,0x01
0.285569250000000,1115,0x32,0x01
0.285643250000000,1115,0x20,0x01
0.285717375000000,1115,0x20,0x01
0.285796750000000,1116,0x32,0x01
0.285870750000000,1116,0x20,0x01
0.285944875000000,1116,0xC0,0x01
0.286025625000000,1117,0x07,0x01
0.286099750000000,1117,0x01,0x01
0.286173750000000,1117,0x1E,0x01
0.286509375000000,1118,0x07,0x0F
0.286581875000000,1118,0x00,0x01
0.286656000000000,1118,0x46,0x01
0.286734375000000,1119,0x32,0x01
0.286808375000000,1119,0x00,0x01
0.286882500000000,1119,0x00,0x01
0.286964250000000,1120,0x34,0x01
0.287038375000000,1120,0x80,0x01
0.287112375000000,1120,0x80,0x01
0.287194750000000,1121,0x32,0x01
0.287268750000000,1121,0x0A,0x01
0.287342750000000,1121,0x11,0x01
0.287422125000000,1122,0x32,0x01
0.287496250000000,1122,0x00,0x01
0.287570250000000,1122,0x20,0x01
0.287649625000000,1123,0x32,0x01
0.287723750000000,1123,0x20,0x01
0.287797750000000,1123,0x20,0x01
0.287877125000000,1124,0x32,0x01
0.287951125000000,1124,0x20,0x01
0.288025250000000,1124,0x20,0x01
0.288104625000000,1125,0x32,0x01
0.288178625000000,1125,0x20,0x01
0.288252750000000,1125,0xC0,0x01
0.288333500000000,1126,0x07,0x01
0.288407625000000,1126,0x01,0x01
0.288481625000000,1126,0x46,0x01
0.288810375000000,1127,0x07,0x0D
0.288883500000000,1127,0x00,0x01
0.288957500000000,1127,0x00,0x01
0.289035875000000,1128,0x32,0x01
0.289110000000000,1128,0x00,0x01
0.289184000000000,1128,0x00,0x01
0.289265875000000,1129,0x34,0x01
0.289339875000000,1129,0x80,0x01
0.289413875000000,1129,0x80,0x01
0.289496250000000,1130,0x32,0x01
0.289570250000000,1130,0x0A,0x01
0.289644250000000,1130,0x11,0x01
0.289723750000000,1131,0x32,0x01
0.289797750000000,1131,0x00,0x01
0.289871750000000,1131,0x20,0x01
0.289951125000000,1132,0x32,0x01
0.290025250000000,1132,0x20,0x01
0.290099250000000,1132,0x20,0x01
0.290178625000000,1133,0x32,0x01
0.290252750000000,1133,0x20,0x01
0.290326750000000,1133,0x20,0x01
0.290406125000000,1134,0x32,0x01
0.290480125000000,1134,0x20,0x00
0.290554250000000,1134,0xC0,0x01
0.290635125000000,1135,0x07,0x01
0.290709125000000,1135,0x01,0x01
0.290783125000000,1135,0x00,0x01
0.291112875000000,1136,0x07,0x0D
0.291186000000000,1136,0x00,0x01
0.291260000000000,1136,0x28,0x01
0.291338375000000,1137,0x32,0x01
0.291412500000000,1137,0x00,0x01
0.291486500000000,1137,0x00,0x01
0.291568375000000,1138,0x34,0x01
0.291642375000000,1138,0x80,0x01
0.291716375000000,1138,0x80,0x01
0.291798750000000,1139,0x32,0x01
0.291872750000000,1139,0x0A,0x01
0.291946875000000,1139,0x11,0x01
0.292026250000000,1140,0x32,0x01
0.292100250000000,1140,0x00,0x01
0.292174250000000,1140,0x20,0x01
0.292253750000000,1141,0x32,0x01
0.292327750000000,1141,0x20,0x01
0.292401750000000,1141,0x20,0x01
0.292481125000000,1142,0x32,0x01
0.292555250000000,1142,0x20,0x01
0.292629250000000,1142,0x20,0x01
0.292708625000000,1143,0x32,0x01
0.292782750000000,1143,0x20,0x01
0.292856750000000,1143,0xC0,0x01
0.292937625000000,1144,0x07,0x01
0.293011625000000,1144,0x01,0x01
0.293085625000000,1144,0x28,0x01
0.293416375000000,1145,0x07,0x0D
0.293489500000000,1145,0x00,0x01
0.293563500000000,1145,0x0A,0x01
0.293641875000000,1146,0x32,0x01
0.293716000000000,1146,0x00,0x01
0.293790000000000,1146,0x00,0x01
0.293871875000000,1147,0x34,0x01
0.293945875000000,1147,0x80,0x01
0.294019875000000,1147,0x80,0x01
0.294102250000000,1148,0x32,0x01
0.294176250000000,1148,0x0A,0x01
0.294250250000000,1148,0x11,0x80
0.294329750000000,1149,0x32,0x01
0.294403750000000,1149,0x00,0x01
0.294477750000000,1149,0x20,0x01
0.294557125000000,1150,0x32,0x80
0.294631250000000,1150,0x20,0x01
0.294705250000000,1150,0x20,0x01
0.294784625000000,1151,0x32,0x01
0.294858750000000,1151,0x20,0x01
0.294932750000000,1151,0x20,0x01
0.295012125000000,1152,0x32,0x01
0.295086125000000,1152,0x20,0x01
0.295160250000000,1152,0xC0,0x01
0.295241125000000,1153,0x07,0x01
0.295315125000000,1153,0x01,0x01
0.295389125000000,1153,0x0A,0x01
0.295720875000000,1154,0x07,0x0F
0.295793375000000,1154,0x00,0x01
0.295867500000000,1154,0x32,0x01
0.295945875000000,1155,0x32,0x01
0.296019875000000,1155,0x00,0x01
0.296094000000000,1155,0x00,0x01
0.296175750000000,1156,0x34,0x01
0.296249875000000,1156,0x80,0x01
0.296323875000000,1156,0x80,0x01
0.296406125000000,1157,0x32,0x01
0.296480250000000,1157,0x0A,0x01
0.296554250000000,1157,0x11,0x01
0.296633625000000,1158,0x32,0x01
0.296707750000000,1158,0x00,0x01
0.296781750000000,1158,0x20,0x01
0.296861125000000,1159,0x32,0x01
0.296935125000000,1159,0x20,0x01
0.297009250000000,1159,0x20,0x01
0.297088625000000,1160,0x32,0x01
0.297162625000000,1160,0x20,0x01
0.297236750000000,1160,0x20,0x01
0.297316125000000,1161,0x32,0x01
0.297390125000000,1161,0x20,0x01
0.297464125000000,1161,0xC0,0x01
0.297545000000000,1162,0x07,0x01
0.297619125000000,1162,0x01,0x01
0.297693125000000,1162,0x32,0x01
0.298025750000000,1163,0x07,0x0F
0.298098375000000,1163,0x00,0x01
0.298172375000000,1163,0x14,0x01
0.298250875000000,1164,0x32,0x01
0.298324875000000,1164,0x00,0x01
0.298398875000000,1164,0x00,0x01
0.298480750000000,1165,0x34,0x01
0.298554750000000,1165,0x80,0x01
0.298628750000000,1165,0x80,0x80
0.298711125000000,1166,0x32,0x01
0.298785125000000,1166,0x0A,0x01
0.298859250000000,1166,0x11,0x01
0.298938625000000,1167,0x32,0x01
0.299012625000000,1167,0x00,0x01
0.299086750000000,1167,0x20,0x01
0.299166125000000,1168,0x32,0x01
0.299240125000000,1168,0x20,0x01
0.299314125000000,1168,0x20,0x01
0.299393625000000,1169,0x32,0x01
0.299467625000000,1169,0x20,0x01
0.299541625000000,1169,0x20,0x01
0.299621125000000,1170,0x32,0x01
0.299695125000000,1170,0x20,0x01
0.299769125000000,1170,0xC0,0x01
0.299850000000000,1171,0x07,0x01
0.299924000000000,1171,0x01,0x01
0.299998125000000,1171,0x14,0x01
0.300331750000000,1172,0x07,0x0F
0.300404250000000,1172,0x00,0x01
0.300478375000000,1172,0x3C,0x01
0.300556750000000,1173,0x32,0x01
0.300630750000000,1173,0x00,0x01
0.300704875000000,1173,0x00,0x01
0.300786625000000,1174,0x34,0x01
0.300860750000000,1174,0x80,0x01
0.300934750000000,1174,0x80,0x01
0.301017125000000,1175,0x32,0x01
0.301091125000000,1175,0x0A,0x01
0.301165125000000,1175,0x11,0x01
0.301244500000000,1176,0x32,0x80
0.301318625000000,1176,0x00,0x01
0.301392625000000,1176,0x20,0x01
0.301472000000000,1177,0x32,0x01
0.301546125000000,1177,0x20,0x01
0.301620125000000,1177,0x20,0x01
0.301699500000000,1178,0x32,0x01
0.301773500000000,1178,0x20,0x00
0.301847625000000,1178,0x20,0x01
0.301927000000000,1179,0x32,0x01
0.302001000000000,1179,0x20,0x01
0.302075125000000,1179,0xC0,0x01
0.302155875000000,1180,0x07,0x80
0.302230000000000,1180,0x01,0x01
0.302304000000000,1180,0x3C,0x01
0.302638625000000,1181,0x07,0x0F
0.302711250000000,1181,0x00,0x01
0.302785250000000,1181,0x1E,0x01
0.302863625000000,1182,0x32,0x01
0.302937750000000,1182,0x00,0x01
0.303011750000000,1182,0x00,0x01
0.303093625000000,1183,0x34,0x01
0.303167625000000,1183,0x80,0x01
0.303241625000000,1183,0x80,0x01
0.303324000000000,1184,0x32,0x01
0.303398000000000,1184,0x0A,0x01
0.303472125000000,1184,0x11,0x01
0.303551500000000,1185,0x32,0x01
0.303625500000000,1185,0x00,0x01
0.303699500000000,1185,0x20,0x81
0.303779000000000,1186,0x32,0x01
0.303853000000000,1186,0x20,0x01
0.303927000000000,1186,0x20,0x01
0.304006500000000,1187,0x32,0x01
0.304080500000000,1187,0x20,0x01
0.304154500000000,1187,0x20,0x01
0.304234000000000,1188,0x32,0x01
0.304308000000000,1188,0x20,0x01
0.304382000000000,1188,0xC0,0x01
0.304462875000000,1189,0x07,0x01
0.304536875000000,1189,0x01,0x80
0.304611000000000,1189,0x1E,0x01
0.304946625000000,1190,0x07,0x0F
0.305019125000000,1190,0x00,0x01
0.305093125000000,1190,0x46,0x80
0.305171625000000,1191,0x32,0x01
0.305245625000000,1191,0x00,0x01
0.305319750000000,1191,0x00,0x01
0.305401500000000,1192,0x34,0x01
0.305475625000000,1192,0x80,0x01
0.305549625000000,1192,0x80,0x01
0.305631875000000,1193,0x32,0x81
0.305706000000000,1193,0x0A,0x01
0.305780000000000,1193,0x11,0x01
0.305859375000000,1194,0x32,0x01
0.305933500000000,1194,0x00,0x01
0.306007500000000,1194,0x20,0x01
0.306086875000000,1195,0x32,0x01
0.306161000000000,1195,0x20,0x01
0.306235000000000,1195,0x20,0x01
0.306314375000000,1196,0x32,0x01
0.306388375000000,1196,0x20,0x00
0.306462500000000,1196,0x20,0x01
0.306541875000000,1197,0x32,0x01
0.306615875000000,1197,0x20,0x01
0.306690000000000,1197,0xC0,0x01
0.306770875000000,1198,0x07,0x01
0.306844875000000,1198,0x01,0x01
0.306918875000000,1198,0x46,0x01
0.307247625000000,1199,0x07,0x0D
0.307320750000000,1199,0x00,0x01
0.307394750000000,1199,0x00,0x01
0.307473250000000,1200,0x32,0x01
0.307547250000000,1200,0x00,0x01
0.307621250000000,1200,0x00,0x01
0.307703125000000,1201,0x34,0x01
0.307777125000000,1201,0x80,0x01
0.307851250000000,1201,0x80,0x01
0.307933500000000,1202,0x32,0x01
0.308007500000000,1202,0x0A,0x80
0.308081625000000,1202,0x11,0x01
0.308161000000000,1203,0x32,0x01
0.308235000000000,1203,0x00,0x01
0.308309125000000,1203,0x20,0x01
0.308388500000000,1204,0x32,0x01
0.308462500000000,1204,0x20,0x01
0.308536625000000,1204,0x20,0x01
0.308616000000000,1205,0x32,0x01
0.308690000000000,1205,0x20,0x01
0.308764000000000,1205,0x20,0x01
0.308843500000000,1206,0x32,0x01
0.308917500000000,1206,0x20,0x01
0.308991500000000,1206,0xC0,0x01
0.309072375000000,1207,0x07,0x01
0.309146500000000,1207,0x01,0x01
0.309220500000000,1207,0x00,0x01
0.309550250000000,1208,0x07,0x0D
0.309623250000000,1208,0x00,0x01
0.309697375000000,1208,0x28,0x01
0.309775750000000,1209,0x32,0x01
0.309849750000000,1209,0x00,0x01
0.309923875000000,1209,0x00,0x01
0.310005625000000,1210,0x34,0x01
0.310079750000000,1210,0x80,0x01
0.310153750000000,1210,0x80,0x01
0.310236000000000,1211,0x32,0x01
0.310310125000000,1211,0x0A,0x01
0.310384125000000,1211,0x11,0x01
0.310463500000000,1212,0x32,0x01
0.310537625000000,1212,0x00,0x01
0.310611625000000,1212,0x20,0x01
0.310691000000000,1213,0x32,0x01
0.310765000000000,1213,0x20,0x00
0.310839125000000,1213,0x20,0x01
0.310918500000000,1214,0x32,0x01
0.310992500000000,1214,0x20,0x01
0.311066625000000,1214,0x20,0x01
0.311146000000000,1215,0x32,0x01
0.311220000000000,1215,0x20,0x01
0.311294000000000,1215,0xC0,0x81
0.311374875000000,1216,0x07,0x01
0.311449000000000,1216,0x01,0x01
0.311523000000000,1216,0x28,0x01
0.311853750000000,1217,0x07,0x0F
0.311926250000000,1217,0x00,0x01
0.312000375000000,1217,0x0A,0x01
0.312078750000000,1218,0x32,0x01
0.312152750000000,1218,0x00,0x01
0.312226875000000,1218,0x00,0x01
0.312308625000000,1219,0x34,0x01
0.312382750000000,1219,0x80,0x01
0.312456750000000,1219,0x80,0x01
0.312539125000000,1220,0x32,0x01
0.312613125000000,1220,0x0A,0x01
0.312687125000000,1220,0x11,0x01
0.312766500000000,1221,0x32,0x01
0.312840625000000,1221,0x00,0x01
0.312914625000000,1221,0x20,0x01
0.312994000000000,1222,0x32,0x01
0.313068125000000,1222,0x20,0x01
0.313142125000000,1222,0x20,0x01
0.313221500000000,1223,0x32,0x01
0.313295500000000,1223,0x20,0x01
0.313369625000000,1223,0x20,0x01
0.313449000000000,1224,0x32,0x01
0.313523000000000,1224,0x20,0x01
0.313597125000000,1224,0xC0,0x01
0.313677875000000,1225,0x07,0x01
0.313752000000000,1225,0x01,0x01
0.313826000000000,1225,0x0A,0x01
0.314157750000000,1226,0x07,0x0F
0.314230250000000,1226,0x00,0x01
0.314304250000000,1226,0x32,0x01
0.314382750000000,1227,0x32,0x01
0.314456750000000,1227,0x00,0x01
0.314530750000000,1227,0x00,0x01
0.314612625000000,1228,0x34,0x01
0.314686625000000,1228,0x80,0x01
0.314760750000000,1228,0x80,0x01
0.314843000000000,1229,0x32,0x01
0.314917125000000,1229,0x0A,0x01
0.314991125000000,1229,0x11,0x01
0.315070500000000,1230,0x32,0x01
0.315144500000000,1230,0x00,0x01
0.315218625000000,1230,0x20,0x01
0.315298000000000,1231,0x32,0x01
0.315372000000000,1231,0x20,0x01
0.315446125000000,1231,0x20,0x01
0.315525500000000,1232,0x32,0x01
0.315599500000000,1232,0x20,0x01
0.315673500000000,1232,0x20,0x01
0.315753000000000,1233,0x32,0x01
0.315827000000000,1233,0x20,0x01
0.315901000000000,1233,0xC0,0x01
0.315981875000000,1234,0x07,0x01
0.316055875000000,1234,0x01,0x81
0.316130000000000,1234,0x32,0x01
0.316462625000000,1235,0x07,0x0F
0.316535250000000,1235,0x00,0x01
0.316609250000000,1235,0x14,0x01
0.316687625000000,1236,0x32,0x01
0.316761750000000,1236,0x00,0x01
0.316835750000000,1236,0x00,0x01
0.316917625000000,1237,0x34,0x01
0.316991625000000,1237,0x80,0x01
0.317065625000000,1237,0x80,0x01
0.317148000000000,1238,0x32,0x01
0.317222000000000,1238,0x0A,0x01
0.317296125000000,1238,0x11,0x00
0.317375500000000,1239,0x32,0x01
0.317449500000000,1239,0x00,0x01
0.317523500000000,1239,0x20,0x01
0.317603000000000,1240,0x32,0x01
0.317677000000000,1240,0x20,0x01
0.317751000000000,1240,0x20,0x01
0.317830375000000,1241,0x32,0x01
0.317904500000000,1241,0x20,0x01
0.317978500000000,1241,0x20,0x01
0.318057875000000,1242,0x32,0x01
0.318132000000000,1242,0x20,0x01
0.318206000000000,1242,0xC0,0x01
0.318286875000000,1243,0x07,0x01
0.318360875000000,1243,0x01,0x01
0.318434875000000,1243,0x14,0x01
0.318768500000000,1244,0x07,0x0F
0.318841125000000,1244,0x00,0x01
0.318915125000000,1244,0x3C,0x01
0.318993625000000,1245,0x32,0x01
0.319067625000000,1245,0x00,0x01
0.319141625000000,1245,0x00,0x01
0.319223500000000,1246,0x34,0x01
0.319297500000000,1246,0x80,0x01
0.319371625000000,1246,0x80,0x01
0.319453875000000,1247,0x32,0x01
0.319527875000000,1247,0x0A,0x01
0.319602000000000,1247,0x11,0x01
0.319681375000000,1248,0x32,0x01
0.319755375000000,1248,0x00,0x01
0.319829500000000,1248,0x20,0x01
0.319908875000000,1249,0x32,0x01
0.319982875000000,1249,0x20,0x01
0.320056875000000,1249,0x20,0x01
0.320136375000000,1250,0x32,0x01
0.320210375000000,1250,0x20,0x01
0.320284375000000,1250,0x20,0x01
0.320363750000000,1251,0x32,0x01
0.320437875000000,1251,0x20,0x01
0.320511875000000,1251,0xC0,0x01
0.320592750000000,1252,0x07,0x01
0.320666750000000,1252,0x01,0x01
0.320740750000000,1252,0x3C,0x01
0.321075375000000,1253,0x07,0x0F
0.321148000000000,1253,0x00,0x01
0.321222000000000,1253,0x1E,0x01
0.321300375000000,1254,0x32,0x80
0.321374500000000,1254,0x00,0x01
0.321448500000000,1254,0x00,0x01
0.321530375000000,1255,0x34,0x01
0.321604375000000,1255,0x80,0x01
0.321678375000000,1255,0x80,0x01
0.321760750000000,1256,0x32,0x01
0.321834750000000,1256,0x0A,0x01
0.321908875000000,1256,0x11,0x01
0.321988250000000,1257,0x32,0x01
0.322062250000000,1257,0x00,0x01
0.322136250000000,1257,0x20,0x01
0.322215750000000,1258,0x32,0x01
0.322289750000000,1258,0x20,0x01
0.322363750000000,1258,0x20,0x01
0.322443125000000,1259,0x32,0x01
0.322517250000000,1259,0x20,0x01
0.322591250000000,1259,0x20,0x01
0.322670625000000,1260,0x32,0x01
0.322744625000000,1260,0x20,0x01
0.322818750000000,1260,0xC0,0x01
0.322899625000000,1261,0x07,0x01
0.322973625000000,1261,0x01,0x01
0.323047625000000,1261,0x1E,0x01
0.323383250000000,1262,0x07,0x0F
0.323455750000000,1262,0x00,0x01
0.323529875000000,1262,0x46,0x01
0.323608250000000,1263,0x32,0x01
0.323682250000000,1263,0x00,0x01
0.323756375000000,1263,0x00,0x01
0.323838125000000,1264,0x34,0x01
0.323912250000000,1264,0x80,0x01
0.323986250000000,1264,0x80,0x01
0.324068500000000,1265,0x32,0x01
0.324142625000000,1265,0x0A,0x01
0.324216625000000,1265,0x11,0x01
0.324296000000000,1266,0x32,0x01
0.324370000000000,1266,0x00,0x81
0.324444125000000,1266,0x20,0x01
0.324523500000000,1267,0x32,0x01
0.324597500000000,1267,0x20,0x01
0.324671625000000,1267,0x20,0x01
0.324751000000000,1268,0x32,0x01
0.324825000000000,1268,0x20,0x01
0.324899000000000,1268,0x20,0x01
0.324978500000000,1269,0x32,0x01
0.325052500000000,1269,0x20,0x01
0.325126500000000,1269,0xC0,0x01
0.325207375000000,1270,0x07,0x01
0.325281375000000,1270,0x01,0x01
0.325355500000000,1270,0x46,0x01
0.325684250000000,1271,0x07,0x0D
0.325757250000000,1271,0x00,0x01
0.325831375000000,1271,0x00,0x01
0.325909750000000,1272,0x32,0x01
0.325983750000000,1272,0x00,0x01
0.326057875000000,1272,0x00,0x01
0.326139625000000,1273,0x34,0x01
0.326213625000000,1273,0x80,0x80
0.326287750000000,1273,0x80,0x01
0.326370000000000,1274,0x32,0x01
0.326444125000000,1274,0x0A,0x01
0.326518125000000,1274,0x11,0x01
0.326597500000000,1275,0x32,0x01
0.326671500000000,1275,0x00,0x81
0.326745625000000,1275,0x20,0x01
0.326825000000000,1276,0x32,0x01
0.326899000000000,1276,0x20,0x01
0.326973125000000,1276,0x20,0x01
0.327052500000000,1277,0x32,0x01
0.327126500000000,1277,0x20,0x01
0.327200625000000,1277,0x20,0x01
0.327280000000000,1278,0x32,0x01
0.327354000000000,1278,0x20,0x01
0.327428000000000,1278,0xC0,0x01
0.327508875000000,1279,0x07,0x01
0.327583000000000,1279,0x01,0x01
0.327657000000000,1279,0x00,0x01
0.327986750000000,1280,0x07,0x0D
0.328059750000000,1280,0x00,0x01
0.328133875000000,1280,0x28,0x01
0.328212250000000,1281,0x32,0x01
0.328286250000000,1281,0x00,0x01
0.328360375000000,1281,0x00,0x01
0.328442125000000,1282,0x34,0x01
0.328516250000000,1282,0x80,0x01
0.328590250000000,1282,0x80,0x01
0.328672625000000,1283,0x32,0x01
0.328746625000000,1283,0x0A,0x01
0.328820625000000,1283,0x11,0x01
0.328900000000000,1284,0x32,0x01
0.328974125000000,1284,0x00,0x01
0.329048125000000,1284,0x20,0x01
0.329127500000000,1285,0x32,0x01
0.329201625000000,1285,0x20,0x01
0.329275625000000,1285,0x20,0x01
0.329355000000000,1286,0x32,0x01
0.329429000000000,1286,0x20,0x01
0.329503125000000,1286,0x20,0x01
0.329582500000000,1287,0x32,0x01
0.329656500000000,1287,0x20,0x01
0.329730625000000,1287,0xC0,0x01
0.329811375000000,1288,0x07,0x80
0.329885500000000,1288,0x01,0x01
0.329959500000000,1288,0x28,0x01
0.330290250000000,1289,0x07,0x0D
0.330363250000000,1289,0x00,0x01
0.330437375000000,1289,0x0A,0x01
0.330515750000000,1290,0x32,0x01
0.330589750000000,1290,0x00,0x01
0.330663875000000,1290,0x00,0x01
0.330745625000000,1291,0x34,0x01
0.330819625000000,1291,0x80,0x80
0.330893750000000,1291,0x80,0x01
0.330976000000000,1292,0x32,0x01
0.331050125000000,1292,0x0A,0x01
0.331124125000000,1292,0x11,0x01
0.331203500000000,1293,0x32,0x01
0.331277625000000,1293,0x00,0x01
0.331351625000000,1293,0x20,0x01
0.331431000000000,1294,0x32,0x01
0.331505000000000,1294,0x20,0x01
0.331579125000000,1294,0x20,0x01
0.331658500000000,1295,0x32,0x01
0.331732500000000,1295,0x20,0x01
