Time [s],Packet ID,MOSI,MISO
0.569687625000000,0,0x00,0x01
0.569762125000000,0,0x6F,0x00
0.569836500000000,0,0xE0,0x01
0.569916375000000,1,0x01,0x01
0.569990875000000,1,0x56,0x01
0.570065375000000,1,0x81,0x01
0.570145250000000,2,0x02,0x01
0.570219750000000,2,0x66,0x01
0.570294250000000,2,0x17,0x01
0.570374125000000,3,0x04,0x01
0.570448625000000,3,0x9C,0x01
0.570523000000000,3,0xC9,0x01
0.570602875000000,4,0x05,0x01
0.570677375000000,4,0x66,0x01
0.570751875000000,4,0x37,0x01
0.570830750000000,5,0x07,0x01
0.570905250000000,5,0x00,0x01
0.570979750000000,5,0x00,0x01
0.571059625000000,6,0x08,0x01
0.571134125000000,6,0x6C,0x01
0.571208625000000,6,0x90,0x01
0.571288000000000,7,0x09,0x01
0.571362500000000,7,0x48,0x00
0.571436875000000,7,0x00,0x01
0.571516750000000,8,0x0A,0x01
0.571591250000000,8,0x7F,0x01
0.571665750000000,8,0xFD,0x01
0.571745125000000,9,0x0B,0x01
0.571819625000000,9,0x00,0x01
0.571894125000000,9,0x08,0x01
0.571973000000000,10,0x0C,0x01
0.572047500000000,10,0x00,0x01
0.572122000000000,10,0x00,0x01
0.572201875000000,11,0x0D,0x01
0.572276250000000,11,0x48,0x81
0.572350750000000,11,0xBD,0x01
0.572430125000000,12,0x16,0x01
0.572504625000000,12,0x00,0x01
0.572579125000000,12,0xFF,0x01
0.572659000000000,13,0x17,0x01
0.572733500000000,13,0x80,0x01
0.572808000000000,13,0x05,0x01
0.572887375000000,14,0x18,0x01
0.572961875000000,14,0x00,0x01
0.573036375000000,14,0x67,0x01
0.573116125000000,15,0x19,0x81
0.573190625000000,15,0x16,0x01
0.573265125000000,15,0x59,0x01
0.573345000000000,16,0x1A,0x01
0.573419500000000,16,0x19,0x01
0.573494000000000,16,0xE0,0x01
0.573573375000000,17,0x1B,0x01
0.573647875000000,17,0x13,0x01
0.573722375000000,17,0x00,0x01
0.573801750000000,18,0x1C,0x01
0.573876250000000,18,0x18,0x01
0.573950625000000,18,0x00,0x01
0.574030000000000,19,0x20,0x01
0.574104500000000,19,0x48,0x01
0.574179000000000,19,0x00,0x01
0.574258875000000,20,0x21,0x01
0.574333375000000,20,0x3F,0x01
0.574407875000000,20,0xC7,0x01
0.574487250000000,21,0x22,0x01
0.574561750000000,21,0x20,0x01
0.574636125000000,21,0x00,0x81
0.574715625000000,22,0x23,0x00
0.574790000000000,22,0x03,0x01
0.574864500000000,22,0x00,0x01
0.574944375000000,23,0x24,0x01
0.575018875000000,23,0x22,0x01
0.575093375000000,23,0x11,0x01
0.575173250000000,24,0x25,0x01
0.575247750000000,24,0x06,0x01
0.575322250000000,24,0x8C,0x01
0.575401625000000,25,0x26,0x01
0.575476125000000,25,0x5A,0x01
0.575550500000000,25,0x5A,0x01
0.575629875000000,26,0x27,0x01
0.575704375000000,26,0x00,0x01
0.575778875000000,26,0x33,0x01
0.575858750000000,27,0x28,0x01
0.575933250000000,27,0x44,0x01
0.576007750000000,27,0x02,0x01
0.576087125000000,28,0x29,0x01
0.576161625000000,28,0xB0,0x01
0.576236125000000,28,0x00,0x01
0.576316000000000,29,0x2A,0x00
0.576390375000000,29,0xFD,0x01
0.576464875000000,29,0xB0,0x01
0.576544250000000,30,0x2B,0x01
0.576618750000000,30,0x00,0x01
0.576693250000000,30,0x0F,0x01
0.576772125000000,31,0x32,0x01
0.576846625000000,31,0x00,0x01
0.576921125000000,31,0x00,0x01
0.588765625000000,32,0xA8,0x01
0.588847500000000,32,0xFF,0x46
0.588929875000000,32,0xFF,0x02
0.589025375000000,33,0x34,0x01
0.589099875000000,33,0x80,0x01
0.589174375000000,33,0x80,0x01
0.589257125000000,34,0x32,0x01
0.589331625000000,34,0x0A,0x01
0.589406125000000,34,0x00,0x01
0.589486000000000,35,0x32,0x01
0.589560500000000,35,0x11,0x01
0.589634875000000,35,0x22,0x81
0.589714750000000,36,0x32,0x81
0.589789250000000,36,0x33,0x01
0.589863750000000,36,0xF4,0x01
0.589943625000000,37,0x32,0x01
0.590018125000000,37,0xB9,0x01
0.590092625000000,37,0xFA,0x01
0.590173000000000,38,0x32,0x01
0.590247500000000,38,0xA7,0x00
0.590321875000000,38,0x00,0x01
0.590403750000000,39,0x07,0x01
0.590478250000000,39,0x01,0x01
0.590552750000000,39,0x00,0x01
0.590884500000000,40,0x07,0x0F
0.590957500000000,40,0x00,0x01
0.591032000000000,40,0x28,0x00
0.591110875000000,41,0x32,0x01
0.591185375000000,41,0x00,0x01
0.591259750000000,41,0x00,0x01
0.591343125000000,42,0x34,0x01
0.591417625000000,42,0x80,0x01
0.591492125000000,42,0x80,0x01
0.591574875000000,43,0x32,0x01
0.591649375000000,43,0x0A,0x01
0.591723875000000,43,0x00,0x01
0.591803750000000,44,0x32,0x01
0.591878250000000,44,0x11,0x01
0.591952750000000,44,0x22,0x00
0.592032625000000,45,0x32,0x00
0.592107000000000,45,0x33,0x01
0.592181500000000,45,0xF4,0x01
0.592261375000000,46,0x32,0x01
0.592335875000000,46,0xB9,0x01
0.592410375000000,46,0xFA,0x01
0.592490750000000,47,0x32,0x01
0.592565250000000,47,0xA7,0x01
0.592639750000000,47,0x00,0x01
0.592721500000000,48,0x07,0x01
0.592796000000000,48,0x01,0x01
0.592870500000000,48,0x28,0x01
0.593203250000000,49,0x07,0x0F
0.593276250000000,49,0x00,0x01
0.593350625000000,49,0x0A,0x01
0.593429625000000,50,0x32,0x01
0.593504000000000,50,0x00,0x01
0.593578500000000,50,0x00,0x01
0.593661875000000,51,0x34,0x01
0.593736375000000,51,0x80,0x01
0.593810750000000,51,0x80,0x01
0.593893625000000,52,0x32,0x01
0.593968125000000,52,0x0A,0x01
0.594042625000000,52,0x00,0x01
0.594122500000000,53,0x32,0x01
0.594197000000000,53,0x11,0x01
0.594271375000000,53,0x22,0x01
0.594351250000000,54,0x32,0x01
0.594425750000000,54,0x33,0x01
0.594500250000000,54,0xF4,0x01
0.594580125000000,55,0x32,0x01
0.594654625000000,55,0xB9,0x01
0.594729125000000,55,0xFA,0x01
0.594809500000000,56,0x32,0x01
0.594884000000000,56,0xA7,0x01
0.594958375000000,56,0x00,0x01
0.595040250000000,57,0x07,0x01
0.595114750000000,57,0x01,0x01
0.595189250000000,57,0x0A,0x01
0.595522875000000,58,0x07,0x0F
0.595595875000000,58,0x00,0x01
0.595670375000000,58,0x32,0x01
0.595749250000000,59,0x32,0x01
0.595823750000000,59,0x00,0x01
0.595898250000000,59,0x00,0x01
0.595981500000000,60,0x34,0x01
0.596056000000000,60,0x80,0x01
0.596130500000000,60,0x80,0x01
0.596213375000000,61,0x32,0x01
0.596287750000000,61,0x0A,0x01
0.596362250000000,61,0x00,0x01
0.596442125000000,62,0x32,0x01
0.596516625000000,62,0x11,0x01
0.596591125000000,62,0x22,0x01
0.596671000000000,63,0x32,0x01
0.596745500000000,63,0x33,0x01
0.596820000000000,63,0xF4,0x00
0.596899875000000,64,0x32,0x01
0.596974250000000,64,0xB9,0x01
0.597048750000000,64,0xFA,0x01
0.597129125000000,65,0x32,0x01
0.597203625000000,65,0xA7,0x01
0.597278125000000,65,0x00,0x01
0.597360000000000,66,0x07,0x01
0.597434375000000,66,0x01,0x01
0.597508875000000,66,0x32,0x01
0.597843500000000,67,0x07,0x8F
0.597916625000000,67,0x00,0x00
0.597991000000000,67,0x14,0x01
0.598070000000000,68,0x32,0x00
0.598144375000000,68,0x00,0x01
0.598218875000000,68,0x00,0x01
0.598302250000000,69,0x34,0x01
0.598376750000000,69,0x80,0x01
0.598451125000000,69,0x80,0x01
0.598534000000000,70,0x32,0x01
0.598608500000000,70,0x0A,0x01
0.598683000000000,70,0x00,0x00
0.598762875000000,71,0x32,0x01
0.598837250000000,71,0x11,0x01
0.598911750000000,71,0x22,0x01
0.598991625000000,72,0x32,0x01
0.599066125000000,72,0x33,0x01
0.599140625000000,72,0xF4,0x01
0.599220500000000,73,0x32,0x01
0.599295000000000,73,0xB9,0x01
0.599369500000000,73,0xFA,0x01
0.599449750000000,74,0x32,0x81
0.599524250000000,74,0xA7,0x01
0.599598750000000,74,0x00,0x01
0.599680625000000,75,0x07,0x01
0.599755125000000,75,0x01,0x01
0.599829625000000,75,0x14,0x01
0.600165250000000,76,0x07,0x0F
0.600238250000000,76,0x00,0x01
0.600312750000000,76,0x3C,0x01
0.600391625000000,77,0x32,0x01
0.600466125000000,77,0x00,0x01
0.600540500000000,77,0x00,0x81
0.600623875000000,78,0x34,0x01
0.600698375000000,78,0x80,0x01
0.600772875000000,78,0x80,0x01
0.600855625000000,79,0x32,0x01
0.600930125000000,79,0x0A,0x01
0.601004625000000,79,0x00,0x01
0.601084500000000,80,0x32,0x01
0.601159000000000,80,0x11,0x01
0.601233375000000,80,0x22,0x01
0.601313250000000,81,0x32,0x01
0.601387750000000,81,0x33,0x01
0.601462250000000,81,0xF4,0x01
0.601542125000000,82,0x32,0x01
0.601616625000000,82,0xB9,0x01
0.601691125000000,82,0xFA,0x01
0.601771500000000,83,0x32,0x01
0.601846000000000,83,0xA7,0x01
0.601920375000000,83,0x00,0x01
0.602005250000000,84,0x07,0x01
0.602079625000000,84,0x01,0x01
0.602154125000000,84,0x3C,0x01
0.602490750000000,85,0x07,0x0D
0.602564250000000,85,0x00,0x01
0.602638750000000,85,0x1E,0x01
0.602717625000000,86,0x32,0x01
0.602792125000000,86,0x00,0x01
0.602866625000000,86,0x00,0x01
0.602949875000000,87,0x34,0x01
0.603024375000000,87,0x80,0x01
0.603098875000000,87,0x80,0x01
0.603181750000000,88,0x32,0x01
0.603256125000000,88,0x0A,0x01
0.603330625000000,88,0x00,0x01
0.603410500000000,89,0x32,0x01
0.603485000000000,89,0x11,0x01
0.603559500000000,89,0x22,0x01
0.603639375000000,90,0x32,0x01
0.603713875000000,90,0x33,0x01
0.603788375000000,90,0xF4,0x01
0.603868250000000,91,0x32,0x00
0.603942625000000,91,0xB9,0x01
0.604017125000000,91,0xFA,0x01
0.604097500000000,92,0x32,0x01
0.604172000000000,92,0xA7,0x01
0.604246500000000,92,0x00,0x01
0.604328375000000,93,0x07,0x00
0.604402750000000,93,0x01,0x01
0.604477250000000,93,0x1E,0x01
0.604814875000000,94,0x07,0x0F
0.604887875000000,94,0x00,0x01
0.604962375000000,94,0x46,0x01
0.605041250000000,95,0x32,0x01
0.605115750000000,95,0x00,0x01
0.605190250000000,95,0x00,0x01
0.605273500000000,96,0x34,0x01
0.605348000000000,96,0x80,0x01
0.605422500000000,96,0x80,0x01
0.605505250000000,97,0x32,0x01
0.605579750000000,97,0x0A,0x01
0.605654250000000,97,0x00,0x01
0.605734125000000,98,0x32,0x01
0.605808625000000,98,0x11,0x01
0.605883125000000,98,0x22,0x01
0.605963000000000,99,0x32,0x01
0.606037500000000,99,0x33,0x01
0.606112000000000,99,0xF4,0x00
0.606191875000000,100,0x32,0x01
0.606266250000000,100,0xB9,0x01
0.606340750000000,100,0xFA,0x01
0.606421125000000,101,0x32,0x01
0.606495625000000,101,0xA7,0x01
0.606570125000000,101,0x00,0x01
0.606652000000000,102,0x07,0x01
0.606726375000000,102,0x01,0x01
0.606800875000000,102,0x46,0x01
0.607131625000000,103,0x07,0x0D
0.607205125000000,103,0x00,0x01
0.607279625000000,103,0x00,0x01
0.607358500000000,104,0x32,0x01
0.607433000000000,104,0x00,0x01
0.607507500000000,104,0x00,0x01
0.607590750000000,105,0x34,0x01
0.607665250000000,105,0x80,0x01
0.607739750000000,105,0x80,0x01
0.607822625000000,106,0x32,0x01
0.607897000000000,106,0x0A,0x01
0.607971500000000,106,0x00,0x01
0.608051375000000,107,0x32,0x01
0.608125875000000,107,0x11,0x01
0.608200375000000,107,0x22,0x01
0.608280250000000,108,0x32,0x01
0.608354750000000,108,0x33,0x01
0.608429250000000,108,0xF4,0x01
0.608509125000000,109,0x32,0x01
0.608583625000000,109,0xB9,0x00
0.608658000000000,109,0xFA,0x01
0.608738375000000,110,0x32,0x01
0.608812875000000,110,0xA7,0x01
0.608887375000000,110,0x00,0x01
0.608969250000000,111,0x07,0x01
0.609043750000000,111,0x01,0x00
0.609118125000000,111,0x00,0x01
0.609449875000000,112,0x07,0x0F
0.609522875000000,112,0x00,0x01
0.609597375000000,112,0x28,0x01
0.609676250000000,113,0x32,0x01
0.609750750000000,113,0x00,0x01
0.609825250000000,113,0x00,0x01
0.609908500000000,114,0x34,0x01
0.609983000000000,114,0x80,0x01
0.610057500000000,114,0x80,0x01
0.610140375000000,115,0x32,0x01
0.610214750000000,115,0x0A,0x01
0.610289250000000,115,0x00,0x01
0.610369125000000,116,0x32,0x01
0.610443625000000,116,0x11,0x01
0.610518125000000,116,0x22,0x01
0.610598000000000,117,0x32,0x01
0.610672500000000,117,0x33,0x01
0.610747000000000,117,0xF4,0x01
0.610826875000000,118,0x32,0x01
0.610901250000000,118,0xB9,0x01
0.610975750000000,118,0xFA,0x01
0.611056125000000,119,0x32,0x01
0.611130625000000,119,0xA7,0x01
0.611205125000000,119,0x00,0x01
0.611289875000000,120,0x07,0x01
0.611364375000000,120,0x01,0x01
0.611438875000000,120,0x28,0x01
0.611771500000000,121,0x07,0x0F
0.611844500000000,121,0x00,0x01
0.611919000000000,121,0x0A,0x01
0.611997875000000,122,0x32,0x01
0.612072375000000,122,0x00,0x01
0.612146875000000,122,0x00,0x01
0.612230250000000,123,0x34,0x00
0.612304625000000,123,0x80,0x01
0.612379125000000,123,0x80,0x01
0.612462000000000,124,0x32,0x01
0.612536500000000,124,0x0A,0x00
0.612610875000000,124,0x00,0x01
0.612690750000000,125,0x32,0x01
0.612765250000000,125,0x11,0x01
0.612839750000000,125,0x22,0x01
0.612919625000000,126,0x32,0x01
0.612994125000000,126,0x33,0x01
0.613068625000000,126,0xF4,0x01
0.613148500000000,127,0x32,0x01
0.613222875000000,127,0xB9,0x81
0.613297375000000,127,0xFA,0x01
0.613377750000000,128,0x32,0x01
0.613452250000000,128,0xA7,0x01
0.613526750000000,128,0x00,0x01
0.613608625000000,129,0x07,0x01
0.613683000000000,129,0x01,0x81
0.613757500000000,129,0x0A,0x01
0.614091250000000,130,0x07,0x0F
0.614164250000000,130,0x00,0x01
0.614238750000000,130,0x32,0x01
0.614317625000000,131,0x32,0x01
0.614392125000000,131,0x00,0x01
0.614466625000000,131,0x00,0x01
0.614549875000000,132,0x34,0x01
0.614624375000000,132,0x80,0x01
0.614698875000000,132,0x80,0x01
0.614781625000000,133,0x32,0x01
0.614856125000000,133,0x0A,0x01
0.614930625000000,133,0x00,0x01
0.615010500000000,134,0x32,0x01
0.615085000000000,134,0x11,0x01
0.615159500000000,134,0x22,0x01
0.615239375000000,135,0x32,0x01
0.615313750000000,135,0x33,0x81
0.615388250000000,135,0xF4,0x01
0.615468125000000,136,0x32,0x01
0.615542625000000,136,0xB9,0x01
0.615617125000000,136,0xFA,0x01
0.615697500000000,137,0x32,0x01
0.615772000000000,137,0xA7,0x01
0.615846500000000,137,0x00,0x01
0.615928250000000,138,0x07,0x01
0.616002750000000,138,0x01,0x01
0.616077250000000,138,0x32,0x01
0.616411875000000,139,0x07,0x0F
0.616484875000000,139,0x00,0x01
0.616559375000000,139,0x14,0x01
0.616638250000000,140,0x32,0x01
0.616712750000000,140,0x00,0x01
0.616787250000000,140,0x00,0x01
0.616870625000000,141,0x34,0x00
0.616945000000000,141,0x80,0x01
0.617019500000000,141,0x80,0x01
0.617102375000000,142,0x32,0x01
0.617176875000000,142,0x0A,0x01
0.617251375000000,142,0x00,0x01
0.617331125000000,143,0x32,0x81
0.617405625000000,143,0x11,0x01
0.617480125000000,143,0x22,0x01
0.617560000000000,144,0x32,0x01
0.617634500000000,144,0x33,0x01
0.617709000000000,144,0xF4,0x01
0.617788875000000,145,0x32,0x01
0.617863375000000,145,0xB9,0x01
0.617937875000000,145,0xFA,0x01
0.618018125000000,146,0x32,0x01
0.618092625000000,146,0xA7,0x01
0.618167125000000,146,0x00,0x01
0.618249000000000,147,0x07,0x01
0.618323500000000,147,0x01,0x01
0.618397875000000,147,0x14,0x01
0.618733625000000,148,0x07,0x0F
0.618806625000000,148,0x00,0x01
0.618881125000000,148,0x3C,0x00
0.618960000000000,149,0x32,0x01
0.619034500000000,149,0x00,0x00
0.619108875000000,149,0x00,0x01
0.619192250000000,150,0x34,0x01
0.619266750000000,150,0x80,0x01
0.619341250000000,150,0x80,0x01
0.619424000000000,151,0x32,0x01
0.619498500000000,151,0x0A,0x01
0.619573000000000,151,0x00,0x01
0.619652875000000,152,0x32,0x01
0.619727375000000,152,0x11,0x01
0.619801750000000,152,0x22,0x01
0.619881625000000,153,0x32,0x01
0.619956125000000,153,0x33,0x01
0.620030625000000,153,0xF4,0x01
0.620110500000000,154,0x32,0x01
0.620185000000000,154,0xB9,0x01
0.620259500000000,154,0xFA,0x01
0.620339875000000,155,0x32,0x01
0.620414250000000,155,0xA7,0x81
0.620488750000000,155,0x00,0x01
0.620573625000000,156,0x07,0x01
0.620648000000000,156,0x01,0x01
0.620722500000000,156,0x3C,0x01
0.621059125000000,157,0x07,0x0D
0.621132625000000,157,0x00,0x01
0.621207125000000,157,0x1E,0x01
0.621286000000000,158,0x32,0x01
0.621360500000000,158,0x00,0x01
0.621435000000000,158,0x00,0x01
0.621518250000000,159,0x34,0x01
0.621592750000000,159,0x80,0x01
0.621667250000000,159,0x80,0x01
0.621750000000000,160,0x32,0x81
0.621824500000000,160,0x0A,0x01
0.621899000000000,160,0x00,0x01
0.621978875000000,161,0x32,0x01
0.622053375000000,161,0x11,0x01
0.622127875000000,161,0x22,0x01
0.622207750000000,162,0x32,0x01
0.622282250000000,162,0x33,0x01
0.622356750000000,162,0xF4,0x00
0.622436625000000,163,0x32,0x01
0.622511000000000,163,0xB9,0x01
0.622585500000000,163,0xFA,0x01
0.622665875000000,164,0x32,0x01
0.622740375000000,164,0xA7,0x01
0.622814875000000,164,0x00,0x01
0.622896625000000,165,0x07,0x81
0.622971125000000,165,0x01,0x01
0.623045625000000,165,0x1E,0x01
0.623383250000000,166,0x07,0x0F
0.623456250000000,166,0x00,0x01
0.623530750000000,166,0x46,0x01
0.623609625000000,167,0x32,0x01
0.623684125000000,167,0x00,0x01
0.623758625000000,167,0x00,0x01
0.623841875000000,168,0x34,0x01
0.623916375000000,168,0x80,0x01
0.623990875000000,168,0x80,0x01
0.624073625000000,169,0x32,0x01
0.624148125000000,169,0x0A,0x01
0.624222625000000,169,0x00,0x01
0.624302500000000,170,0x32,0x01
0.624377000000000,170,0x11,0x01
0.624451500000000,170,0x22,0x01
0.624531375000000,171,0x32,0x01
0.624605750000000,171,0x33,0x81
0.624680250000000,171,0xF4,0x01
0.624760125000000,172,0x32,0x01
0.624834625000000,172,0xB9,0x01
0.624909125000000,172,0xFA,0x01
0.624989500000000,173,0x32,0x01
0.625064000000000,173,0xA7,0x01
0.625138500000000,173,0x00,0x01
0.625220250000000,174,0x07,0x01
0.625294750000000,174,0x01,0x01
0.625369250000000,174,0x46,0x01
0.625700000000000,175,0x07,0x0D
0.625773500000000,175,0x00,0x01
0.625848000000000,175,0x00,0x01
0.625926875000000,176,0x32,0x01
0.626001375000000,176,0x00,0x01
0.626075875000000,176,0x00,0x01
0.626159125000000,177,0x34,0x01
0.626233625000000,177,0x80,0x01
0.626308125000000,177,0x80,0x01
0.626390875000000,178,0x32,0x01
0.626465375000000,178,0x0A,0x01
0.626539875000000,178,0x00,0x01
0.626619750000000,179,0x32,0x01
0.626694250000000,179,0x11,0x01
0.626768750000000,179,0x22,0x01
0.626848625000000,180,0x32,0x01
0.626923125000000,180,0x33,0x01
0.626997625000000,180,0xF4,0x01
0.627077500000000,181,0x32,0x01
0.627151875000000,181,0xB9,0x01
0.627226375000000,181,0xFA,0x01
0.627306750000000,182,0x32,0x01
0.627381250000000,182,0xA7,0x01
0.627455750000000,182,0x00,0x01
0.627537625000000,183,0x07,0x01
0.627612000000000,183,0x01,0x01
0.627686500000000,183,0x00,0x01
0.628018250000000,184,0x07,0x0F
0.628091250000000,184,0x00,0x01
0.628165750000000,184,0x28,0x01
0.628244625000000,185,0x32,0x01
0.628319125000000,185,0x00,0x01
0.628393625000000,185,0x00,0x01
0.628476875000000,186,0x34,0x01
0.628551375000000,186,0x80,0x01
0.628625875000000,186,0x80,0x01
0.628708750000000,187,0x32,0x01
0.628783125000000,187,0x0A,0x01
0.628857625000000,187,0x00,0x01
0.628937500000000,188,0x32,0x01
0.629012000000000,188,0x11,0x01
0.629086500000000,188,0x22,0x01
0.629166375000000,189,0x32,0x01
0.629240875000000,189,0x33,0x01
0.629315375000000,189,0xF4,0x01
0.629395250000000,190,0x32,0x01
0.629469625000000,190,0xB9,0x01
0.629544125000000,190,0xFA,0x01
0.629624500000000,191,0x32,0x01
0.629699000000000,191,0xA7,0x01
0.629773500000000,191,0x00,0x01
0.629858250000000,192,0x07,0x01
0.629932750000000,192,0x01,0x01
0.630007250000000,192,0x28,0x01
0.630339875000000,193,0x07,0x0F
0.630412875000000,193,0x00,0x01
0.630487375000000,193,0x0A,0x01
0.630566250000000,194,0x32,0x01
0.630640750000000,194,0x00,0x01
0.630715250000000,194,0x00,0x01
0.630798500000000,195,0x34,0x81
0.630873000000000,195,0x80,0x01
0.630947500000000,195,0x80,0x01
0.631030375000000,196,0x32,0x01
0.631104875000000,196,0x0A,0x01
0.631179250000000,196,0x00,0x01
0.631259125000000,197,0x32,0x01
0.631333625000000,197,0x11,0x01
0.631408125000000,197,0x22,0x01
0.631488000000000,198,0x32,0x01
0.631562500000000,198,0x33,0x01
0.631637000000000,198,0xF4,0x01
0.631716875000000,199,0x32,0x01
0.631791375000000,199,0xB9,0x01
0.631865750000000,199,0xFA,0x81
0.631946125000000,200,0x32,0x01
0.632020625000000,200,0xA7,0x01
0.632095125000000,200,0x00,0x01
0.632177000000000,201,0x07,0x01
0.632251375000000,201,0x01,0x81
0.632325875000000,201,0x0A,0x01
0.632659625000000,202,0x07,0x0F
0.632732625000000,202,0x00,0x01
0.632807125000000,202,0x32,0x01
0.632886000000000,203,0x32,0x01
0.632960500000000,203,0x00,0x01
0.633034875000000,203,0x00,0x81
0.633118250000000,204,0x34,0x01
0.633192750000000,204,0x80,0x01
0.633267250000000,204,0x80,0x01
0.633350000000000,205,0x32,0x01
0.633424500000000,205,0x0A,0x01
0.633499000000000,205,0x00,0x01
0.633578875000000,206,0x32,0x01
0.633653375000000,206,0x11,0x01
0.633727750000000,206,0x22,0x81
0.633807625000000,207,0x32,0x01
0.633882125000000,207,0x33,0x01
0.633956625000000,207,0xF4,0x01
0.634036500000000,208,0x32,0x01
0.634111000000000,208,0xB9,0x01
0.634185500000000,208,0xFA,0x01
0.634265875000000,209,0x32,0x01
0.634340375000000,209,0xA7,0x01
0.634414750000000,209,0x00,0x01
0.634496625000000,210,0x07,0x01
0.634571125000000,210,0x01,0x01
0.634645625000000,210,0x32,0x01
0.634980250000000,211,0x07,0x0F
0.635053250000000,211,0x00,0x01
0.635127750000000,211,0x14,0x01
0.635206625000000,212,0x32,0x01
0.635281125000000,212,0x00,0x01
0.635355625000000,212,0x00,0x01
0.635438875000000,213,0x34,0x01
0.635513375000000,213,0x80,0x01
0.635587875000000,213,0x80,0x01
0.635670625000000,214,0x32,0x01
0.635745125000000,214,0x0A,0x01
0.635819625000000,214,0x00,0x01
0.635899500000000,215,0x32,0x01
0.635974000000000,215,0x11,0x01
0.636048500000000,215,0x22,0x01
0.636128375000000,216,0x32,0x01
0.636202875000000,216,0x33,0x01
0.636277250000000,216,0xF4,0x01
0.636357125000000,217,0x32,0x01
0.636431625000000,217,0xB9,0x01
0.636506125000000,217,0xFA,0x01
0.636586500000000,218,0x32,0x01
0.636661000000000,218,0xA7,0x01
0.636735500000000,218,0x00,0x01
0.636817250000000,219,0x07,0x01
0.636891750000000,219,0x01,0x01
0.636966250000000,219,0x14,0x01
0.637301875000000,220,0x07,0x0F
0.637374875000000,220,0x00,0x01
0.637449375000000,220,0x3C,0x01
0.637528250000000,221,0x32,0x01
0.637602750000000,221,0x00,0x01
0.637677250000000,221,0x00,0x01
0.637760500000000,222,0x34,0x01
0.637835000000000,222,0x80,0x01
0.637909500000000,222,0x80,0x01
0.637992375000000,223,0x32,0x01
0.638066750000000,223,0x0A,0x01
0.638141250000000,223,0x00,0x01
0.638221125000000,224,0x32,0x01
0.638295625000000,224,0x11,0x01
0.638370125000000,224,0x22,0x01
0.638450000000000,225,0x32,0x01
0.638524500000000,225,0x33,0x01
0.638599000000000,225,0xF4,0x01
0.638678875000000,226,0x32,0x01
0.638753250000000,226,0xB9,0x81
0.638827750000000,226,0xFA,0x01
0.638908125000000,227,0x32,0x01
0.638982625000000,227,0xA7,0x01
0.639057125000000,227,0x00,0x01
0.639139000000000,228,0x07,0x01
0.639213500000000,228,0x01,0x00
0.639287875000000,228,0x3C,0x01
0.639624500000000,229,0x07,0x0C
0.639698000000000,229,0x00,0x01
0.639772500000000,229,0x1E,0x01
0.639851375000000,230,0x32,0x01
0.639925875000000,230,0x00,0x01
0.640000375000000,230,0x00,0x01
0.640083750000000,231,0x34,0x01
0.640158125000000,231,0x80,0x01
0.640232625000000,231,0x80,0x01
0.640315500000000,232,0x32,0x01
0.640390000000000,232,0x0A,0x01
0.640464375000000,232,0x00,0x01
0.640544250000000,233,0x32,0x01
0.640618750000000,233,0x11,0x01
0.640693250000000,233,0x22,0x01
0.640773125000000,234,0x32,0x01
0.640847625000000,234,0x33,0x01
0.640922125000000,234,0xF4,0x01
0.641002000000000,235,0x32,0x01
0.641076500000000,235,0xB9,0x00
0.641150875000000,235,0xFA,0x01
0.641231250000000,236,0x32,0x01
0.641305750000000,236,0xA7,0x01
0.641380250000000,236,0x00,0x01
0.641462125000000,237,0x07,0x01
0.641536500000000,237,0x01,0x81
0.641611000000000,237,0x1E,0x01
0.641948625000000,238,0x07,0x0F
0.642021625000000,238,0x00,0x01
0.642096125000000,238,0x46,0x01
0.642175000000000,239,0x32,0x01
0.642249500000000,239,0x00,0x01
0.642324000000000,239,0x00,0x01
0.642407250000000,240,0x34,0x01
0.642481750000000,240,0x80,0x01
0.642556250000000,240,0x80,0x01
0.642639125000000,241,0x32,0x01
0.642713500000000,241,0x0A,0x81
0.642788000000000,241,0x00,0x01
0.642867875000000,242,0x32,0x01
0.642942375000000,242,0x11,0x01
0.643016875000000,242,0x22,0x01
0.643096750000000,243,0x32,0x01
0.643171250000000,243,0x33,0x01
0.643245750000000,243,0xF4,0x01
0.643325625000000,244,0x32,0x01
0.643400125000000,244,0xB9,0x01
0.643474500000000,244,0xFA,0x01
0.643554875000000,245,0x32,0x01
0.643629375000000,245,0xA7,0x01
0.643703875000000,245,0x00,0x01
0.643785750000000,246,0x07,0x01
0.643860250000000,246,0x01,0x01
0.643934750000000,246,0x46,0x01
0.644265375000000,247,0x07,0x0D
0.644338875000000,247,0x00,0x01
0.644413375000000,247,0x00,0x01
0.644492250000000,248,0x32,0x81
0.644566750000000,248,0x00,0x01
0.644641250000000,248,0x00,0x01
0.644724625000000,249,0x34,0x01
0.644799000000000,249,0x80,0x81
0.644873500000000,249,0x80,0x01
0.644956375000000,250,0x32,0x01
0.645030875000000,250,0x0A,0x01
0.645105375000000,250,0x00,0x01
0.645185250000000,251,0x32,0x01
0.645259625000000,251,0x11,0x01
0.645334125000000,251,0x22,0x01
0.645414000000000,252,0x32,0x01
0.645488500000000,252,0x33,0x01
0.645563000000000,252,0xF4,0x01
0.645642875000000,253,0x32,0x01
0.645717375000000,253,0xB9,0x01
0.645791875000000,253,0xFA,0x01
0.645872250000000,254,0x32,0x01
0.645946750000000,254,0xA7,0x01
0.646021125000000,254,0x00,0x81
0.646103000000000,255,0x07,0x01
0.646177500000000,255,0x01,0x01
0.646252000000000,255,0x00,0x01
0.646583750000000,256,0x07,0x0F
0.646656750000000,256,0x00,0x01
0.646731250000000,256,0x28,0x01
0.646810125000000,257,0x32,0x01
0.646884625000000,257,0x00,0x01
0.646959125000000,257,0x00,0x01
0.647042375000000,258,0x34,0x01
0.647116875000000,258,0x80,0x01
0.647191375000000,258,0x80,0x01
0.647274125000000,259,0x32,0x01
0.647348625000000,259,0x0A,0x01
0.647423125000000,259,0x00,0x01
0.647503000000000,260,0x32,0x01
0.647577500000000,260,0x11,0x01
0.647652000000000,260,0x22,0x01
0.647731875000000,261,0x32,0x01
0.647806375000000,261,0x33,0x01
0.647880875000000,261,0xF4,0x00
0.647960750000000,262,0x32,0x00
0.648035125000000,262,0xB9,0x01
0.648109625000000,262,0xFA,0x01
0.648190000000000,263,0x32,0x01
0.648264500000000,263,0xA7,0x01
0.648339000000000,263,0x00,0x01
0.648420875000000,264,0x07,0x01
0.648495250000000,264,0x01,0x01
0.648569750000000,264,0x28,0x01
0.648902500000000,265,0x07,0x0F
0.648975500000000,265,0x00,0x01
0.649050000000000,265,0x0A,0x01
0.649128875000000,266,0x32,0x01
0.649203375000000,266,0x00,0x01
0.649277875000000,266,0x00,0x01
0.649361125000000,267,0x34,0x01
0.649435625000000,267,0x80,0x01
0.649510125000000,267,0x80,0x01
0.649593000000000,268,0x32,0x01
0.649667375000000,268,0x0A,0x81
0.649741875000000,268,0x00,0x01
0.649821750000000,269,0x32,0x01
0.649896250000000,269,0x11,0x01
0.649970750000000,269,0x22,0x01
0.650050625000000,270,0x32,0x01
0.650125125000000,270,0x33,0x01
0.650199625000000,270,0xF4,0x01
0.650279500000000,271,0x32,0x01
0.650354000000000,271,0xB9,0x01
0.650428500000000,271,0xFA,0x01
0.650508750000000,272,0x32,0x81
0.650583250000000,272,0xA7,0x01
0.650657750000000,272,0x00,0x01
0.650742500000000,273,0x07,0x01
0.650817000000000,273,0x01,0x01
0.650891500000000,273,0x0A,0x01
0.651225250000000,274,0x07,0x0F
0.651298250000000,274,0x00,0x01
0.651372750000000,274,0x32,0x01
0.651451625000000,275,0x32,0x01
0.651526125000000,275,0x00,0x01
0.651600500000000,275,0x00,0x81
0.651683875000000,276,0x34,0x01
0.651758375000000,276,0x80,0x01
0.651832875000000,276,0x80,0x01
0.651915625000000,277,0x32,0x01
0.651990125000000,277,0x0A,0x01
0.652064625000000,277,0x00,0x01
0.652144500000000,278,0x32,0x01
0.652219000000000,278,0x11,0x01
0.652293500000000,278,0x22,0x01
0.652373375000000,279,0x32,0x01
0.652447875000000,279,0x33,0x00
0.652522250000000,279,0xF4,0x01
0.652602125000000,280,0x32,0x01
0.652676625000000,280,0xB9,0x01
0.652751125000000,280,0xFA,0x01
0.652831500000000,281,0x32,0x01
0.652906000000000,281,0xA7,0x01
0.652980500000000,281,0x00,0x01
0.653062250000000,282,0x07,0x01
0.653136750000000,282,0x01,0x01
0.653211250000000,282,0x32,0x01
0.653545875000000,283,0x07,0x8F
0.653619000000000,283,0x00,0x01
0.653693375000000,283,0x14,0x01
0.653772375000000,284,0x32,0x01
0.653846750000000,284,0x00,0x01
0.653921250000000,284,0x00,0x01
0.654004625000000,285,0x34,0x01
0.654079125000000,285,0x80,0x01
0.654153500000000,285,0x80,0x81
0.654236375000000,286,0x32,0x01
0.654310875000000,286,0x0A,0x01
0.654385375000000,286,0x00,0x01
0.654465250000000,287,0x32,0x01
0.654539750000000,287,0x11,0x01
0.654614125000000,287,0x22,0x01
0.654694000000000,288,0x32,0x01
0.654768500000000,288,0x33,0x01
0.654843000000000,288,0xF4,0x01
0.654922875000000,289,0x32,0x01
0.654997375000000,289,0xB9,0x01
0.655071875000000,289,0xFA,0x01
0.655152250000000,290,0x32,0x01
0.655226750000000,290,0xA7,0x01
0.655301250000000,290,0x00,0x01
0.655383000000000,291,0x07,0x01
0.655457500000000,291,0x01,0x01
0.655532000000000,291,0x14,0x01
0.655867625000000,292,0x07,0x0F
0.655940625000000,292,0x00,0x01
0.656015125000000,292,0x3C,0x01
0.656094000000000,293,0x32,0x01
0.656168500000000,293,0x00,0x01
0.656243000000000,293,0x00,0x01
0.656326250000000,294,0x34,0x01
0.656400750000000,294,0x80,0x01
0.656475250000000,294,0x80,0x01
0.656558125000000,295,0x32,0x01
0.656632625000000,295,0x0A,0x00
0.656707000000000,295,0x00,0x01
0.656786875000000,296,0x32,0x01
0.656861375000000,296,0x11,0x01
0.656935875000000,296,0x22,0x01
0.657015750000000,297,0x32,0x01
0.657090250000000,297,0x33,0x01
0.657164750000000,297,0xF4,0x01
0.657244625000000,298,0x32,0x01
0.657319125000000,298,0xB9,0x01
0.657393625000000,298,0xFA,0x01
0.657473875000000,299,0x32,0x81
0.657548375000000,299,0xA7,0x01
0.657622875000000,299,0x00,0x01
0.657704750000000,300,0x07,0x01
0.657779250000000,300,0x01,0x01
0.657853750000000,300,0x3C,0x01
0.658190375000000,301,0x07,0x0D
0.658263875000000,301,0x00,0x01
0.658338250000000,301,0x1E,0x01
0.658417250000000,302,0x32,0x01
0.658491625000000,302,0x00,0x01
0.658566125000000,302,0x00,0x01
0.658649500000000,303,0x34,0x01
0.658724000000000,303,0x80,0x01
0.658798500000000,303,0x80,0x00
0.658881250000000,304,0x32,0x01
0.658955750000000,304,0x0A,0x01
0.659030250000000,304,0x00,0x01
0.659110125000000,305,0x32,0x01
0.659184625000000,305,0x11,0x01
0.659259125000000,305,0x22,0x01
0.659339000000000,306,0x32,0x01
0.659413375000000,306,0x33,0x01
0.659487875000000,306,0xF4,0x01
0.659567750000000,307,0x32,0x01
0.659642250000000,307,0xB9,0x01
0.659716750000000,307,0xFA,0x01
0.659797125000000,308,0x32,0x01
0.659871625000000,308,0xA7,0x01
0.659946125000000,308,0x00,0x01
0.660030875000000,309,0x07,0x01
0.660105375000000,309,0x01,0x01
0.660179875000000,309,0x1E,0x01
0.660517375000000,310,0x07,0x0F
0.660590500000000,310,0x00,0x00
0.660664875000000,310,0x46,0x01
0.660743875000000,311,0x32,0x01
0.660818250000000,311,0x00,0x81
0.660892750000000,311,0x00,0x01
0.660976125000000,312,0x34,0x01
0.661050625000000,312,0x80,0x01
0.661125125000000,312,0x80,0x01
0.661207875000000,313,0x32,0x01
0.661282375000000,313,0x0A,0x01
0.661356875000000,313,0x00,0x01
0.661436750000000,314,0x32,0x01
0.661511250000000,314,0x11,0x01
0.661585750000000,314,0x22,0x00
0.661665625000000,315,0x32,0x01
0.661740000000000,315,0x33,0x01
0.661814500000000,315,0xF4,0x01
0.661894375000000,316,0x32,0x01
0.661968875000000,316,0xB9,0x01
0.662043375000000,316,0xFA,0x01
0.662123750000000,317,0x32,0x01
0.662198250000000,317,0xA7,0x01
0.662272750000000,317,0x00,0x01
0.662354500000000,318,0x07,0x01
0.662429000000000,318,0x01,0x01
0.662503500000000,318,0x46,0x01
0.662834250000000,319,0x07,0x0D
0.662907750000000,319,0x00,0x01
0.662982250000000,319,0x00,0x01
0.663061125000000,320,0x32,0x01
0.663135625000000,320,0x00,0x01
0.663210125000000,320,0x00,0x01
0.663293375000000,321,0x34,0x01
0.663367875000000,321,0x80,0x01
0.663442375000000,321,0x80,0x01
0.663525125000000,322,0x32,0x01
0.663599625000000,322,0x0A,0x01
0.663674125000000,322,0x00,0x01
0.663754000000000,323,0x32,0x01
0.663828500000000,323,0x11,0x01
0.663903000000000,323,0x22,0x01
0.663982875000000,324,0x32,0x01
0.664057375000000,324,0x33,0x01
0.664131875000000,324,0xF4,0x01
0.664211750000000,325,0x32,0x01
0.664286125000000,325,0xB9,0x01
0.664360625000000,325,0xFA,0x01
0.664441000000000,326,0x32,0x01
0.664515500000000,326,0xA7,0x01
0.664590000000000,326,0x00,0x01
0.664671875000000,327,0x07,0x01
0.664746375000000,327,0x01,0x01
0.664820750000000,327,0x00,0x01
0.665152500000000,328,0x07,0x0F
0.665225500000000,328,0x00,0x01
0.665300000000000,328,0x28,0x01
0.665378875000000,329,0x32,0x01
0.665453375000000,329,0x00,0x01
0.665527875000000,329,0x00,0x01
0.665611250000000,330,0x34,0x00
0.665685625000000,330,0x80,0x01
0.665760125000000,330,0x80,0x01
0.665843000000000,331,0x32,0x01
0.665917500000000,331,0x0A,0x01
0.665992000000000,331,0x00,0x00
0.666071875000000,332,0x32,0x01
0.666146250000000,332,0x11,0x01
0.666220750000000,332,0x22,0x01
0.666300625000000,333,0x32,0x01
0.666375125000000,333,0x33,0x01
0.666449625000000,333,0xF4,0x01
0.666529500000000,334,0x32,0x01
0.666604000000000,334,0xB9,0x01
0.666678500000000,334,0xFA,0x01
0.666758875000000,335,0x32,0x01
0.666833250000000,335,0xA7,0x01
0.666907750000000,335,0x00,0x01
0.666989625000000,336,0x07,0x01
0.667064125000000,336,0x01,0x01
0.667138625000000,336,0x28,0x01
0.667471250000000,337,0x07,0x0F
0.667544250000000,337,0x00,0x81
0.667618750000000,337,0x0A,0x01
0.667697625000000,338,0x32,0x81
0.667772125000000,338,0x00,0x01
0.667846625000000,338,0x00,0x01
0.667930000000000,339,0x34,0x01
0.668004500000000,339,0x80,0x00
0.668078875000000,339,0x80,0x01
0.668161750000000,340,0x32,0x01
0.668236250000000,340,0x0A,0x01
0.668310750000000,340,0x00,0x01
0.668390625000000,341,0x32,0x01
0.668465125000000,341,0x11,0x01
0.668539500000000,341,0x22,0x80
0.668619500000000,342,0x32,0x00
0.668693875000000,342,0x33,0x01
0.668768375000000,342,0xF4,0x01
0.668848250000000,343,0x32,0x01
0.668922750000000,343,0xB9,0x01
0.668997250000000,343,0xFA,0x01
0.669077625000000,344,0x32,0x01
0.669152125000000,344,0xA7,0x01
0.669226625000000,344,0x00,0x01
0.669311375000000,345,0x07,0x01
0.669385875000000,345,0x01,0x01
0.669460375000000,345,0x0A,0x01
0.669794000000000,346,0x07,0x07
0.669867000000000,346,0x00,0x01
0.669941500000000,346,0x32,0x01
0.670020375000000,347,0x32,0x01
0.670094875000000,347,0x00,0x01
0.670169375000000,347,0x00,0x01
0.670252625000000,348,0x34,0x81
0.670327125000000,348,0x80,0x01
0.670401625000000,348,0x80,0x01
0.670484500000000,349,0x32,0x01
0.670559000000000,349,0x0A,0x01
0.670633500000000,349,0x00,0x00
0.670713375000000,350,0x32,0x00
0.670787750000000,350,0x11,0x01
0.670862250000000,350,0x22,0x01
0.670942125000000,351,0x32,0x01
0.671016625000000,351,0x33,0x01
0.671091125000000,351,0xF4,0x01
0.671171000000000,352,0x32,0x01
0.671245500000000,352,0xB9,0x01
0.671320000000000,352,0xFA,0x01
0.671400375000000,353,0x32,0x01
0.671474750000000,353,0xA7,0x81
0.671549250000000,353,0x00,0x01
0.671631125000000,354,0x07,0x01
0.671705625000000,354,0x01,0x01
0.671780125000000,354,0x32,0x01
0.672114750000000,355,0x07,0x0F
0.672187750000000,355,0x00,0x01
0.672262250000000,355,0x14,0x01
0.672341125000000,356,0x32,0x01
0.672415625000000,356,0x00,0x01
0.672490125000000,356,0x00,0x01
0.672573500000000,357,0x34,0x00
0.672647875000000,357,0x80,0x01
0.672722375000000,357,0x80,0x01
0.672805250000000,358,0x32,0x01
0.672879750000000,358,0x0A,0x01
0.672954250000000,358,0x00,0x01
0.673034125000000,359,0x32,0x01
0.673108500000000,359,0x11,0x81
0.673183000000000,359,0x22,0x01
0.673262875000000,360,0x32,0x01
0.673337375000000,360,0x33,0x01
0.673411875000000,360,0xF4,0x01
0.673491750000000,361,0x32,0x01
0.673566250000000,361,0xB9,0x01
0.673640750000000,361,0xFA,0x01
0.673721125000000,362,0x32,0x01
0.673795625000000,362,0xA7,0x01
0.673870125000000,362,0x00,0x01
0.673951875000000,363,0x07,0x01
0.674026375000000,363,0x01,0x01
0.674100875000000,363,0x14,0x01
0.674436500000000,364,0x07,0x0F
0.674509500000000,364,0x00,0x01
0.674584000000000,364,0x3C,0x01
0.674662875000000,365,0x32,0x01
0.674737375000000,365,0x00,0x01
0.674811875000000,365,0x00,0x01
0.674895250000000,366,0x34,0x01
0.674969625000000,366,0x80,0x01
0.675044125000000,366,0x80,0x01
0.675127000000000,367,0x32,0x01
0.675201500000000,367,0x0A,0x01
0.675276000000000,367,0x00,0x01
0.675355875000000,368,0x32,0x01
0.675430250000000,368,0x11,0x01
0.675504750000000,368,0x22,0x01
0.675584625000000,369,0x32,0x01
0.675659125000000,369,0x33,0x01
0.675733625000000,369,0xF4,0x01
0.675813500000000,370,0x32,0x01
0.675888000000000,370,0xB9,0x01
0.675962500000000,370,0xFA,0x01
0.676042875000000,371,0x32,0x01
0.676117375000000,371,0xA7,0x00
0.676191750000000,371,0x00,0x01
0.676273625000000,372,0x07,0x01
0.676348125000000,372,0x01,0x01
0.676422625000000,372,0x3C,0x01
0.676759250000000,373,0x07,0x0D
0.676832750000000,373,0x00,0x01
0.676907250000000,373,0x1E,0x01
0.676986125000000,374,0x32,0x01
0.677060625000000,374,0x00,0x01
0.677135125000000,374,0x00,0x01
0.677218375000000,375,0x34,0x01
0.677292875000000,375,0x80,0x01
0.677367375000000,375,0x80,0x01
0.677450125000000,376,0x32,0x01
0.677524625000000,376,0x0A,0x01
0.677599125000000,376,0x00,0x01
0.677679000000000,377,0x32,0x01
0.677753500000000,377,0x11,0x01
0.677828000000000,377,0x22,0x01
0.677907875000000,378,0x32,0x01
0.677982375000000,378,0x33,0x01
0.678056875000000,378,0xF4,0x01
0.678136750000000,379,0x32,0x01
0.678211250000000,379,0xB9,0x01
0.678285625000000,379,0xFA,0x81
0.678366000000000,380,0x32,0x01
0.678440500000000,380,0xA7,0x01
0.678515000000000,380,0x00,0x01
0.678596875000000,381,0x07,0x01
0.678671375000000,381,0x01,0x01
0.678745875000000,381,0x1E,0x01
0.679083375000000,382,0x07,0x0F
0.679156500000000,382,0x00,0x01
0.679230875000000,382,0x46,0x01
0.679309875000000,383,0x32,0x00
0.679384250000000,383,0x00,0x01
0.679458750000000,383,0x00,0x01
0.679542125000000,384,0x34,0x01
0.679616625000000,384,0x80,0x01
0.679691000000000,384,0x80,0x80
0.679773875000000,385,0x32,0x01
0.679848375000000,385,0x0A,0x01
0.679922875000000,385,0x00,0x01
0.680002750000000,386,0x32,0x01
0.680077250000000,386,0x11,0x01
0.680151750000000,386,0x22,0x00
0.680231625000000,387,0x32,0x01
0.680306000000000,387,0x33,0x01
0.680380500000000,387,0xF4,0x01
0.680460375000000,388,0x32,0x01
0.680534875000000,388,0xB9,0x01
0.680609375000000,388,0xFA,0x01
0.680689750000000,389,0x32,0x01
0.680764250000000,389,0xA7,0x01
0.680838750000000,389,0x00,0x01
0.680923500000000,390,0x07,0x01
0.680998000000000,390,0x01,0x01
0.681072375000000,390,0x46,0x81
0.681403125000000,391,0x07,0x0D
0.681476625000000,391,0x00,0x81
0.681551125000000,391,0x00,0x01
0.681630125000000,392,0x32,0x01
0.681704500000000,392,0x00,0x01
0.681779000000000,392,0x00,0x01
0.681862375000000,393,0x34,0x01
0.681936875000000,393,0x80,0x01
0.682011250000000,393,0x80,0x81
0.682094125000000,394,0x32,0x01
0.682168625000000,394,0x0A,0x01
0.682243125000000,394,0x00,0x01
0.682323000000000,395,0x32,0x01
0.682397500000000,395,0x11,0x01
0.682471875000000,395,0x22,0x01
0.682551750000000,396,0x32,0x01
0.682626250000000,396,0x33,0x01
0.682700750000000,396,0xF4,0x01
0.682780625000000,397,0x32,0x01
0.682855125000000,397,0xB9,0x01
0.682929625000000,397,0xFA,0x01
0.683010000000000,398,0x32,0x01
0.683084500000000,398,0xA7,0x01
0.683159000000000,398,0x00,0x01
0.683240750000000,399,0x07,0x01
0.683315250000000,399,0x01,0x01
0.683389750000000,399,0x00,0x01
0.683721500000000,400,0x07,0x0F
0.683794500000000,400,0x00,0x01
0.683869000000000,400,0x28,0x01
0.683947875000000,401,0x32,0x01
0.684022375000000,401,0x00,0x01
0.684096875000000,401,0x00,0x01
0.684180125000000,402,0x34,0x01
0.684254625000000,402,0x80,0x01
0.684329125000000,402,0x80,0x01
0.684411875000000,403,0x32,0x01
0.684486375000000,403,0x0A,0x01
0.684560875000000,403,0x00,0x01
0.684640750000000,404,0x32,0x01
0.684715250000000,404,0x11,0x01
0.684789750000000,404,0x22,0x01
0.684869625000000,405,0x32,0x01
0.684944125000000,405,0x33,0x01
0.685018625000000,405,0xF4,0x01
0.685098500000000,406,0x32,0x01
0.685172875000000,406,0xB9,0x01
0.685247375000000,406,0xFA,0x01
0.685327750000000,407,0x32,0x01
0.685402250000000,407,0xA7,0x01
0.685476750000000,407,0x00,0x01
0.685558625000000,408,0x07,0x01
0.685633000000000,408,0x01,0x01
0.685707500000000,408,0x28,0x01
0.686040250000000,409,0x07,0x0F
0.686113250000000,409,0x00,0x01
0.686187750000000,409,0x0A,0x01
0.686266625000000,410,0x32,0x01
0.686341125000000,410,0x00,0x01
0.686415625000000,410,0x00,0x01
0.686498875000000,411,0x34,0x01
0.686573375000000,411,0x80,0x01
0.686647875000000,411,0x80,0x01
0.686730625000000,412,0x32,0x81
0.686805125000000,412,0x0A,0x01
0.686879625000000,412,0x00,0x01
0.686959500000000,413,0x32,0x01
0.687034000000000,413,0x11,0x01
0.687108500000000,413,0x22,0x01
0.687188375000000,414,0x32,0x01
0.687262875000000,414,0x33,0x01
0.687337375000000,414,0xF4,0x01
0.687417250000000,415,0x32,0x01
0.687491625000000,415,0xB9,0x01
0.687566125000000,415,0xFA,0x01
0.687646500000000,416,0x32,0x01
0.687721000000000,416,0xA7,0x01
0.687795500000000,416,0x00,0x01
0.687877375000000,417,0x07,0x00
0.687951750000000,417,0x01,0x01
0.688026250000000,417,0x0A,0x01
0.688360000000000,418,0x07,0x0F
0.688433000000000,418,0x00,0x01
0.688507500000000,418,0x32,0x01
0.688586375000000,419,0x32,0x01
0.688660875000000,419,0x00,0x01
0.688735375000000,419,0x00,0x01
0.688818625000000,420,0x34,0x01
0.688893125000000,420,0x80,0x01
0.688967625000000,420,0x80,0x01
0.689050375000000,421,0x32,0x01
0.689124875000000,421,0x0A,0x01
0.689199375000000,421,0x00,0x01
0.689279250000000,422,0x32,0x01
0.689353750000000,422,0x11,0x01
0.689428250000000,422,0x22,0x01
0.689508125000000,423,0x32,0x01
0.689582500000000,423,0x33,0x81
0.689657000000000,423,0xF4,0x01
0.689736875000000,424,0x32,0x01
0.689811375000000,424,0xB9,0x01
0.689885875000000,424,0xFA,0x01
0.689966250000000,425,0x32,0x01
0.690040750000000,425,0xA7,0x01
0.690115250000000,425,0x00,0x01
0.690197000000000,426,0x07,0x01
0.690271500000000,426,0x01,0x01
0.690346000000000,426,0x32,0x01
0.690680625000000,427,0x07,0x0F
0.690753750000000,427,0x00,0x01
0.690828125000000,427,0x14,0x01
0.690907125000000,428,0x32,0x01
0.690981500000000,428,0x00,0x01
0.691056000000000,428,0x00,0x01
0.691139375000000,429,0x34,0x01
0.691213875000000,429,0x80,0x01
0.691288250000000,429,0x80,0x01
0.691371125000000,430,0x32,0x01
0.691445625000000,430,0x0A,0x01
0.691520125000000,430,0x00,0x01
0.691600000000000,431,0x32,0x01
0.691674500000000,431,0x11,0x01
0.691748875000000,431,0x22,0x81
0.691828750000000,432,0x32,0x81
0.691903250000000,432,0x33,0x01
0.691977750000000,432,0xF4,0x01
0.692057625000000,433,0x32,0x01
0.692132125000000,433,0xB9,0x01
0.692206625000000,433,0xFA,0x01
0.692287000000000,434,0x32,0x01
0.692361500000000,434,0xA7,0x01
0.692436000000000,434,0x00,0x01
0.692517750000000,435,0x07,0x01
0.692592250000000,435,0x01,0x01
0.692666750000000,435,0x14,0x01
0.693002375000000,436,0x07,0x0F
0.693075375000000,436,0x00,0x01
0.693149875000000,436,0x3C,0x01
0.693228750000000,437,0x32,0x01
0.693303250000000,437,0x00,0x01
0.693377750000000,437,0x00,0x01
0.693461000000000,438,0x34,0x01
0.693535500000000,438,0x80,0x01
0.693610000000000,438,0x80,0x01
0.693692875000000,439,0x32,0x01
0.693767250000000,439,0x0A,0x01
0.693841750000000,439,0x00,0x01
0.693921625000000,440,0x32,0x01
0.693996125000000,440,0x11,0x01
0.694070625000000,440,0x22,0x01
0.694150500000000,441,0x32,0x01
0.694225000000000,441,0x33,0x01
0.694299500000000,441,0xF4,0x01
0.694379375000000,442,0x32,0x01
0.694453750000000,442,0xB9,0x81
0.694528250000000,442,0xFA,0x01
0.694608625000000,443,0x32,0x01
0.694683125000000,443,0xA7,0x01
0.694757625000000,443,0x00,0x01
0.694839500000000,444,0x07,0x01
0.694914000000000,444,0x01,0x01
0.694988375000000,444,0x3C,0x01
0.695325000000000,445,0x07,0x0D
0.695398500000000,445,0x00,0x01
0.695473000000000,445,0x1E,0x01
0.695551875000000,446,0x32,0x01
0.695626375000000,446,0x00,0x01
0.695700875000000,446,0x00,0x01
0.695784250000000,447,0x34,0x01
0.695858750000000,447,0x80,0x00
0.695933125000000,447,0x80,0x01
0.696016000000000,448,0x32,0x01
0.696090500000000,448,0x0A,0x01
0.696165000000000,448,0x00,0x01
0.696244875000000,449,0x32,0x01
0.696319375000000,449,0x11,0x01
0.696393750000000,449,0x22,0x01
0.696473625000000,450,0x32,0x01
0.696548125000000,450,0x33,0x01
0.696622625000000,450,0xF4,0x01
0.696702500000000,451,0x32,0x01
0.696777000000000,451,0xB9,0x01
0.696851500000000,451,0xFA,0x01
0.696931875000000,452,0x32,0x01
0.697006375000000,452,0xA7,0x01
0.697080875000000,452,0x00,0x01
0.697162625000000,453,0x07,0x01
0.697237125000000,453,0x01,0x01
0.697311625000000,453,0x1E,0x01
0.697649250000000,454,0x07,0x0F
0.697722250000000,454,0x00,0x01
0.697796750000000,454,0x46,0x01
0.697875625000000,455,0x32,0x01
0.697950125000000,455,0x00,0x01
0.698024625000000,455,0x00,0x01
0.698107875000000,456,0x34,0x01
0.698182375000000,456,0x80,0x01
0.698256875000000,456,0x80,0x01
0.698339625000000,457,0x32,0x81
0.698414125000000,457,0x0A,0x01
0.698488625000000,457,0x00,0x01
0.698568500000000,458,0x32,0x01
0.698643000000000,458,0x11,0x01
0.698717500000000,458,0x22,0x01
0.698797375000000,459,0x32,0x01
0.698871875000000,459,0x33,0x01
0.698946375000000,459,0xF4,0x01
0.699026250000000,460,0x32,0x01
0.699100750000000,460,0xB9,0x01
0.699175250000000,460,0xFA,0x01
0.699255500000000,461,0x32,0x81
0.699330000000000,461,0xA7,0x01
0.699404500000000,461,0x00,0x01
0.699489250000000,462,0x07,0x01
0.699563750000000,462,0x01,0x01
0.699638250000000,462,0x46,0x01
0.699969000000000,463,0x07,0x0D
0.700042500000000,463,0x00,0x01
0.700117000000000,463,0x00,0x01
0.700195875000000,464,0x32,0x01
0.700270375000000,464,0x00,0x01
0.700344875000000,464,0x00,0x01
0.700428125000000,465,0x34,0x01
0.700502625000000,465,0x80,0x01
0.700577125000000,465,0x80,0x01
0.700660000000000,466,0x32,0x01
0.700734375000000,466,0x0A,0x01
0.700808875000000,466,0x00,0x01
0.700888750000000,467,0x32,0x01
0.700963250000000,467,0x11,0x01
0.701037750000000,467,0x22,0x01
0.701117625000000,468,0x32,0x01
0.701192125000000,468,0x33,0x01
0.701266625000000,468,0xF4,0x01
0.701346500000000,469,0x32,0x01
0.701421000000000,469,0xB9,0x00
0.701495375000000,469,0xFA,0x01
0.701575750000000,470,0x32,0x01
0.701650250000000,470,0xA7,0x01
0.701724750000000,470,0x00,0x01
0.701806625000000,471,0x07,0x01
0.701881125000000,471,0x01,0x01
0.701955500000000,471,0x00,0x01
0.702287250000000,472,0x07,0x0F
0.702360250000000,472,0x00,0x01
0.702434750000000,472,0x28,0x01
0.702513625000000,473,0x32,0x01
0.702588125000000,473,0x00,0x01
0.702662625000000,473,0x00,0x01
0.702746000000000,474,0x34,0x00
0.702820375000000,474,0x80,0x01
0.702894875000000,474,0x80,0x01
0.702977750000000,475,0x32,0x01
0.703052250000000,475,0x0A,0x01
0.703126750000000,475,0x00,0x00
0.703206625000000,476,0x32,0x00
0.703281000000000,476,0x11,0x01
0.703355500000000,476,0x22,0x01
0.703435375000000,477,0x32,0x01
0.703509875000000,477,0x33,0x01
0.703584375000000,477,0xF4,0x01
0.703664250000000,478,0x32,0x01
0.703738750000000,478,0xB9,0x01
0.703813250000000,478,0xFA,0x01
0.703893625000000,479,0x32,0x01
0.703968000000000,479,0xA7,0x81
0.704042500000000,479,0x00,0x01
0.704124375000000,480,0x07,0x01
0.704198875000000,480,0x01,0x01
0.704273375000000,480,0x28,0x01
0.704606000000000,481,0x07,0x0F
0.704679125000000,481,0x00,0x01
0.704753500000000,481,0x0A,0x01
0.704832500000000,482,0x32,0x01
0.704906875000000,482,0x00,0x81
0.704981375000000,482,0x00,0x01
0.705064750000000,483,0x34,0x01
0.705139250000000,483,0x80,0x01
0.705213750000000,483,0x80,0x01
0.705296500000000,484,0x32,0x01
0.705371000000000,484,0x0A,0x01
0.705445500000000,484,0x00,0x01
0.705525375000000,485,0x32,0x01
0.705599875000000,485,0x11,0x01
0.705674375000000,485,0x22,0x01
0.705754250000000,486,0x32,0x00
0.705828625000000,486,0x33,0x01
0.705903125000000,486,0xF4,0x01
0.705983000000000,487,0x32,0x01
0.706057500000000,487,0xB9,0x01
0.706132000000000,487,0xFA,0x01
0.706212375000000,488,0x32,0x01
0.706286875000000,488,0xA7,0x01
0.706361375000000,488,0x00,0x01
0.706443125000000,489,0x07,0x01
0.706517625000000,489,0x01,0x01
0.706592125000000,489,0x0A,0x01
0.706925750000000,490,0x07,0x8F
0.706998875000000,490,0x00,0x01
0.707073250000000,490,0x32,0x01
0.707152250000000,491,0x32,0x01
0.707226625000000,491,0x00,0x01
0.707301125000000,491,0x00,0x01
0.707384500000000,492,0x34,0x01
0.707459000000000,492,0x80,0x01
0.707533500000000,492,0x80,0x01
0.707616250000000,493,0x32,0x01
0.707690750000000,493,0x0A,0x01
0.707765250000000,493,0x00,0x01
0.707845125000000,494,0x32,0x01
0.707919625000000,494,0x11,0x00
0.707994000000000,494,0x22,0x01
0.708073875000000,495,0x32,0x01
0.708148375000000,495,0x33,0x01
0.708222875000000,495,0xF4,0x01
0.708302750000000,496,0x32,0x01
0.708377250000000,496,0xB9,0x01
0.708451750000000,496,0xFA,0x01
0.708532125000000,497,0x32,0x01
0.708606625000000,497,0xA7,0x01
0.708681000000000,497,0x00,0x01
0.708765875000000,498,0x07,0x01
0.708840250000000,498,0x01,0x81
0.708914750000000,498,0x32,0x01
0.709249500000000,499,0x07,0x0F
0.709322500000000,499,0x00,0x01
0.709397000000000,499,0x14,0x01
0.709475875000000,500,0x32,0x01
0.709550375000000,500,0x00,0x01
0.709624875000000,500,0x00,0x00
0.709708125000000,501,0x34,0x01
0.709782625000000,501,0x80,0x01
0.709857125000000,501,0x80,0x01
0.709939875000000,502,0x32,0x01
0.710014375000000,502,0x0A,0x01
0.710088875000000,502,0x00,0x01
0.710168750000000,503,0x32,0x01
0.710243250000000,503,0x11,0x01
0.710317750000000,503,0x22,0x01
0.710397625000000,504,0x32,0x01
0.710472125000000,504,0x33,0x00
0.710546500000000,504,0xF4,0x01
0.710626375000000,505,0x32,0x01
0.710700875000000,505,0xB9,0x01
0.710775375000000,505,0xFA,0x01
0.710855750000000,506,0x32,0x01
0.710930250000000,506,0xA7,0x01
0.711004750000000,506,0x00,0x01
0.711086500000000,507,0x07,0x01
0.711161000000000,507,0x01,0x01
0.711235500000000,507,0x14,0x01
0.711571125000000,508,0x07,0x0F
0.711644125000000,508,0x00,0x01
0.711718625000000,508,0x3C,0x01
0.711797500000000,509,0x32,0x01
0.711872000000000,509,0x00,0x01
0.711946500000000,509,0x00,0x01
0.712029875000000,510,0x34,0x01
0.712104250000000,510,0x80,0x81
0.712178750000000,510,0x80,0x01
0.712261625000000,511,0x32,0x01
0.712336125000000,511,0x0A,0x01
0.712410625000000,511,0x00,0x01
0.712490500000000,512,0x32,0x01
0.712565000000000,512,0x11,0x01
0.712639375000000,512,0x22,0x81
0.712719250000000,513,0x32,0x81
0.712793750000000,513,0x33,0x01
0.712868250000000,513,0xF4,0x01
0.712948125000000,514,0x32,0x01
0.713022625000000,514,0xB9,0x01
0.713097125000000,514,0xFA,0x01
0.713177500000000,515,0x32,0x01
0.713252000000000,515,0xA7,0x01
0.713326500000000,515,0x00,0x01
0.713408250000000,516,0x07,0x01
0.713482750000000,516,0x01,0x01
0.713557250000000,516,0x3C,0x01
0.713893875000000,517,0x07,0x0D
0.713967375000000,517,0x00,0x01
0.714041875000000,517,0x1E,0x01
0.714120750000000,518,0x32,0x01
0.714195250000000,518,0x00,0x01
0.714269750000000,518,0x00,0x01
0.714353000000000,519,0x34,0x01
0.714427500000000,519,0x80,0x01
0.714502000000000,519,0x80,0x01
0.714584875000000,520,0x32,0x01
0.714659375000000,520,0x0A,0x01
0.714733750000000,520,0x00,0x81
0.714813625000000,521,0x32,0x01
0.714888125000000,521,0x11,0x01
0.714962625000000,521,0x22,0x01
0.715042500000000,522,0x32,0x01
0.715117000000000,522,0x33,0x01
0.715191500000000,522,0xF4,0x01
0.715271375000000,523,0x32,0x01
0.715345875000000,523,0xB9,0x01
0.715420375000000,523,0xFA,0x00
0.715500625000000,524,0x32,0x01
0.715575125000000,524,0xA7,0x01
0.715649625000000,524,0x00,0x01
0.715731500000000,525,0x07,0x01
0.715806000000000,525,0x01,0x01
0.715880500000000,525,0x1E,0x01
0.716218125000000,526,0x07,0x0F
0.716291125000000,526,0x00,0x01
0.716365625000000,526,0x46,0x00
0.716444500000000,527,0x32,0x01
0.716519000000000,527,0x00,0x00
0.716593375000000,527,0x00,0x01
0.716676750000000,528,0x34,0x01
0.716751250000000,528,0x80,0x01
0.716825750000000,528,0x80,0x01
0.716908500000000,529,0x32,0x01
0.716983000000000,529,0x0A,0x01
0.717057500000000,529,0x00,0x01
0.717137375000000,530,0x32,0x01
0.717211875000000,530,0x11,0x01
0.717286375000000,530,0x22,0x01
0.717366250000000,531,0x32,0x01
0.717440625000000,531,0x33,0x01
0.717515125000000,531,0xF4,0x01
0.717595000000000,532,0x32,0x01
0.717669500000000,532,0xB9,0x01
0.717744000000000,532,0xFA,0x01
0.717824375000000,533,0x32,0x01
0.717898875000000,533,0xA7,0x01
0.717973375000000,533,0x00,0x01
0.718058125000000,534,0x07,0x01
0.718132625000000,534,0x01,0x01
0.718207125000000,534,0x46,0x01
0.718537875000000,535,0x07,0x0D
0.718611375000000,535,0x00,0x01
0.718685875000000,535,0x00,0x01
0.718764750000000,536,0x32,0x01
0.718839250000000,536,0x00,0x01
0.718913625000000,536,0x00,0x81
0.718997000000000,537,0x34,0x01
0.719071500000000,537,0x80,0x01
0.719146000000000,537,0x80,0x01
0.719228750000000,538,0x32,0x01
0.719303250000000,538,0x0A,0x01
0.719377750000000,538,0x00,0x01
0.719457625000000,539,0x32,0x01
0.719532125000000,539,0x11,0x01
0.719606625000000,539,0x22,0x01
0.719686500000000,540,0x32,0x01
0.719761000000000,540,0x33,0x01
0.719835375000000,540,0xF4,0x81
0.719915250000000,541,0x32,0x81
0.719989750000000,541,0xB9,0x01
0.720064250000000,541,0xFA,0x01
0.720144625000000,542,0x32,0x01
0.720219125000000,542,0xA7,0x01
0.720293625000000,542,0x00,0x01
0.720375500000000,543,0x07,0x01
0.720449875000000,543,0x01,0x01
0.720524375000000,543,0x00,0x01
0.720856125000000,544,0x07,0x0F
0.720929125000000,544,0x00,0x01
0.721003625000000,544,0x28,0x01
0.721082500000000,545,0x32,0x01
0.721157000000000,545,0x00,0x01
0.721231500000000,545,0x00,0x01
0.721314750000000,546,0x34,0x01
0.721389250000000,546,0x80,0x01
0.721463750000000,546,0x80,0x01
0.721546500000000,547,0x32,0x01
0.721621000000000,547,0x0A,0x01
0.721695500000000,547,0x00,0x01
0.721775375000000,548,0x32,0x01
0.721849875000000,548,0x11,0x01
0.721924375000000,548,0x22,0x01
0.722004250000000,549,0x32,0x01
0.722078750000000,549,0x33,0x01
0.722153250000000,549,0xF4,0x01
0.722233125000000,550,0x32,0x01
0.722307500000000,550,0xB9,0x01
0.722382000000000,550,0xFA,0x01
0.722462375000000,551,0x32,0x01
0.722536875000000,551,0xA7,0x01
0.722611375000000,551,0x00,0x01
0.722693250000000,552,0x07,0x01
0.722767625000000,552,0x01,0x01
0.722842125000000,552,0x28,0x01
0.723174875000000,553,0x07,0x0F
0.723247875000000,553,0x00,0x01
0.723322375000000,553,0x0A,0x01
0.723401250000000,554,0x32,0x01
0.723475750000000,554,0x00,0x01
0.723550250000000,554,0x00,0x01
0.723633500000000,555,0x34,0x01
0.723708000000000,555,0x80,0x01
0.723782500000000,555,0x80,0x01
0.723865250000000,556,0x32,0x01
0.723939750000000,556,0x0A,0x01
0.724014250000000,556,0x00,0x01
0.724094125000000,557,0x32,0x01
0.724168625000000,557,0x11,0x01
0.724243125000000,557,0x22,0x01
0.724323000000000,558,0x32,0x01
0.724397500000000,558,0x33,0x01
0.724471875000000,558,0xF4,0x81
0.724551750000000,559,0x32,0x81
0.724626250000000,559,0xB9,0x01
0.724700750000000,559,0xFA,0x01
0.724781125000000,560,0x32,0x01
0.724855625000000,560,0xA7,0x01
0.724930125000000,560,0x00,0x01
0.725011875000000,561,0x07,0x01
0.725086375000000,561,0x01,0x01
0.725160875000000,561,0x0A,0x01
0.725494625000000,562,0x07,0x0F
0.725567625000000,562,0x00,0x01
0.725642000000000,562,0x32,0x81
0.725721000000000,563,0x32,0x01
0.725795375000000,563,0x00,0x01
0.725869875000000,563,0x00,0x01
0.725953250000000,564,0x34,0x01
0.726027750000000,564,0x80,0x01
0.726102125000000,564,0x80,0x81
0.726185000000000,565,0x32,0x01
0.726259500000000,565,0x0A,0x01
0.726334000000000,565,0x00,0x01
0.726413875000000,566,0x32,0x01
0.726488375000000,566,0x11,0x01
0.726562750000000,566,0x22,0x81
0.726642625000000,567,0x32,0x01
0.726717125000000,567,0x33,0x01
0.726791625000000,567,0xF4,0x01
0.726871500000000,568,0x32,0x01
0.726946000000000,568,0xB9,0x01
0.727020500000000,568,0xFA,0x01
0.727100875000000,569,0x32,0x01
0.727175375000000,569,0xA7,0x00
0.727249750000000,569,0x00,0x01
0.727331625000000,570,0x07,0x01
0.727406125000000,570,0x01,0x01
0.727480625000000,570,0x32,0x01
0.727815250000000,571,0x07,0x0F
0.727888250000000,571,0x00,0x01
0.727962750000000,571,0x14,0x01
0.728041625000000,572,0x32,0x01
0.728116125000000,572,0x00,0x01
0.728190625000000,572,0x00,0x01
0.728273875000000,573,0x34,0x01
0.728348375000000,573,0x80,0x01
0.728422875000000,573,0x80,0x01
0.728505625000000,574,0x32,0x01
0.728580125000000,574,0x0A,0x01
0.728654625000000,574,0x00,0x01
0.728734500000000,575,0x32,0x01
0.728809000000000,575,0x11,0x01
0.728883500000000,575,0x22,0x01
0.728963375000000,576,0x32,0x01
0.729037875000000,576,0x33,0x01
0.729112250000000,576,0xF4,0x81
0.729192125000000,577,0x32,0x01
0.729266625000000,577,0xB9,0x01
0.729341125000000,577,0xFA,0x01
0.729421500000000,578,0x32,0x01
0.729496000000000,578,0xA7,0x01
0.729570500000000,578,0x00,0x01
0.729655250000000,579,0x07,0x01
0.729729750000000,579,0x01,0x01
0.729804250000000,579,0x14,0x01
0.730139875000000,580,0x07,0x0F
0.730212875000000,580,0x00,0x01
0.730287375000000,580,0x3C,0x01
0.730366250000000,581,0x32,0x01
0.730440750000000,581,0x00,0x01
0.730515125000000,581,0x00,0x81
0.730598500000000,582,0x34,0x01
0.730673000000000,582,0x80,0x01
0.730747500000000,582,0x80,0x01
0.730830250000000,583,0x32,0x01
0.730904750000000,583,0x0A,0x01
0.730979250000000,583,0x00,0x01
0.731059125000000,584,0x32,0x01
0.731133625000000,584,0x11,0x01
0.731208125000000,584,0x22,0x01
0.731287875000000,585,0x32,0x81
0.731362375000000,585,0x33,0x01
0.731436875000000,585,0xF4,0x01
0.731516750000000,586,0x32,0x01
0.731591250000000,586,0xB9,0x01
0.731665750000000,586,0xFA,0x01
0.731746125000000,587,0x32,0x01
0.731820625000000,587,0xA7,0x01
0.731895000000000,587,0x00,0x01
0.731976875000000,588,0x07,0x01
0.732051375000000,588,0x01,0x01
0.732125875000000,588,0x3C,0x01
0.732462500000000,589,0x07,0x0D
0.732536000000000,589,0x00,0x01
0.732610500000000,589,0x1E,0x01
0.732689375000000,590,0x32,0x01
0.732763875000000,590,0x00,0x01
0.732838250000000,590,0x00,0x01
0.732921625000000,591,0x34,0x01
0.732996125000000,591,0x80,0x01
0.733070625000000,591,0x80,0x01
0.733153375000000,592,0x32,0x01
0.733227875000000,592,0x0A,0x01
0.733302375000000,592,0x00,0x01
0.733382250000000,593,0x32,0x01
0.733456750000000,593,0x11,0x01
0.733531250000000,593,0x22,0x01
0.733611125000000,594,0x32,0x01
0.733685500000000,594,0x33,0x01
0.733760000000000,594,0xF4,0x01
0.733839875000000,595,0x32,0x01
0.733914375000000,595,0xB9,0x01
0.733988875000000,595,0xFA,0x01
0.734069250000000,596,0x32,0x01
0.734143750000000,596,0xA7,0x01
0.734218250000000,596,0x00,0x01
0.734300000000000,597,0x07,0x01
0.734374500000000,597,0x01,0x01
0.734449000000000,597,0x1E,0x01
0.734786625000000,598,0x07,0x0F
0.734859625000000,598,0x00,0x01
0.734934125000000,598,0x46,0x01
0.735013000000000,599,0x32,0x01
0.735087500000000,599,0x00,0x01
0.735162000000000,599,0x00,0x00
0.735245250000000,600,0x34,0x01
0.735319750000000,600,0x80,0x01
0.735394250000000,600,0x80,0x01
0.735477000000000,601,0x32,0x01
0.735551500000000,601,0x0A,0x01
0.735626000000000,601,0x00,0x01
0.735705875000000,602,0x32,0x01
0.735780375000000,602,0x11,0x01
0.735854875000000,602,0x22,0x01
0.735934750000000,603,0x32,0x01
0.736009125000000,603,0x33,0x81
0.736083625000000,603,0xF4,0x01
0.736163500000000,604,0x32,0x01
0.736238000000000,604,0xB9,0x01
0.736312500000000,604,0xFA,0x01
0.736392875000000,605,0x32,0x01
0.736467375000000,605,0xA7,0x01
0.736541875000000,605,0x00,0x01
0.736623625000000,606,0x07,0x01
0.736698125000000,606,0x01,0x01
0.736772625000000,606,0x46,0x01
0.737103375000000,607,0x07,0x0F
0.737176375000000,607,0x00,0x01
0.737250875000000,607,0x00,0x01
0.737329750000000,608,0x32,0x01
0.737404250000000,608,0x00,0x01
0.737478750000000,608,0x00,0x01
0.737562000000000,609,0x34,0x81
0.737636500000000,609,0x80,0x01
0.737711000000000,609,0x80,0x01
0.737793875000000,610,0x32,0x01
0.737868375000000,610,0x0A,0x01
0.737942750000000,610,0x00,0x81
0.738022625000000,611,0x32,0x81
0.738097125000000,611,0x11,0x01
0.738171625000000,611,0x22,0x01
0.738251500000000,612,0x32,0x01
0.738326000000000,612,0x33,0x01
0.738400500000000,612,0xF4,0x01
0.738480375000000,613,0x32,0x01
0.738554875000000,613,0xB9,0x01
0.738629375000000,613,0xFA,0x01
0.738709750000000,614,0x32,0x01
0.738784125000000,614,0xA7,0x01
0.738858625000000,614,0x00,0x01
0.738943375000000,615,0x07,0x01
0.739017875000000,615,0x01,0x01
0.739092375000000,615,0x00,0x01
0.739424125000000,616,0x07,0x0F
0.739497125000000,616,0x00,0x01
0.739571625000000,616,0x28,0x01
0.739650500000000,617,0x32,0x01
0.739725000000000,617,0x00,0x01
0.739799500000000,617,0x00,0x01
0.739882750000000,618,0x34,0x01
0.739957250000000,618,0x80,0x01
0.740031750000000,618,0x80,0x01
0.740114500000000,619,0x32,0x81
0.740189000000000,619,0x0A,0x01
0.740263500000000,619,0x00,0x01
0.740343375000000,620,0x32,0x01
0.740417875000000,620,0x11,0x01
0.740492375000000,620,0x22,0x01
0.740572250000000,621,0x32,0x01
0.740646750000000,621,0x33,0x01
0.740721250000000,621,0xF4,0x01
0.740801125000000,622,0x32,0x01
0.740875500000000,622,0xB9,0x01
0.740950000000000,622,0xFA,0x01
0.741030375000000,623,0x32,0x01
0.741104875000000,623,0xA7,0x01
0.741179375000000,623,0x00,0x01
0.741261250000000,624,0x07,0x01
0.741335625000000,624,0x01,0x01
0.741410125000000,624,0x28,0x01
0.741742875000000,625,0x07,0x0F
0.741815875000000,625,0x00,0x01
0.741890375000000,625,0x0A,0x01
0.741969250000000,626,0x32,0x01
0.742043750000000,626,0x00,0x01
0.742118250000000,626,0x00,0x01
0.742201500000000,627,0x34,0x01
0.742276000000000,627,0x80,0x01
0.742350500000000,627,0x80,0x01
0.742433250000000,628,0x32,0x01
0.742507750000000,628,0x0A,0x01
0.742582250000000,628,0x00,0x01
0.742662125000000,629,0x32,0x01
0.742736625000000,629,0x11,0x01
0.742811125000000,629,0x22,0x01
0.742891000000000,630,0x32,0x01
0.742965500000000,630,0x33,0x01
0.743040000000000,630,0xF4,0x01
0.743119750000000,631,0x32,0x81
0.743194250000000,631,0xB9,0x01
0.743268750000000,631,0xFA,0x01
0.743349125000000,632,0x32,0x01
0.743423625000000,632,0xA7,0x01
0.743498125000000,632,0x00,0x01
0.743580000000000,633,0x07,0x01
0.743654375000000,633,0x01,0x01
0.743728875000000,633,0x0A,0x01
0.744062625000000,634,0x07,0x0F
0.744135625000000,634,0x00,0x01
0.744210125000000,634,0x32,0x01
0.744289000000000,635,0x32,0x01
0.744363500000000,635,0x00,0x01
0.744438000000000,635,0x00,0x01
0.744521250000000,636,0x34,0x01
0.744595750000000,636,0x80,0x01
0.744670250000000,636,0x80,0x01
0.744753000000000,637,0x32,0x01
0.744827500000000,637,0x0A,0x01
0.744902000000000,637,0x00,0x01
0.744981875000000,638,0x32,0x01
0.745056375000000,638,0x11,0x01
0.745130875000000,638,0x22,0x01
0.745210750000000,639,0x32,0x01
0.745285250000000,639,0x33,0x01
0.745359625000000,639,0xF4,0x81
0.745439500000000,640,0x32,0x01
0.745514000000000,640,0xB9,0x01
0.745588500000000,640,0xFA,0x01
0.745668875000000,641,0x32,0x01
0.745743375000000,641,0xA7,0x01
0.745817875000000,641,0x00,0x01
0.745899625000000,642,0x07,0x01
0.745974125000000,642,0x01,0x01
0.746048625000000,642,0x32,0x01
0.746383250000000,643,0x07,0x0F
0.746456250000000,643,0x00,0x01
0.746530750000000,643,0x14,0x01
0.746609625000000,644,0x32,0x01
0.746684125000000,644,0x00,0x01
0.746758625000000,644,0x00,0x01
0.746842000000000,645,0x34,0x01
0.746916375000000,645,0x80,0x01
0.746990875000000,645,0x80,0x01
0.747073750000000,646,0x32,0x01
0.747148250000000,646,0x0A,0x01
0.747222625000000,646,0x00,0x80
0.747302625000000,647,0x32,0x01
0.747377000000000,647,0x11,0x01
0.747451500000000,647,0x22,0x01
0.747531375000000,648,0x32,0x01
0.747605875000000,648,0x33,0x01
0.747680375000000,648,0xF4,0x01
0.747760250000000,649,0x32,0x01
0.747834750000000,649,0xB9,0x01
0.747909250000000,649,0xFA,0x01
0.747989625000000,650,0x32,0x01
0.748064000000000,650,0xA7,0x81
0.748138500000000,650,0x00,0x01
0.748223250000000,651,0x07,0x81
0.748297750000000,651,0x01,0x01
0.748372250000000,651,0x14,0x01
0.748707875000000,652,0x07,0x0F
0.748780875000000,652,0x00,0x01
0.748855375000000,652,0x3C,0x01
0.748934250000000,653,0x32,0x01
0.749008750000000,653,0x00,0x01
0.749083250000000,653,0x00,0x01
0.749166625000000,654,0x34,0x01
0.749241000000000,654,0x80,0x81
0.749315500000000,654,0x80,0x01
0.749398375000000,655,0x32,0x01
0.749472875000000,655,0x0A,0x01
0.749547375000000,655,0x00,0x00
0.749627250000000,656,0x32,0x01
0.749701625000000,656,0x11,0x01
0.749776125000000,656,0x22,0x01
0.749856000000000,657,0x32,0x01
0.749930500000000,657,0x33,0x01
0.750005000000000,657,0xF4,0x01
0.750084875000000,658,0x32,0x01
0.750159375000000,658,0xB9,0x01
0.750233875000000,658,0xFA,0x01
0.750314125000000,659,0x32,0x01
0.750388625000000,659,0xA7,0x01
0.750463125000000,659,0x00,0x01
0.750545000000000,660,0x07,0x01
0.750619500000000,660,0x01,0x01
0.750694000000000,660,0x3C,0x01
0.751030500000000,661,0x07,0x0C
0.751104000000000,661,0x00,0x01
0.751178500000000,661,0x1E,0x01
0.751257375000000,662,0x32,0x01
0.751331875000000,662,0x00,0x01
0.751406375000000,662,0x00,0x01
0.751489625000000,663,0x34,0x81
0.751564125000000,663,0x80,0x01
0.751638625000000,663,0x80,0x01
0.751721500000000,664,0x32,0x01
0.751796000000000,664,0x0A,0x00
0.751870375000000,664,0x00,0x01
0.751950250000000,665,0x32,0x01
0.752024750000000,665,0x11,0x01
0.752099250000000,665,0x22,0x01
0.752179125000000,666,0x32,0x01
0.752253625000000,666,0x33,0x01
0.752328125000000,666,0xF4,0x01
0.752408000000000,667,0x32,0x01
0.752482500000000,667,0xB9,0x00
0.752556875000000,667,0xFA,0x01
0.752637250000000,668,0x32,0x01
0.752711750000000,668,0xA7,0x01
0.752786250000000,668,0x00,0x01
0.752868125000000,669,0x07,0x01
0.752942625000000,669,0x01,0x00
0.753017000000000,669,0x1E,0x01
0.753354625000000,670,0x07,0x0F
0.753427625000000,670,0x00,0x01
0.753502125000000,670,0x46,0x01
0.753581000000000,671,0x32,0x01
0.753655500000000,671,0x00,0x01
0.753730000000000,671,0x00,0x01
0.753813250000000,672,0x34,0x01
0.753887750000000,672,0x80,0x01
0.753962250000000,672,0x80,0x01
0.754045000000000,673,0x32,0x01
0.754119500000000,673,0x0A,0x01
0.754194000000000,673,0x00,0x01
0.754273875000000,674,0x32,0x01
0.754348375000000,674,0x11,0x01
0.754422875000000,674,0x22,0x01
0.754502750000000,675,0x32,0x01
0.754577250000000,675,0x33,0x01
0.754651750000000,675,0xF4,0x01
0.754731500000000,676,0x32,0x81
0.754806000000000,676,0xB9,0x01
0.754880500000000,676,0xFA,0x01
0.754960875000000,677,0x32,0x01
0.755035375000000,677,0xA7,0x01
0.755109875000000,677,0x00,0x01
0.755191625000000,678,0x07,0x01
0.755266125000000,678,0x01,0x01
0.755340625000000,678,0x46,0x01
0.755671375000000,679,0x07,0x0D
0.755744875000000,679,0x00,0x01
0.755819375000000,679,0x00,0x01
0.755898250000000,680,0x32,0x01
0.755972750000000,680,0x00,0x01
0.756047250000000,680,0x00,0x01
0.756130500000000,681,0x34,0x01
0.756205000000000,681,0x80,0x01
0.756279500000000,681,0x80,0x01
0.756362250000000,682,0x32,0x81
0.756436750000000,682,0x0A,0x01
0.756511250000000,682,0x00,0x01
0.756591125000000,683,0x32,0x01
0.756665625000000,683,0x11,0x01
0.756740125000000,683,0x22,0x01
0.756820000000000,684,0x32,0x01
0.756894500000000,684,0x33,0x01
0.756969000000000,684,0xF4,0x01
0.757048875000000,685,0x32,0x01
0.757123250000000,685,0xB9,0x81
0.757197750000000,685,0xFA,0x01
0.757278125000000,686,0x32,0x01
0.757352625000000,686,0xA7,0x01
0.757427125000000,686,0x00,0x01
0.757511875000000,687,0x07,0x01
0.757586375000000,687,0x01,0x01
0.757660875000000,687,0x00,0x01
0.757992625000000,688,0x07,0x0F
0.758065625000000,688,0x00,0x01
0.758140125000000,688,0x28,0x01
0.758219000000000,689,0x32,0x01
0.758293500000000,689,0x00,0x01
0.758367875000000,689,0x00,0x01
0.758451250000000,690,0x34,0x01
0.758525750000000,690,0x80,0x01
0.758600250000000,690,0x80,0x00
0.758683000000000,691,0x32,0x01
0.758757500000000,691,0x0A,0x01
0.758832000000000,691,0x00,0x01
0.758911875000000,692,0x32,0x01
0.758986375000000,692,0x11,0x00
0.759060750000000,692,0x22,0x01
0.759140625000000,693,0x32,0x01
0.759215125000000,693,0x33,0x01
0.759289625000000,693,0xF4,0x01
0.759369500000000,694,0x32,0x01
0.759444000000000,694,0xB9,0x01
0.759518500000000,694,0xFA,0x01
0.759598875000000,695,0x32,0x01
0.759673250000000,695,0xA7,0x81
0.759747750000000,695,0x00,0x01
0.759829625000000,696,0x07,0x01
0.759904125000000,696,0x01,0x01
0.759978625000000,696,0x28,0x01
0.760311250000000,697,0x07,0x0F
0.760384250000000,697,0x00,0x01
0.760458750000000,697,0x0A,0x01
0.760537625000000,698,0x32,0x01
0.760612125000000,698,0x00,0x01
0.760686625000000,698,0x00,0x01
0.760769875000000,699,0x34,0x01
0.760844375000000,699,0x80,0x01
0.760918875000000,699,0x80,0x01
0.761001750000000,700,0x32,0x01
0.761076250000000,700,0x0A,0x00
0.761150625000000,700,0x00,0x01
0.761230500000000,701,0x32,0x01
0.761305000000000,701,0x11,0x01
0.761379500000000,701,0x22,0x01
0.761459375000000,702,0x32,0x01
0.761533875000000,702,0x33,0x01
0.761608375000000,702,0xF4,0x01
0.761688250000000,703,0x32,0x01
0.761762750000000,703,0xB9,0x01
0.761837250000000,703,0xFA,0x01
0.761917500000000,704,0x32,0x01
0.761992000000000,704,0xA7,0x01
0.762066500000000,704,0x00,0x01
0.762148375000000,705,0x07,0x01
0.762222875000000,705,0x01,0x01
0.762297250000000,705,0x0A,0x01
0.762631000000000,706,0x07,0x0F
0.762704000000000,706,0x00,0x01
0.762778500000000,706,0x32,0x01
0.762857375000000,707,0x32,0x01
0.762931875000000,707,0x00,0x01
0.763006375000000,707,0x00,0x01
0.763089625000000,708,0x34,0x01
0.763164125000000,708,0x80,0x01
0.763238625000000,708,0x80,0x01
0.763321375000000,709,0x32,0x01
0.763395875000000,709,0x0A,0x01
0.763470375000000,709,0x00,0x01
0.763550250000000,710,0x32,0x01
0.763624750000000,710,0x11,0x01
0.763699250000000,710,0x22,0x01
0.763779125000000,711,0x32,0x01
0.763853625000000,711,0x33,0x01
0.763928000000000,711,0xF4,0x01
0.764007875000000,712,0x32,0x01
0.764082375000000,712,0xB9,0x01
0.764156875000000,712,0xFA,0x01
0.764237250000000,713,0x32,0x01
0.764311750000000,713,0xA7,0x01
0.764386250000000,713,0x00,0x01
0.764468000000000,714,0x07,0x01
0.764542500000000,714,0x01,0x01
0.764617000000000,714,0x32,0x01
0.764951625000000,715,0x07,0x0F
0.765024625000000,715,0x00,0x01
0.765099125000000,715,0x14,0x01
0.765178000000000,716,0x32,0x01
0.765252500000000,716,0x00,0x01
0.765327000000000,716,0x00,0x01
0.765410375000000,717,0x34,0x01
0.765484750000000,717,0x80,0x81
0.765559250000000,717,0x80,0x01
0.765642125000000,718,0x32,0x01
0.765716625000000,718,0x0A,0x01
0.765791125000000,718,0x00,0x01
0.765871000000000,719,0x32,0x01
0.765945375000000,719,0x11,0x81
0.766019875000000,719,0x22,0x01
0.766099750000000,720,0x32,0x01
0.766174250000000,720,0x33,0x01
0.766248750000000,720,0xF4,0x01
0.766328625000000,721,0x32,0x01
0.766403125000000,721,0xB9,0x01
0.766477625000000,721,0xFA,0x01
0.766558000000000,722,0x32,0x01
0.766632375000000,722,0xA7,0x01
0.766706875000000,722,0x00,0x01
0.766788750000000,723,0x07,0x01
0.766863250000000,723,0x01,0x01
0.766937750000000,723,0x14,0x01
0.767273375000000,724,0x07,0x0F
0.767346375000000,724,0x00,0x01
0.767420875000000,724,0x3C,0x01
0.767499750000000,725,0x32,0x01
0.767574250000000,725,0x00,0x01
0.767648750000000,725,0x00,0x01
0.767732000000000,726,0x34,0x01
0.767806500000000,726,0x80,0x01
0.767881000000000,726,0x80,0x01
0.767963750000000,727,0x32,0x01
0.768038250000000,727,0x0A,0x01
0.768112750000000,727,0x00,0x01
0.768192625000000,728,0x32,0x01
0.768267125000000,728,0x11,0x01
0.768341625000000,728,0x22,0x01
0.768421500000000,729,0x32,0x01
0.768496000000000,729,0x33,0x01
0.768570500000000,729,0xF4,0x01
0.768650250000000,730,0x32,0x81
0.768724750000000,730,0xB9,0x01
0.768799250000000,730,0xFA,0x01
0.768879625000000,731,0x32,0x01
0.768954125000000,731,0xA7,0x01
0.769028625000000,731,0x00,0x01
0.769110375000000,732,0x07,0x01
0.769184875000000,732,0x01,0x01
0.769259375000000,732,0x3C,0x01
0.769596000000000,733,0x07,0x0D
0.769669500000000,733,0x00,0x01
0.769744000000000,733,0x1E,0x01
0.769822875000000,734,0x32,0x01
0.769897375000000,734,0x00,0x01
0.769971875000000,734,0x00,0x01
0.770055125000000,735,0x34,0x01
0.770129625000000,735,0x80,0x01
0.770204125000000,735,0x80,0x01
0.770286875000000,736,0x32,0x01
0.770361375000000,736,0x0A,0x01
0.770435875000000,736,0x00,0x01
0.770515750000000,737,0x32,0x01
0.770590250000000,737,0x11,0x01
0.770664750000000,737,0x22,0x01
0.770744625000000,738,0x32,0x01
0.770819125000000,738,0x33,0x01
0.770893625000000,738,0xF4,0x00
0.770973500000000,739,0x32,0x00
0.771047875000000,739,0xB9,0x01
0.771122375000000,739,0xFA,0x01
0.771202750000000,740,0x32,0x01
0.771277250000000,740,0xA7,0x01
0.771351750000000,740,0x00,0x01
0.771433625000000,741,0x07,0x01
0.771508000000000,741,0x01,0x01
0.771582500000000,741,0x1E,0x01
0.771920125000000,742,0x07,0x0F
0.771993125000000,742,0x00,0x01
0.772067625000000,742,0x46,0x01
0.772146500000000,743,0x32,0x01
0.772221000000000,743,0x00,0x01
0.772295500000000,743,0x00,0x01
0.772378750000000,744,0x34,0x01
0.772453250000000,744,0x80,0x01
0.772527750000000,744,0x80,0x01
0.772610500000000,745,0x32,0x81
0.772685000000000,745,0x0A,0x01
0.772759500000000,745,0x00,0x01
0.772839375000000,746,0x32,0x01
0.772913875000000,746,0x11,0x01
0.772988375000000,746,0x22,0x01
0.773068250000000,747,0x32,0x01
0.773142750000000,747,0x33,0x01
0.773217250000000,747,0xF4,0x01
0.773297125000000,748,0x32,0x01
0.773371625000000,748,0xB9,0x01
0.773446000000000,748,0xFA,0x01
0.773526375000000,749,0x32,0x01
0.773600875000000,749,0xA7,0x01
0.773675375000000,749,0x00,0x01
0.773757250000000,750,0x07,0x01
0.773831750000000,750,0x01,0x01
0.773906125000000,750,0x46,0x81
0.774236875000000,751,0x07,0x0C
0.774310375000000,751,0x00,0x01
0.774384875000000,751,0x00,0x01
0.774463750000000,752,0x32,0x01
0.774538250000000,752,0x00,0x01
0.774612750000000,752,0x00,0x01
0.774696125000000,753,0x34,0x01
0.774770500000000,753,0x80,0x01
0.774845000000000,753,0x80,0x01
0.774927875000000,754,0x32,0x01
0.775002375000000,754,0x0A,0x01
0.775076875000000,754,0x00,0x01
0.775156625000000,755,0x32,0x81
0.775231125000000,755,0x11,0x01
0.775305625000000,755,0x22,0x01
0.775385500000000,756,0x32,0x01
0.775460000000000,756,0x33,0x01
0.775534500000000,756,0xF4,0x01
0.775614375000000,757,0x32,0x01
0.775688875000000,757,0xB9,0x01
0.775763375000000,757,0xFA,0x01
0.775843750000000,758,0x32,0x01
0.775918125000000,758,0xA7,0x01
0.775992625000000,758,0x00,0x01
0.776074500000000,759,0x07,0x01
0.776149000000000,759,0x01,0x01
0.776223500000000,759,0x00,0x01
0.776555125000000,760,0x07,0x0F
0.776628250000000,760,0x00,0x01
0.776702625000000,760,0x28,0x01
0.776781625000000,761,0x32,0x01
0.776856000000000,761,0x00,0x01
0.776930500000000,761,0x00,0x01
0.777013875000000,762,0x34,0x01
0.777088250000000,762,0x80,0x81
0.777162750000000,762,0x80,0x01
0.777245625000000,763,0x32,0x01
0.777320125000000,763,0x0A,0x01
0.777394625000000,763,0x00,0x01
0.777474500000000,764,0x32,0x01
0.777548875000000,764,0x11,0x81
0.777623375000000,764,0x22,0x01
0.777703250000000,765,0x32,0x01
0.777777750000000,765,0x33,0x01
0.777852250000000,765,0xF4,0x01
0.777932125000000,766,0x32,0x01
0.778006625000000,766,0xB9,0x01
0.778081125000000,766,0xFA,0x01
0.778161500000000,767,0x32,0x01
0.778236000000000,767,0xA7,0x01
0.778310375000000,767,0x00,0x01
0.778395250000000,768,0x07,0x01
0.778469625000000,768,0x01,0x81
0.778544125000000,768,0x28,0x01
0.778876875000000,769,0x07,0x0F
0.778949875000000,769,0x00,0x01
0.779024375000000,769,0x0A,0x01
0.779103250000000,770,0x32,0x01
0.779177750000000,770,0x00,0x01
0.779252250000000,770,0x00,0x01
0.779335500000000,771,0x34,0x01
0.779410000000000,771,0x80,0x01
0.779484500000000,771,0x80,0x01
0.779567250000000,772,0x32,0x01
0.779641750000000,772,0x0A,0x01
0.779716250000000,772,0x00,0x01
0.779796125000000,773,0x32,0x01
0.779870625000000,773,0x11,0x01
0.779945125000000,773,0x22,0x01
0.780025000000000,774,0x32,0x01
0.780099500000000,774,0x33,0x01
0.780173875000000,774,0xF4,0x01
0.780253750000000,775,0x32,0x01
0.780328250000000,775,0xB9,0x01
0.780402750000000,775,0xFA,0x01
0.780483125000000,776,0x32,0x01
0.780557625000000,776,0xA7,0x01
0.780632125000000,776,0x00,0x01
0.780713875000000,777,0x07,0x01
0.780788375000000,777,0x01,0x01
0.780862875000000,777,0x0A,0x01
0.781196625000000,778,0x07,0x0F
0.781269625000000,778,0x00,0x01
0.781344125000000,778,0x32,0x01
0.781423000000000,779,0x32,0x01
0.781497500000000,779,0x00,0x01
0.781572000000000,779,0x00,0x01
0.781655250000000,780,0x34,0x01
0.781729750000000,780,0x80,0x01
0.781804250000000,780,0x80,0x01
0.781887000000000,781,0x32,0x01
0.781961500000000,781,0x0A,0x01
0.782036000000000,781,0x00,0x01
0.782115875000000,782,0x32,0x01
0.782190375000000,782,0x11,0x01
0.782264875000000,782,0x22,0x01
0.782344750000000,783,0x32,0x01
0.782419250000000,783,0x33,0x00
0.782493625000000,783,0xF4,0x01
0.782573500000000,784,0x32,0x01
0.782648000000000,784,0xB9,0x01
0.782722500000000,784,0xFA,0x01
0.782802875000000,785,0x32,0x01
0.782877375000000,785,0xA7,0x01
0.782951875000000,785,0x00,0x01
0.783033625000000,786,0x07,0x01
0.783108125000000,786,0x01,0x01
0.783182625000000,786,0x32,0x01
0.783517250000000,787,0x07,0x0F
0.783590250000000,787,0x00,0x81
0.783664750000000,787,0x14,0x01
0.783743625000000,788,0x32,0x81
0.783818125000000,788,0x00,0x01
0.783892625000000,788,0x00,0x01
0.783976000000000,789,0x34,0x01
0.784050375000000,789,0x80,0x81
0.784124875000000,789,0x80,0x01
0.784207750000000,790,0x32,0x01
0.784282250000000,790,0x0A,0x01
0.784356750000000,790,0x00,0x00
0.784436625000000,791,0x32,0x00
0.784511000000000,791,0x11,0x01
0.784585500000000,791,0x22,0x01
0.784665375000000,792,0x32,0x01
0.784739875000000,792,0x33,0x01
0.784814375000000,792,0xF4,0x01
0.784894250000000,793,0x32,0x01
0.784968750000000,793,0xB9,0x01
0.785043250000000,793,0xFA,0x01
0.785123625000000,794,0x32,0x01
0.785198000000000,794,0xA7,0x81
0.785272500000000,794,0x00,0x01
0.785354375000000,795,0x07,0x01
0.785428875000000,795,0x01,0x01
0.785503375000000,795,0x14,0x01
0.785839000000000,796,0x07,0x0F
0.785912000000000,796,0x00,0x01
0.785986500000000,796,0x3C,0x01
0.786065375000000,797,0x32,0x01
0.786139875000000,797,0x00,0x01
0.786214375000000,797,0x00,0x01
0.786297625000000,798,0x34,0x01
0.786372125000000,798,0x80,0x01
0.786446625000000,798,0x80,0x01
0.786529375000000,799,0x32,0x01
0.786603875000000,799,0x0A,0x01
0.786678375000000,799,0x00,0x01
0.786758250000000,800,0x32,0x01
0.786832750000000,800,0x11,0x01
0.786907250000000,800,0x22,0x01
0.786987125000000,801,0x32,0x01
0.787061625000000,801,0x33,0x01
0.787136000000000,801,0xF4,0x81
0.787215875000000,802,0x32,0x01
0.787290375000000,802,0xB9,0x01
0.787364875000000,802,0xFA,0x01
0.787445250000000,803,0x32,0x01
0.787519750000000,803,0xA7,0x01
0.787594250000000,803,0x00,0x01
0.787679000000000,804,0x07,0x01
0.787753500000000,804,0x01,0x01
0.787828000000000,804,0x3C,0x01
0.788164625000000,805,0x07,0x0D
0.788238125000000,805,0x00,0x01
0.788312500000000,805,0x1E,0x01
0.788391500000000,806,0x32,0x00
0.788465875000000,806,0x00,0x01
0.788540375000000,806,0x00,0x01
0.788623750000000,807,0x34,0x01
0.788698250000000,807,0x80,0x01
0.788772625000000,807,0x80,0x01
0.788855500000000,808,0x32,0x01
0.788930000000000,808,0x0A,0x01
0.789004500000000,808,0x00,0x01
0.789084375000000,809,0x32,0x01
0.789158750000000,809,0x11,0x81
0.789233250000000,809,0x22,0x01
0.789313125000000,810,0x32,0x01
0.789387625000000,810,0x33,0x01
0.789462125000000,810,0xF4,0x01
0.789542000000000,811,0x32,0x01
0.789616500000000,811,0xB9,0x01
0.789691000000000,811,0xFA,0x01
0.789771375000000,812,0x32,0x00
0.789845750000000,812,0xA7,0x01
0.789920250000000,812,0x00,0x01
0.790002125000000,813,0x07,0x01
0.790076625000000,813,0x01,0x01
0.790151125000000,813,0x1E,0x01
0.790488625000000,814,0x07,0x0F
0.790561625000000,814,0x00,0x81
0.790636125000000,814,0x46,0x01
0.790715000000000,815,0x32,0x81
0.790789500000000,815,0x00,0x01
0.790864000000000,815,0x00,0x01
0.790947375000000,816,0x34,0x01
0.791021875000000,816,0x80,0x01
0.791096250000000,816,0x80,0x01
0.791179125000000,817,0x32,0x01
0.791253625000000,817,0x0A,0x01
0.791328125000000,817,0x00,0x00
0.791408000000000,818,0x32,0x00
0.791482375000000,818,0x11,0x01
0.791556875000000,818,0x22,0x01
0.791636750000000,819,0x32,0x01
0.791711250000000,819,0x33,0x01
0.791785750000000,819,0xF4,0x01
0.791865625000000,820,0x32,0x01
0.791940125000000,820,0xB9,0x01
0.792014625000000,820,0xFA,0x01
0.792095000000000,821,0x32,0x01
0.792169375000000,821,0xA7,0x01
0.792243875000000,821,0x00,0x01
0.792325750000000,822,0x07,0x01
0.792400250000000,822,0x01,0x01
0.792474750000000,822,0x46,0x01
0.792805500000000,823,0x07,0x0D
0.792879000000000,823,0x00,0x01
0.792953375000000,823,0x00,0x01
0.793032375000000,824,0x32,0x01
0.793106750000000,824,0x00,0x01
0.793181250000000,824,0x00,0x01
0.793264625000000,825,0x34,0x01
0.793339000000000,825,0x80,0x81
0.793413500000000,825,0x80,0x01
0.793496375000000,826,0x32,0x01
0.793570875000000,826,0x0A,0x01
0.793645375000000,826,0x00,0x01
0.793725250000000,827,0x32,0x01
0.793799625000000,827,0x11,0x81
0.793874125000000,827,0x22,0x01
0.793954000000000,828,0x32,0x01
0.794028500000000,828,0x33,0x01
0.794103000000000,828,0xF4,0x01
0.794182875000000,829,0x32,0x01
0.794257375000000,829,0xB9,0x01
0.794331875000000,829,0xFA,0x01
0.794412250000000,830,0x32,0x01
0.794486750000000,830,0xA7,0x00
0.794561125000000,830,0x00,0x01
0.794643000000000,831,0x07,0x01
0.794717500000000,831,0x01,0x01
0.794792000000000,831,0x00,0x01
0.795123750000000,832,0x07,0x0F
0.795196750000000,832,0x00,0x01
0.795271250000000,832,0x28,0x01
0.795350125000000,833,0x32,0x01
0.795424625000000,833,0x00,0x01
0.795499000000000,833,0x00,0x01
0.795582375000000,834,0x34,0x01
0.795656875000000,834,0x80,0x01
0.795731375000000,834,0x80,0x01
0.795814125000000,835,0x32,0x01
0.795888625000000,835,0x0A,0x01
0.795963125000000,835,0x00,0x01
0.796043000000000,836,0x32,0x01
0.796117500000000,836,0x11,0x01
0.796192000000000,836,0x22,0x00
0.796271875000000,837,0x32,0x00
0.796346250000000,837,0x33,0x01
0.796420750000000,837,0xF4,0x01
0.796500625000000,838,0x32,0x01
0.796575125000000,838,0xB9,0x01
0.796649625000000,838,0xFA,0x01
0.796730000000000,839,0x32,0x01
0.796804500000000,839,0xA7,0x01
0.796879000000000,839,0x00,0x01
0.796963750000000,840,0x07,0x01
0.797038250000000,840,0x01,0x00
0.797112625000000,840,0x28,0x01
0.797445375000000,841,0x07,0x0F
0.797518375000000,841,0x00,0x01
0.797592875000000,841,0x0A,0x01
0.797671750000000,842,0x32,0x01
0.797746250000000,842,0x00,0x01
0.797820750000000,842,0x00,0x01
0.797904000000000,843,0x34,0x01
0.797978500000000,843,0x80,0x01
0.798053000000000,843,0x80,0x01
0.798135750000000,844,0x32,0x81
0.798210250000000,844,0x0A,0x01
0.798284750000000,844,0x00,0x01
0.798364625000000,845,0x32,0x01
0.798439125000000,845,0x11,0x01
0.798513625000000,845,0x22,0x01
0.798593500000000,846,0x32,0x01
0.798668000000000,846,0x33,0x01
0.798742500000000,846,0xF4,0x01
0.798822375000000,847,0x32,0x01
0.798896750000000,847,0xB9,0x01
0.798971250000000,847,0xFA,0x01
0.799051625000000,848,0x32,0x01
0.799126125000000,848,0xA7,0x01
0.799200625000000,848,0x00,0x01
0.799282500000000,849,0x07,0x00
0.799356875000000,849,0x01,0x01
0.799431375000000,849,0x0A,0x01
0.799765125000000,850,0x07,0x0F
0.799838125000000,850,0x00,0x01
0.799912625000000,850,0x32,0x01
0.799991500000000,851,0x32,0x01
0.800066000000000,851,0x00,0x01
0.800140500000000,851,0x00,0x01
0.800223750000000,852,0x34,0x01
0.800298250000000,852,0x80,0x01
0.800372750000000,852,0x80,0x01
0.800455500000000,853,0x32,0x01
0.800530000000000,853,0x0A,0x01
0.800604500000000,853,0x00,0x01
0.800684375000000,854,0x32,0x01
0.800758875000000,854,0x11,0x01
0.800833250000000,854,0x22,0x81
0.800913125000000,855,0x32,0x01
0.800987625000000,855,0x33,0x01
0.801062125000000,855,0xF4,0x01
0.801142000000000,856,0x32,0x01
0.801216500000000,856,0xB9,0x01
0.801291000000000,856,0xFA,0x01
0.801371375000000,857,0x32,0x01
0.801445875000000,857,0xA7,0x00
0.801520250000000,857,0x00,0x01
0.801602125000000,858,0x07,0x01
0.801676625000000,858,0x01,0x01
0.801751125000000,858,0x32,0x01
0.802085750000000,859,0x07,0x0F
0.802158750000000,859,0x00,0x01
0.802233250000000,859,0x14,0x01
0.802312125000000,860,0x32,0x01
0.802386625000000,860,0x00,0x01
0.802461125000000,860,0x00,0x01
0.802544375000000,861,0x34,0x01
0.802618875000000,861,0x80,0x01
0.802693375000000,861,0x80,0x01
0.802776125000000,862,0x32,0x01
0.802850625000000,862,0x0A,0x01
0.802925125000000,862,0x00,0x01
0.803005000000000,863,0x32,0x01
0.803079500000000,863,0x11,0x01
0.803154000000000,863,0x22,0x01
0.803233875000000,864,0x32,0x01
0.803308375000000,864,0x33,0x01
0.803382750000000,864,0xF4,0x01
0.803462625000000,865,0x32,0x01
0.803537125000000,865,0xB9,0x01
0.803611625000000,865,0xFA,0x01
0.803692000000000,866,0x32,0x01
0.803766500000000,866,0xA7,0x01
0.803841000000000,866,0x00,0x01
0.803922750000000,867,0x07,0x01
0.803997250000000,867,0x01,0x01
0.804071750000000,867,0x14,0x01
0.804407375000000,868,0x07,0x0F
0.804480375000000,868,0x00,0x01
0.804554875000000,868,0x3C,0x01
0.804633750000000,869,0x32,0x01
0.804708250000000,869,0x00,0x01
0.804782750000000,869,0x00,0x01
0.804866000000000,870,0x34,0x01
0.804940500000000,870,0x80,0x01
0.805015000000000,870,0x80,0x01
0.805097750000000,871,0x32,0x01
0.805172250000000,871,0x0A,0x01
0.805246750000000,871,0x00,0x01
0.805326625000000,872,0x32,0x01
0.805401125000000,872,0x11,0x01
0.805475625000000,872,0x22,0x01
0.805555500000000,873,0x32,0x01
0.805630000000000,873,0x33,0x01
0.805704375000000,873,0xF4,0x81
0.805784250000000,874,0x32,0x01
0.805858750000000,874,0xB9,0x01
0.805933250000000,874,0xFA,0x01
0.806013625000000,875,0x32,0x01
0.806088125000000,875,0xA7,0x01
0.806162625000000,875,0x00,0x01
0.806247375000000,876,0x07,0x01
0.806321875000000,876,0x01,0x01
0.806396375000000,876,0x3C,0x01
0.806733000000000,877,0x07,0x0D
0.806806500000000,877,0x00,0x00
0.806880875000000,877,0x1E,0x01
0.806959875000000,878,0x32,0x00
0.807034250000000,878,0x00,0x01
0.807108750000000,878,0x00,0x01
0.807192125000000,879,0x34,0x01
0.807266625000000,879,0x80,0x00
0.807341000000000,879,0x80,0x01
0.807423875000000,880,0x32,0x01
0.807498375000000,880,0x0A,0x01
0.807572875000000,880,0x00,0x01
0.807652750000000,881,0x32,0x00
0.807727125000000,881,0x11,0x01
0.807801625000000,881,0x22,0x01
0.807881500000000,882,0x32,0x01
0.807956000000000,882,0x33,0x01
0.808030500000000,882,0xF4,0x01
0.808110375000000,883,0x32,0x01
0.808184875000000,883,0xB9,0x01
0.808259375000000,883,0xFA,0x01
0.808339625000000,884,0x32,0x81
0.808414125000000,884,0xA7,0x01
0.808488625000000,884,0x00,0x01
0.808570500000000,885,0x07,0x01
0.808645000000000,885,0x01,0x01
0.808719500000000,885,0x1E,0x01
0.809057000000000,886,0x07,0x0F
0.809130000000000,886,0x00,0x81
0.809204500000000,886,0x46,0x01
0.809283375000000,887,0x32,0x81
0.809357875000000,887,0x00,0x01
0.809432375000000,887,0x00,0x01
0.809515750000000,888,0x34,0x01
0.809590125000000,888,0x80,0x81
0.809664625000000,888,0x80,0x01
0.809747500000000,889,0x32,0x01
0.809822000000000,889,0x0A,0x01
0.809896500000000,889,0x00,0x01
0.809976375000000,890,0x32,0x01
0.810050750000000,890,0x11,0x81
0.810125250000000,890,0x22,0x01
0.810205125000000,891,0x32,0x01
0.810279625000000,891,0x33,0x01
0.810354125000000,891,0xF4,0x01
0.810434000000000,892,0x32,0x01
0.810508500000000,892,0xB9,0x01
0.810583000000000,892,0xFA,0x01
0.810663375000000,893,0x32,0x01
0.810737750000000,893,0xA7,0x01
0.810812250000000,893,0x00,0x01
0.810894125000000,894,0x07,0x01
0.810968625000000,894,0x01,0x01
0.811043125000000,894,0x46,0x01
0.811373750000000,895,0x07,0x0D
0.811447250000000,895,0x00,0x01
0.811521750000000,895,0x00,0x01
0.811600625000000,896,0x32,0x01
0.811675125000000,896,0x00,0x01
0.811749625000000,896,0x00,0x01
0.811833000000000,897,0x34,0x00
0.811907375000000,897,0x80,0x01
0.811981875000000,897,0x80,0x01
0.812064750000000,898,0x32,0x01
0.812139250000000,898,0x0A,0x01
0.812213750000000,898,0x00,0x00
0.812293625000000,899,0x32,0x00
0.812368000000000,899,0x11,0x01
0.812442500000000,899,0x22,0x01
0.812522375000000,900,0x32,0x01
0.812596875000000,900,0x33,0x01
0.812671375000000,900,0xF4,0x01
0.812751250000000,901,0x32,0x01
0.812825750000000,901,0xB9,0x01
0.812900250000000,901,0xFA,0x01
0.812980625000000,902,0x32,0x01
0.813055000000000,902,0xA7,0x01
0.813129500000000,902,0x00,0x01
0.813211375000000,903,0x07,0x01
0.813285875000000,903,0x01,0x01
0.813360375000000,903,0x00,0x00
0.813692000000000,904,0x07,0x0F
0.813765000000000,904,0x00,0x01
0.813839500000000,904,0x28,0x01
0.813918375000000,905,0x32,0x01
0.813992875000000,905,0x00,0x01
0.814067375000000,905,0x00,0x01
0.814150625000000,906,0x34,0x81
0.814225125000000,906,0x80,0x01
0.814299625000000,906,0x80,0x01
0.814382500000000,907,0x32,0x01
0.814457000000000,907,0x0A,0x01
0.814531375000000,907,0x00,0x81
0.814611250000000,908,0x32,0x01
0.814685750000000,908,0x11,0x01
0.814760250000000,908,0x22,0x01
0.814840125000000,909,0x32,0x01
0.814914625000000,909,0x33,0x01
0.814989125000000,909,0xF4,0x01
0.815069000000000,910,0x32,0x01
0.815143500000000,910,0xB9,0x01
0.815218000000000,910,0xFA,0x01
0.815298250000000,911,0x32,0x01
0.815372750000000,911,0xA7,0x01
0.815447250000000,911,0x00,0x01
0.815529125000000,912,0x07,0x01
0.815603625000000,912,0x01,0x01
0.815678125000000,912,0x28,0x01
0.816010750000000,913,0x07,0x0F
0.816083750000000,913,0x00,0x01
0.816158250000000,913,0x0A,0x01
0.816237125000000,914,0x32,0x01
0.816311625000000,914,0x00,0x01
0.816386125000000,914,0x00,0x01
0.816469375000000,915,0x34,0x81
0.816543875000000,915,0x80,0x01
0.816618375000000,915,0x80,0x01
0.816701250000000,916,0x32,0x01
0.816775750000000,916,0x0A,0x01
0.816850125000000,916,0x00,0x81
0.816930000000000,917,0x32,0x81
0.817004500000000,917,0x11,0x01
0.817079000000000,917,0x22,0x01
0.817158875000000,918,0x32,0x01
0.817233375000000,918,0x33,0x01
0.817307875000000,918,0xF4,0x01
0.817387750000000,919,0x32,0x01
0.817462250000000,919,0xB9,0x01
0.817536750000000,919,0xFA,0x00
0.817617000000000,920,0x32,0x01
0.817691500000000,920,0xA7,0x01
0.817766000000000,920,0x00,0x01
0.817847875000000,921,0x07,0x01
0.817922375000000,921,0x01,0x01
0.817996750000000,921,0x0A,0x81
0.818330500000000,922,0x07,0x0F
0.818403500000000,922,0x00,0x01
0.818478000000000,922,0x32,0x01
0.818556875000000,923,0x32,0x01
0.818631375000000,923,0x00,0x01
0.818705875000000,923,0x00,0x01
0.818789125000000,924,0x34,0x01
0.818863625000000,924,0x80,0x01
0.818938125000000,924,0x80,0x01
0.819020875000000,925,0x32,0x01
0.819095375000000,925,0x0A,0x01
0.819169875000000,925,0x00,0x01
0.819249750000000,926,0x32,0x01
0.819324250000000,926,0x11,0x01
0.819398750000000,926,0x22,0x01
0.819478625000000,927,0x32,0x01
0.819553125000000,927,0x33,0x01
0.819627500000000,927,0xF4,0x01
0.819707375000000,928,0x32,0x01
0.819781875000000,928,0xB9,0x01
0.819856375000000,928,0xFA,0x01
0.819936750000000,929,0x32,0x01
0.820011250000000,929,0xA7,0x01
0.820085750000000,929,0x00,0x01
0.820167500000000,930,0x07,0x01
0.820242000000000,930,0x01,0x01
0.820316500000000,930,0x32,0x01
0.820651125000000,931,0x07,0x07
0.820724125000000,931,0x00,0x01
0.820798625000000,931,0x14,0x01
0.820877500000000,932,0x32,0x01
0.820952000000000,932,0x00,0x01
0.821026500000000,932,0x00,0x01
0.821109750000000,933,0x34,0x01
0.821184250000000,933,0x80,0x01
0.821258750000000,933,0x80,0x01
0.821341625000000,934,0x32,0x01
0.821416000000000,934,0x0A,0x01
0.821490500000000,934,0x00,0x01
0.821570375000000,935,0x32,0x01
0.821644875000000,935,0x11,0x01
0.821719375000000,935,0x22,0x01
0.821799250000000,936,0x32,0x01
0.821873750000000,936,0x33,0x01
0.821948250000000,936,0xF4,0x01
0.822028125000000,937,0x32,0x01
0.822102500000000,937,0xB9,0x81
0.822177000000000,937,0xFA,0x01
0.822257375000000,938,0x32,0x01
0.822331875000000,938,0xA7,0x01
0.822406375000000,938,0x00,0x01
0.822488250000000,939,0x07,0x01
0.822562750000000,939,0x01,0x01
0.822637125000000,939,0x14,0x01
0.822972875000000,940,0x07,0x0F
0.823045875000000,940,0x00,0x01
0.823120250000000,940,0x3C,0x81
0.823199250000000,941,0x32,0x01
0.823273625000000,941,0x00,0x01
0.823348125000000,941,0x00,0x01
0.823431500000000,942,0x34,0x01
0.823506000000000,942,0x80,0x01
0.823580375000000,942,0x80,0x81
0.823663250000000,943,0x32,0x01
0.823737750000000,943,0x0A,0x01
0.823812250000000,943,0x00,0x01
0.823892125000000,944,0x32,0x01
0.823966625000000,944,0x11,0x01
0.824041000000000,944,0x22,0x01
0.824120875000000,945,0x32,0x81
0.824195375000000,945,0x33,0x01
0.824269875000000,945,0xF4,0x01
0.824349750000000,946,0x32,0x01
0.824424250000000,946,0xB9,0x01
0.824498750000000,946,0xFA,0x01
0.824579125000000,947,0x32,0x01
0.824653625000000,947,0xA7,0x01
0.824728125000000,947,0x00,0x01
0.824809875000000,948,0x07,0x01
0.824884375000000,948,0x01,0x01
0.824958875000000,948,0x3C,0x01
0.825295500000000,949,0x07,0x0F
0.825369000000000,949,0x00,0x01
0.825443500000000,949,0x1E,0x01
0.825522375000000,950,0x32,0x01
0.825596875000000,950,0x00,0x01
0.825671375000000,950,0x00,0x01
0.825754625000000,951,0x34,0x01
0.825829125000000,951,0x80,0x01
0.825903625000000,951,0x80,0x01
0.825986375000000,952,0x32,0x01
0.826060875000000,952,0x0A,0x01
0.826135375000000,952,0x00,0x01
0.826215250000000,953,0x32,0x01
0.826289750000000,953,0x11,0x01
0.826364250000000,953,0x22,0x01
0.826444125000000,954,0x32,0x01
0.826518625000000,954,0x33,0x01
0.826593125000000,954,0xF4,0x00
0.826673000000000,955,0x32,0x00
0.826747375000000,955,0xB9,0x01
0.826821875000000,955,0xFA,0x01
0.826902250000000,956,0x32,0x01
0.826976750000000,956,0xA7,0x01
0.827051250000000,956,0x00,0x01
0.827136000000000,957,0x07,0x01
0.827210500000000,957,0x01,0x01
0.827285000000000,957,0x1E,0x01
0.827622500000000,958,0x07,0x8F
0.827695625000000,958,0x00,0x01
0.827770000000000,958,0x46,0x81
0.827849000000000,959,0x32,0x01
0.827923375000000,959,0x00,0x81
0.827997875000000,959,0x00,0x01
0.828081250000000,960,0x34,0x01
0.828155750000000,960,0x80,0x01
0.828230250000000,960,0x80,0x01
0.828313000000000,961,0x32,0x01
0.828387500000000,961,0x0A,0x01
0.828462000000000,961,0x00,0x01
0.828541875000000,962,0x32,0x01
0.828616375000000,962,0x11,0x01
0.828690875000000,962,0x22,0x00
0.828770750000000,963,0x32,0x01
0.828845125000000,963,0x33,0x01
0.828919625000000,963,0xF4,0x01
0.828999500000000,964,0x32,0x01
0.829074000000000,964,0xB9,0x01
0.829148500000000,964,0xFA,0x01
0.829228875000000,965,0x32,0x01
0.829303375000000,965,0xA7,0x01
0.829377875000000,965,0x00,0x01
0.829459625000000,966,0x07,0x01
0.829534125000000,966,0x01,0x01
0.829608625000000,966,0x46,0x01
0.829939375000000,967,0x07,0x0D
0.830012875000000,967,0x00,0x01
0.830087375000000,967,0x00,0x01
0.830166250000000,968,0x32,0x01
0.830240750000000,968,0x00,0x01
0.830315250000000,968,0x00,0x01
0.830398500000000,969,0x34,0x01
0.830473000000000,969,0x80,0x01
0.830547500000000,969,0x80,0x01
0.830630250000000,970,0x32,0x81
0.830704750000000,970,0x0A,0x01
0.830779250000000,970,0x00,0x01
0.830859125000000,971,0x32,0x01
0.830933625000000,971,0x11,0x01
0.831008125000000,971,0x22,0x01
0.831088000000000,972,0x32,0x01
0.831162500000000,972,0x33,0x01
0.831237000000000,972,0xF4,0x01
0.831316875000000,973,0x32,0x01
0.831391375000000,973,0xB9,0x01
0.831465750000000,973,0xFA,0x01
0.831546125000000,974,0x32,0x01
0.831620625000000,974,0xA7,0x01
0.831695125000000,974,0x00,0x01
0.831777000000000,975,0x07,0x01
0.831851500000000,975,0x01,0x01
0.831926000000000,975,0x00,0x01
0.832257625000000,976,0x07,0x0F
0.832330625000000,976,0x00,0x01
0.832405125000000,976,0x28,0x01
0.832484000000000,977,0x32,0x81
0.832558500000000,977,0x00,0x01
0.832633000000000,977,0x00,0x01
0.832716375000000,978,0x34,0x01
0.832790875000000,978,0x80,0x01
0.832865250000000,978,0x80,0x01
0.832948125000000,979,0x32,0x01
0.833022625000000,979,0x0A,0x01
0.833097125000000,979,0x00,0x01
0.833177000000000,980,0x32,0x01
0.833251500000000,980,0x11,0x01
0.833326000000000,980,0x22,0x00
0.833405875000000,981,0x32,0x00
0.833480250000000,981,0x33,0x01
0.833554750000000,981,0xF4,0x01
0.833634625000000,982,0x32,0x01
0.833709125000000,982,0xB9,0x01
0.833783625000000,982,0xFA,0x01
0.833864000000000,983,0x32,0x01
0.833938500000000,983,0xA7,0x01
0.834013000000000,983,0x00,0x01
0.834094750000000,984,0x07,0x81
0.834169250000000,984,0x01,0x01
0.834243750000000,984,0x28,0x01
0.834576500000000,985,0x07,0x0F
0.834649500000000,985,0x00,0x01
0.834724000000000,985,0x0A,0x01
0.834802875000000,986,0x32,0x01
0.834877375000000,986,0x00,0x01
0.834951875000000,986,0x00,0x01
0.835035125000000,987,0x34,0x01
0.835109625000000,987,0x80,0x01
0.835184125000000,987,0x80,0x01
0.835267000000000,988,0x32,0x00
0.835341375000000,988,0x0A,0x01
0.835415875000000,988,0x00,0x01
0.835495750000000,989,0x32,0x01
0.835570250000000,989,0x11,0x01
0.835644750000000,989,0x22,0x01
0.835724625000000,990,0x32,0x01
0.835799125000000,990,0x33,0x01
0.835873625000000,990,0xF4,0x01
0.835953500000000,991,0x32,0x01
0.836028000000000,991,0xB9,0x01
0.836102375000000,991,0xFA,0x01
0.836182750000000,992,0x32,0x01
0.836257250000000,992,0xA7,0x01
0.836331750000000,992,0x00,0x01
0.836416500000000,993,0x07,0x01
0.836491000000000,993,0x01,0x01
0.836565500000000,993,0x0A,0x01
0.836899250000000,994,0x07,0x0F
0.836972250000000,994,0x00,0x01
0.837046750000000,994,0x32,0x01
0.837125625000000,995,0x32,0x01
0.837200125000000,995,0x00,0x01
0.837274625000000,995,0x00,0x01
0.837357875000000,996,0x34,0x01
0.837432375000000,996,0x80,0x01
0.837506875000000,996,0x80,0x01
0.837589625000000,997,0x32,0x01
0.837664125000000,997,0x0A,0x01
0.837738625000000,997,0x00,0x01
0.837818500000000,998,0x32,0x01
0.837893000000000,998,0x11,0x01
0.837967500000000,998,0x22,0x01
0.838047375000000,999,0x32,0x01
0.838121875000000,999,0x33,0x01
0.838196375000000,999,0xF4,0x00
0.838276250000000,1000,0x32,0x01
0.838350625000000,1000,0xB9,0x01
0.838425125000000,1000,0xFA,0x01
0.838505500000000,1001,0x32,0x01
0.838580000000000,1001,0xA7,0x01
0.838654500000000,1001,0x00,0x01
0.838736375000000,1002,0x07,0x01
0.838810875000000,1002,0x01,0x01
0.838885250000000,1002,0x32,0x01
0.839220000000000,1003,0x07,0x0F
0.839293000000000,1003,0x00,0x01
0.839367500000000,1003,0x14,0x01
0.839446375000000,1004,0x32,0x01
0.839520875000000,1004,0x00,0x01
0.839595375000000,1004,0x00,0x01
0.839678625000000,1005,0x34,0x01
0.839753125000000,1005,0x80,0x01
0.839827625000000,1005,0x80,0x01
0.839910500000000,1006,0x32,0x01
0.839985000000000,1006,0x0A,0x00
0.840059375000000,1006,0x00,0x01
0.840139250000000,1007,0x32,0x01
0.840213750000000,1007,0x11,0x01
0.840288250000000,1007,0x22,0x01
0.840368125000000,1008,0x32,0x01
0.840442625000000,1008,0x33,0x01
0.840517125000000,1008,0xF4,0x01
0.840597000000000,1009,0x32,0x01
0.840671500000000,1009,0xB9,0x01
0.840746000000000,1009,0xFA,0x01
0.840826375000000,1010,0x32,0x01
0.840900875000000,1010,0xA7,0x01
0.840975250000000,1010,0x00,0x01
0.841057125000000,1011,0x07,0x01
0.841131625000000,1011,0x01,0x01
0.841206125000000,1011,0x14,0x01
0.841541750000000,1012,0x07,0x0F
0.841614750000000,1012,0x00,0x01
0.841689250000000,1012,0x3C,0x01
0.841768125000000,1013,0x32,0x01
0.841842625000000,1013,0x00,0x01
0.841917125000000,1013,0x00,0x01
0.842000500000000,1014,0x34,0x01
0.842075000000000,1014,0x80,0x01
0.842149375000000,1014,0x80,0x81
0.842232250000000,1015,0x32,0x01
0.842306750000000,1015,0x0A,0x01
0.842381250000000,1015,0x00,0x01
0.842461125000000,1016,0x32,0x01
0.842535625000000,1016,0x11,0x00
0.842610000000000,1016,0x22,0x01
0.842689875000000,1017,0x32,0x01
0.842764375000000,1017,0x33,0x01
0.842838875000000,1017,0xF4,0x01
0.842918750000000,1018,0x32,0x01
0.842993250000000,1018,0xB9,0x01
0.843067750000000,1018,0xFA,0x01
0.843148125000000,1019,0x32,0x01
0.843222625000000,1019,0xA7,0x01
0.843297125000000,1019,0x00,0x01
0.843378875000000,1020,0x07,0x01
0.843453375000000,1020,0x01,0x01
0.843527875000000,1020,0x3C,0x01
0.843864500000000,1021,0x07,0x0D
0.843938000000000,1021,0x00,0x01
0.844012500000000,1021,0x1E,0x01
0.844091375000000,1022,0x32,0x01
0.844165875000000,1022,0x00,0x01
0.844240375000000,1022,0x00,0x01
0.844323625000000,1023,0x34,0x01
0.844398125000000,1023,0x80,0x01
0.844472625000000,1023,0x80,0x01
0.844555375000000,1024,0x32,0x01
0.844629875000000,1024,0x0A,0x01
0.844704375000000,1024,0x00,0x01
0.844784250000000,1025,0x32,0x01
0.844858750000000,1025,0x11,0x01
0.844933250000000,1025,0x22,0x01
0.845013125000000,1026,0x32,0x01
0.845087625000000,1026,0x33,0x01
0.845162000000000,1026,0xF4,0x81
0.845241875000000,1027,0x32,0x81
0.845316375000000,1027,0xB9,0x01
0.845390875000000,1027,0xFA,0x01
0.845471250000000,1028,0x32,0x01
0.845545750000000,1028,0xA7,0x01
0.845620250000000,1028,0x00,0x01
0.845705000000000,1029,0x07,0x01
0.845779500000000,1029,0x01,0x01
0.845854000000000,1029,0x1E,0x01
0.846191625000000,1030,0x07,0x0F
0.846264625000000,1030,0x00,0x01
0.846339125000000,1030,0x46,0x01
0.846418000000000,1031,0x32,0x01
0.846492500000000,1031,0x00,0x01
0.846566875000000,1031,0x00,0x81
0.846650250000000,1032,0x34,0x01
0.846724750000000,1032,0x80,0x01
0.846799250000000,1032,0x80,0x01
0.846882000000000,1033,0x32,0x01
0.846956500000000,1033,0x0A,0x01
0.847031000000000,1033,0x00,0x01
0.847110875000000,1034,0x32,0x01
0.847185375000000,1034,0x11,0x01
0.847259875000000,1034,0x22,0x01
0.847339750000000,1035,0x32,0x01
0.847414250000000,1035,0x33,0x00
0.847488625000000,1035,0xF4,0x01
0.847568500000000,1036,0x32,0x01
0.847643000000000,1036,0xB9,0x01
0.847717500000000,1036,0xFA,0x01
0.847797875000000,1037,0x32,0x01
0.847872375000000,1037,0xA7,0x01
0.847946875000000,1037,0x00,0x01
0.848028625000000,1038,0x07,0x81
0.848103125000000,1038,0x01,0x01
0.848177625000000,1038,0x46,0x01
0.848508375000000,1039,0x07,0x0D
0.848581875000000,1039,0x00,0x01
0.848656375000000,1039,0x00,0x01
0.848735250000000,1040,0x32,0x01
0.848809750000000,1040,0x00,0x01
0.848884250000000,1040,0x00,0x01
0.848967500000000,1041,0x34,0x01
0.849042000000000,1041,0x80,0x01
0.849116500000000,1041,0x80,0x01
0.849199375000000,1042,0x32,0x01
0.849273750000000,1042,0x0A,0x81
0.849348250000000,1042,0x00,0x01
0.849428125000000,1043,0x32,0x01
0.849502625000000,1043,0x11,0x01
0.849577125000000,1043,0x22,0x01
0.849657000000000,1044,0x32,0x01
0.849731500000000,1044,0x33,0x01
0.849806000000000,1044,0xF4,0x01
0.849885875000000,1045,0x32,0x01
0.849960375000000,1045,0xB9,0x01
0.850034875000000,1045,0xFA,0x00
0.850115125000000,1046,0x32,0x81
0.850189625000000,1046,0xA7,0x01
0.850264125000000,1046,0x00,0x01
0.850346000000000,1047,0x07,0x01
0.850420500000000,1047,0x01,0x01
0.850495000000000,1047,0x00,0x01
0.850826625000000,1048,0x07,0x0F
0.850899750000000,1048,0x00,0x00
0.850974125000000,1048,0x28,0x01
0.851053125000000,1049,0x32,0x00
0.851127500000000,1049,0x00,0x01
0.851202000000000,1049,0x00,0x01
0.851285375000000,1050,0x34,0x01
0.851359875000000,1050,0x80,0x01
0.851434250000000,1050,0x80,0x01
0.851517125000000,1051,0x32,0x01
0.851591625000000,1051,0x0A,0x01
0.851666125000000,1051,0x00,0x01
0.851746000000000,1052,0x32,0x01
0.851820500000000,1052,0x11,0x01
0.851894875000000,1052,0x22,0x01
0.851974750000000,1053,0x32,0x01
0.852049250000000,1053,0x33,0x01
0.852123750000000,1053,0xF4,0x01
0.852203625000000,1054,0x32,0x01
0.852278125000000,1054,0xB9,0x01
0.852352625000000,1054,0xFA,0x01
0.852433000000000,1055,0x32,0x01
0.852507500000000,1055,0xA7,0x01
0.852581875000000,1055,0x00,0x81
0.852663750000000,1056,0x07,0x01
0.852738250000000,1056,0x01,0x01
0.852812750000000,1056,0x28,0x01
0.853145500000000,1057,0x07,0x0F
0.853218500000000,1057,0x00,0x01
0.853293000000000,1057,0x0A,0x01
0.853371875000000,1058,0x32,0x01
0.853446375000000,1058,0x00,0x01
0.853520750000000,1058,0x00,0x81
0.853604125000000,1059,0x34,0x01
0.853678625000000,1059,0x80,0x01
0.853753125000000,1059,0x80,0x01
0.853835875000000,1060,0x32,0x01
0.853910375000000,1060,0x0A,0x01
0.853984875000000,1060,0x00,0x01
0.854064750000000,1061,0x32,0x01
0.854139250000000,1061,0x11,0x01
0.854213750000000,1061,0x22,0x01
0.854293625000000,1062,0x32,0x01
0.854368000000000,1062,0x33,0x81
0.854442500000000,1062,0xF4,0x01
0.854522375000000,1063,0x32,0x01
0.854596875000000,1063,0xB9,0x01
0.854671375000000,1063,0xFA,0x01
0.854751750000000,1064,0x32,0x01
0.854826250000000,1064,0xA7,0x01
0.854900750000000,1064,0x00,0x01
0.854985500000000,1065,0x07,0x01
0.855060000000000,1065,0x01,0x01
0.855134500000000,1065,0x0A,0x01
0.855468125000000,1066,0x07,0x0F
0.855541125000000,1066,0x00,0x01
0.855615625000000,1066,0x32,0x01
0.855694500000000,1067,0x32,0x01
0.855769000000000,1067,0x00,0x01
0.855843500000000,1067,0x00,0x01
0.855926750000000,1068,0x34,0x80
0.856001250000000,1068,0x80,0x01
0.856075750000000,1068,0x80,0x01
0.856158625000000,1069,0x32,0x01
0.856233125000000,1069,0x0A,0x01
0.856307625000000,1069,0x00,0x00
0.856387500000000,1070,0x32,0x01
0.856461875000000,1070,0x11,0x01
0.856536375000000,1070,0x22,0x01
0.856616250000000,1071,0x32,0x01
0.856690750000000,1071,0x33,0x01
0.856765250000000,1071,0xF4,0x01
0.856845125000000,1072,0x32,0x01
0.856919625000000,1072,0xB9,0x01
0.856994125000000,1072,0xFA,0x01
0.857074500000000,1073,0x32,0x01
0.857149000000000,1073,0xA7,0x01
0.857223375000000,1073,0x00,0x01
0.857305250000000,1074,0x07,0x01
0.857379750000000,1074,0x01,0x01
0.857454250000000,1074,0x32,0x01
0.857788875000000,1075,0x07,0x07
0.857861875000000,1075,0x00,0x01
0.857936375000000,1075,0x14,0x01
0.858015250000000,1076,0x32,0x01
0.858089750000000,1076,0x00,0x01
0.858164250000000,1076,0x00,0x01
0.858247625000000,1077,0x34,0x01
0.858322000000000,1077,0x80,0x81
0.858396500000000,1077,0x80,0x01
0.858479375000000,1078,0x32,0x01
0.858553875000000,1078,0x0A,0x01
0.858628375000000,1078,0x00,0x01
0.858708250000000,1079,0x32,0x00
0.858782625000000,1079,0x11,0x01
0.858857125000000,1079,0x22,0x01
0.858937000000000,1080,0x32,0x01
0.859011500000000,1080,0x33,0x01
0.859086000000000,1080,0xF4,0x01
0.859165875000000,1081,0x32,0x01
0.859240375000000,1081,0xB9,0x01
0.859314875000000,1081,0xFA,0x01
0.859395250000000,1082,0x32,0x01
0.859469750000000,1082,0xA7,0x00
0.859544125000000,1082,0x00,0x01
0.859626000000000,1083,0x07,0x01
0.859700500000000,1083,0x01,0x01
0.859775000000000,1083,0x14,0x01
0.860110625000000,1084,0x07,0x0F
0.860183625000000,1084,0x00,0x01
0.860258125000000,1084,0x3C,0x01
0.860337000000000,1085,0x32,0x01
0.860411500000000,1085,0x00,0x01
0.860486000000000,1085,0x00,0x01
0.860569250000000,1086,0x34,0x01
0.860643750000000,1086,0x80,0x01
0.860718250000000,1086,0x80,0x01
0.860801125000000,1087,0x32,0x01
0.860875500000000,1087,0x0A,0x01
0.860950000000000,1087,0x00,0x01
0.861029875000000,1088,0x32,0x01
0.861104375000000,1088,0x11,0x01
0.861178875000000,1088,0x22,0x01
0.861258750000000,1089,0x32,0x01
0.861333250000000,1089,0x33,0x01
0.861407750000000,1089,0xF4,0x01
0.861487625000000,1090,0x32,0x01
0.861562125000000,1090,0xB9,0x01
0.861636500000000,1090,0xFA,0x81
0.861716875000000,1091,0x32,0x01
0.861791375000000,1091,0xA7,0x01
0.861865875000000,1091,0x00,0x01
0.861947750000000,1092,0x07,0x01
0.862022250000000,1092,0x01,0x01
0.862096750000000,1092,0x3C,0x00
0.862433375000000,1093,0x07,0x0D
0.862506875000000,1093,0x00,0x01
0.862581250000000,1093,0x1E,0x01
0.862660250000000,1094,0x32,0x00
0.862734625000000,1094,0x00,0x01
0.862809125000000,1094,0x00,0x01
0.862892500000000,1095,0x34,0x01
0.862967000000000,1095,0x80,0x00
0.863041375000000,1095,0x80,0x01
0.863124250000000,1096,0x32,0x01
0.863198750000000,1096,0x0A,0x01
0.863273250000000,1096,0x00,0x01
0.863353125000000,1097,0x32,0x01
0.863427625000000,1097,0x11,0x01
0.863502000000000,1097,0x22,0x01
0.863581875000000,1098,0x32,0x01
0.863656375000000,1098,0x33,0x01
0.863730875000000,1098,0xF4,0x01
0.863810750000000,1099,0x32,0x01
0.863885250000000,1099,0xB9,0x01
0.863959750000000,1099,0xFA,0x01
0.864040125000000,1100,0x32,0x01
0.864114625000000,1100,0xA7,0x01
0.864189000000000,1100,0x00,0x01
0.864270875000000,1101,0x07,0x01
0.864345375000000,1101,0x01,0x01
0.864419875000000,1101,0x1E,0x01
0.864757500000000,1102,0x07,0x0F
0.864830500000000,1102,0x00,0x01
0.864905000000000,1102,0x46,0x01
0.864983875000000,1103,0x32,0x01
0.865058375000000,1103,0x00,0x01
0.865132875000000,1103,0x00,0x00
0.865216125000000,1104,0x34,0x01
0.865290625000000,1104,0x80,0x01
0.865365125000000,1104,0x80,0x01
0.865447875000000,1105,0x32,0x01
0.865522375000000,1105,0x0A,0x01
0.865596875000000,1105,0x00,0x01
0.865676750000000,1106,0x32,0x01
0.865751250000000,1106,0x11,0x01
0.865825750000000,1106,0x22,0x00
0.865905625000000,1107,0x32,0x00
0.865980000000000,1107,0x33,0x01
0.866054500000000,1107,0xF4,0x01
0.866134375000000,1108,0x32,0x01
0.866208875000000,1108,0xB9,0x01
0.866283375000000,1108,0xFA,0x01
0.866363750000000,1109,0x32,0x01
0.866438250000000,1109,0xA7,0x01
0.866512625000000,1109,0x00,0x81
0.866594500000000,1110,0x07,0x01
0.866669000000000,1110,0x01,0x01
0.866743500000000,1110,0x46,0x01
0.867074250000000,1111,0x07,0x0D
0.867147750000000,1111,0x00,0x01
0.867222250000000,1111,0x00,0x01
0.867301125000000,1112,0x32,0x01
0.867375625000000,1112,0x00,0x01
0.867450000000000,1112,0x00,0x81
0.867533375000000,1113,0x34,0x01
0.867607875000000,1113,0x80,0x01
0.867682375000000,1113,0x80,0x01
0.867765125000000,1114,0x32,0x01
0.867839625000000,1114,0x0A,0x01
0.867914125000000,1114,0x00,0x01
0.867994000000000,1115,0x32,0x01
0.868068500000000,1115,0x11,0x01
0.868142875000000,1115,0x22,0x01
0.868222750000000,1116,0x32,0x01
0.868297250000000,1116,0x33,0x01
0.868371750000000,1116,0xF4,0x01
0.868451625000000,1117,0x32,0x01
0.868526125000000,1117,0xB9,0x01
0.868600625000000,1117,0xFA,0x01
0.868681000000000,1118,0x32,0x01
0.868755500000000,1118,0xA7,0x01
0.868829875000000,1118,0x00,0x81
0.868911750000000,1119,0x07,0x01
0.868986250000000,1119,0x01,0x01
0.869060750000000,1119,0x00,0x01
0.869392500000000,1120,0x07,0x0F
0.869465500000000,1120,0x00,0x01
0.869539875000000,1120,0x28,0x81
0.869618875000000,1121,0x32,0x00
0.869693250000000,1121,0x00,0x01
0.869767750000000,1121,0x00,0x01
0.869851125000000,1122,0x34,0x01
0.869925625000000,1122,0x80,0x01
0.870000000000000,1122,0x80,0x01
0.870082875000000,1123,0x32,0x01
0.870157375000000,1123,0x0A,0x01
0.870231875000000,1123,0x00,0x00
0.870311750000000,1124,0x32,0x00
0.870386125000000,1124,0x11,0x01
0.870460625000000,1124,0x22,0x01
0.870540500000000,1125,0x32,0x01
0.870615000000000,1125,0x33,0x01
0.870689500000000,1125,0xF4,0x01
0.870769375000000,1126,0x32,0x01
0.870843875000000,1126,0xB9,0x01
0.870918375000000,1126,0xFA,0x00
0.870998625000000,1127,0x32,0x01
0.871073125000000,1127,0xA7,0x01
0.871147625000000,1127,0x00,0x01
0.871229500000000,1128,0x07,0x01
0.871304000000000,1128,0x01,0x01
0.871378375000000,1128,0x28,0x81
0.871711125000000,1129,0x07,0x0F
0.871784125000000,1129,0x00,0x01
0.871858625000000,1129,0x0A,0x01
0.871937500000000,1130,0x32,0x01
0.872012000000000,1130,0x00,0x01
0.872086500000000,1130,0x00,0x01
0.872169750000000,1131,0x34,0x01
0.872244250000000,1131,0x80,0x01
0.872318750000000,1131,0x80,0x01
0.872401625000000,1132,0x32,0x00
0.872476000000000,1132,0x0A,0x01
0.872550500000000,1132,0x00,0x01
0.872630375000000,1133,0x32,0x01
0.872704875000000,1133,0x11,0x01
0.872779375000000,1133,0x22,0x01
0.872859250000000,1134,0x32,0x01
0.872933750000000,1134,0x33,0x01
0.873008250000000,1134,0xF4,0x01
0.873088125000000,1135,0x32,0x01
0.873162625000000,1135,0xB9,0x01
0.873237000000000,1135,0xFA,0x01
0.873317375000000,1136,0x32,0x01
0.873391875000000,1136,0xA7,0x01
0.873466375000000,1136,0x00,0x01
0.873548250000000,1137,0x07,0x01
0.873622750000000,1137,0x01,0x00
0.873697125000000,1137,0x0A,0x01
0.874030875000000,1138,0x07,0x0F
0.874103875000000,1138,0x00,0x01
0.874178375000000,1138,0x32,0x01
0.874257250000000,1139,0x32,0x01
0.874331750000000,1139,0x00,0x01
0.874406250000000,1139,0x00,0x01
0.874489500000000,1140,0x34,0x01
0.874564000000000,1140,0x80,0x01
0.874638500000000,1140,0x80,0x01
0.874721375000000,1141,0x32,0x01
0.874795875000000,1141,0x0A,0x00
0.874870250000000,1141,0x00,0x01
0.874950125000000,1142,0x32,0x01
0.875024625000000,1142,0x11,0x01
0.875099125000000,1142,0x22,0x01
0.875179000000000,1143,0x32,0x01
0.875253500000000,1143,0x33,0x01
0.875328000000000,1143,0xF4,0x01
0.875407875000000,1144,0x32,0x01
0.875482375000000,1144,0xB9,0x01
0.875556875000000,1144,0xFA,0x01
0.875637250000000,1145,0x32,0x01
0.875711750000000,1145,0xA7,0x00
0.875786125000000,1145,0x00,0x01
0.875871000000000,1146,0x07,0x01
0.875945375000000,1146,0x01,0x81
0.876019875000000,1146,0x32,0x01
0.876354625000000,1147,0x07,0x0F
0.876427625000000,1147,0x00,0x01
0.876502125000000,1147,0x14,0x01
0.876581000000000,1148,0x32,0x01
0.876655500000000,1148,0x00,0x01
0.876730000000000,1148,0x00,0x00
0.876813250000000,1149,0x34,0x01
0.876887750000000,1149,0x80,0x01
0.876962250000000,1149,0x80,0x01
0.877045000000000,1150,0x32,0x01
0.877119500000000,1150,0x0A,0x01
0.877194000000000,1150,0x00,0x01
0.877273875000000,1151,0x32,0x01
0.877348375000000,1151,0x11,0x01
0.877422875000000,1151,0x22,0x01
0.877502750000000,1152,0x32,0x01
0.877577125000000,1152,0x33,0x81
0.877651625000000,1152,0xF4,0x01
0.877731500000000,1153,0x32,0x01
0.877806000000000,1153,0xB9,0x01
0.877880500000000,1153,0xFA,0x01
0.877960875000000,1154,0x32,0x01
0.878035375000000,1154,0xA7,0x01
0.878109875000000,1154,0x00,0x01
0.878191625000000,1155,0x07,0x01
0.878266125000000,1155,0x01,0x01
0.878340625000000,1155,0x14,0x01
0.878676250000000,1156,0x07,0x07
0.878749250000000,1156,0x00,0x01
0.878823750000000,1156,0x3C,0x01
0.878902625000000,1157,0x32,0x01
0.878977125000000,1157,0x00,0x01
0.879051625000000,1157,0x00,0x01
0.879135000000000,1158,0x34,0x01
0.879209375000000,1158,0x80,0x81
0.879283875000000,1158,0x80,0x01
0.879366750000000,1159,0x32,0x01
0.879441250000000,1159,0x0A,0x01
0.879515750000000,1159,0x00,0x00
0.879595625000000,1160,0x32,0x00
0.879670000000000,1160,0x11,0x01
0.879744500000000,1160,0x22,0x01
0.879824375000000,1161,0x32,0x01
0.879898875000000,1161,0x33,0x01
0.879973375000000,1161,0xF4,0x01
0.880053250000000,1162,0x32,0x01
0.880127750000000,1162,0xB9,0x01
0.880202250000000,1162,0xFA,0x01
0.880282625000000,1163,0x32,0x01
0.880357000000000,1163,0xA7,0x01
0.880431500000000,1163,0x00,0x01
0.880513375000000,1164,0x07,0x01
0.880587875000000,1164,0x01,0x01
0.880662375000000,1164,0x3C,0x01
0.880999000000000,1165,0x07,0x0D
0.881072500000000,1165,0x00,0x00
0.881146875000000,1165,0x1E,0x01
0.881225875000000,1166,0x32,0x01
0.881300250000000,1166,0x00,0x01
0.881374750000000,1166,0x00,0x01
0.881458125000000,1167,0x34,0x01
0.881532625000000,1167,0x80,0x01
0.881607125000000,1167,0x80,0x00
0.881689875000000,1168,0x32,0x01
0.881764375000000,1168,0x0A,0x01
0.881838875000000,1168,0x00,0x01
0.881918750000000,1169,0x32,0x01
0.881993250000000,1169,0x11,0x01
0.882067750000000,1169,0x22,0x00
0.882147625000000,1170,0x32,0x00
0.882222000000000,1170,0x33,0x01
0.882296500000000,1170,0xF4,0x01
0.882376375000000,1171,0x32,0x01
0.882450875000000,1171,0xB9,0x01
0.882525375000000,1171,0xFA,0x01
0.882605750000000,1172,0x32,0x01
0.882680250000000,1172,0xA7,0x01
0.882754750000000,1172,0x00,0x01
0.882836500000000,1173,0x07,0x01
0.882911000000000,1173,0x01,0x01
0.882985500000000,1173,0x1E,0x01
0.883323125000000,1174,0x07,0x0F
0.883396125000000,1174,0x00,0x01
0.883470625000000,1174,0x46,0x01
0.883549500000000,1175,0x32,0x01
0.883624000000000,1175,0x00,0x01
0.883698500000000,1175,0x00,0x01
0.883781750000000,1176,0x34,0x01
0.883856250000000,1176,0x80,0x01
0.883930750000000,1176,0x80,0x01
0.884013500000000,1177,0x32,0x01
0.884088000000000,1177,0x0A,0x01
0.884162500000000,1177,0x00,0x01
0.884242375000000,1178,0x32,0x01
0.884316875000000,1178,0x11,0x01
0.884391375000000,1178,0x22,0x01
0.884471250000000,1179,0x32,0x01
0.884545750000000,1179,0x33,0x01
0.884620125000000,1179,0xF4,0x01
0.884700000000000,1180,0x32,0x01
0.884774500000000,1180,0xB9,0x01
0.884849000000000,1180,0xFA,0x01
0.884929375000000,1181,0x32,0x01
0.885003875000000,1181,0xA7,0x01
0.885078375000000,1181,0x00,0x01
0.885163125000000,1182,0x07,0x01
0.885237625000000,1182,0x01,0x01
0.885312125000000,1182,0x46,0x01
0.885642750000000,1183,0x07,0x0D
0.885716250000000,1183,0x00,0x01
0.885790750000000,1183,0x00,0x01
0.885869625000000,1184,0x32,0x01
0.885944125000000,1184,0x00,0x01
0.886018625000000,1184,0x00,0x01
0.886102000000000,1185,0x34,0x00
0.886176375000000,1185,0x80,0x01
0.886250875000000,1185,0x80,0x01
0.886333750000000,1186,0x32,0x01
0.886408250000000,1186,0x0A,0x01
0.886482625000000,1186,0x00,0x01
0.886562500000000,1187,0x32,0x01
0.886637000000000,1187,0x11,0x01
0.886711500000000,1187,0x22,0x01
0.886791375000000,1188,0x32,0x01
0.886865875000000,1188,0x33,0x01
0.886940375000000,1188,0xF4,0x01
0.887020250000000,1189,0x32,0x01
0.887094750000000,1189,0xB9,0x01
0.887169250000000,1189,0xFA,0x00
0.887249500000000,1190,0x32,0x01
0.887324000000000,1190,0xA7,0x01
0.887398500000000,1190,0x00,0x01
0.887480375000000,1191,0x07,0x01
0.887554875000000,1191,0x01,0x01
0.887629375000000,1191,0x00,0x00
0.887961000000000,1192,0x07,0x0F
0.888034000000000,1192,0x00,0x81
0.888108500000000,1192,0x28,0x01
0.888187500000000,1193,0x32,0x00
0.888261875000000,1193,0x00,0x01
0.888336375000000,1193,0x00,0x01
0.888419750000000,1194,0x34,0x01
0.888494250000000,1194,0x80,0x01
0.888568625000000,1194,0x80,0x01
0.888651500000000,1195,0x32,0x01
0.888726000000000,1195,0x0A,0x01
0.888800500000000,1195,0x00,0x01
0.888880375000000,1196,0x32,0x01
0.888954875000000,1196,0x11,0x01
0.889029250000000,1196,0x22,0x81
0.889109125000000,1197,0x32,0x81
0.889183625000000,1197,0x33,0x01
0.889258125000000,1197,0xF4,0x01
0.889338000000000,1198,0x32,0x01
0.889412500000000,1198,0xB9,0x01
0.889487000000000,1198,0xFA,0x01
0.889567375000000,1199,0x32,0x01
0.889641875000000,1199,0xA7,0x01
0.889716375000000,1199,0x00,0x00
0.889798125000000,1200,0x07,0x01
0.889872625000000,1200,0x01,0x01
0.889947125000000,1200,0x28,0x01
0.890279875000000,1201,0x07,0x0F
0.890352875000000,1201,0x00,0x01
0.890427250000000,1201,0x0A,0x81
0.890506250000000,1202,0x32,0x01
0.890580625000000,1202,0x00,0x81
0.890655125000000,1202,0x00,0x01
0.890738500000000,1203,0x34,0x01
0.890813000000000,1203,0x80,0x01
0.890887500000000,1203,0x80,0x01
0.890970250000000,1204,0x32,0x01
0.891044750000000,1204,0x0A,0x01
0.891119250000000,1204,0x00,0x01
0.891199125000000,1205,0x32,0x01
0.891273625000000,1205,0x11,0x00
0.891348000000000,1205,0x22,0x01
0.891427875000000,1206,0x32,0x01
0.891502375000000,1206,0x33,0x01
0.891576875000000,1206,0xF4,0x01
0.891656750000000,1207,0x32,0x01
0.891731250000000,1207,0xB9,0x01
0.891805750000000,1207,0xFA,0x01
0.891886125000000,1208,0x32,0x01
0.891960625000000,1208,0xA7,0x01
0.892035000000000,1208,0x00,0x01
0.892116875000000,1209,0x07,0x01
0.892191375000000,1209,0x01,0x01
0.892265875000000,1209,0x0A,0x01
0.892599500000000,1210,0x07,0x0F
0.892672500000000,1210,0x00,0x01
0.892747000000000,1210,0x32,0x01
0.892825875000000,1211,0x32,0x01
0.892900375000000,1211,0x00,0x01
0.892974875000000,1211,0x00,0x01
0.893058125000000,1212,0x34,0x01
0.893132625000000,1212,0x80,0x01
0.893207125000000,1212,0x80,0x01
0.893290000000000,1213,0x32,0x01
0.893364375000000,1213,0x0A,0x81
0.893438875000000,1213,0x00,0x01
0.893518750000000,1214,0x32,0x01
0.893593250000000,1214,0x11,0x01
0.893667750000000,1214,0x22,0x01
0.893747625000000,1215,0x32,0x01
0.893822125000000,1215,0x33,0x01
0.893896625000000,1215,0xF4,0x01
0.893976500000000,1216,0x32,0x01
0.894051000000000,1216,0xB9,0x01
0.894125375000000,1216,0xFA,0x01
0.894205750000000,1217,0x32,0x01
0.894280250000000,1217,0xA7,0x01
0.894354750000000,1217,0x00,0x01
0.894439500000000,1218,0x07,0x01
0.894514000000000,1218,0x01,0x01
0.894588500000000,1218,0x32,0x01
0.894923125000000,1219,0x07,0x0F
0.894996125000000,1219,0x00,0x01
0.895070625000000,1219,0x14,0x01
0.895149500000000,1220,0x32,0x01
0.895224000000000,1220,0x00,0x01
0.895298500000000,1220,0x00,0x01
0.895381750000000,1221,0x34,0x01
0.895456250000000,1221,0x80,0x01
0.895530750000000,1221,0x80,0x01
0.895613625000000,1222,0x32,0x01
0.895688000000000,1222,0x0A,0x01
0.895762500000000,1222,0x00,0x01
0.895842375000000,1223,0x32,0x01
0.895916875000000,1223,0x11,0x01
0.895991375000000,1223,0x22,0x01
0.896071250000000,1224,0x32,0x01
0.896145750000000,1224,0x33,0x01
0.896220250000000,1224,0xF4,0x01
0.896300125000000,1225,0x32,0x01
0.896374625000000,1225,0xB9,0x01
0.896449000000000,1225,0xFA,0x01
0.896529375000000,1226,0x32,0x01
0.896603875000000,1226,0xA7,0x01
0.896678375000000,1226,0x00,0x01
0.896760250000000,1227,0x07,0x01
0.896834625000000,1227,0x01,0x81
0.896909125000000,1227,0x14,0x01
0.897244750000000,1228,0x07,0x0F
0.897317750000000,1228,0x00,0x01
0.897392250000000,1228,0x3C,0x01
0.897471125000000,1229,0x32,0x01
0.897545625000000,1229,0x00,0x01
0.897620125000000,1229,0x00,0x01
0.897703500000000,1230,0x34,0x01
0.897777875000000,1230,0x80,0x01
0.897852375000000,1230,0x80,0x01
0.897935250000000,1231,0x32,0x01
0.898009750000000,1231,0x0A,0x01
0.898084125000000,1231,0x00,0x81
0.898164000000000,1232,0x32,0x01
0.898238500000000,1232,0x11,0x01
0.898313000000000,1232,0x22,0x01
0.898392875000000,1233,0x32,0x01
0.898467375000000,1233,0x33,0x01
0.898541875000000,1233,0xF4,0x01
0.898621750000000,1234,0x32,0x01
0.898696250000000,1234,0xB9,0x01
0.898770750000000,1234,0xFA,0x00
0.898851000000000,1235,0x32,0x01
0.898925500000000,1235,0xA7,0x01
0.899000000000000,1235,0x00,0x01
0.899081875000000,1236,0x07,0x01
0.899156375000000,1236,0x01,0x01
0.899230875000000,1236,0x3C,0x01
0.899567375000000,1237,0x07,0x8D
0.899640875000000,1237,0x00,0x81
0.899715375000000,1237,0x1E,0x01
0.899794250000000,1238,0x32,0x81
0.899868750000000,1238,0x00,0x01
0.899943250000000,1238,0x00,0x01
0.900026625000000,1239,0x34,0x00
0.900101000000000,1239,0x80,0x01
0.900175500000000,1239,0x80,0x01
0.900258375000000,1240,0x32,0x01
0.900332875000000,1240,0x0A,0x01
0.900407250000000,1240,0x00,0x81
0.900487125000000,1241,0x32,0x81
0.900561625000000,1241,0x11,0x01
0.900636125000000,1241,0x22,0x01
0.900716000000000,1242,0x32,0x01
0.900790500000000,1242,0x33,0x01
0.900865000000000,1242,0xF4,0x01
0.900944875000000,1243,0x32,0x01
0.901019375000000,1243,0xB9,0x01
0.901093875000000,1243,0xFA,0x01
0.901174250000000,1244,0x32,0x00
0.901248625000000,1244,0xA7,0x01
0.901323125000000,1244,0x00,0x01
0.901405000000000,1245,0x07,0x01
0.901479500000000,1245,0x01,0x01
0.901554000000000,1245,0x1E,0x01
0.901891625000000,1246,0x07,0x0F
0.901964625000000,1246,0x00,0x01
0.902039000000000,1246,0x46,0x81
0.902118000000000,1247,0x32,0x01
0.902192375000000,1247,0x00,0x81
0.902266875000000,1247,0x00,0x01
0.902350250000000,1248,0x34,0x01
0.902424750000000,1248,0x80,0x01
0.902499125000000,1248,0x80,0x81
0.902582000000000,1249,0x32,0x01
0.902656500000000,1249,0x0A,0x01
0.902731000000000,1249,0x00,0x01
0.902810875000000,1250,0x32,0x01
0.902885375000000,1250,0x11,0x01
0.902959750000000,1250,0x22,0x81
0.903039625000000,1251,0x32,0x81
0.903114125000000,1251,0x33,0x01
0.903188625000000,1251,0xF4,0x01
0.903268500000000,1252,0x32,0x01
0.903343000000000,1252,0xB9,0x01
0.903417500000000,1252,0xFA,0x01
0.903497875000000,1253,0x32,0x01
0.903572375000000,1253,0xA7,0x01
0.903646875000000,1253,0x00,0x01
0.903728625000000,1254,0x07,0x01
0.903803125000000,1254,0x01,0x01
0.903877625000000,1254,0x46,0x01
0.904208375000000,1255,0x07,0x0F
0.904281875000000,1255,0x00,0x01
0.904356375000000,1255,0x00,0x01
0.904435250000000,1256,0x32,0x01
0.904509750000000,1256,0x00,0x01
0.904584250000000,1256,0x00,0x01
0.904667500000000,1257,0x34,0x01
0.904742000000000,1257,0x80,0x01
0.904816500000000,1257,0x80,0x01
0.904899250000000,1258,0x32,0x01
0.904973750000000,1258,0x0A,0x01
0.905048250000000,1258,0x00,0x01
0.905128125000000,1259,0x32,0x01
0.905202625000000,1259,0x11,0x01
0.905277125000000,1259,0x22,0x01
0.905357000000000,1260,0x32,0x01
0.905431500000000,1260,0x33,0x01
0.905506000000000,1260,0xF4,0x01
0.905585875000000,1261,0x32,0x00
0.905660250000000,1261,0xB9,0x01
0.905734750000000,1261,0xFA,0x01
0.905815125000000,1262,0x32,0x01
0.905889625000000,1262,0xA7,0x01
0.905964125000000,1262,0x00,0x01
0.906046000000000,1263,0x07,0x01
0.906120375000000,1263,0x01,0x81
0.906194875000000,1263,0x00,0x01
0.906526625000000,1264,0x07,0x0F
0.906599625000000,1264,0x00,0x01
0.906674125000000,1264,0x28,0x01
0.906753000000000,1265,0x32,0x01
0.906827500000000,1265,0x00,0x01
0.906902000000000,1265,0x00,0x01
0.906985250000000,1266,0x34,0x01
0.907059750000000,1266,0x80,0x01
0.907134250000000,1266,0x80,0x01
0.907217125000000,1267,0x32,0x01
0.907291500000000,1267,0x0A,0x01
0.907366000000000,1267,0x00,0x01
0.907445875000000,1268,0x32,0x01
0.907520375000000,1268,0x11,0x01
0.907594875000000,1268,0x22,0x01
0.907674750000000,1269,0x32,0x01
0.907749250000000,1269,0x33,0x01
0.907823750000000,1269,0xF4,0x01
0.907903625000000,1270,0x32,0x01
0.907978125000000,1270,0xB9,0x01
0.908052500000000,1270,0xFA,0x01
0.908132875000000,1271,0x32,0x01
0.908207375000000,1271,0xA7,0x01
0.908281875000000,1271,0x00,0x01
0.908363750000000,1272,0x07,0x01
0.908438250000000,1272,0x01,0x01
0.908512625000000,1272,0x28,0x01
0.908845375000000,1273,0x07,0x0F
0.908918375000000,1273,0x00,0x01
0.908992875000000,1273,0x0A,0x01
0.909071750000000,1274,0x32,0x01
0.909146250000000,1274,0x00,0x01
0.909220750000000,1274,0x00,0x01
0.909304000000000,1275,0x34,0x01
0.909378500000000,1275,0x80,0x01
0.909453000000000,1275,0x80,0x01
0.909535875000000,1276,0x32,0x01
0.909610250000000,1276,0x0A,0x01
0.909684750000000,1276,0x00,0x01
0.909764625000000,1277,0x32,0x01
0.909839125000000,1277,0x11,0x01
0.909913625000000,1277,0x22,0x01
0.909993500000000,1278,0x32,0x01
0.910068000000000,1278,0x33,0x01
0.910142500000000,1278,0xF4,0x01
0.910222375000000,1279,0x32,0x01
0.910296875000000,1279,0xB9,0x01
0.910371375000000,1279,0xFA,0x01
0.910451625000000,1280,0x32,0x81
0.910526125000000,1280,0xA7,0x01
0.910600625000000,1280,0x00,0x01
0.910682500000000,1281,0x07,0x01
0.910757000000000,1281,0x01,0x01
0.910831500000000,1281,0x0A,0x01
0.911165125000000,1282,0x07,0x0F
0.911238125000000,1282,0x00,0x01
0.911312625000000,1282,0x32,0x01
0.911391500000000,1283,0x32,0x01
0.911466000000000,1283,0x00,0x01
0.911540500000000,1283,0x00,0x01
0.911623750000000,1284,0x34,0x81
0.911698250000000,1284,0x80,0x01
0.911772750000000,1284,0x80,0x01
0.911855625000000,1285,0x32,0x01
0.911930125000000,1285,0x0A,0x01
0.912004500000000,1285,0x00,0x81
0.912084375000000,1286,0x32,0x81
0.912158875000000,1286,0x11,0x01
0.912233375000000,1286,0x22,0x01
0.912313250000000,1287,0x32,0x01
0.912387750000000,1287,0x33,0x01
0.912462250000000,1287,0xF4,0x01
0.912542125000000,1288,0x32,0x01
0.912616625000000,1288,0xB9,0x01
0.912691125000000,1288,0xFA,0x01
0.912771500000000,1289,0x32,0x00
0.912845875000000,1289,0xA7,0x01
0.912920375000000,1289,0x00,0x01
0.913002250000000,1290,0x07,0x01
0.913076750000000,1290,0x01,0x01
0.913151250000000,1290,0x32,0x01
0.913485875000000,1291,0x07,0x0F
0.913558875000000,1291,0x00,0x01
0.913633375000000,1291,0x14,0x01
0.913712250000000,1292,0x32,0x01
0.913786750000000,1292,0x00,0x01
0.913861250000000,1292,0x00,0x01
0.913944500000000,1293,0x34,0x01
0.914019000000000,1293,0x80,0x01
0.914093500000000,1293,0x80,0x01
0.914176375000000,1294,0x32,0x01
0.914250750000000,1294,0x0A,0x01
0.914325250000000,1294,0x00,0x01
0.914405125000000,1295,0x32,0x01
0.914479625000000,1295,0x11,0x01
0.914554125000000,1295,0x22,0x01
0.914634000000000,1296,0x32,0x01
0.914708500000000,1296,0x33,0x01
0.914783000000000,1296,0xF4,0x01
0.914862875000000,1297,0x32,0x01
0.914937375000000,1297,0xB9,0x01
0.915011875000000,1297,0xFA,0x01
0.915092125000000,1298,0x32,0x81
0.915166625000000,1298,0xA7,0x01
0.915241125000000,1298,0x00,0x01
0.915323000000000,1299,0x07,0x01
0.915397500000000,1299,0x01,0x01
0.915472000000000,1299,0x14,0x01
0.915807625000000,1300,0x07,0x0F
0.915880625000000,1300,0x00,0x01
0.915955125000000,1300,0x3C,0x01
0.916034000000000,1301,0x32,0x01
0.916108500000000,1301,0x00,0x01
0.916183000000000,1301,0x00,0x01
0.916266250000000,1302,0x34,0x01
0.916340750000000,1302,0x80,0x01
0.916415250000000,1302,0x80,0x01
0.916498000000000,1303,0x32,0x01
0.916572500000000,1303,0x0A,0x01
0.916647000000000,1303,0x00,0x01
0.916726875000000,1304,0x32,0x01
0.916801375000000,1304,0x11,0x01
0.916875875000000,1304,0x22,0x01
0.916955750000000,1305,0x32,0x01
0.917030250000000,1305,0x33,0x01
0.917104750000000,1305,0xF4,0x01
0.917184625000000,1306,0x32,0x01
0.917259000000000,1306,0xB9,0x01
0.917333500000000,1306,0xFA,0x01
0.917413875000000,1307,0x32,0x01
0.917488375000000,1307,0xA7,0x01
0.917562875000000,1307,0x00,0x01
0.917644750000000,1308,0x07,0x01
0.917719250000000,1308,0x01,0x01
0.917793625000000,1308,0x3C,0x01
0.918130250000000,1309,0x07,0x8D
0.918203875000000,1309,0x00,0x01
0.918278250000000,1309,0x1E,0x01
0.918357250000000,1310,0x32,0x01
0.918431625000000,1310,0x00,0x81
0.918506125000000,1310,0x00,0x01
0.918589500000000,1311,0x34,0x01
0.918664000000000,1311,0x80,0x01
0.918738500000000,1311,0x80,0x00
0.918821250000000,1312,0x32,0x01
0.918895750000000,1312,0x0A,0x01
0.918970250000000,1312,0x00,0x01
0.919050125000000,1313,0x32,0x01
0.919124625000000,1313,0x11,0x01
0.919199125000000,1313,0x22,0x01
0.919279000000000,1314,0x32,0x00
0.919353375000000,1314,0x33,0x01
0.919427875000000,1314,0xF4,0x01
0.919507750000000,1315,0x32,0x01
0.919582250000000,1315,0xB9,0x01
0.919656750000000,1315,0xFA,0x01
0.919737125000000,1316,0x32,0x01
0.919811625000000,1316,0xA7,0x01
0.919886125000000,1316,0x00,0x01
0.919967875000000,1317,0x07,0x01
0.920042375000000,1317,0x01,0x01
0.920116875000000,1317,0x1E,0x01
0.920454500000000,1318,0x07,0x0F
0.920527500000000,1318,0x00,0x01
0.920602000000000,1318,0x46,0x01
0.920680875000000,1319,0x32,0x01
0.920755375000000,1319,0x00,0x01
0.920829875000000,1319,0x00,0x01
0.920913125000000,1320,0x34,0x01
0.920987625000000,1320,0x80,0x01
0.921062125000000,1320,0x80,0x01
0.921144875000000,1321,0x32,0x01
0.921219375000000,1321,0x0A,0x01
0.921293875000000,1321,0x00,0x01
0.921373750000000,1322,0x32,0x01
0.921448250000000,1322,0x11,0x01
0.921522750000000,1322,0x22,0x00
0.921602625000000,1323,0x32,0x00
0.921677000000000,1323,0x33,0x01
0.921751500000000,1323,0xF4,0x01
0.921831375000000,1324,0x32,0x01
0.921905875000000,1324,0xB9,0x01
0.921980375000000,1324,0xFA,0x01
0.922060750000000,1325,0x32,0x01
0.922135250000000,1325,0xA7,0x01
0.922209750000000,1325,0x00,0x01
0.922291500000000,1326,0x07,0x01
0.922366000000000,1326,0x01,0x01
0.922440500000000,1326,0x46,0x01
0.922771250000000,1327,0x07,0x0D
0.922844750000000,1327,0x00,0x01
0.922919250000000,1327,0x00,0x01
0.922998125000000,1328,0x32,0x01
0.923072625000000,1328,0x00,0x01
0.923147125000000,1328,0x00,0x01
0.923230375000000,1329,0x34,0x01
0.923304875000000,1329,0x80,0x01
0.923379375000000,1329,0x80,0x01
0.923462125000000,1330,0x32,0x01
0.923536625000000,1330,0x0A,0x01
0.923611125000000,1330,0x00,0x01
0.923691000000000,1331,0x32,0x01
0.923765500000000,1331,0x11,0x01
0.923840000000000,1331,0x22,0x01
0.923919875000000,1332,0x32,0x01
0.923994375000000,1332,0x33,0x01
0.924068875000000,1332,0xF4,0x01
0.924148750000000,1333,0x32,0x01
0.924223125000000,1333,0xB9,0x81
0.924297625000000,1333,0xFA,0x01
0.924378000000000,1334,0x32,0x01
0.924452500000000,1334,0xA7,0x01
0.924527000000000,1334,0x00,0x01
0.924611750000000,1335,0x07,0x01
0.924686250000000,1335,0x01,0x01
0.924760750000000,1335,0x00,0x01
0.925092500000000,1336,0x07,0x0F
0.925165500000000,1336,0x00,0x01
0.925240000000000,1336,0x28,0x01
0.925318875000000,1337,0x32,0x01
0.925393375000000,1337,0x00,0x01
0.925467875000000,1337,0x00,0x00
0.925551125000000,1338,0x34,0x01
0.925625625000000,1338,0x80,0x01
0.925700125000000,1338,0x80,0x01
0.925782875000000,1339,0x32,0x01
0.925857375000000,1339,0x0A,0x01
0.925931875000000,1339,0x00,0x01
0.926011750000000,1340,0x32,0x01
0.926086250000000,1340,0x11,0x01
0.926160750000000,1340,0x22,0x01
0.926240625000000,1341,0x32,0x01
0.926315125000000,1341,0x33,0x00
0.926389500000000,1341,0xF4,0x01
0.926469375000000,1342,0x32,0x01
0.926543875000000,1342,0xB9,0x01
0.926618375000000,1342,0xFA,0x01
0.926698750000000,1343,0x32,0x01
0.926773250000000,1343,0xA7,0x01
0.926847750000000,1343,0x00,0x01
0.926929625000000,1344,0x07,0x00
0.927004000000000,1344,0x01,0x01
0.927078500000000,1344,0x28,0x01
0.927411250000000,1345,0x07,0x0F
0.927484250000000,1345,0x00,0x01
0.927558750000000,1345,0x0A,0x01
0.927637625000000,1346,0x32,0x01
0.927712125000000,1346,0x00,0x01
0.927786625000000,1346,0x00,0x01
0.927869875000000,1347,0x34,0x01
0.927944375000000,1347,0x80,0x01
0.928018875000000,1347,0x80,0x01
0.928101625000000,1348,0x32,0x01
0.928176125000000,1348,0x0A,0x01
0.928250625000000,1348,0x00,0x01
0.928330500000000,1349,0x32,0x01
0.928405000000000,1349,0x11,0x01
0.928479500000000,1349,0x22,0x01
0.928559375000000,1350,0x32,0x01
0.928633875000000,1350,0x33,0x01
0.928708375000000,1350,0xF4,0x01
0.928788250000000,1351,0x32,0x01
0.928862625000000,1351,0xB9,0x81
0.928937125000000,1351,0xFA,0x01
0.929017500000000,1352,0x32,0x01
0.929092000000000,1352,0xA7,0x01
0.929166500000000,1352,0x00,0x01
0.929248375000000,1353,0x07,0x01
0.929322875000000,1353,0x01,0x01
0.929397250000000,1353,0x0A,0x01
0.929731000000000,1354,0x07,0x0F
0.929804000000000,1354,0x00,0x01
0.929878500000000,1354,0x32,0x01
0.929957375000000,1355,0x32,0x01
0.930031875000000,1355,0x00,0x01
0.930106375000000,1355,0x00,0x01
0.930189625000000,1356,0x34,0x01
0.930264125000000,1356,0x80,0x01
0.930338625000000,1356,0x80,0x01
0.930421375000000,1357,0x32,0x81
0.930495875000000,1357,0x0A,0x01
0.930570375000000,1357,0x00,0x01
0.930650250000000,1358,0x32,0x01
0.930724750000000,1358,0x11,0x01
0.930799250000000,1358,0x22,0x01
0.930879125000000,1359,0x32,0x01
0.930953625000000,1359,0x33,0x01
0.931028125000000,1359,0xF4,0x01
0.931108000000000,1360,0x32,0x01
0.931182500000000,1360,0xB9,0x01
0.931257000000000,1360,0xFA,0x01
0.931337250000000,1361,0x32,0x81
0.931411750000000,1361,0xA7,0x01
0.931486250000000,1361,0x00,0x01
0.931568125000000,1362,0x07,0x01
0.931642625000000,1362,0x01,0x01
0.931717125000000,1362,0x32,0x01
0.932051750000000,1363,0x07,0x0F
0.932124750000000,1363,0x00,0x01
0.932199250000000,1363,0x14,0x01
0.932278125000000,1364,0x32,0x01
0.932352625000000,1364,0x00,0x01
0.932427125000000,1364,0x00,0x01
0.932510375000000,1365,0x34,0x01
0.932584875000000,1365,0x80,0x01
0.932659375000000,1365,0x80,0x01
0.932742250000000,1366,0x32,0x01
0.932816625000000,1366,0x0A,0x01
0.932891125000000,1366,0x00,0x01
0.932971000000000,1367,0x32,0x01
0.933045500000000,1367,0x11,0x01
0.933120000000000,1367,0x22,0x01
0.933199875000000,1368,0x32,0x01
0.933274375000000,1368,0x33,0x01
0.933348875000000,1368,0xF4,0x01
0.933428750000000,1369,0x32,0x01
0.933503250000000,1369,0xB9,0x01
0.933577625000000,1369,0xFA,0x01
0.933658000000000,1370,0x32,0x01
0.933732500000000,1370,0xA7,0x01
0.933807000000000,1370,0x00,0x01
0.933891750000000,1371,0x07,0x01
0.933966250000000,1371,0x01,0x01
0.934040750000000,1371,0x14,0x01
0.934376375000000,1372,0x07,0x0F
0.934449375000000,1372,0x00,0x01
0.934523875000000,1372,0x3C,0x01
0.934602750000000,1373,0x32,0x01
0.934677250000000,1373,0x00,0x01
0.934751750000000,1373,0x00,0x01
0.934835000000000,1374,0x34,0x01
0.934909500000000,1374,0x80,0x01
0.934984000000000,1374,0x80,0x01
0.935066875000000,1375,0x32,0x00
0.935141250000000,1375,0x0A,0x01
0.935215750000000,1375,0x00,0x01
0.935295625000000,1376,0x32,0x01
0.935370125000000,1376,0x11,0x01
0.935444625000000,1376,0x22,0x01
0.935524500000000,1377,0x32,0x01
0.935599000000000,1377,0x33,0x01
0.935673500000000,1377,0xF4,0x01
0.935753375000000,1378,0x32,0x01
0.935827875000000,1378,0xB9,0x01
0.935902375000000,1378,0xFA,0x00
0.935982625000000,1379,0x32,0x81
0.936057125000000,1379,0xA7,0x01
0.936131625000000,1379,0x00,0x01
0.936213500000000,1380,0x07,0x01
0.936288000000000,1380,0x01,0x01
0.936362500000000,1380,0x3C,0x01
0.936699125000000,1381,0x07,0x0D
0.936772625000000,1381,0x00,0x01
0.936847125000000,1381,0x1E,0x00
0.936926000000000,1382,0x32,0x01
0.937000500000000,1382,0x00,0x01
0.937074875000000,1382,0x00,0x01
0.937158250000000,1383,0x34,0x01
0.937232750000000,1383,0x80,0x01
0.937307250000000,1383,0x80,0x01
0.937390000000000,1384,0x32,0x01
0.937464500000000,1384,0x0A,0x01
0.937539000000000,1384,0x00,0x01
0.937618875000000,1385,0x32,0x01
0.937693375000000,1385,0x11,0x01
0.937767875000000,1385,0x22,0x00
0.937847750000000,1386,0x32,0x00
0.937922125000000,1386,0x33,0x01
0.937996625000000,1386,0xF4,0x01
0.938076500000000,1387,0x32,0x01
0.938151000000000,1387,0xB9,0x01
0.938225500000000,1387,0xFA,0x01
0.938305875000000,1388,0x32,0x01
0.938380375000000,1388,0xA7,0x01
0.938454875000000,1388,0x00,0x01
0.938536625000000,1389,0x07,0x01
0.938611125000000,1389,0x01,0x01
0.938685625000000,1389,0x1E,0x01
0.939023250000000,1390,0x07,0x0F
0.939096250000000,1390,0x00,0x01
0.939170750000000,1390,0x46,0x01
0.939249625000000,1391,0x32,0x01
0.939324125000000,1391,0x00,0x01
0.939398625000000,1391,0x00,0x01
0.939481875000000,1392,0x34,0x01
0.939556375000000,1392,0x80,0x01
0.939630875000000,1392,0x80,0x01
0.939713625000000,1393,0x32,0x81
0.939788125000000,1393,0x0A,0x01
0.939862625000000,1393,0x00,0x01
0.939942500000000,1394,0x32,0x01
0.940017000000000,1394,0x11,0x01
0.940091500000000,1394,0x22,0x01
0.940171375000000,1395,0x32,0x01
0.940245875000000,1395,0x33,0x01
0.940320375000000,1395,0xF4,0x01
0.940400250000000,1396,0x32,0x01
0.940474750000000,1396,0xB9,0x00
0.940549125000000,1396,0xFA,0x01
0.940629500000000,1397,0x32,0x01
0.940704000000000,1397,0xA7,0x01
0.940778500000000,1397,0x00,0x01
0.940860375000000,1398,0x07,0x01
0.940934875000000,1398,0x01,0x01
0.941009250000000,1398,0x46,0x01
0.941340000000000,1399,0x07,0x0C
0.941413500000000,1399,0x00,0x01
0.941488000000000,1399,0x00,0x01
0.941566875000000,1400,0x32,0x01
0.941641375000000,1400,0x00,0x01
0.941715875000000,1400,0x00,0x01
0.941799250000000,1401,0x34,0x01
0.941873625000000,1401,0x80,0x01
0.941948125000000,1401,0x80,0x01
0.942031000000000,1402,0x32,0x01
0.942105500000000,1402,0x0A,0x01
0.942180000000000,1402,0x00,0x01
0.942259750000000,1403,0x32,0x81
0.942334250000000,1403,0x11,0x01
0.942408750000000,1403,0x22,0x01
0.942488625000000,1404,0x32,0x01
0.942563125000000,1404,0x33,0x01
0.942637625000000,1404,0xF4,0x01
0.942717500000000,1405,0x32,0x01
0.942792000000000,1405,0xB9,0x01
0.942866500000000,1405,0xFA,0x01
0.942946750000000,1406,0x32,0x01
0.943021250000000,1406,0xA7,0x01
0.943095750000000,1406,0x00,0x01
0.943180500000000,1407,0x07,0x01
0.943255000000000,1407,0x01,0x01
0.943329500000000,1407,0x00,0x01
0.943661250000000,1408,0x07,0x0F
0.943734250000000,1408,0x00,0x01
0.943808750000000,1408,0x28,0x01
0.943887625000000,1409,0x32,0x01
0.943962125000000,1409,0x00,0x01
0.944036625000000,1409,0x00,0x00
0.944119875000000,1410,0x34,0x01
0.944194375000000,1410,0x80,0x01
0.944268875000000,1410,0x80,0x01
0.944351625000000,1411,0x32,0x01
0.944426125000000,1411,0x0A,0x01
0.944500625000000,1411,0x00,0x01
0.944580500000000,1412,0x32,0x01
0.944655000000000,1412,0x11,0x01
0.944729500000000,1412,0x22,0x01
0.944809375000000,1413,0x32,0x01
0.944883750000000,1413,0x33,0x81
0.944958250000000,1413,0xF4,0x01
0.945038125000000,1414,0x32,0x01
0.945112625000000,1414,0xB9,0x01
0.945187125000000,1414,0xFA,0x01
0.945267500000000,1415,0x32,0x01
0.945342000000000,1415,0xA7,0x01
0.945416500000000,1415,0x00,0x01
0.945498250000000,1416,0x07,0x01
0.945572750000000,1416,0x01,0x01
0.945647250000000,1416,0x28,0x01
0.945980000000000,1417,0x07,0x0F
0.946053000000000,1417,0x00,0x01
0.946127500000000,1417,0x0A,0x01
0.946206375000000,1418,0x32,0x01
0.946280875000000,1418,0x00,0x01
0.946355375000000,1418,0x00,0x01
0.946438625000000,1419,0x34,0x01
0.946513125000000,1419,0x80,0x01
0.946587625000000,1419,0x80,0x01
0.946670375000000,1420,0x32,0x01
0.946744875000000,1420,0x0A,0x01
0.946819375000000,1420,0x00,0x01
0.946899250000000,1421,0x32,0x01
0.946973750000000,1421,0x11,0x01
0.947048250000000,1421,0x22,0x01
0.947128125000000,1422,0x32,0x01
0.947202625000000,1422,0x33,0x01
0.947277125000000,1422,0xF4,0x01
0.947357000000000,1423,0x32,0x01
0.947431500000000,1423,0xB9,0x01
0.947505875000000,1423,0xFA,0x01
0.947586250000000,1424,0x32,0x01
0.947660750000000,1424,0xA7,0x01
0.947735250000000,1424,0x00,0x01
0.947817125000000,1425,0x07,0x01
0.947891625000000,1425,0x01,0x01
0.947966125000000,1425,0x0A,0x01
0.948299750000000,1426,0x07,0x0F
0.948372750000000,1426,0x00,0x01
0.948447250000000,1426,0x32,0x01
0.948526125000000,1427,0x32,0x01
0.948600625000000,1427,0x00,0x01
0.948675125000000,1427,0x00,0x01
0.948758375000000,1428,0x34,0x01
0.948832875000000,1428,0x80,0x01
0.948907375000000,1428,0x80,0x01
0.948990250000000,1429,0x32,0x01
0.949064750000000,1429,0x0A,0x00
0.949139125000000,1429,0x00,0x01
0.949219000000000,1430,0x32,0x01
0.949293500000000,1430,0x11,0x01
0.949368000000000,1430,0x22,0x01
0.949447875000000,1431,0x32,0x01
0.949522375000000,1431,0x33,0x01
0.949596875000000,1431,0xF4,0x01
0.949676750000000,1432,0x32,0x01
0.949751250000000,1432,0xB9,0x01
0.949825750000000,1432,0xFA,0x01
0.949906125000000,1433,0x32,0x00
0.949980500000000,1433,0xA7,0x01
0.950055000000000,1433,0x00,0x01
0.950136875000000,1434,0x07,0x01
0.950211375000000,1434,0x01,0x01
0.950285875000000,1434,0x32,0x01
0.950620500000000,1435,0x07,0x0F
0.950693500000000,1435,0x00,0x01
0.950768000000000,1435,0x14,0x01
0.950846875000000,1436,0x32,0x01
0.950921375000000,1436,0x00,0x01
0.950995875000000,1436,0x00,0x01
0.951079125000000,1437,0x34,0x01
0.951153625000000,1437,0x80,0x01
0.951228125000000,1437,0x80,0x01
0.951311000000000,1438,0x32,0x01
0.951385500000000,1438,0x0A,0x01
0.951459875000000,1438,0x00,0x81
0.951539750000000,1439,0x32,0x81
0.951614250000000,1439,0x11,0x01
0.951688750000000,1439,0x22,0x01
0.951768625000000,1440,0x32,0x01
0.951843125000000,1440,0x33,0x01
0.951917625000000,1440,0xF4,0x01
0.951997500000000,1441,0x32,0x01
0.952072000000000,1441,0xB9,0x01
0.952146500000000,1441,0xFA,0x01
0.952226875000000,1442,0x32,0x01
0.952301375000000,1442,0xA7,0x01
0.952375750000000,1442,0x00,0x01
0.952457625000000,1443,0x07,0x01
0.952532125000000,1443,0x01,0x01
0.952606625000000,1443,0x14,0x01
0.952942250000000,1444,0x07,0x0F
0.953015250000000,1444,0x00,0x01
0.953089750000000,1444,0x3C,0x01
0.953168625000000,1445,0x32,0x01
0.953243125000000,1445,0x00,0x01
0.953317625000000,1445,0x00,0x01
0.953400875000000,1446,0x34,0x01
0.953475375000000,1446,0x80,0x01
0.953549875000000,1446,0x80,0x01
0.953632750000000,1447,0x32,0x01
0.953707250000000,1447,0x0A,0x01
0.953781625000000,1447,0x00,0x81
0.953861500000000,1448,0x32,0x01
0.953936000000000,1448,0x11,0x01
0.954010500000000,1448,0x22,0x01
0.954090375000000,1449,0x32,0x01
0.954164875000000,1449,0x33,0x01
0.954239375000000,1449,0xF4,0x01
0.954319250000000,1450,0x32,0x01
0.954393750000000,1450,0xB9,0x01
0.954468250000000,1450,0xFA,0x01
0.954548625000000,1451,0x32,0x01
0.954623125000000,1451,0xA7,0x00
0.954697500000000,1451,0x00,0x01
0.954782375000000,1452,0x07,0x01
0.954856875000000,1452,0x01,0x01
0.954931250000000,1452,0x3C,0x01
0.955267875000000,1453,0x07,0x0C
0.955341375000000,1453,0x00,0x01
0.955415875000000,1453,0x1E,0x01
0.955494750000000,1454,0x32,0x01
0.955569250000000,1454,0x00,0x01
0.955643750000000,1454,0x00,0x01
0.955727125000000,1455,0x34,0x01
0.955801625000000,1455,0x80,0x01
0.955876000000000,1455,0x80,0x01
0.955958875000000,1456,0x32,0x01
0.956033375000000,1456,0x0A,0x01
0.956107875000000,1456,0x00,0x01
0.956187750000000,1457,0x32,0x01
0.956262250000000,1457,0x11,0x01
0.956336625000000,1457,0x22,0x81
0.956416500000000,1458,0x32,0x81
0.956491000000000,1458,0x33,0x01
0.956565500000000,1458,0xF4,0x01
0.956645375000000,1459,0x32,0x01
0.956719875000000,1459,0xB9,0x01
0.956794375000000,1459,0xFA,0x01
0.956874750000000,1460,0x32,0x01
0.956949250000000,1460,0xA7,0x01
0.957023750000000,1460,0x00,0x01
0.957105500000000,1461,0x07,0x01
0.957180000000000,1461,0x01,0x01
0.957254500000000,1461,0x1E,0x01
0.957592125000000,1462,0x07,0x0F
0.957665125000000,1462,0x00,0x01
0.957739625000000,1462,0x46,0x01
0.957818500000000,1463,0x32,0x01
0.957893000000000,1463,0x00,0x01
0.957967500000000,1463,0x00,0x01
0.958050750000000,1464,0x34,0x81
0.958125250000000,1464,0x80,0x01
0.958199750000000,1464,0x80,0x01
0.958282625000000,1465,0x32,0x01
0.958357125000000,1465,0x0A,0x01
0.958431625000000,1465,0x00,0x00
0.958511500000000,1466,0x32,0x00
0.958585875000000,1466,0x11,0x01
0.958660375000000,1466,0x22,0x01
0.958740250000000,1467,0x32,0x01
0.958814750000000,1467,0x33,0x01
0.958889250000000,1467,0xF4,0x01
0.958969125000000,1468,0x32,0x01
0.959043625000000,1468,0xB9,0x01
0.959118125000000,1468,0xFA,0x01
0.959198500000000,1469,0x32,0x01
0.959273000000000,1469,0xA7,0x01
0.959347500000000,1469,0x00,0x00
0.959429250000000,1470,0x07,0x01
0.959503750000000,1470,0x01,0x01
0.959578250000000,1470,0x46,0x01
0.959909000000000,1471,0x07,0x0F
0.959982000000000,1471,0x00,0x01
0.960056500000000,1471,0x00,0x01
0.960135375000000,1472,0x32,0x01
0.960209875000000,1472,0x00,0x01
0.960284375000000,1472,0x00,0x01
0.960367625000000,1473,0x34,0x01
0.960442125000000,1473,0x80,0x01
0.960516625000000,1473,0x80,0x01
0.960599500000000,1474,0x32,0x01
0.960673875000000,1474,0x0A,0x81
0.960748375000000,1474,0x00,0x01
0.960828250000000,1475,0x32,0x01
0.960902750000000,1475,0x11,0x01
0.960977250000000,1475,0x22,0x01
0.961057125000000,1476,0x32,0x01
0.961131625000000,1476,0x33,0x01
0.961206125000000,1476,0xF4,0x01
0.961286000000000,1477,0x32,0x01
0.961360500000000,1477,0xB9,0x01
0.961435000000000,1477,0xFA,0x01
0.961515375000000,1478,0x32,0x01
0.961589875000000,1478,0xA7,0x00
0.961664250000000,1478,0x00,0x01
0.961746125000000,1479,0x07,0x01
0.961820625000000,1479,0x01,0x01
0.961895125000000,1479,0x00,0x01
0.962226875000000,1480,0x07,0x0F
0.962299875000000,1480,0x00,0x01
0.962374375000000,1480,0x28,0x01
0.962453250000000,1481,0x32,0x01
0.962527750000000,1481,0x00,0x01
0.962602250000000,1481,0x00,0x01
0.962685500000000,1482,0x34,0x01
0.962760000000000,1482,0x80,0x01
0.962834500000000,1482,0x80,0x01
0.962917250000000,1483,0x32,0x01
0.962991750000000,1483,0x0A,0x01
0.963066250000000,1483,0x00,0x01
0.963146125000000,1484,0x32,0x01
0.963220625000000,1484,0x11,0x01
0.963295125000000,1484,0x22,0x01
0.963375000000000,1485,0x32,0x01
0.963449500000000,1485,0x33,0x01
0.963524000000000,1485,0xF4,0x01
0.963603875000000,1486,0x32,0x01
0.963678375000000,1486,0xB9,0x01
0.963752875000000,1486,0xFA,0x01
0.963833250000000,1487,0x32,0x01
0.963907625000000,1487,0xA7,0x01
0.963982125000000,1487,0x00,0x01
0.964064000000000,1488,0x07,0x01
0.964138500000000,1488,0x01,0x01
0.964213000000000,1488,0x28,0x01
0.964545750000000,1489,0x07,0x0F
0.964618750000000,1489,0x00,0x01
0.964693250000000,1489,0x0A,0x01
0.964772125000000,1490,0x32,0x01
0.964846625000000,1490,0x00,0x01
0.964921125000000,1490,0x00,0x01
0.965004375000000,1491,0x34,0x01
0.965078875000000,1491,0x80,0x01
0.965153375000000,1491,0x80,0x01
0.965236125000000,1492,0x32,0x81
0.965310625000000,1492,0x0A,0x01
0.965385125000000,1492,0x00,0x01
0.965465000000000,1493,0x32,0x01
0.965539500000000,1493,0x11,0x01
0.965614000000000,1493,0x22,0x01
0.965693875000000,1494,0x32,0x01
0.965768375000000,1494,0x33,0x01
0.965842875000000,1494,0xF4,0x01
0.965922750000000,1495,0x32,0x01
0.965997250000000,1495,0xB9,0x01
0.966071750000000,1495,0xFA,0x00
0.966152000000000,1496,0x32,0x81
0.966226500000000,1496,0xA7,0x01
0.966301000000000,1496,0x00,0x01
0.966382875000000,1497,0x07,0x01
0.966457375000000,1497,0x01,0x01
0.966531875000000,1497,0x0A,0x01
0.966865500000000,1498,0x07,0x0F
0.966938500000000,1498,0x00,0x01
0.967013000000000,1498,0x32,0x01
0.967091875000000,1499,0x32,0x01
0.967166375000000,1499,0x00,0x01
0.967240875000000,1499,0x00,0x01
0.967324250000000,1500,0x34,0x01
0.967398625000000,1500,0x80,0x01
0.967473125000000,1500,0x80,0x01
0.967556000000000,1501,0x32,0x01
0.967630500000000,1501,0x0A,0x01
0.967705000000000,1501,0x00,0x01
0.967784875000000,1502,0x32,0x01
0.967859250000000,1502,0x11,0x81
0.967933750000000,1502,0x22,0x01
0.968013625000000,1503,0x32,0x01
0.968088125000000,1503,0x33,0x01
0.968162625000000,1503,0xF4,0x01
0.968242500000000,1504,0x32,0x01
0.968317000000000,1504,0xB9,0x01
0.968391500000000,1504,0xFA,0x01
0.968471875000000,1505,0x32,0x01
0.968546375000000,1505,0xA7,0x01
0.968620875000000,1505,0x00,0x01
0.968702625000000,1506,0x07,0x01
0.968777125000000,1506,0x01,0x01
0.968851625000000,1506,0x32,0x01
0.969186375000000,1507,0x07,0x0F
0.969259375000000,1507,0x00,0x01
0.969333875000000,1507,0x14,0x00
0.969412750000000,1508,0x32,0x01
0.969487250000000,1508,0x00,0x01
0.969561625000000,1508,0x00,0x81
0.969645000000000,1509,0x34,0x01
0.969719500000000,1509,0x80,0x01
0.969794000000000,1509,0x80,0x01
0.969876750000000,1510,0x32,0x01
0.969951250000000,1510,0x0A,0x01
0.970025750000000,1510,0x00,0x01
0.970105625000000,1511,0x32,0x01
0.970180125000000,1511,0x11,0x01
0.970254625000000,1511,0x22,0x01
0.970334500000000,1512,0x32,0x01
0.970409000000000,1512,0x33,0x01
0.970483500000000,1512,0xF4,0x01
0.970563375000000,1513,0x32,0x01
0.970637875000000,1513,0xB9,0x00
0.970712250000000,1513,0xFA,0x01
0.970792625000000,1514,0x32,0x01
0.970867125000000,1514,0xA7,0x01
0.970941625000000,1514,0x00,0x01
0.971023500000000,1515,0x07,0x01
0.971098000000000,1515,0x01,0x01
0.971172375000000,1515,0x14,0x81
0.971508125000000,1516,0x07,0x0F
0.971581125000000,1516,0x00,0x01
0.971655625000000,1516,0x3C,0x01
0.971734500000000,1517,0x32,0x01
0.971809000000000,1517,0x00,0x01
0.971883500000000,1517,0x00,0x00
0.971966750000000,1518,0x34,0x01
0.972041250000000,1518,0x80,0x01
0.972115750000000,1518,0x80,0x01
0.972198500000000,1519,0x32,0x01
0.972273000000000,1519,0x0A,0x01
0.972347500000000,1519,0x00,0x01
0.972427375000000,1520,0x32,0x01
0.972501875000000,1520,0x11,0x01
0.972576375000000,1520,0x22,0x01
0.972656250000000,1521,0x32,0x01
0.972730750000000,1521,0x33,0x01
0.972805250000000,1521,0xF4,0x01
0.972885125000000,1522,0x32,0x01
0.972959625000000,1522,0xB9,0x01
0.973034000000000,1522,0xFA,0x01
0.973114375000000,1523,0x32,0x01
0.973188875000000,1523,0xA7,0x01
0.973263375000000,1523,0x00,0x01
0.973348125000000,1524,0x07,0x01
0.973422625000000,1524,0x01,0x01
0.973497125000000,1524,0x3C,0x01
0.973833750000000,1525,0x07,0x0D
0.973907250000000,1525,0x00,0x01
0.973981750000000,1525,0x1E,0x01
0.974060625000000,1526,0x32,0x01
0.974135125000000,1526,0x00,0x01
0.974209625000000,1526,0x00,0x01
0.974292375000000,1527,0x24,0x81
0.974366875000000,1527,0xB9,0x01
0.974441375000000,1527,0xF4,0x01
0.974545250000000,1528,0x27,0x01
0.974619750000000,1528,0x00,0x01
0.974694250000000,1528,0xFA,0x01
0.974800125000000,1529,0x34,0x01
0.974874625000000,1529,0x80,0x01
0.974949125000000,1529,0x80,0x01
0.975031875000000,1530,0x32,0x01
0.975106375000000,1530,0x0A,0x01
0.975180875000000,1530,0x00,0x01
0.975260750000000,1531,0x32,0x01
0.975335250000000,1531,0x00,0x01
0.975409750000000,1531,0x20,0x00
0.975489625000000,1532,0x32,0x00
0.975564000000000,1532,0x20,0x01
0.975638500000000,1532,0x20,0x01
0.975718375000000,1533,0x32,0x01
0.975792875000000,1533,0x20,0x01
0.975867375000000,1533,0x20,0x01
0.975947250000000,1534,0x32,0x01
0.976021750000000,1534,0x20,0x01
0.976096250000000,1534,0xC0,0x01
0.976177500000000,1535,0x07,0x81
0.976252000000000,1535,0x01,0x01
0.976326500000000,1535,0x1E,0x01
0.976664125000000,1536,0x07,0x0F
0.976737125000000,1536,0x00,0x01
0.976811625000000,1536,0x46,0x01
0.976890500000000,1537,0x32,0x01
0.976965000000000,1537,0x00,0x01
0.977039500000000,1537,0x00,0x01
0.977121875000000,1538,0x34,0x00
0.977196250000000,1538,0x80,0x01
0.977270750000000,1538,0x80,0x01
0.977353625000000,1539,0x32,0x01
0.977428125000000,1539,0x0A,0x01
0.977502625000000,1539,0x00,0x01
0.977582500000000,1540,0x32,0x01
0.977656875000000,1540,0x00,0x01
0.977731375000000,1540,0x20,0x01
0.977811250000000,1541,0x32,0x01
0.977885750000000,1541,0x20,0x01
0.977960250000000,1541,0x20,0x01
0.978040125000000,1542,0x32,0x01
0.978114625000000,1542,0x20,0x01
0.978189125000000,1542,0x20,0x01
0.978269000000000,1543,0x32,0x01
0.978343500000000,1543,0x20,0x01
0.978418000000000,1543,0xC0,0x01
0.978499250000000,1544,0x07,0x01
0.978573750000000,1544,0x01,0x01
0.978648250000000,1544,0x46,0x01
0.978979000000000,1545,0x07,0x0D
0.979052500000000,1545,0x00,0x01
0.979127000000000,1545,0x00,0x01
0.979205875000000,1546,0x32,0x01
0.979280375000000,1546,0x00,0x01
0.979354875000000,1546,0x00,0x01
0.979437250000000,1547,0x34,0x00
0.979511625000000,1547,0x80,0x01
0.979586125000000,1547,0x80,0x01
0.979669000000000,1548,0x32,0x01
0.979743500000000,1548,0x0A,0x01
0.979818000000000,1548,0x00,0x01
0.979897875000000,1549,0x32,0x01
0.979972250000000,1549,0x00,0x81
0.980046750000000,1549,0x20,0x01
0.980126625000000,1550,0x32,0x01
0.980201125000000,1550,0x20,0x01
0.980275625000000,1550,0x20,0x01
0.980355500000000,1551,0x32,0x01
0.980430000000000,1551,0x20,0x01
0.980504500000000,1551,0x20,0x01
0.980584375000000,1552,0x32,0x01
0.980658875000000,1552,0x20,0x01
0.980733375000000,1552,0xC0,0x01
0.980814625000000,1553,0x07,0x01
0.980889125000000,1553,0x01,0x01
0.980963625000000,1553,0x00,0x01
0.981295375000000,1554,0x07,0x0F
0.981368375000000,1554,0x00,0x01
0.981442875000000,1554,0x28,0x01
0.981521750000000,1555,0x32,0x01
0.981596250000000,1555,0x00,0x01
0.981670750000000,1555,0x00,0x01
0.981753125000000,1556,0x34,0x00
0.981827500000000,1556,0x80,0x01
0.981902000000000,1556,0x80,0x01
0.981984875000000,1557,0x32,0x01
0.982059375000000,1557,0x0A,0x01
0.982133875000000,1557,0x00,0x01
0.982213750000000,1558,0x32,0x01
0.982288125000000,1558,0x00,0x81
0.982362625000000,1558,0x20,0x01
0.982442500000000,1559,0x32,0x01
0.982517000000000,1559,0x20,0x01
0.982591500000000,1559,0x20,0x01
0.982671375000000,1560,0x32,0x01
0.982745875000000,1560,0x20,0x01
0.982820375000000,1560,0x20,0x01
0.982900250000000,1561,0x32,0x01
0.982974750000000,1561,0x20,0x01
0.983049250000000,1561,0xC0,0x01
0.983130625000000,1562,0x07,0x01
0.983205000000000,1562,0x01,0x01
0.983279500000000,1562,0x28,0x01
0.983612250000000,1563,0x07,0x0F
0.983685250000000,1563,0x00,0x01
0.983759750000000,1563,0x0A,0x01
0.983838625000000,1564,0x32,0x01
0.983913125000000,1564,0x00,0x01
0.983987625000000,1564,0x00,0x01
0.984070000000000,1565,0x34,0x01
0.984144500000000,1565,0x80,0x00
0.984218875000000,1565,0x80,0x01
0.984301750000000,1566,0x32,0x01
0.984376250000000,1566,0x0A,0x01
0.984450750000000,1566,0x00,0x01
0.984530625000000,1567,0x32,0x01
0.984605125000000,1567,0x00,0x01
0.984679500000000,1567,0x20,0x01
0.984759375000000,1568,0x32,0x01
0.984833875000000,1568,0x20,0x01
0.984908375000000,1568,0x20,0x01
0.984988250000000,1569,0x32,0x01
0.985062750000000,1569,0x20,0x01
0.985137250000000,1569,0x20,0x01
0.985217125000000,1570,0x32,0x01
0.985291625000000,1570,0x20,0x01
0.985366125000000,1570,0xC0,0x01
0.985447375000000,1571,0x07,0x01
0.985521875000000,1571,0x01,0x01
0.985596375000000,1571,0x0A,0x01
0.985930125000000,1572,0x07,0x0F
0.986003125000000,1572,0x00,0x01
0.986077625000000,1572,0x32,0x01
0.986156500000000,1573,0x32,0x01
0.986231000000000,1573,0x00,0x01
0.986305500000000,1573,0x00,0x01
0.986387750000000,1574,0x34,0x01
0.986462250000000,1574,0x80,0x01
0.986536750000000,1574,0x80,0x01
0.986619625000000,1575,0x32,0x01
0.986694000000000,1575,0x0A,0x01
0.986768500000000,1575,0x00,0x01
0.986848375000000,1576,0x32,0x01
0.986922875000000,1576,0x00,0x01
0.986997375000000,1576,0x20,0x01
0.987077250000000,1577,0x32,0x01
0.987151750000000,1577,0x20,0x01
0.987226250000000,1577,0x20,0x01
0.987306125000000,1578,0x32,0x01
0.987380625000000,1578,0x20,0x01
0.987455125000000,1578,0x20,0x01
0.987535000000000,1579,0x32,0x01
0.987609500000000,1579,0x20,0x01
0.987683875000000,1579,0xC0,0x81
0.987765250000000,1580,0x07,0x01
0.987839750000000,1580,0x01,0x01
0.987914250000000,1580,0x32,0x01
0.988248875000000,1581,0x07,0x0F
0.988322000000000,1581,0x00,0x01
0.988396375000000,1581,0x14,0x81
0.988475375000000,1582,0x32,0x01
0.988549875000000,1582,0x00,0x01
0.988624250000000,1582,0x00,0x81
0.988706625000000,1583,0x34,0x01
0.988781125000000,1583,0x80,0x01
0.988855625000000,1583,0x80,0x01
0.988938375000000,1584,0x32,0x01
0.989012875000000,1584,0x0A,0x01
0.989087375000000,1584,0x00,0x01
0.989167250000000,1585,0x32,0x01
0.989241750000000,1585,0x00,0x01
0.989316250000000,1585,0x20,0x01
0.989396125000000,1586,0x32,0x01
0.989470625000000,1586,0x20,0x01
0.989545125000000,1586,0x20,0x01
0.989625000000000,1587,0x32,0x01
0.989699500000000,1587,0x20,0x01
0.989774000000000,1587,0x20,0x01
0.989853875000000,1588,0x32,0x01
0.989928375000000,1588,0x20,0x01
0.990002875000000,1588,0xC0,0x01
0.990084125000000,1589,0x07,0x01
0.990158625000000,1589,0x01,0x01
0.990233125000000,1589,0x14,0x01
0.990568750000000,1590,0x07,0x0F
0.990641875000000,1590,0x00,0x01
0.990716250000000,1590,0x3C,0x81
0.990795250000000,1591,0x32,0x01
0.990869750000000,1591,0x00,0x01
0.990944125000000,1591,0x00,0x01
0.991026500000000,1592,0x34,0x01
0.991101000000000,1592,0x80,0x01
0.991175500000000,1592,0x80,0x01
0.991258250000000,1593,0x32,0x01
0.991332750000000,1593,0x0A,0x01
0.991407250000000,1593,0x00,0x01
0.991487125000000,1594,0x32,0x01
0.991561625000000,1594,0x00,0x01
0.991636125000000,1594,0x20,0x01
0.991716000000000,1595,0x32,0x01
0.991790500000000,1595,0x20,0x01
0.991865000000000,1595,0x20,0x01
0.991944875000000,1596,0x32,0x01
0.992019375000000,1596,0x20,0x01
0.992093875000000,1596,0x20,0x01
0.992173750000000,1597,0x32,0x01
0.992248250000000,1597,0x20,0x01
0.992322625000000,1597,0xC0,0x01
0.992404000000000,1598,0x07,0x01
0.992478500000000,1598,0x01,0x01
0.992553000000000,1598,0x3C,0x01
0.992889625000000,1599,0x07,0x0D
0.992963125000000,1599,0x00,0x01
0.993037625000000,1599,0x1E,0x01
0.993116500000000,1600,0x32,0x01
0.993191000000000,1600,0x00,0x01
0.993265500000000,1600,0x00,0x01
0.993347875000000,1601,0x34,0x01
0.993422250000000,1601,0x80,0x01
0.993496750000000,1601,0x80,0x01
0.993579625000000,1602,0x32,0x01
0.993654125000000,1602,0x0A,0x01
0.993728625000000,1602,0x00,0x01
0.993808500000000,1603,0x32,0x01
0.993883000000000,1603,0x00,0x00
0.993957375000000,1603,0x20,0x01
0.994037250000000,1604,0x32,0x01
0.994111750000000,1604,0x20,0x01
0.994186250000000,1604,0x20,0x01
0.994266125000000,1605,0x32,0x01
0.994340625000000,1605,0x20,0x01
0.994415125000000,1605,0x20,0x01
0.994495000000000,1606,0x32,0x01
0.994569500000000,1606,0x20,0x01
0.994644000000000,1606,0xC0,0x01
0.994725375000000,1607,0x07,0x01
0.994799750000000,1607,0x01,0x81
0.994874250000000,1607,0x1E,0x01
0.995211875000000,1608,0x07,0x0F
0.995284875000000,1608,0x00,0x01
0.995359375000000,1608,0x46,0x01
0.995438375000000,1609,0x32,0x00
0.995512750000000,1609,0x00,0x01
0.995587250000000,1609,0x00,0x01
0.995669625000000,1610,0x34,0x01
0.995744125000000,1610,0x80,0x01
0.995818625000000,1610,0x80,0x01
0.995901375000000,1611,0x32,0x01
0.995975875000000,1611,0x0A,0x01
0.996050375000000,1611,0x00,0x01
0.996130250000000,1612,0x32,0x01
0.996204750000000,1612,0x00,0x01
0.996279250000000,1612,0x20,0x01
0.996359125000000,1613,0x32,0x01
0.996433625000000,1613,0x20,0x01
0.996508125000000,1613,0x20,0x00
0.996588000000000,1614,0x32,0x00
0.996662375000000,1614,0x20,0x01
0.996736875000000,1614,0x20,0x01
0.996816750000000,1615,0x32,0x01
0.996891250000000,1615,0x20,0x01
0.996965750000000,1615,0xC0,0x01
0.997047125000000,1616,0x07,0x01
0.997121625000000,1616,0x01,0x01
0.997196125000000,1616,0x46,0x00
0.997526875000000,1617,0x07,0x0D
0.997600375000000,1617,0x00,0x01
0.997674875000000,1617,0x00,0x00
0.997753750000000,1618,0x32,0x01
0.997828250000000,1618,0x00,0x00
0.997902625000000,1618,0x00,0x01
0.997985000000000,1619,0x34,0x01
0.998059500000000,1619,0x80,0x01
0.998134000000000,1619,0x80,0x01
0.998216750000000,1620,0x32,0x01
0.998291250000000,1620,0x0A,0x01
0.998365750000000,1620,0x00,0x01
0.998445625000000,1621,0x32,0x01
0.998520125000000,1621,0x00,0x01
0.998594625000000,1621,0x20,0x01
0.998674500000000,1622,0x32,0x01
0.998749000000000,1622,0x20,0x01
0.998823500000000,1622,0x20,0x01
0.998903375000000,1623,0x32,0x01
0.998977750000000,1623,0x20,0x81
0.999052250000000,1623,0x20,0x01
0.999132125000000,1624,0x32,0x01
0.999206625000000,1624,0x20,0x01
0.999281125000000,1624,0xC0,0x01
0.999362500000000,1625,0x07,0x01
0.999437000000000,1625,0x01,0x01
0.999511500000000,1625,0x00,0x01
0.999843250000000,1626,0x07,0x0F
0.999916250000000,1626,0x00,0x01
0.999990750000000,1626,0x28,0x01
1.000069625000000,1627,0x32,0x01
1.000144125000000,1627,0x00,0x01
1.000218500000000,1627,0x00,0x81
1.000300875000000,1628,0x34,0x01
1.000375375000000,1628,0x80,0x01
1.000449875000000,1628,0x80,0x01
1.000532625000000,1629,0x32,0x01
1.000607125000000,1629,0x0A,0x01
1.000681625000000,1629,0x00,0x01
1.000761500000000,1630,0x32,0x01
1.000836000000000,1630,0x00,0x01
1.000910500000000,1630,0x20,0x01
1.000990375000000,1631,0x32,0x01
1.001064875000000,1631,0x20,0x01
1.001139375000000,1631,0x20,0x01
1.001219250000000,1632,0x32,0x01
1.001293750000000,1632,0x20,0x01
1.001368250000000,1632,0x20,0x00
1.001448125000000,1633,0x32,0x01
1.001522500000000,1633,0x20,0x01
1.001597000000000,1633,0xC0,0x01
1.001678375000000,1634,0x07,0x01
1.001752875000000,1634,0x01,0x01
1.001827375000000,1634,0x28,0x01
1.002160125000000,1635,0x07,0x0F
1.002233125000000,1635,0x00,0x01
1.002307625000000,1635,0x0A,0x01
1.002386500000000,1636,0x32,0x01
1.002461000000000,1636,0x00,0x01
1.002535500000000,1636,0x00,0x01
1.002617750000000,1637,0x34,0x01
1.002692250000000,1637,0x80,0x01
1.002766750000000,1637,0x80,0x01
1.002849500000000,1638,0x32,0x01
1.002924000000000,1638,0x0A,0x01
1.002998500000000,1638,0x00,0x01
1.003078375000000,1639,0x32,0x01
1.003152875000000,1639,0x00,0x01
1.003227375000000,1639,0x20,0x01
1.003307250000000,1640,0x32,0x01
1.003381750000000,1640,0x20,0x01
1.003456250000000,1640,0x20,0x01
1.003536125000000,1641,0x32,0x01
1.003610625000000,1641,0x20,0x01
1.003685000000000,1641,0x20,0x01
1.003764875000000,1642,0x32,0x01
1.003839375000000,1642,0x20,0x01
1.003913875000000,1642,0xC0,0x01
1.003995250000000,1643,0x07,0x01
1.004069750000000,1643,0x01,0x01
1.004144250000000,1643,0x0A,0x01
1.004477875000000,1644,0x07,0x07
1.004550875000000,1644,0x00,0x01
1.004625375000000,1644,0x32,0x01
1.004704250000000,1645,0x32,0x01
1.004778750000000,1645,0x00,0x01
1.004853250000000,1645,0x00,0x01
1.004935625000000,1646,0x34,0x01
1.005010125000000,1646,0x80,0x01
1.005084500000000,1646,0x80,0x81
1.005167375000000,1647,0x32,0x01
1.005241875000000,1647,0x0A,0x01
1.005316375000000,1647,0x00,0x01
1.005396250000000,1648,0x32,0x01
1.005470750000000,1648,0x00,0x01
1.005545250000000,1648,0x20,0x01
1.005625125000000,1649,0x32,0x01
1.005699625000000,1649,0x20,0x01
1.005774000000000,1649,0x20,0x81
1.005853875000000,1650,0x32,0x81
1.005928375000000,1650,0x20,0x01
1.006002875000000,1650,0x20,0x01
1.006082750000000,1651,0x32,0x01
1.006157250000000,1651,0x20,0x01
1.006231750000000,1651,0xC0,0x01
1.006313125000000,1652,0x07,0x01
1.006387625000000,1652,0x01,0x01
1.006462125000000,1652,0x32,0x01
1.006796750000000,1653,0x07,0x0F
1.006869750000000,1653,0x00,0x01
1.006944250000000,1653,0x14,0x01
1.007023125000000,1654,0x32,0x01
1.007097625000000,1654,0x00,0x01
1.007172125000000,1654,0x00,0x01
1.007254500000000,1655,0x34,0x00
1.007328875000000,1655,0x80,0x01
1.007403375000000,1655,0x80,0x01
1.007486250000000,1656,0x32,0x01
1.007560750000000,1656,0x0A,0x01
1.007635250000000,1656,0x00,0x00
1.007715125000000,1657,0x32,0x01
1.007789500000000,1657,0x00,0x01
1.007864000000000,1657,0x20,0x01
1.007943875000000,1658,0x32,0x01
1.008018375000000,1658,0x20,0x01
1.008092875000000,1658,0x20,0x01
1.008172750000000,1659,0x32,0x01
1.008247250000000,1659,0x20,0x01
1.008321750000000,1659,0x20,0x01
1.008401625000000,1660,0x32,0x01
1.008476125000000,1660,0x20,0x01
1.008550625000000,1660,0xC0,0x01
1.008631875000000,1661,0x07,0x01
1.008706375000000,1661,0x01,0x01
1.008780875000000,1661,0x14,0x01
1.009116500000000,1662,0x07,0x0F
1.009189500000000,1662,0x00,0x01
1.009264000000000,1662,0x3C,0x01
1.009342875000000,1663,0x32,0x81
1.009417375000000,1663,0x00,0x01
1.009491875000000,1663,0x00,0x01
1.009574250000000,1664,0x34,0x01
1.009648750000000,1664,0x80,0x01
1.009723250000000,1664,0x80,0x01
1.009806000000000,1665,0x32,0x01
1.009880500000000,1665,0x0A,0x01
1.009955000000000,1665,0x00,0x01
1.010034875000000,1666,0x32,0x01
1.010109375000000,1666,0x00,0x01
1.010183875000000,1666,0x20,0x01
1.010263750000000,1667,0x32,0x01
1.010338250000000,1667,0x20,0x01
1.010412625000000,1667,0x20,0x01
1.010492500000000,1668,0x32,0x01
1.010567000000000,1668,0x20,0x01
1.010641500000000,1668,0x20,0x01
1.010721375000000,1669,0x32,0x01
1.010795875000000,1669,0x20,0x01
1.010870375000000,1669,0xC0,0x01
1.010951750000000,1670,0x07,0x01
1.011026250000000,1670,0x01,0x00
1.011100625000000,1670,0x3C,0x01
1.011437250000000,1671,0x07,0x0D
1.011510750000000,1671,0x00,0x01
1.011585250000000,1671,0x1E,0x01
1.011664125000000,1672,0x32,0x01
1.011738625000000,1672,0x00,0x01
1.011813125000000,1672,0x00,0x01
1.011895500000000,1673,0x34,0x01
1.011970000000000,1673,0x80,0x01
1.012044375000000,1673,0x80,0x01
1.012127250000000,1674,0x32,0x01
1.012201750000000,1674,0x0A,0x01
1.012276250000000,1674,0x00,0x01
1.012356125000000,1675,0x32,0x01
1.012430625000000,1675,0x00,0x01
1.012505000000000,1675,0x20,0x01
1.012584875000000,1676,0x32,0x01
1.012659375000000,1676,0x20,0x01
1.012733875000000,1676,0x20,0x01
1.012813750000000,1677,0x32,0x01
1.012888250000000,1677,0x20,0x01
1.012962750000000,1677,0x20,0x01
1.013042625000000,1678,0x32,0x01
1.013117125000000,1678,0x20,0x01
1.013191625000000,1678,0xC0,0x01
1.013272875000000,1679,0x07,0x81
1.013347375000000,1679,0x01,0x01
1.013421875000000,1679,0x1E,0x01
1.013759500000000,1680,0x07,0x0F
1.013832500000000,1680,0x00,0x01
1.013907000000000,1680,0x46,0x01
1.013985875000000,1681,0x32,0x01
1.014060375000000,1681,0x00,0x01
1.014134875000000,1681,0x00,0x01
1.014217250000000,1682,0x34,0x01
1.014291750000000,1682,0x80,0x01
1.014366125000000,1682,0x80,0x81
1.014449000000000,1683,0x32,0x01
1.014523500000000,1683,0x0A,0x01
1.014598000000000,1683,0x00,0x01
1.014677875000000,1684,0x32,0x01
1.014752375000000,1684,0x00,0x01
1.014826875000000,1684,0x20,0x00
1.014906750000000,1685,0x32,0x00
1.014981125000000,1685,0x20,0x01
1.015055625000000,1685,0x20,0x01
1.015135500000000,1686,0x32,0x01
1.015210000000000,1686,0x20,0x01
1.015284500000000,1686,0x20,0x01
1.015364375000000,1687,0x32,0x01
1.015438875000000,1687,0x20,0x01
1.015513375000000,1687,0xC0,0x01
1.015594750000000,1688,0x07,0x01
1.015669125000000,1688,0x01,0x81
1.015743625000000,1688,0x46,0x01
1.016074375000000,1689,0x07,0x0F
1.016147500000000,1689,0x00,0x01
1.016221875000000,1689,0x00,0x81
1.016300875000000,1690,0x32,0x01
1.016375375000000,1690,0x00,0x01
1.016449750000000,1690,0x00,0x01
1.016532125000000,1691,0x34,0x01
1.016606625000000,1691,0x80,0x01
1.016681125000000,1691,0x80,0x01
1.016763875000000,1692,0x32,0x01
1.016838375000000,1692,0x0A,0x01
1.016912875000000,1692,0x00,0x01
1.016992750000000,1693,0x32,0x01
1.017067250000000,1693,0x00,0x01
1.017141750000000,1693,0x20,0x01
1.017221625000000,1694,0x32,0x01
1.017296125000000,1694,0x20,0x01
1.017370625000000,1694,0x20,0x01
1.017450500000000,1695,0x32,0x01
1.017525000000000,1695,0x20,0x01
1.017599500000000,1695,0x20,0x01
1.017679375000000,1696,0x32,0x01
1.017753750000000,1696,0x20,0x01
1.017828250000000,1696,0xC0,0x01
1.017909625000000,1697,0x07,0x01
1.017984125000000,1697,0x01,0x01
1.018058625000000,1697,0x00,0x01
1.018390375000000,1698,0x07,0x0F
1.018463375000000,1698,0x00,0x01
1.018537875000000,1698,0x28,0x01
1.018616750000000,1699,0x32,0x01
1.018691250000000,1699,0x00,0x01
1.018765750000000,1699,0x00,0x01
1.018848000000000,1700,0x34,0x01
1.018922500000000,1700,0x80,0x01
1.018997000000000,1700,0x80,0x01
1.019079875000000,1701,0x32,0x01
1.019154375000000,1701,0x0A,0x01
1.019228875000000,1701,0x00,0x01
1.019308750000000,1702,0x32,0x01
1.019383250000000,1702,0x00,0x01
1.019457750000000,1702,0x20,0x01
1.019537625000000,1703,0x32,0x01
1.019612000000000,1703,0x20,0x01
1.019686500000000,1703,0x20,0x01
1.019766375000000,1704,0x32,0x01
1.019840875000000,1704,0x20,0x01
1.019915375000000,1704,0x20,0x01
1.019995250000000,1705,0x32,0x01
1.020069750000000,1705,0x20,0x01
1.020144250000000,1705,0xC0,0x01
1.020225625000000,1706,0x07,0x01
1.020300125000000,1706,0x01,0x01
1.020374625000000,1706,0x28,0x00
1.020707250000000,1707,0x07,0x07
1.020780250000000,1707,0x00,0x01
1.020854750000000,1707,0x0A,0x01
1.020933625000000,1708,0x32,0x01
1.021008125000000,1708,0x00,0x01
1.021082625000000,1708,0x00,0x01
1.021165000000000,1709,0x34,0x01
1.021239500000000,1709,0x80,0x01
1.021313875000000,1709,0x80,0x81
1.021396750000000,1710,0x32,0x01
1.021471250000000,1710,0x0A,0x01
1.021545750000000,1710,0x00,0x01
1.021625625000000,1711,0x32,0x01
1.021700125000000,1711,0x00,0x01
1.021774500000000,1711,0x20,0x81
1.021854500000000,1712,0x32,0x00
1.021928875000000,1712,0x20,0x01
1.022003375000000,1712,0x20,0x01
1.022083250000000,1713,0x32,0x01
1.022157750000000,1713,0x20,0x01
1.022232250000000,1713,0x20,0x01
1.022312125000000,1714,0x32,0x01
1.022386625000000,1714,0x20,0x01
1.022461125000000,1714,0xC0,0x01
1.022542500000000,1715,0x07,0x01
1.022616875000000,1715,0x01,0x01
1.022691375000000,1715,0x0A,0x01
1.023025125000000,1716,0x07,0x0F
1.023098125000000,1716,0x00,0x01
1.023172625000000,1716,0x32,0x01
1.023251500000000,1717,0x32,0x01
1.023326000000000,1717,0x00,0x01
1.023400500000000,1717,0x00,0x01
1.023482750000000,1718,0x34,0x01
1.023557250000000,1718,0x80,0x01
1.023631750000000,1718,0x80,0x01
1.023714625000000,1719,0x32,0x01
1.023789125000000,1719,0x0A,0x01
1.023863500000000,1719,0x00,0x01
1.023943375000000,1720,0x32,0x01
1.024017875000000,1720,0x00,0x01
1.024092375000000,1720,0x20,0x01
1.024172250000000,1721,0x32,0x01
1.024246750000000,1721,0x20,0x01
1.024321250000000,1721,0x20,0x01
1.024401125000000,1722,0x32,0x01
1.024475625000000,1722,0x20,0x01
1.024550125000000,1722,0x20,0x01
1.024630000000000,1723,0x32,0x01
1.024704375000000,1723,0x20,0x81
1.024778875000000,1723,0xC0,0x01
1.024860250000000,1724,0x07,0x01
1.024934750000000,1724,0x01,0x01
1.025009250000000,1724,0x32,0x01
1.025343875000000,1725,0x07,0x07
1.025416875000000,1725,0x00,0x01
1.025491375000000,1725,0x14,0x01
1.025570250000000,1726,0x32,0x01
1.025644750000000,1726,0x00,0x01
1.025719250000000,1726,0x00,0x01
1.025801625000000,1727,0x34,0x01
1.025876125000000,1727,0x80,0x01
1.025950500000000,1727,0x80,0x81
1.026033375000000,1728,0x32,0x01
1.026107875000000,1728,0x0A,0x01
1.026182375000000,1728,0x00,0x01
1.026262250000000,1729,0x32,0x01
1.026336750000000,1729,0x00,0x01
1.026411250000000,1729,0x20,0x01
1.026491125000000,1730,0x32,0x01
1.026565500000000,1730,0x20,0x01
1.026640000000000,1730,0x20,0x01
1.026719875000000,1731,0x32,0x01
1.026794375000000,1731,0x20,0x01
1.026868875000000,1731,0x20,0x01
1.026948750000000,1732,0x32,0x01
1.027023250000000,1732,0x20,0x01
1.027097750000000,1732,0xC0,0x01
1.027179125000000,1733,0x07,0x01
1.027253625000000,1733,0x01,0x00
1.027328000000000,1733,0x14,0x01
1.027663750000000,1734,0x07,0x0F
1.027736750000000,1734,0x00,0x01
1.027811250000000,1734,0x3C,0x01
1.027890125000000,1735,0x32,0x01
1.027964625000000,1735,0x00,0x01
1.028039000000000,1735,0x00,0x81
1.028121375000000,1736,0x34,0x01
1.028195875000000,1736,0x80,0x01
1.028270375000000,1736,0x80,0x01
1.028353125000000,1737,0x32,0x01
1.028427625000000,1737,0x0A,0x01
1.028502125000000,1737,0x00,0x01
1.028582000000000,1738,0x32,0x01
1.028656500000000,1738,0x00,0x01
1.028731000000000,1738,0x20,0x01
1.028810875000000,1739,0x32,0x01
1.028885375000000,1739,0x20,0x01
1.028959875000000,1739,0x20,0x01
1.029039750000000,1740,0x32,0x01
1.029114250000000,1740,0x20,0x01
1.029188750000000,1740,0x20,0x00
1.029268625000000,1741,0x32,0x01
1.029343000000000,1741,0x20,0x01
1.029417500000000,1741,0xC0,0x01
1.029498875000000,1742,0x07,0x01
1.029573375000000,1742,0x01,0x01
1.029647875000000,1742,0x3C,0x01
1.029984500000000,1743,0x07,0x0D
1.030058000000000,1743,0x00,0x01
1.030132500000000,1743,0x1E,0x01
1.030211375000000,1744,0x32,0x01
1.030285875000000,1744,0x00,0x01
1.030360375000000,1744,0x00,0x01
1.030442625000000,1745,0x34,0x01
1.030517125000000,1745,0x80,0x01
1.030591625000000,1745,0x80,0x01
1.030674500000000,1746,0x32,0x01
1.030748875000000,1746,0x0A,0x01
1.030823375000000,1746,0x00,0x01
1.030903250000000,1747,0x32,0x01
1.030977750000000,1747,0x00,0x01
1.031052250000000,1747,0x20,0x01
1.031132125000000,1748,0x32,0x01
1.031206625000000,1748,0x20,0x01
1.031281125000000,1748,0x20,0x01
1.031361000000000,1749,0x32,0x01
1.031435500000000,1749,0x20,0x01
1.031510000000000,1749,0x20,0x01
1.031589875000000,1750,0x32,0x01
1.031664375000000,1750,0x20,0x01
1.031738750000000,1750,0xC0,0x81
1.031820125000000,1751,0x07,0x01
1.031894625000000,1751,0x01,0x01
1.031969125000000,1751,0x1E,0x01
1.032306750000000,1752,0x07,0x0F
1.032379750000000,1752,0x00,0x01
1.032454250000000,1752,0x46,0x01
1.032533125000000,1753,0x32,0x01
1.032607625000000,1753,0x00,0x01
1.032682125000000,1753,0x00,0x01
1.032764375000000,1754,0x34,0x01
1.032838875000000,1754,0x80,0x01
1.032913375000000,1754,0x80,0x01
1.032996250000000,1755,0x32,0x01
1.033070750000000,1755,0x0A,0x00
1.033145125000000,1755,0x00,0x01
1.033225000000000,1756,0x32,0x01
1.033299500000000,1756,0x00,0x01
1.033374000000000,1756,0x20,0x01
1.033453875000000,1757,0x32,0x01
1.033528375000000,1757,0x20,0x01
1.033602875000000,1757,0x20,0x01
1.033682750000000,1758,0x32,0x01
1.033757250000000,1758,0x20,0x01
1.033831750000000,1758,0x20,0x00
1.033911625000000,1759,0x32,0x01
1.033986000000000,1759,0x20,0x01
1.034060500000000,1759,0xC0,0x01
1.034141875000000,1760,0x07,0x01
1.034216375000000,1760,0x01,0x01
1.034290875000000,1760,0x46,0x01
1.034621625000000,1761,0x07,0x0F
1.034694625000000,1761,0x00,0x01
1.034769125000000,1761,0x00,0x01
1.034848000000000,1762,0x32,0x01
1.034922500000000,1762,0x00,0x01
1.034997000000000,1762,0x00,0x01
1.035079250000000,1763,0x34,0x01
1.035153750000000,1763,0x80,0x01
1.035228250000000,1763,0x80,0x01
1.035311000000000,1764,0x32,0x81
1.035385500000000,1764,0x0A,0x01
1.035460000000000,1764,0x00,0x01
1.035539875000000,1765,0x32,0x01
1.035614375000000,1765,0x00,0x01
1.035688875000000,1765,0x20,0x01
1.035768750000000,1766,0x32,0x01
1.035843250000000,1766,0x20,0x01
1.035917750000000,1766,0x20,0x01
1.035997625000000,1767,0x32,0x01
1.036072125000000,1767,0x20,0x01
1.036146500000000,1767,0x20,0x80
1.036226500000000,1768,0x32,0x01
1.036300875000000,1768,0x20,0x01
1.036375375000000,1768,0xC0,0x01
1.036456750000000,1769,0x07,0x01
1.036531250000000,1769,0x01,0x01
1.036605750000000,1769,0x00,0x01
1.036937500000000,1770,0x07,0x0F
1.037010500000000,1770,0x00,0x01
1.037085000000000,1770,0x28,0x01
1.037163875000000,1771,0x32,0x01
1.037238375000000,1771,0x00,0x01
1.037312750000000,1771,0x00,0x81
1.037395125000000,1772,0x34,0x01
1.037469625000000,1772,0x80,0x01
1.037544125000000,1772,0x80,0x01
1.037626875000000,1773,0x32,0x01
1.037701375000000,1773,0x0A,0x01
1.037775875000000,1773,0x00,0x01
1.037855750000000,1774,0x32,0x01
1.037930250000000,1774,0x00,0x01
1.038004750000000,1774,0x20,0x01
1.038084625000000,1775,0x32,0x01
1.038159125000000,1775,0x20,0x01
1.038233625000000,1775,0x20,0x01
1.038313500000000,1776,0x32,0x01
1.038388000000000,1776,0x20,0x01
1.038462375000000,1776,0x20,0x81
1.038542250000000,1777,0x32,0x01
1.038616750000000,1777,0x20,0x01
1.038691250000000,1777,0xC0,0x01
1.038772625000000,1778,0x07,0x01
1.038847125000000,1778,0x01,0x01
1.038921625000000,1778,0x28,0x01
1.039254250000000,1779,0x07,0x0F
1.039327250000000,1779,0x00,0x01
1.039401750000000,1779,0x0A,0x01
1.039480625000000,1780,0x32,0x81
1.039555125000000,1780,0x00,0x01
1.039629625000000,1780,0x00,0x01
1.039712000000000,1781,0x34,0x01
1.039786500000000,1781,0x80,0x01
1.039861000000000,1781,0x80,0x01
1.039943750000000,1782,0x32,0x01
1.040018250000000,1782,0x0A,0x01
1.040092750000000,1782,0x00,0x01
1.040172625000000,1783,0x32,0x01
1.040247125000000,1783,0x00,0x01
1.040321625000000,1783,0x20,0x00
1.040401500000000,1784,0x32,0x00
1.040475875000000,1784,0x20,0x01
1.040550375000000,1784,0x20,0x01
1.040630250000000,1785,0x32,0x01
1.040704750000000,1785,0x20,0x01
1.040779250000000,1785,0x20,0x01
1.040859125000000,1786,0x32,0x01
1.040933625000000,1786,0x20,0x01
1.041008125000000,1786,0xC0,0x01
1.041089500000000,1787,0x07,0x01
1.041163875000000,1787,0x01,0x01
1.041238375000000,1787,0x0A,0x01
1.041572125000000,1788,0x07,0x0F
1.041645125000000,1788,0x00,0x01
1.041719625000000,1788,0x32,0x01
1.041798500000000,1789,0x32,0x01
1.041873000000000,1789,0x00,0x01
1.041947500000000,1789,0x00,0x01
1.042029750000000,1790,0x34,0x01
1.042104250000000,1790,0x80,0x01
1.042178750000000,1790,0x80,0x01
1.042261625000000,1791,0x32,0x01
1.042336000000000,1791,0x0A,0x01
1.042410500000000,1791,0x00,0x01
1.042490375000000,1792,0x32,0x01
1.042564875000000,1792,0x00,0x01
1.042639375000000,1792,0x20,0x01
1.042719250000000,1793,0x32,0x01
1.042793750000000,1793,0x20,0x01
1.042868250000000,1793,0x20,0x01
1.042948125000000,1794,0x32,0x01
1.043022625000000,1794,0x20,0x01
1.043097125000000,1794,0x20,0x01
1.043177000000000,1795,0x32,0x01
1.043251375000000,1795,0x20,0x01
1.043325875000000,1795,0xC0,0x01
1.043407250000000,1796,0x07,0x01
1.043481750000000,1796,0x01,0x01
1.043556250000000,1796,0x32,0x01
1.043890875000000,1797,0x07,0x0F
1.043963875000000,1797,0x00,0x01
1.044038375000000,1797,0x14,0x01
1.044117250000000,1798,0x32,0x01
1.044191750000000,1798,0x00,0x01
1.044266250000000,1798,0x00,0x01
1.044348625000000,1799,0x34,0x01
1.044423000000000,1799,0x80,0x01
1.044497500000000,1799,0x80,0x01
1.044580375000000,1800,0x32,0x01
1.044654875000000,1800,0x0A,0x01
1.044729375000000,1800,0x00,0x00
1.044809250000000,1801,0x32,0x00
1.044883625000000,1801,0x00,0x01
1.044958125000000,1801,0x20,0x01
1.045038000000000,1802,0x32,0x01
1.045112500000000,1802,0x20,0x01
1.045187000000000,1802,0x20,0x01
1.045266875000000,1803,0x32,0x01
1.045341375000000,1803,0x20,0x01
1.045415875000000,1803,0x20,0x01
1.045495750000000,1804,0x32,0x01
1.045570250000000,1804,0x20,0x01
1.045644750000000,1804,0xC0,0x01
1.045726000000000,1805,0x07,0x01
1.045800500000000,1805,0x01,0x01
1.045875000000000,1805,0x14,0x01
1.046210625000000,1806,0x07,0x07
1.046283625000000,1806,0x00,0x01
1.046358125000000,1806,0x3C,0x01
1.046437000000000,1807,0x32,0x01
1.046511500000000,1807,0x00,0x01
1.046586000000000,1807,0x00,0x01
1.046668375000000,1808,0x34,0x01
1.046742875000000,1808,0x80,0x01
1.046817375000000,1808,0x80,0x00
1.046900125000000,1809,0x32,0x01
1.046974625000000,1809,0x0A,0x01
1.047049125000000,1809,0x00,0x01
1.047129000000000,1810,0x32,0x01
1.047203500000000,1810,0x00,0x01
1.047278000000000,1810,0x20,0x00
1.047357875000000,1811,0x32,0x00
1.047432250000000,1811,0x20,0x01
1.047506750000000,1811,0x20,0x01
1.047586625000000,1812,0x32,0x01
1.047661125000000,1812,0x20,0x01
1.047735625000000,1812,0x20,0x01
1.047815500000000,1813,0x32,0x01
1.047890000000000,1813,0x20,0x01
1.047964500000000,1813,0xC0,0x01
1.048045875000000,1814,0x07,0x01
1.048120250000000,1814,0x01,0x01
1.048194750000000,1814,0x3C,0x01
1.048531375000000,1815,0x07,0x0C
1.048604875000000,1815,0x00,0x01
1.048679375000000,1815,0x1E,0x01
1.048758250000000,1816,0x32,0x01
1.048832750000000,1816,0x00,0x01
1.048907250000000,1816,0x00,0x01
1.048989625000000,1817,0x34,0x01
1.049064125000000,1817,0x80,0x01
1.049138625000000,1817,0x80,0x01
1.049221375000000,1818,0x32,0x01
1.049295875000000,1818,0x0A,0x01
1.049370375000000,1818,0x00,0x01
1.049450250000000,1819,0x32,0x01
1.049524750000000,1819,0x00,0x01
1.049599250000000,1819,0x20,0x01
1.049679125000000,1820,0x32,0x01
1.049753500000000,1820,0x20,0x80
1.049828000000000,1820,0x20,0x01
1.049907875000000,1821,0x32,0x01
1.049982375000000,1821,0x20,0x01
1.050056875000000,1821,0x20,0x01
1.050136750000000,1822,0x32,0x01
1.050211250000000,1822,0x20,0x01
1.050285750000000,1822,0xC0,0x01
1.050367125000000,1823,0x07,0x01
1.050441625000000,1823,0x01,0x01
1.050516000000000,1823,0x1E,0x01
1.050853625000000,1824,0x07,0x0F
1.050926625000000,1824,0x00,0x81
1.051001125000000,1824,0x46,0x01
1.051080125000000,1825,0x32,0x01
1.051154500000000,1825,0x00,0x01
1.051229000000000,1825,0x00,0x01
1.051311375000000,1826,0x34,0x01
1.051385875000000,1826,0x80,0x01
1.051460375000000,1826,0x80,0x01
1.051543125000000,1827,0x32,0x01
1.051617625000000,1827,0x0A,0x01
1.051692125000000,1827,0x00,0x01
1.051772000000000,1828,0x32,0x01
1.051846500000000,1828,0x00,0x01
1.051921000000000,1828,0x20,0x01
1.052000875000000,1829,0x32,0x01
1.052075375000000,1829,0x20,0x01
1.052149875000000,1829,0x20,0x00
1.052229750000000,1830,0x32,0x01
1.052304125000000,1830,0x20,0x01
1.052378625000000,1830,0x20,0x01
1.052458500000000,1831,0x32,0x01
1.052533000000000,1831,0x20,0x01
1.052607500000000,1831,0xC0,0x01
1.052688875000000,1832,0x07,0x01
1.052763375000000,1832,0x01,0x01
1.052837875000000,1832,0x46,0x01
1.053168625000000,1833,0x07,0x0D
1.053242125000000,1833,0x00,0x01
1.053316625000000,1833,0x00,0x01
1.053395500000000,1834,0x32,0x01
1.053470000000000,1834,0x00,0x01
1.053544375000000,1834,0x00,0x81
1.053626750000000,1835,0x34,0x01
1.053701250000000,1835,0x80,0x01
1.053775750000000,1835,0x80,0x01
1.053858500000000,1836,0x32,0x01
1.053933000000000,1836,0x0A,0x01
1.054007500000000,1836,0x00,0x01
1.054087375000000,1837,0x32,0x01
1.054161875000000,1837,0x00,0x01
1.054236375000000,1837,0x20,0x01
1.054316250000000,1838,0x32,0x01
1.054390750000000,1838,0x20,0x01
1.054465250000000,1838,0x20,0x01
1.054545125000000,1839,0x32,0x01
1.054619500000000,1839,0x20,0x81
1.054694000000000,1839,0x20,0x01
1.054773875000000,1840,0x32,0x01
1.054848375000000,1840,0x20,0x01
1.054922875000000,1840,0xC0,0x01
1.055004250000000,1841,0x07,0x01
1.055078750000000,1841,0x01,0x01
1.055153250000000,1841,0x00,0x01
1.055484875000000,1842,0x07,0x8F
1.055558000000000,1842,0x00,0x01
1.055632500000000,1842,0x28,0x00
1.055711375000000,1843,0x32,0x01
1.055785875000000,1843,0x00,0x01
1.055860250000000,1843,0x00,0x81
1.055942625000000,1844,0x34,0x01
1.056017125000000,1844,0x80,0x01
1.056091625000000,1844,0x80,0x01
1.056174375000000,1845,0x32,0x01
1.056248875000000,1845,0x0A,0x01
1.056323375000000,1845,0x00,0x01
1.056403250000000,1846,0x32,0x01
1.056477750000000,1846,0x00,0x01
1.056552250000000,1846,0x20,0x01
1.056632125000000,1847,0x32,0x01
1.056706625000000,1847,0x20,0x01
1.056781125000000,1847,0x20,0x01
1.056861000000000,1848,0x32,0x01
1.056935500000000,1848,0x20,0x00
1.057009875000000,1848,0x20,0x01
1.057089750000000,1849,0x32,0x01
1.057164250000000,1849,0x20,0x01
1.057238750000000,1849,0xC0,0x01
1.057320125000000,1850,0x07,0x01
1.057394625000000,1850,0x01,0x01
1.057469125000000,1850,0x28,0x01
1.057801750000000,1851,0x07,0x0F
1.057874875000000,1851,0x00,0x01
1.057949250000000,1851,0x0A,0x81
1.058028250000000,1852,0x32,0x01
1.058102750000000,1852,0x00,0x00
1.058177125000000,1852,0x00,0x01
1.058259500000000,1853,0x34,0x01
1.058334000000000,1853,0x80,0x01
1.058408500000000,1853,0x80,0x01
1.058491250000000,1854,0x32,0x01
1.058565750000000,1854,0x0A,0x01
1.058640250000000,1854,0x00,0x01
1.058720125000000,1855,0x32,0x01
1.058794625000000,1855,0x00,0x01
1.058869125000000,1855,0x20,0x01
1.058949000000000,1856,0x32,0x01
1.059023500000000,1856,0x20,0x01
1.059098000000000,1856,0x20,0x01
1.059177875000000,1857,0x32,0x01
1.059252250000000,1857,0x20,0x01
1.059326750000000,1857,0x20,0x01
1.059406625000000,1858,0x32,0x01
1.059481125000000,1858,0x20,0x01
1.059555625000000,1858,0xC0,0x01
1.059637000000000,1859,0x07,0x01
1.059711500000000,1859,0x01,0x01
1.059786000000000,1859,0x0A,0x01
1.060119625000000,1860,0x07,0x0F
1.060192625000000,1860,0x00,0x01
1.060267125000000,1860,0x32,0x01
1.060346000000000,1861,0x32,0x81
1.060420500000000,1861,0x00,0x01
1.060495000000000,1861,0x00,0x01
1.060577375000000,1862,0x34,0x01
1.060651875000000,1862,0x80,0x01
1.060726375000000,1862,0x80,0x01
1.060809125000000,1863,0x32,0x01
1.060883625000000,1863,0x0A,0x01
1.060958125000000,1863,0x00,0x01
1.061038000000000,1864,0x32,0x01
1.061112500000000,1864,0x00,0x01
1.061187000000000,1864,0x20,0x01
1.061266875000000,1865,0x32,0x01
1.061341375000000,1865,0x20,0x01
1.061415875000000,1865,0x20,0x01
1.061495750000000,1866,0x32,0x01
1.061570250000000,1866,0x20,0x01
1.061644625000000,1866,0x20,0x01
1.061724500000000,1867,0x32,0x80
1.061799000000000,1867,0x20,0x01
1.061873500000000,1867,0xC0,0x01
1.061954875000000,1868,0x07,0x01
1.062029375000000,1868,0x01,0x01
1.062103875000000,1868,0x32,0x01
1.062438500000000,1869,0x07,0x0F
1.062511500000000,1869,0x00,0x01
1.062586000000000,1869,0x14,0x01
1.062664875000000,1870,0x32,0x01
1.062739375000000,1870,0x00,0x01
1.062813875000000,1870,0x00,0x01
1.062896250000000,1871,0x34,0x01
1.062970750000000,1871,0x80,0x01
1.063045250000000,1871,0x80,0x01
1.063128000000000,1872,0x32,0x01
1.063202500000000,1872,0x0A,0x01
1.063277000000000,1872,0x00,0x01
1.063356875000000,1873,0x32,0x01
1.063431375000000,1873,0x00,0x01
1.063505875000000,1873,0x20,0x01
1.063585750000000,1874,0x32,0x01
1.063660250000000,1874,0x20,0x00
1.063734625000000,1874,0x20,0x01
1.063814500000000,1875,0x32,0x01
1.063889000000000,1875,0x20,0x01
1.063963500000000,1875,0x20,0x01
1.064043375000000,1876,0x32,0x01
1.064117875000000,1876,0x20,0x01
1.064192375000000,1876,0xC0,0x01
1.064273750000000,1877,0x07,0x01
1.064348250000000,1877,0x01,0x01
1.064422625000000,1877,0x14,0x01
1.064758375000000,1878,0x07,0x0F
1.064831375000000,1878,0x00,0x01
1.064905875000000,1878,0x3C,0x01
1.064984750000000,1879,0x32,0x01
1.065059250000000,1879,0x00,0x01
1.065133750000000,1879,0x00,0x01
1.065216000000000,1880,0x34,0x01
1.065290500000000,1880,0x80,0x01
1.065365000000000,1880,0x80,0x01
1.065447875000000,1881,0x32,0x01
1.065522375000000,1881,0x0A,0x00
1.065596750000000,1881,0x00,0x01
1.065676625000000,1882,0x32,0x01
1.065751125000000,1882,0x00,0x01
1.065825625000000,1882,0x20,0x01
1.065905500000000,1883,0x32,0x01
1.065980000000000,1883,0x20,0x01
1.066054500000000,1883,0x20,0x01
1.066134375000000,1884,0x32,0x01
1.066208875000000,1884,0x20,0x01
1.066283375000000,1884,0x20,0x01
1.066363250000000,1885,0x32,0x01
1.066437750000000,1885,0x20,0x01
1.066512250000000,1885,0xC0,0x01
1.066593625000000,1886,0x07,0x01
1.066668000000000,1886,0x01,0x81
1.066742500000000,1886,0x3C,0x01
1.067079125000000,1887,0x07,0x0D
1.067152625000000,1887,0x00,0x81
1.067227125000000,1887,0x1E,0x01
1.067306125000000,1888,0x32,0x01
1.067380500000000,1888,0x00,0x01
1.067455000000000,1888,0x00,0x01
1.067537375000000,1889,0x34,0x01
1.067611875000000,1889,0x80,0x01
1.067686375000000,1889,0x80,0x01
1.067769125000000,1890,0x32,0x01
1.067843625000000,1890,0x0A,0x01
1.067918125000000,1890,0x00,0x01
1.067998000000000,1891,0x32,0x01
1.068072500000000,1891,0x00,0x01
1.068147000000000,1891,0x20,0x01
1.068226875000000,1892,0x32,0x01
1.068301375000000,1892,0x20,0x01
1.068375750000000,1892,0x20,0x81
1.068455750000000,1893,0x32,0x00
1.068530125000000,1893,0x20,0x01
1.068604625000000,1893,0x20,0x01
1.068684500000000,1894,0x32,0x01
1.068759000000000,1894,0x20,0x01
1.068833500000000,1894,0xC0,0x01
1.068914875000000,1895,0x07,0x01
1.068989375000000,1895,0x01,0x01
1.069063875000000,1895,0x1E,0x01
1.069401500000000,1896,0x07,0x0F
1.069474500000000,1896,0x00,0x01
1.069549000000000,1896,0x46,0x00
1.069627875000000,1897,0x32,0x01
1.069702375000000,1897,0x00,0x01
1.069776750000000,1897,0x00,0x81
1.069859125000000,1898,0x34,0x01
1.069933625000000,1898,0x80,0x01
1.070008125000000,1898,0x80,0x01
1.070090875000000,1899,0x32,0x01
1.070165375000000,1899,0x0A,0x01
1.070239875000000,1899,0x00,0x01
1.070319750000000,1900,0x32,0x01
1.070394250000000,1900,0x00,0x01
1.070468750000000,1900,0x20,0x01
1.070548625000000,1901,0x32,0x01
1.070623125000000,1901,0x20,0x01
1.070697625000000,1901,0x20,0x01
1.070777500000000,1902,0x32,0x01
1.070852000000000,1902,0x20,0x01
1.070926500000000,1902,0x20,0x01
1.071006375000000,1903,0x32,0x01
1.071080875000000,1903,0x20,0x00
1.071155250000000,1903,0xC0,0x01
1.071236625000000,1904,0x07,0x01
1.071311125000000,1904,0x01,0x01
1.071385625000000,1904,0x46,0x01
1.071716375000000,1905,0x07,0x0D
1.071789875000000,1905,0x00,0x01
1.071864375000000,1905,0x00,0x01
1.071943250000000,1906,0x32,0x01
1.072017750000000,1906,0x00,0x01
1.072092250000000,1906,0x00,0x01
1.072174500000000,1907,0x34,0x01
1.072249000000000,1907,0x80,0x01
1.072323500000000,1907,0x80,0x01
1.072406375000000,1908,0x32,0x01
1.072480875000000,1908,0x0A,0x01
1.072555250000000,1908,0x00,0x01
1.072635125000000,1909,0x32,0x81
1.072709625000000,1909,0x00,0x01
1.072784125000000,1909,0x20,0x01
1.072864000000000,1910,0x32,0x01
1.072938500000000,1910,0x20,0x01
1.073013000000000,1910,0x20,0x01
1.073092875000000,1911,0x32,0x01
1.073167375000000,1911,0x20,0x01
1.073241875000000,1911,0x20,0x01
1.073321750000000,1912,0x32,0x01
1.073396250000000,1912,0x20,0x01
1.073470750000000,1912,0xC0,0x01
1.073552000000000,1913,0x07,0x01
1.073626500000000,1913,0x01,0x01
1.073701000000000,1913,0x00,0x01
1.074032750000000,1914,0x07,0x0F
1.074105750000000,1914,0x00,0x01
1.074180250000000,1914,0x28,0x01
1.074259125000000,1915,0x32,0x01
1.074333625000000,1915,0x00,0x01
1.074408125000000,1915,0x00,0x01
1.074490500000000,1916,0x34,0x01
1.074564875000000,1916,0x80,0x01
1.074639375000000,1916,0x80,0x01
1.074722250000000,1917,0x32,0x01
1.074796750000000,1917,0x0A,0x01
1.074871250000000,1917,0x00,0x01
1.074951125000000,1918,0x32,0x01
1.075025500000000,1918,0x00,0x81
1.075100000000000,1918,0x20,0x01
1.075179875000000,1919,0x32,0x01
1.075254375000000,1919,0x20,0x01
1.075328875000000,1919,0x20,0x01
1.075408750000000,1920,0x32,0x01
1.075483250000000,1920,0x20,0x01
1.075557750000000,1920,0x20,0x01
1.075637625000000,1921,0x32,0x01
1.075712125000000,1921,0x20,0x01
1.075786625000000,1921,0xC0,0x01
1.075868000000000,1922,0x07,0x00
1.075942375000000,1922,0x01,0x01
1.076016875000000,1922,0x28,0x01
1.076349625000000,1923,0x07,0x0F
1.076422625000000,1923,0x00,0x01
1.076497125000000,1923,0x0A,0x01
1.076576000000000,1924,0x32,0x01
1.076650500000000,1924,0x00,0x01
1.076725000000000,1924,0x00,0x01
1.076807375000000,1925,0x34,0x00
1.076881750000000,1925,0x80,0x01
1.076956250000000,1925,0x80,0x01
1.077039125000000,1926,0x32,0x01
1.077113625000000,1926,0x0A,0x01
1.077188125000000,1926,0x00,0x01
1.077268000000000,1927,0x32,0x01
1.077342375000000,1927,0x00,0x80
1.077416875000000,1927,0x20,0x01
1.077496750000000,1928,0x32,0x01
1.077571250000000,1928,0x20,0x01
1.077645750000000,1928,0x20,0x01
1.077725625000000,1929,0x32,0x01
1.077800125000000,1929,0x20,0x01
1.077874625000000,1929,0x20,0x01
1.077954500000000,1930,0x32,0x01
1.078029000000000,1930,0x20,0x01
1.078103500000000,1930,0xC0,0x01
1.078184875000000,1931,0x07,0x01
1.078259375000000,1931,0x01,0x01
1.078333750000000,1931,0x0A,0x01
1.078667500000000,1932,0x07,0x0F
1.078740500000000,1932,0x00,0x01
1.078815000000000,1932,0x32,0x01
1.078893875000000,1933,0x32,0x01
1.078968375000000,1933,0x00,0x01
1.079042875000000,1933,0x00,0x01
1.079125250000000,1934,0x34,0x01
1.079199750000000,1934,0x80,0x01
1.079274125000000,1934,0x80,0x81
1.079357000000000,1935,0x32,0x01
1.079431500000000,1935,0x0A,0x01
1.079506000000000,1935,0x00,0x01
1.079585875000000,1936,0x32,0x01
1.079660375000000,1936,0x00,0x01
1.079734875000000,1936,0x20,0x01
1.079814750000000,1937,0x32,0x01
1.079889250000000,1937,0x20,0x01
1.079963625000000,1937,0x20,0x01
1.080043500000000,1938,0x32,0x01
1.080118000000000,1938,0x20,0x01
1.080192500000000,1938,0x20,0x01
1.080272375000000,1939,0x32,0x01
1.080346875000000,1939,0x20,0x01
1.080421375000000,1939,0xC0,0x01
1.080502750000000,1940,0x07,0x01
1.080577250000000,1940,0x01,0x00
1.080651625000000,1940,0x32,0x01
1.080986375000000,1941,0x07,0x0F
1.081059375000000,1941,0x00,0x01
1.081133875000000,1941,0x14,0x01
1.081212750000000,1942,0x32,0x01
1.081287250000000,1942,0x00,0x01
1.081361750000000,1942,0x00,0x01
1.081444000000000,1943,0x34,0x01
1.081518500000000,1943,0x80,0x01
1.081593000000000,1943,0x80,0x01
1.081675875000000,1944,0x32,0x01
1.081750375000000,1944,0x0A,0x00
1.081824750000000,1944,0x00,0x01
1.081904625000000,1945,0x32,0x01
1.081979125000000,1945,0x00,0x01
1.082053625000000,1945,0x20,0x01
1.082133500000000,1946,0x32,0x01
1.082208000000000,1946,0x20,0x01
1.082282500000000,1946,0x20,0x01
1.082362375000000,1947,0x32,0x01
1.082436875000000,1947,0x20,0x01
1.082511375000000,1947,0x20,0x01
1.082591250000000,1948,0x32,0x01
1.082665750000000,1948,0x20,0x01
1.082740250000000,1948,0xC0,0x01
1.082821500000000,1949,0x07,0x01
1.082896000000000,1949,0x01,0x01
1.082970500000000,1949,0x14,0x01
1.083306125000000,1950,0x07,0x0F
1.083379250000000,1950,0x00,0x01
1.083453625000000,1950,0x3C,0x01
1.083532625000000,1951,0x32,0x01
1.083607000000000,1951,0x00,0x81
1.083681500000000,1951,0x00,0x01
1.083763875000000,1952,0x34,0x01
1.083838375000000,1952,0x80,0x01
1.083912875000000,1952,0x80,0x01
1.083995625000000,1953,0x32,0x01
1.084070125000000,1953,0x0A,0x01
1.084144625000000,1953,0x00,0x01
1.084224500000000,1954,0x32,0x01
1.084299000000000,1954,0x00,0x01
1.084373500000000,1954,0x20,0x01
1.084453375000000,1955,0x32,0x01
1.084527875000000,1955,0x20,0x01
1.084602375000000,1955,0x20,0x01
1.084682250000000,1956,0x32,0x01
1.084756625000000,1956,0x20,0x81
1.084831125000000,1956,0x20,0x01
1.084911000000000,1957,0x32,0x01
1.084985500000000,1957,0x20,0x01
1.085060000000000,1957,0xC0,0x01
1.085141375000000,1958,0x07,0x01
1.085215875000000,1958,0x01,0x01
1.085290375000000,1958,0x3C,0x01
1.085627000000000,1959,0x07,0x0D
1.085700500000000,1959,0x00,0x01
1.085775000000000,1959,0x1E,0x01
1.085853875000000,1960,0x32,0x01
1.085928375000000,1960,0x00,0x01
1.086002875000000,1960,0x00,0x01
1.086085125000000,1961,0x34,0x01
1.086159625000000,1961,0x80,0x01
1.086234125000000,1961,0x80,0x01
1.086317000000000,1962,0x32,0x01
1.086391500000000,1962,0x0A,0x01
1.086466000000000,1962,0x00,0x01
1.086545875000000,1963,0x32,0x01
1.086620375000000,1963,0x00,0x01
1.086694750000000,1963,0x20,0x01
1.086774625000000,1964,0x32,0x01
1.086849125000000,1964,0x20,0x01
1.086923625000000,1964,0x20,0x01
1.087003500000000,1965,0x32,0x01
1.087078000000000,1965,0x20,0x01
1.087152500000000,1965,0x20,0x01
1.087232375000000,1966,0x32,0x01
1.087306875000000,1966,0x20,0x01
1.087381375000000,1966,0xC0,0x01
1.087462750000000,1967,0x07,0x01
1.087537250000000,1967,0x01,0x01
1.087611625000000,1967,0x1E,0x81
1.087949250000000,1968,0x07,0x0F
1.088022375000000,1968,0x00,0x01
1.088096750000000,1968,0x46,0x81
1.088175750000000,1969,0x32,0x01
1.088250250000000,1969,0x00,0x00
1.088324625000000,1969,0x00,0x01
1.088407000000000,1970,0x34,0x01
1.088481500000000,1970,0x80,0x01
1.088556000000000,1970,0x80,0x01
1.088638750000000,1971,0x32,0x01
1.088713250000000,1971,0x0A,0x01
1.088787750000000,1971,0x00,0x01
1.088867625000000,1972,0x32,0x01
1.088942125000000,1972,0x00,0x01
1.089016625000000,1972,0x20,0x01
1.089096500000000,1973,0x32,0x01
1.089171000000000,1973,0x20,0x01
1.089245500000000,1973,0x20,0x01
1.089325375000000,1974,0x32,0x01
1.089399875000000,1974,0x20,0x00
1.089474250000000,1974,0x20,0x01
1.089554125000000,1975,0x32,0x01
1.089628625000000,1975,0x20,0x01
1.089703125000000,1975,0xC0,0x01
1.089784500000000,1976,0x07,0x01
1.089859000000000,1976,0x01,0x01
1.089933500000000,1976,0x46,0x01
1.090264250000000,1977,0x07,0x0D
1.090337750000000,1977,0x00,0x01
1.090412250000000,1977,0x00,0x01
1.090491125000000,1978,0x32,0x01
1.090565625000000,1978,0x00,0x01
1.090640125000000,1978,0x00,0x01
1.090722375000000,1979,0x34,0x01
1.090796875000000,1979,0x80,0x01
1.090871375000000,1979,0x80,0x01
1.090954250000000,1980,0x32,0x01
1.091028750000000,1980,0x0A,0x00
1.091103125000000,1980,0x00,0x01
1.091183000000000,1981,0x32,0x01
1.091257500000000,1981,0x00,0x01
1.091332000000000,1981,0x20,0x01
1.091411875000000,1982,0x32,0x01
1.091486375000000,1982,0x20,0x01
1.091560875000000,1982,0x20,0x01
1.091640750000000,1983,0x32,0x01
1.091715250000000,1983,0x20,0x01
1.091789750000000,1983,0x20,0x01
1.091869625000000,1984,0x32,0x01
1.091944125000000,1984,0x20,0x01
1.092018500000000,1984,0xC0,0x81
1.092099875000000,1985,0x07,0x01
1.092174375000000,1985,0x01,0x01
1.092248875000000,1985,0x00,0x01
1.092580625000000,1986,0x07,0x0F
1.092653625000000,1986,0x00,0x01
1.092728125000000,1986,0x28,0x01
1.092807000000000,1987,0x32,0x01
1.092881500000000,1987,0x00,0x01
1.092956000000000,1987,0x00,0x01
1.093038250000000,1988,0x34,0x01
1.093112750000000,1988,0x80,0x01
1.093187250000000,1988,0x80,0x01
1.093270125000000,1989,0x32,0x01
1.093344625000000,1989,0x0A,0x01
1.093419000000000,1989,0x00,0x01
1.093498875000000,1990,0x32,0x81
1.093573375000000,1990,0x00,0x01
1.093647875000000,1990,0x20,0x01
1.093727750000000,1991,0x32,0x01
1.093802250000000,1991,0x20,0x01
1.093876750000000,1991,0x20,0x01
1.093956625000000,1992,0x32,0x01
1.094031125000000,1992,0x20,0x01
1.094105625000000,1992,0x20,0x01
1.094185500000000,1993,0x32,0x01
1.094260000000000,1993,0x20,0x01
1.094334500000000,1993,0xC0,0x01
1.094415750000000,1994,0x07,0x01
1.094490250000000,1994,0x01,0x01
1.094564750000000,1994,0x28,0x01
1.094897500000000,1995,0x07,0x0F
1.094970500000000,1995,0x00,0x01
1.095045000000000,1995,0x0A,0x01
1.095123875000000,1996,0x32,0x01
1.095198375000000,1996,0x00,0x01
1.095272875000000,1996,0x00,0x01
1.095355125000000,1997,0x34,0x01
1.095429625000000,1997,0x80,0x01
1.095504125000000,1997,0x80,0x01
1.095587000000000,1998,0x32,0x01
1.095661500000000,1998,0x0A,0x01
1.095735875000000,1998,0x00,0x01
1.095815750000000,1999,0x32,0x01
1.095890250000000,1999,0x00,0x01
1.095964750000000,1999,0x20,0x01
1.096044625000000,2000,0x32,0x01
1.096119125000000,2000,0x20,0x01
1.096193625000000,2000,0x20,0x01
1.096273500000000,2001,0x32,0x01
1.096348000000000,2001,0x20,0x01
1.096422500000000,2001,0x20,0x01
1.096502375000000,2002,0x32,0x01
1.096576875000000,2002,0x20,0x01
1.096651375000000,2002,0xC0,0x01
1.096732625000000,2003,0x07,0x01
1.096807125000000,2003,0x01,0x01
1.096881625000000,2003,0x0A,0x01
1.097215375000000,2004,0x07,0x0F
1.097288375000000,2004,0x00,0x01
1.097362875000000,2004,0x32,0x01
1.097441750000000,2005,0x32,0x01
1.097516250000000,2005,0x00,0x01
1.097590750000000,2005,0x00,0x01
1.097673000000000,2006,0x34,0x01
1.097747500000000,2006,0x80,0x01
1.097822000000000,2006,0x80,0x01
1.097904875000000,2007,0x32,0x01
1.097979375000000,2007,0x0A,0x01
1.098053750000000,2007,0x00,0x01
1.098133625000000,2008,0x32,0x01
1.098208125000000,2008,0x00,0x01
1.098282625000000,2008,0x20,0x01
1.098362500000000,2009,0x32,0x01
1.098437000000000,2009,0x20,0x01
1.098511500000000,2009,0x20,0x01
1.098591375000000,2010,0x32,0x01
1.098665875000000,2010,0x20,0x01
1.098740375000000,2010,0x20,0x01
1.098820250000000,2011,0x32,0x01
1.098894750000000,2011,0x20,0x01
1.098969125000000,2011,0xC0,0x81
1.099050500000000,2012,0x07,0x01
1.099125000000000,2012,0x01,0x01
1.099199500000000,2012,0x32,0x01
1.099534125000000,2013,0x07,0x0F
1.099607250000000,2013,0x00,0x00
1.099681625000000,2013,0x14,0x01
1.099760625000000,2014,0x32,0x01
1.099835000000000,2014,0x00,0x81
1.099909500000000,2014,0x00,0x01
1.099991875000000,2015,0x34,0x01
1.100066375000000,2015,0x80,0x01
1.100140875000000,2015,0x80,0x01
1.100223625000000,2016,0x32,0x01
1.100298125000000,2016,0x0A,0x01
1.100372625000000,2016,0x00,0x01
1.100452500000000,2017,0x32,0x01
1.100527000000000,2017,0x00,0x01
1.100601500000000,2017,0x20,0x01
1.100681375000000,2018,0x32,0x01
1.100755875000000,2018,0x20,0x01
1.100830375000000,2018,0x20,0x01
1.100910250000000,2019,0x32,0x01
1.100984750000000,2019,0x20,0x01
1.101059125000000,2019,0x20,0x81
1.101139000000000,2020,0x32,0x81
1.101213500000000,2020,0x20,0x01
1.101288000000000,2020,0xC0,0x01
1.101369375000000,2021,0x07,0x01
1.101443875000000,2021,0x01,0x01
1.101518375000000,2021,0x14,0x01
1.101854000000000,2022,0x07,0x0F
1.101927000000000,2022,0x00,0x01
1.102001500000000,2022,0x3C,0x01
1.102080375000000,2023,0x32,0x01
1.102154875000000,2023,0x00,0x01
1.102229375000000,2023,0x00,0x01
1.102311625000000,2024,0x34,0x81
1.102386125000000,2024,0x80,0x01
1.102460625000000,2024,0x80,0x01
1.102543500000000,2025,0x32,0x01
1.102618000000000,2025,0x0A,0x01
1.102692375000000,2025,0x00,0x81
1.102772250000000,2026,0x32,0x81
1.102846750000000,2026,0x00,0x01
1.102921250000000,2026,0x20,0x01
1.103001125000000,2027,0x32,0x01
1.103075625000000,2027,0x20,0x01
1.103150125000000,2027,0x20,0x01
1.103230000000000,2028,0x32,0x01
1.103304500000000,2028,0x20,0x01
1.103379000000000,2028,0x20,0x01
1.103458875000000,2029,0x32,0x01
1.103533375000000,2029,0x20,0x01
1.103607750000000,2029,0xC0,0x81
1.103689125000000,2030,0x07,0x01
1.103763625000000,2030,0x01,0x01
1.103838125000000,2030,0x3C,0x01
1.104174750000000,2031,0x07,0x0D
1.104248250000000,2031,0x00,0x01
1.104322750000000,2031,0x1E,0x01
1.104401625000000,2032,0x32,0x01
1.104476125000000,2032,0x00,0x01
1.104550625000000,2032,0x00,0x01
1.104633000000000,2033,0x34,0x01
1.104707375000000,2033,0x80,0x01
1.104781875000000,2033,0x80,0x01
1.104864750000000,2034,0x32,0x01
1.104939250000000,2034,0x0A,0x01
1.105013750000000,2034,0x00,0x00
1.105093625000000,2035,0x32,0x00
1.105168000000000,2035,0x00,0x01
1.105242500000000,2035,0x20,0x01
1.105322375000000,2036,0x32,0x01
1.105396875000000,2036,0x20,0x01
1.105471375000000,2036,0x20,0x01
1.105551250000000,2037,0x32,0x01
1.105625750000000,2037,0x20,0x01
1.105700250000000,2037,0x20,0x01
1.105780125000000,2038,0x32,0x01
1.105854625000000,2038,0x20,0x01
1.105929125000000,2038,0xC0,0x01
1.106010375000000,2039,0x07,0x81
1.106084875000000,2039,0x01,0x01
1.106159375000000,2039,0x1E,0x01
1.106497000000000,2040,0x07,0x0F
1.106570000000000,2040,0x00,0x01
1.106644500000000,2040,0x46,0x01
1.106723375000000,2041,0x32,0x01
1.106797875000000,2041,0x00,0x01
1.106872375000000,2041,0x00,0x01
1.106954750000000,2042,0x34,0x01
1.107029250000000,2042,0x80,0x01
1.107103750000000,2042,0x80,0x01
1.107186500000000,2043,0x32,0x01
1.107261000000000,2043,0x0A,0x01
1.107335500000000,2043,0x00,0x01
1.107415375000000,2044,0x32,0x01
1.107489875000000,2044,0x00,0x01
1.107564375000000,2044,0x20,0x01
1.107644250000000,2045,0x32,0x01
1.107718750000000,2045,0x20,0x01
1.107793125000000,2045,0x20,0x81
1.107873000000000,2046,0x32,0x01
1.107947500000000,2046,0x20,0x01
1.108022000000000,2046,0x20,0x01
1.108101875000000,2047,0x32,0x01
1.108176375000000,2047,0x20,0x01
1.108250875000000,2047,0xC0,0x01
1.108332250000000,2048,0x07,0x01
1.108406750000000,2048,0x01,0x01
1.108481250000000,2048,0x46,0x01
1.108812000000000,2049,0x07,0x0D
1.108885500000000,2049,0x00,0x01
1.108960000000000,2049,0x00,0x00
1.109038875000000,2050,0x32,0x01
1.109113375000000,2050,0x00,0x01
1.109187750000000,2050,0x00,0x01
1.109270125000000,2051,0x34,0x01
1.109344625000000,2051,0x80,0x01
1.109419125000000,2051,0x80,0x01
1.109501875000000,2052,0x32,0x01
1.109576375000000,2052,0x0A,0x01
1.109650875000000,2052,0x00,0x01
1.109730750000000,2053,0x32,0x01
