Time [s],Packet ID,MOSI,MISO
0.165919000000000,0,0x00,0x01
0.165937041666667,0,0x67,0x01
0.165955125000000,0,0xE0,0x01
0.165974791666667,0,0x01,0x01
0.165992791666667,0,0xD7,0x81
0.166010875000000,0,0x01,0x01
0.166030500000000,0,0x02,0x01
0.166048541666667,0,0x72,0x01
0.166066583333333,0,0x17,0x81
0.166086250000000,0,0x06,0x01
0.166104291666667,0,0xDC,0x01
0.166122375000000,0,0xCD,0x01
0.166141958333333,0,0x84,0x81
0.166160000000000,0,0x66,0x01
0.166178083333333,0,0x37,0x01
0.166197750000000,0,0x07,0x01
0.166215791666667,0,0x00,0x00
0.166233833333333,0,0x00,0x01
0.166253458333333,0,0x00,0x01
0.166271500000000,0,0x2C,0x01
0.166289583333333,0,0x80,0x01
0.166309208333333,0,0x08,0x80
0.166327250000000,0,0x60,0x01
0.166345333333333,0,0x00,0x01
0.166364958333333,0,0x0A,0x01
0.166382958333333,0,0x7F,0x81
0.166401041666667,0,0xFD,0x01
0.166420708333333,0,0x01,0x01
0.166438750000000,0,0x00,0x01
0.166456833333333,0,0x08,0x01
0.166476458333333,0,0x0C,0x00
0.166494458333333,0,0x00,0x01
0.166512541666667,0,0x00,0x01
0.166532208333333,0,0x07,0x01
0.166550250000000,0,0x08,0x01
0.166568333333333,0,0xBC,0x00
0.166587916666667,0,0x1E,0x01
0.166605958333333,0,0x00,0x01
0.166624041666667,0,0xFF,0x01
0.166643708333333,0,0x03,0x01
0.166661708333333,0,0x80,0x01
0.166679791666667,0,0x07,0x01
0.166699416666667,0,0x18,0x01
0.166717458333333,0,0x00,0x00
0.166735500000000,0,0x67,0x81
0.166755166666667,0,0x19,0x01
0.166773208333333,0,0x16,0x01
0.166791291666667,0,0x0D,0x01
0.166810875000000,0,0x9B,0x81
0.166828916666667,0,0x19,0x01
0.166847000000000,0,0xE0,0x01
0.166866666666667,0,0x0F,0x01
0.166884666666667,0,0x93,0x81
0.166902750000000,0,0x00,0x01
0.166922250000000,0,0x0C,0x01
0.166940291666667,0,0x1C,0x00
0.166958333333333,0,0x00,0x01
0.166978000000000,0,0x00,0x01
0.166996041666667,0,0x08,0x01
0.167014125000000,0,0x00,0x01
0.167033708333333,0,0x20,0x81
0.167051750000000,0,0x1F,0x01
0.167069833333333,0,0xC7,0x01
0.167089500000000,0,0x22,0x01
0.167107541666667,0,0x30,0x01
0.167125583333333,0,0x00,0x80
0.167145208333333,0,0x03,0x01
0.167163250000000,0,0x01,0x01
0.167181333333333,0,0x00,0x01
0.167201000000000,0,0x30,0x01
0.167219000000000,0,0x23,0x80
0.167237083333333,0,0x11,0x01
0.167256708333333,0,0x07,0x01
0.167274750000000,0,0x06,0x01
0.167292833333333,0,0xCC,0x01
0.167312500000000,0,0x23,0x00
0.167330500000000,0,0x7A,0x01
0.167348583333333,0,0x78,0x01
0.167368208333333,0,0x27,0x01
0.167386250000000,0,0x00,0x01
0.167404291666667,0,0x33,0x81
0.167423958333333,0,0x08,0x01
0.167442000000000,0,0x66,0x01
0.167460083333333,0,0x01,0x01
0.167479708333333,0,0x3D,0x01
0.167497708333333,0,0xB0,0x81
0.167515791666667,0,0x00,0x01
0.167535458333333,0,0x02,0x01
0.167553500000000,0,0xFF,0x01
0.167571583333333,0,0xF0,0x01
0.167591208333333,0,0x3F,0x00
0.167609208333333,0,0x80,0x01
0.167627291666667,0,0x07,0x01
0.167646958333333,0,0x30,0x01
0.167665000000000,0,0x00,0x01
0.167683083333333,0,0x00,0x01
0.178840083333333,0,0xF2,0x01
0.178858083333333,0,0x7F,0xA0
0.178876333333333,0,0xFF,0x00
0.178896291666667,0,0xA8,0x01
0.178914333333333,0,0xFF,0x40
0.178932541666667,0,0xFF,0x01
0.193752416666667,0,0x34,0x01
0.193770458333333,0,0xC0,0x01
0.193788541666667,0,0x80,0x00
0.193808708333333,0,0x07,0x80
0.193826750000000,0,0xFF,0x00
0.193844958333333,0,0xFF,0x00
0.193865875000000,0,0x03,0x01
0.193883875000000,0,0x80,0x81
0.193901958333333,0,0x0B,0x01
0.193936916666667,0,0xF0,0x03
0.193954958333333,0,0xFF,0x03
0.193973166666667,0,0xFF,0x00
0.196740041666667,0,0xF0,0x12
0.196758083333333,0,0xFF,0x12
0.196776291666667,0,0xFF,0x00
0.198728041666667,0,0xF0,0x02
0.198746041666667,0,0x7F,0x12
0.198764291666667,0,0xFF,0x14
0.200716166666667,0,0x98,0x10
0.200734208333333,0,0xFF,0x12
0.200752416666667,0,0xFF,0x14
0.202704208333333,0,0x98,0x10
0.202722250000000,0,0xFF,0x12
0.202740458333333,0,0xFF,0x14
0.204692208333333,0,0xB0,0x10
0.204710250000000,0,0xFF,0x12
0.204728458333333,0,0xFF,0x14
0.206680291666667,0,0x98,0x1A
0.206698333333333,0,0xFF,0x10
0.206716541666667,0,0xFF,0x1C
0.208668458333333,0,0xB0,0x13
0.208686458333333,0,0x7F,0x12
0.208704708333333,0,0xFF,0x14
0.210656541666667,0,0x98,0x10
0.210674583333333,0,0xFF,0x12
0.210692791666667,0,0xFF,0x14
0.212644500000000,0,0xB0,0x12
0.212662541666667,0,0xFF,0x12
0.212680750000000,0,0xFF,0x1C
0.214632333333333,0,0x98,0x1A
0.214650375000000,0,0xFF,0x12
0.214668583333333,0,0xFF,0x14
0.216620291666667,0,0xB0,0x12
0.216638333333333,0,0xFF,0x02
0.216656541666667,0,0xFF,0x14
0.218608666666667,0,0x98,0x1A
0.218626708333333,0,0xFF,0x10
0.218644916666667,0,0xFF,0x16
0.220596625000000,0,0xB0,0x12
0.220614666666667,0,0xFF,0x02
0.220632875000000,0,0xFF,0x14
0.222584750000000,0,0x98,0x12
0.222602791666667,0,0xFF,0x12
0.222621000000000,0,0xFF,0x14
0.224572833333333,0,0xF0,0x12
0.224590875000000,0,0xFF,0x12
0.224609083333333,0,0xFF,0x04
0.224633875000000,0,0x87,0x12
0.224651916666667,0,0xFF,0x00
0.224670125000000,0,0xFF,0xA2
0.224690708333333,0,0x07,0x02
0.224708750000000,0,0x00,0x13
0.224726791666667,0,0x28,0x12
0.225556791666667,0,0x03,0x00
0.225574791666667,0,0x00,0x01
0.225592875000000,0,0x00,0x01
0.225613500000000,0,0x30,0x01
0.225631500000000,0,0x00,0x81
0.225649583333333,0,0x00,0x01
0.225669833333333,0,0x07,0x01
0.225687875000000,0,0xFF,0x00
0.225706083333333,0,0xFF,0x20
0.225726958333333,0,0x87,0x01
0.225745000000000,0,0x00,0x01
0.225763083333333,0,0xE8,0x01
0.226560916666667,0,0xF0,0x02
0.226578958333333,0,0xFF,0x13
0.226597166666667,0,0xFF,0x10
0.228549083333333,0,0x98,0x10
0.228567125000000,0,0xFF,0x12
0.228585333333333,0,0xFF,0x10
0.230537333333333,0,0xF0,0x12
0.230555333333333,0,0x7F,0x12
0.230573583333333,0,0xFF,0x10
0.232525333333333,0,0xF0,0x12
0.232543375000000,0,0xFF,0x13
0.232561583333333,0,0xFF,0x10
0.234513375000000,0,0x98,0x1A
0.234531416666667,0,0xFF,0x12
0.234549625000000,0,0xFF,0x10
0.236501458333333,0,0xF0,0x12
0.236519500000000,0,0xFF,0x13
0.236537708333333,0,0xFF,0x10
0.238489458333333,0,0x98,0x12
0.238507500000000,0,0xFF,0x12
0.238525708333333,0,0xFF,0x10
0.240477458333333,0,0xB0,0x12
0.240495500000000,0,0xFF,0x12
0.240513708333333,0,0xFF,0x00
0.242465416666667,0,0xB0,0x12
0.242483458333333,0,0xFF,0x02
0.242501666666667,0,0xFF,0x00
0.244453458333333,0,0xB0,0x12
0.244471500000000,0,0xFF,0x1A
0.244489708333333,0,0xFF,0x18
0.246441500000000,0,0xB0,0x12
0.246459541666667,0,0xFF,0x1A
0.246477750000000,0,0xFF,0x10
0.248429500000000,0,0x98,0x1A
0.248447541666667,0,0xFF,0x12
0.248465750000000,0,0xFF,0x10
0.250417541666667,0,0xB0,0x12
0.250435541666667,0,0x7F,0x12
0.250453791666667,0,0xFF,0x10
0.252405875000000,0,0xF0,0x02
0.252423875000000,0,0x7F,0x12
0.252442125000000,0,0xFF,0x10
0.254393833333333,0,0xB0,0x12
0.254411833333333,0,0x7F,0x12
0.254430041666667,0,0xFF,0x10
0.256382166666667,0,0xF0,0x02
0.256400208333333,0,0xFF,0x13
0.256418416666667,0,0xFF,0x10
0.256443208333333,0,0x87,0x12
0.256461250000000,0,0xFF,0x00
0.256479458333333,0,0xFF,0xA8
0.256500041666667,0,0x03,0x13
0.256518041666667,0,0x80,0x12
0.256536125000000,0,0x00,0x10
0.257366083333333,0,0x07,0x01
0.257384125000000,0,0x00,0x01
0.257402208333333,0,0x08,0x01
0.257422833333333,0,0x30,0x00
0.257440833333333,0,0x00,0x01
0.257458916666667,0,0x00,0x01
0.257479166666667,0,0x87,0x01
0.257497208333333,0,0xFF,0x00
0.257515416666667,0,0xFF,0x0A
0.257536291666667,0,0x07,0x01
0.257554333333333,0,0x00,0x01
0.257572416666667,0,0xCE,0x01
0.258369958333333,0,0xB0,0x12
0.258388000000000,0,0xFF,0x02
0.258406208333333,0,0xFF,0x04
0.260358125000000,0,0xB0,0x12
0.260376166666667,0,0x7F,0x1A
0.260394375000000,0,0xFF,0x1C
0.262346333333333,0,0xB0,0x12
0.262364375000000,0,0xFF,0x10
0.262382583333333,0,0xFF,0x1C
0.264334125000000,0,0xF0,0x12
0.264352125000000,0,0x7F,0x12
0.264370333333333,0,0xFF,0x14
0.266321958333333,0,0x98,0x12
0.266340000000000,0,0xFF,0x12
0.266358208333333,0,0xFF,0x14
0.268309916666667,0,0xB0,0x12
0.268327916666667,0,0x7F,0x12
0.268346125000000,0,0xFF,0x14
0.270297916666667,0,0xB0,0x10
0.270315958333333,0,0xFF,0x02
0.270334166666667,0,0xFF,0x14
0.272285875000000,0,0xB0,0x13
0.272303875000000,0,0x7F,0x12
0.272322083333333,0,0xFF,0x14
0.274273750000000,0,0xB0,0x12
0.274291791666667,0,0xFF,0x10
0.274310000000000,0,0xFF,0x1C
0.276261666666667,0,0xF0,0x12
0.276279708333333,0,0xFF,0x12
0.276297916666667,0,0xFF,0x10
0.278249583333333,0,0x98,0x10
0.278267625000000,0,0xFF,0x12
0.278285833333333,0,0xFF,0x14
0.280237666666667,0,0xB0,0x12
0.280255708333333,0,0xFF,0x12
0.280273916666667,0,0xFF,0x10
0.282225833333333,0,0xB0,0x12
0.282243833333333,0,0x7F,0x12
0.282262083333333,0,0xFF,0x14
0.284213583333333,0,0xB0,0x12
0.284231625000000,0,0xFF,0x12
0.284249833333333,0,0xFF,0x00
0.286201458333333,0,0xF0,0x02
0.286219500000000,0,0xFF,0x13
0.286237708333333,0,0xFF,0x14
0.288189208333333,0,0xB0,0x13
0.288207208333333,0,0xFF,0x1A
0.288225416666667,0,0xFF,0x16
0.288250250000000,0,0x87,0x12
0.288268250000000,0,0xFF,0x00
0.288286458333333,0,0xFF,0x82
0.288307041666667,0,0x03,0x13
0.288325041666667,0,0x80,0x12
0.288343125000000,0,0x30,0x12
0.289172958333333,0,0x07,0x01
0.289191000000000,0,0x00,0x01
0.289209083333333,0,0x32,0x01
0.289229666666667,0,0x34,0x81
0.289247708333333,0,0x80,0x01
0.289265791666667,0,0xC0,0x01
0.289286041666667,0,0xC3,0x01
0.289304041666667,0,0xFF,0x80
0.289322250000000,0,0xFF,0x32
0.289343166666667,0,0x07,0x00
0.289361166666667,0,0x00,0x01
0.289379250000000,0,0xB0,0x01
0.290177000000000,0,0xF0,0x12
0.290195041666667,0,0xFF,0x13
0.290213250000000,0,0xFF,0x04
0.292164916666667,0,0xB0,0x12
0.292182916666667,0,0x7F,0x12
0.292201125000000,0,0xFF,0x04
0.294152750000000,0,0xB0,0x12
0.294170791666667,0,0xFF,0x10
0.294189000000000,0,0xFF,0x06
0.296140625000000,0,0xF0,0x12
0.296158666666667,0,0xFF,0x12
0.296176875000000,0,0xFF,0x04
0.298128458333333,0,0xF0,0x12
0.298146500000000,0,0xFF,0x12
0.298164708333333,0,0xFF,0x04
0.300116375000000,0,0xF0,0x02
0.300134375000000,0,0x7F,0x13
0.300152625000000,0,0xFF,0x04
0.302104291666667,0,0xF0,0x02
0.302122333333333,0,0xFF,0x12
0.302140541666667,0,0xFF,0x04
0.304092125000000,0,0x90,0x12
0.304110166666667,0,0xFF,0x12
0.304128375000000,0,0xFF,0x06
0.306079875000000,0,0x98,0x1A
0.306097916666667,0,0xFF,0x12
0.306116125000000,0,0xFF,0x04
0.308067708333333,0,0xB0,0x13
0.308085708333333,0,0x7F,0x12
0.308103916666667,0,0xFF,0x04
0.310055625000000,0,0x98,0x10
0.310073666666667,0,0xFF,0x12
0.310091875000000,0,0xFF,0x04
0.312043583333333,0,0x98,0x1A
0.312061625000000,0,0xFF,0x12
0.312079833333333,0,0xFF,0x06
0.314031541666667,0,0xB0,0x12
0.314049583333333,0,0x7F,0x1A
0.314067791666667,0,0xFF,0x04
0.316019500000000,0,0xF0,0x02
0.316037500000000,0,0x7F,0x12
0.316055708333333,0,0xFF,0x04
0.318007250000000,0,0xB0,0x12
0.318025250000000,0,0x7F,0x12
0.318043458333333,0,0xFF,0x04
0.319995166666667,0,0x98,0x1A
0.320013208333333,0,0xFF,0x12
0.320031416666667,0,0xFF,0x04
0.320056208333333,0,0x87,0x12
0.320074250000000,0,0xFF,0x00
0.320092458333333,0,0xFF,0x9A
0.320113041666667,0,0x03,0x02
0.320131041666667,0,0x80,0x13
0.320149125000000,0,0x14,0x12
0.320979000000000,0,0x07,0x01
0.320997041666667,0,0x00,0x01
0.321015125000000,0,0x16,0x01
0.321035708333333,0,0x34,0x81
0.321053750000000,0,0x80,0x01
0.321071833333333,0,0x80,0x01
0.321092083333333,0,0xC7,0x01
0.321110083333333,0,0xFF,0x80
0.321128291666667,0,0xFF,0x14
0.321149208333333,0,0x03,0x00
0.321167208333333,0,0x00,0x01
0.321185291666667,0,0x9E,0x01
0.321983250000000,0,0xB0,0x13
0.322001250000000,0,0x7F,0x1A
0.322019458333333,0,0xFF,0x00
0.323970875000000,0,0xB0,0x12
0.323988875000000,0,0xFF,0x10
0.324007083333333,0,0xFF,0x00
0.325958666666667,0,0xB0,0x12
0.325976666666667,0,0xFF,0x1A
0.325994875000000,0,0xFF,0x00
0.327946500000000,0,0xB0,0x12
0.327964541666667,0,0xFF,0x12
0.327982750000000,0,0xFF,0x08
0.329934375000000,0,0x90,0x12
0.329952416666667,0,0xFF,0x12
0.329970625000000,0,0xFF,0x08
0.331922583333333,0,0xB0,0x13
0.331940583333333,0,0x7F,0x12
0.331958791666667,0,0xFF,0x08
0.333910166666667,0,0xB0,0x12
0.333928208333333,0,0xFF,0x02
0.333946416666667,0,0xFF,0x08
0.335898041666667,0,0xB0,0x13
0.335916041666667,0,0x7F,0x12
0.335934250000000,0,0xFF,0x08
0.337885916666667,0,0xB0,0x12
0.337903958333333,0,0xFF,0x10
0.337922166666667,0,0xFF,0x00
0.339873750000000,0,0xF0,0x02
0.339891750000000,0,0x7F,0x12
0.339909958333333,0,0xFF,0x08
0.341861625000000,0,0xF0,0x02
0.341879666666667,0,0xFF,0x13
0.341897875000000,0,0xFF,0x08
0.343849458333333,0,0xF0,0x12
0.343867458333333,0,0x7F,0x12
0.343885666666667,0,0xFF,0x08
0.345837375000000,0,0x98,0x10
0.345855416666667,0,0xFF,0x12
0.345873625000000,0,0xFF,0x08
0.347825416666667,0,0xB0,0x12
0.347843458333333,0,0xFF,0x02
0.347861666666667,0,0xFF,0x08
0.349813416666667,0,0x98,0x1A
0.349831458333333,0,0xFF,0x12
0.349849666666667,0,0xFF,0x08
0.351801500000000,0,0x90,0x12
0.351819541666667,0,0xFF,0x10
0.351837750000000,0,0xFF,0x00
0.351862583333333,0,0x83,0x13
0.351880583333333,0,0xFF,0x00
0.351898791666667,0,0xFF,0x14
0.351919375000000,0,0x07,0x12
0.351937416666667,0,0x00,0x02
0.351955500000000,0,0x3C,0x13
0.352785250000000,0,0x07,0x01
0.352803291666667,0,0x00,0x00
0.352821333333333,0,0x1C,0x01
0.352841958333333,0,0x34,0x01
0.352860000000000,0,0x80,0x01
0.352878041666667,0,0x00,0x81
0.352898291666667,0,0x07,0x01
0.352916333333333,0,0xFF,0x00
0.352934541666667,0,0xFF,0x3C
0.352955416666667,0,0x07,0x01
0.352973458333333,0,0x00,0x01
0.352991541666667,0,0xBC,0x00
0.353789541666667,0,0xB0,0x10
0.353807583333333,0,0xFF,0x12
0.353825791666667,0,0xFF,0x18
0.355777541666667,0,0x98,0x10
0.355795583333333,0,0xFF,0x12
0.355813791666667,0,0xFF,0x18
0.357765333333333,0,0xB0,0x13
0.357783333333333,0,0x7F,0x12
0.357801541666667,0,0xFF,0x18
0.359753583333333,0,0x90,0x12
0.359771625000000,0,0xFF,0x10
0.359789833333333,0,0xFF,0x18
0.361741625000000,0,0xB0,0x13
0.361759625000000,0,0x7F,0x12
0.361777833333333,0,0xFF,0x18
0.363729208333333,0,0xB0,0x12
0.363747250000000,0,0xFF,0x1A
0.363765458333333,0,0xFF,0x18
0.365717208333333,0,0xF0,0x02
0.365735208333333,0,0x7F,0x12
0.365753458333333,0,0xFF,0x18
0.367705125000000,0,0x98,0x10
0.367723166666667,0,0xFF,0x12
0.367741375000000,0,0xFF,0x18
0.369692958333333,0,0xF0,0x12
0.369711000000000,0,0xFF,0x13
0.369729208333333,0,0xFF,0x18
0.371680750000000,0,0xF0,0x12
0.371698750000000,0,0x7F,0x12
0.371716958333333,0,0xFF,0x18
0.373668833333333,0,0xF0,0x12
0.373686875000000,0,0xFF,0x13
0.373705083333333,0,0xFF,0x18
0.375656666666667,0,0x98,0x1A
0.375674708333333,0,0xFF,0x12
0.375692916666667,0,0xFF,0x18
0.377644291666667,0,0xB0,0x12
0.377662333333333,0,0xFF,0x10
0.377680541666667,0,0xFF,0x18
0.379632166666667,0,0xF0,0x02
0.379650166666667,0,0x7F,0x12
0.379668416666667,0,0xFF,0x18
0.381620041666667,0,0xF0,0x12
0.381638083333333,0,0xFF,0x13
0.381656291666667,0,0xFF,0x18
0.383607916666667,0,0xB0,0x12
0.383625958333333,0,0xFF,0x1A
0.383644166666667,0,0xFF,0x18
0.383669000000000,0,0x83,0x13
0.383687000000000,0,0xFF,0x00
0.383705208333333,0,0xFF,0x9C
0.383725791666667,0,0x03,0x02
0.383743791666667,0,0x80,0x12
0.383761875000000,0,0x1E,0x10
0.384591750000000,0,0x03,0x01
0.384609750000000,0,0x80,0x01
0.384627833333333,0,0x1E,0x01
0.384648458333333,0,0x30,0x01
0.384666458333333,0,0x00,0x81
0.384684541666667,0,0x80,0x01
0.384704791666667,0,0x87,0x01
0.384722833333333,0,0xFF,0x00
0.384741041666667,0,0xFF,0x1E
0.384761916666667,0,0x07,0x01
0.384779958333333,0,0x00,0x01
0.384798000000000,0,0x1F,0x81
0.385595750000000,0,0x30,0x92
0.385613791666667,0,0xFF,0x10
0.385632000000000,0,0xFF,0x1C
0.387583625000000,0,0xB0,0x12
0.387601666666667,0,0xFF,0x13
0.387619875000000,0,0xFF,0x1C
0.389571291666667,0,0xB0,0x12
0.389589333333333,0,0xFF,0x12
0.389607541666667,0,0xFF,0x1C
0.391559041666667,0,0xB0,0x12
0.391577083333333,0,0x7F,0x1A
0.391595291666667,0,0xFF,0x1C
0.393546875000000,0,0x98,0x1A
0.393564916666667,0,0xFF,0x12
0.393583125000000,0,0xFF,0x1C
0.395534958333333,0,0xF0,0x02
0.395552958333333,0,0x7F,0x13
0.395571208333333,0,0xFF,0x1C
0.397522625000000,0,0xF0,0x12
0.397540666666667,0,0xFF,0x12
0.397558875000000,0,0xFF,0x0C
0.399510750000000,0,0xF0,0x12
0.399528791666667,0,0xFF,0x13
0.399547000000000,0,0xFF,0x1C
0.401498291666667,0,0x98,0x10
0.401516333333333,0,0xFF,0x02
0.401534541666667,0,0xFF,0x1C
0.403486041666667,0,0x98,0x10
0.403504083333333,0,0xFF,0x12
0.403522291666667,0,0xFF,0x1C
0.405473875000000,0,0xB0,0x12
0.405491916666667,0,0xFF,0x10
0.405510125000000,0,0xFF,0x1C
0.407461791666667,0,0xB0,0x13
0.407479791666667,0,0x7F,0x1A
0.407498000000000,0,0xFF,0x1C
0.409449583333333,0,0x98,0x10
0.409467625000000,0,0xFF,0x12
0.409485833333333,0,0xFF,0x1C
0.411437291666667,0,0xB0,0x12
0.411455333333333,0,0xFF,0x12
0.411473541666667,0,0xFF,0x1C
0.413425333333333,0,0xF0,0x12
0.413443375000000,0,0xFF,0x13
0.413461583333333,0,0xFF,0x1C
0.415413041666667,0,0xB0,0x13
0.415431041666667,0,0x7F,0x12
0.415449250000000,0,0xFF,0x1C
0.415474083333333,0,0xC7,0x02
0.415492125000000,0,0xFF,0x00
0.415510333333333,0,0xFF,0x9F
0.415530875000000,0,0x07,0x12
0.415548916666667,0,0x00,0x02
0.415567000000000,0,0x43,0x13
0.416396916666667,0,0x03,0x01
0.416414916666667,0,0x80,0x01
0.416433000000000,0,0x66,0x01
0.416453625000000,0,0x30,0x01
0.416471625000000,0,0x00,0x81
0.416489708333333,0,0x00,0x01
0.416509958333333,0,0x87,0x01
0.416528000000000,0,0xFF,0x00
0.416546208333333,0,0xFF,0x46
0.416567083333333,0,0x07,0x01
0.416585125000000,0,0x00,0x00
0.416603166666667,0,0x67,0x01
0.417400875000000,0,0x98,0x10
0.417418916666667,0,0xFF,0x12
0.417437125000000,0,0xFF,0x0C
0.419388791666667,0,0xF0,0x02
0.419406791666667,0,0x7F,0x12
0.419425041666667,0,0xFF,0x0C
0.421376583333333,0,0xF0,0x12
0.421394583333333,0,0x7F,0x12
0.421412791666667,0,0xFF,0x0C
0.423364375000000,0,0xF0,0x02
0.423382375000000,0,0x7F,0x13
0.423400625000000,0,0xFF,0x0C
0.425352041666667,0,0xB0,0x12
0.425370083333333,0,0xFF,0x1A
0.425388291666667,0,0xFF,0x0C
0.427339791666667,0,0xF0,0x02
0.427357791666667,0,0x7F,0x13
0.427376041666667,0,0xFF,0x0C
0.429327791666667,0,0xB0,0x13
0.429345791666667,0,0x7F,0x1A
0.429364000000000,0,0xFF,0x04
0.431315250000000,0,0xF0,0x02
0.431333250000000,0,0x7F,0x12
0.431351458333333,0,0xFF,0x0C
0.433303083333333,0,0xB0,0x12
0.433321125000000,0,0xFF,0x13
0.433339333333333,0,0xFF,0x0C
0.435290541666667,0,0xF0,0x12
0.435308541666667,0,0x7F,0x12
0.435326750000000,0,0xFF,0x0C
0.437277916666667,0,0xF0,0x02
0.437295916666667,0,0x7F,0x12
0.437314166666667,0,0xFF,0x0C
0.439265541666667,0,0xF0,0x12
0.439283583333333,0,0xFF,0x13
0.439301791666667,0,0xFF,0x0C
0.441253333333333,0,0xB0,0x13
0.441271333333333,0,0x7F,0x1A
0.441289541666667,0,0xFF,0x04
0.443240916666667,0,0xF0,0x02
0.443258958333333,0,0xFF,0x12
0.443277125000000,0,0xFF,0x0C
0.445228458333333,0,0xB0,0x12
0.445246500000000,0,0xFF,0x12
0.445264708333333,0,0xFF,0x0C
0.447216041666667,0,0xB0,0x13
0.447234041666667,0,0xFF,0x10
0.447252250000000,0,0xFF,0x06
0.447277083333333,0,0x87,0x12
0.447295083333333,0,0xFF,0x00
0.447313291666667,0,0xFF,0xC6
0.447333875000000,0,0x03,0x12
0.447351875000000,0,0x00,0x18
0.447369958333333,0,0x00,0x12
0.448199750000000,0,0x07,0x01
0.448217791666667,0,0x00,0x00
0.448235833333333,0,0x00,0x81
0.448256458333333,0,0x36,0x01
0.448274500000000,0,0x80,0x00
0.448292541666667,0,0x00,0x81
0.448312791666667,0,0x07,0x01
0.448330833333333,0,0xFF,0x00
0.448349041666667,0,0xFF,0x00
0.448369916666667,0,0x07,0x01
0.448387958333333,0,0x00,0x01
0.448406000000000,0,0x00,0x81
0.449203666666667,0,0x30,0x12
0.449221708333333,0,0xFF,0x12
0.449239916666667,0,0xFF,0x00
0.451191416666667,0,0xB0,0x12
0.451209458333333,0,0xFF,0x02
0.451227666666667,0,0xFF,0x00
0.453179166666667,0,0xF0,0x02
0.453197166666667,0,0x7F,0x12
0.453215375000000,0,0xFF,0x00
0.455166791666667,0,0xB0,0x13
0.455184791666667,0,0xFF,0x1A
0.455203000000000,0,0xFF,0x00
0.457154416666667,0,0xB0,0x12
0.457172458333333,0,0xFF,0x10
0.457190666666667,0,0xFF,0x00
0.459142125000000,0,0xF0,0x12
0.459160166666667,0,0xFF,0x12
0.459178375000000,0,0xFF,0x00
0.461129750000000,0,0xB0,0x12
0.461147791666667,0,0xFF,0x12
0.461166000000000,0,0xFF,0x00
0.463117250000000,0,0xF0,0x12
0.463135250000000,0,0x7F,0x12
0.463153458333333,0,0xFF,0x00
0.465104750000000,0,0xB0,0x12
0.465122791666667,0,0xFF,0x13
0.465141000000000,0,0xFF,0x00
0.467092375000000,0,0xB0,0x12
0.467110416666667,0,0xFF,0x12
0.467128625000000,0,0xFF,0x00
0.469080333333333,0,0xF0,0x02
0.469098375000000,0,0xFF,0x12
0.469116541666667,0,0xFF,0x00
0.471067833333333,0,0xF0,0x12
0.471085875000000,0,0xFF,0x12
0.471104041666667,0,0xFF,0x00
0.473055583333333,0,0x98,0x1A
0.473073625000000,0,0xFF,0x12
0.473091833333333,0,0xFF,0x00
0.475042833333333,0,0x98,0x18
0.475060875000000,0,0xFF,0x12
0.475079083333333,0,0xFF,0x00
0.477030416666667,0,0x90,0x12
0.477048458333333,0,0xFF,0x12
0.477066666666667,0,0xFF,0x00
0.479018250000000,0,0xB0,0x13
0.479036250000000,0,0x7F,0x1A
0.479054458333333,0,0xFF,0x00
0.479079291666667,0,0x83,0x13
0.479097291666667,0,0xFF,0x00
0.479115500000000,0,0xFF,0x80
0.479136083333333,0,0x03,0x02
0.479154083333333,0,0x80,0x12
0.479172166666667,0,0x00,0x1A
0.480001958333333,0,0x07,0x01
0.480020000000000,0,0x00,0x01
0.480038083333333,0,0x3C,0x01
0.480058666666667,0,0x1C,0x01
0.480076708333333,0,0x80,0x01
0.480094791666667,0,0xC0,0x01
0.480115000000000,0,0x07,0x81
0.480133041666667,0,0xFF,0x00
0.480151250000000,0,0xFF,0x20
0.480172125000000,0,0x87,0x01
0.480190166666667,0,0x00,0x01
0.480208250000000,0,0xF8,0x01
0.481005958333333,0,0xF0,0x02
0.481023958333333,0,0x7F,0x12
0.481042166666667,0,0xFF,0x10
0.482993791666667,0,0xB0,0x12
0.483011833333333,0,0xFF,0x02
0.483030041666667,0,0xFF,0x00
0.484981333333333,0,0xB0,0x12
0.484999375000000,0,0xFF,0x12
0.485017583333333,0,0xFF,0x10
0.486969083333333,0,0xF0,0x12
0.486987083333333,0,0x7F,0x12
0.487005291666667,0,0xFF,0x10
0.488957000000000,0,0xF0,0x12
0.488975041666667,0,0xFF,0x13
0.488993250000000,0,0xFF,0x10
0.490944833333333,0,0xB0,0x12
0.490962875000000,0,0xFF,0x13
0.490981083333333,0,0xFF,0x10
0.492932583333333,0,0xB0,0x12
0.492950625000000,0,0xFF,0x02
0.492968833333333,0,0xFF,0x00
0.494920125000000,0,0xB0,0x13
0.494938125000000,0,0x7F,0x1A
0.494956333333333,0,0xFF,0x18
0.496907916666667,0,0x90,0x12
0.496925958333333,0,0xFF,0x12
0.496944166666667,0,0xFF,0x10
0.498895583333333,0,0xB0,0x13
0.498913583333333,0,0x7F,0x1A
0.498931791666667,0,0xFF,0x10
0.500883416666667,0,0xB0,0x12
0.500901458333333,0,0xFF,0x10
0.500919666666667,0,0xFF,0x10
0.502871166666667,0,0xB0,0x13
0.502889166666667,0,0x7F,0x12
0.502907375000000,0,0xFF,0x10
0.504858708333333,0,0x90,0x12
0.504876750000000,0,0xFF,0x12
0.504894958333333,0,0xFF,0x10
0.506846333333333,0,0x98,0x10
0.506864375000000,0,0xFF,0x02
0.506882583333333,0,0xFF,0x00
0.508834208333333,0,0xF0,0x02
0.508852208333333,0,0x7F,0x12
0.508870458333333,0,0xFF,0x10
0.510821875000000,0,0x90,0x12
0.510839916666667,0,0xFF,0x12
0.510858125000000,0,0xFF,0x10
0.510882916666667,0,0x87,0x12
0.510900958333333,0,0xFF,0x00
0.510919166666667,0,0xFF,0xA8
0.510939708333333,0,0x87,0x12
0.510957750000000,0,0x00,0x10
0.510975833333333,0,0x0A,0x12
0.511805416666667,0,0x07,0x01
0.511823458333333,0,0x00,0x01
0.511841541666667,0,0x0F,0x00
0.511862125000000,0,0x1E,0x01
0.511880166666667,0,0xC0,0x01
0.511898250000000,0,0x80,0x00
0.511918458333333,0,0x07,0x81
0.511936500000000,0,0xFF,0x00
0.511954708333333,0,0xFF,0x0A
0.511975583333333,0,0x07,0x01
0.511993625000000,0,0x00,0x01
0.512011708333333,0,0x8B,0x01
0.512809375000000,0,0xB0,0x12
0.512827416666667,0,0xFF,0x12
0.512845625000000,0,0xFF,0x00
0.514797041666667,0,0xB0,0x12
0.514815083333333,0,0xFF,0x13
0.514833291666667,0,0xFF,0x10
0.516784750000000,0,0xB0,0x12
0.516802791666667,0,0xFF,0x13
0.516821000000000,0,0xFF,0x14
0.518772333333333,0,0xB0,0x12
0.518790375000000,0,0xFF,0x12
0.518808583333333,0,0xFF,0x10
0.520759916666667,0,0x98,0x10
0.520777958333333,0,0xFF,0x02
0.520796166666667,0,0xFF,0x00
0.522747666666667,0,0xB0,0x13
0.522765666666667,0,0xFF,0x10
0.522783875000000,0,0xFF,0x1C
0.524735416666667,0,0xB0,0x12
0.524753458333333,0,0xFF,0x12
0.524771666666667,0,0xFF,0x14
0.526723208333333,0,0xF0,0x02
0.526741208333333,0,0x7F,0x12
0.526759458333333,0,0xFF,0x14
0.528711208333333,0,0xB0,0x12
0.528729208333333,0,0x7F,0x12
0.528747416666667,0,0xFF,0x14
0.530698875000000,0,0x98,0x10
0.530716916666667,0,0xFF,0x02
0.530735125000000,0,0xFF,0x04
0.532686750000000,0,0xF0,0x12
0.532704791666667,0,0xFF,0x12
0.532723000000000,0,0xFF,0x10
0.534674291666667,0,0xB0,0x12
0.534692333333333,0,0xFF,0x10
0.534710541666667,0,0xFF,0x16
0.536662250000000,0,0xB0,0x12
0.536680250000000,0,0x7F,0x12
0.536698458333333,0,0xFF,0x14
0.538649875000000,0,0xF0,0x02
0.538667875000000,0,0x7F,0x12
0.538686083333333,0,0xFF,0x14
0.540637541666667,0,0x98,0x1A
0.540655583333333,0,0xFF,0x12
0.540673791666667,0,0xFF,0x14
0.542625458333333,0,0x90,0x12
0.542643500000000,0,0xFF,0x10
0.542661708333333,0,0xFF,0x1C
0.542686541666667,0,0x83,0x12
0.542704541666667,0,0xFF,0x00
0.542722750000000,0,0xFF,0x8A
0.542743333333333,0,0x07,0x02
0.542761375000000,0,0x00,0x12
0.542779416666667,0,0x1A,0x1A
0.543609125000000,0,0x03,0x00
0.543627125000000,0,0x80,0x01
0.543645208333333,0,0x18,0x01
0.543665833333333,0,0x30,0x00
0.543683833333333,0,0x00,0x01
0.543701916666667,0,0x80,0x01
0.543722166666667,0,0xC7,0x01
0.543740208333333,0,0xFF,0x00
0.543758416666667,0,0xFF,0x32
0.543779291666667,0,0x03,0x01
0.543797291666667,0,0x80,0x81
0.543815375000000,0,0x1A,0x01
0.544613125000000,0,0xF0,0x02
0.544631125000000,0,0x7F,0x12
0.544649375000000,0,0xFF,0x04
0.546600916666667,0,0xB0,0x12
0.546618958333333,0,0xFF,0x10
0.546637166666667,0,0xFF,0x06
0.548588833333333,0,0xB0,0x12
0.548606875000000,0,0xFF,0x10
0.548625083333333,0,0xFF,0x06
0.550576416666667,0,0xB0,0x12
0.550594458333333,0,0xFF,0x12
0.550612666666667,0,0xFF,0x04
0.552564125000000,0,0xB0,0x12
0.552582166666667,0,0xFF,0x10
0.552600375000000,0,0xFF,0x06
0.554551916666667,0,0xB0,0x12
0.554569958333333,0,0xFF,0x10
0.554588166666667,0,0xFF,0x06
0.556539708333333,0,0xB0,0x13
0.556557708333333,0,0x7F,0x1A
0.556575916666667,0,0xFF,0x04
0.558527375000000,0,0x98,0x1A
0.558545416666667,0,0xFF,0x12
0.558563625000000,0,0xFF,0x04
0.560515166666667,0,0xB0,0x12
0.560533166666667,0,0x7F,0x12
0.560551375000000,0,0xFF,0x04
0.562503000000000,0,0xB0,0x13
0.562521000000000,0,0x7F,0x1A
0.562539208333333,0,0xFF,0x04
0.564490708333333,0,0x98,0x1A
0.564508750000000,0,0xFF,0x12
0.564526958333333,0,0xFF,0x04
0.566478458333333,0,0xF0,0x02
0.566496458333333,0,0x7F,0x12
0.566514666666667,0,0xFF,0x04
0.568466083333333,0,0xF0,0x12
0.568484083333333,0,0x7F,0x12
0.568502291666667,0,0xFF,0x04
0.570453708333333,0,0x98,0x1A
0.570471750000000,0,0xFF,0x12
0.570489958333333,0,0xFF,0x04
0.572441458333333,0,0x98,0x1A
0.572459500000000,0,0xFF,0x12
0.572477708333333,0,0xFF,0x04
0.574429375000000,0,0xF0,0x02
0.574447416666667,0,0xFF,0x12
0.574465625000000,0,0xFF,0x04
0.574490416666667,0,0xC7,0x12
0.574508458333333,0,0xFF,0x00
0.574526666666667,0,0xFF,0xB3
0.574547208333333,0,0x07,0x12
0.574565250000000,0,0x00,0x12
0.574583291666667,0,0x14,0x12
0.575412916666667,0,0x03,0x01
0.575430916666667,0,0x80,0x81
0.575449000000000,0,0x1E,0x01
0.575469625000000,0,0x30,0x01
0.575487625000000,0,0x00,0x01
0.575505708333333,0,0x80,0x01
0.575525958333333,0,0x87,0x01
0.575544000000000,0,0xFF,0x00
0.575562208333333,0,0xFF,0x14
0.575583083333333,0,0x03,0x01
0.575601083333333,0,0x80,0x01
0.575619166666667,0,0x9E,0x01
0.576417000000000,0,0xB0,0x13
0.576435000000000,0,0x7F,0x1A
0.576453208333333,0,0xFF,0x00
0.578404375000000,0,0xB0,0x13
0.578422375000000,0,0x7F,0x1A
0.578440583333333,0,0xFF,0x00
0.580391958333333,0,0xB0,0x12
0.580410000000000,0,0xFF,0x13
0.580428208333333,0,0xFF,0x08
0.582379708333333,0,0xB0,0x12
0.582397750000000,0,0xFF,0x12
0.582415958333333,0,0xFF,0x0C
0.584367333333333,0,0x98,0x1A
0.584385375000000,0,0xFF,0x12
0.584403583333333,0,0xFF,0x08
0.586355291666667,0,0xF0,0x02
0.586373291666667,0,0x7F,0x12
0.586391500000000,0,0xFF,0x08
0.588342583333333,0,0xF0,0x12
0.588360625000000,0,0xFF,0x13
0.588378833333333,0,0xFF,0x08
0.590330416666667,0,0x98,0x18
0.590348458333333,0,0xFF,0x12
0.590366666666667,0,0xFF,0x08
0.592317958333333,0,0x98,0x10
0.592336000000000,0,0xFF,0x02
0.592354208333333,0,0xFF,0x08
0.594305500000000,0,0x98,0x10
0.594323541666667,0,0xFF,0x02
0.594341750000000,0,0xFF,0x08
0.596293375000000,0,0xB0,0x12
0.596311416666667,0,0xFF,0x10
0.596329625000000,0,0xFF,0x08
0.598280875000000,0,0x98,0x10
0.598298916666667,0,0xFF,0x12
0.598317125000000,0,0xFF,0x08
0.600268875000000,0,0x98,0x10
0.600286916666667,0,0xFF,0x02
0.600305125000000,0,0xFF,0x0C
0.602256250000000,0,0xF0,0x02
0.602274250000000,0,0x7F,0x12
0.602292500000000,0,0xFF,0x08
0.604243750000000,0,0xB0,0x12
0.604261791666667,0,0xFF,0x12
0.604280000000000,0,0xFF,0x08
0.606231291666667,0,0xF0,0x12
0.606249333333333,0,0xFF,0x13
0.606267541666667,0,0xFF,0x08
0.606292333333333,0,0xC7,0x12
0.606310375000000,0,0xFF,0x00
0.606328583333333,0,0xFF,0x94
0.606349125000000,0,0x07,0x12
0.606367166666667,0,0x00,0x12
0.606385208333333,0,0x3C,0x12
0.607215041666667,0,0x07,0x01
0.607233083333333,0,0x00,0x00
0.607251125000000,0,0x1C,0x01
0.607271750000000,0,0x34,0x01
0.607289791666667,0,0x80,0x00
0.607307833333333,0,0x00,0x81
0.607328083333333,0,0x07,0x01
0.607346125000000,0,0xFF,0x00
0.607364333333333,0,0xFF,0x3C
0.607385208333333,0,0x07,0x01
0.607403250000000,0,0x00,0x01
0.607421291666667,0,0x3C,0x81
0.608219000000000,0,0xB0,0x12
0.608237041666667,0,0xFF,0x13
0.608255250000000,0,0xFF,0x18
0.610206583333333,0,0xB8,0x12
0.610224625000000,0,0xFF,0x02
0.610242833333333,0,0xFF,0x0C
0.612194250000000,0,0xB0,0x12
0.612212291666667,0,0xFF,0x10
0.612230500000000,0,0xFF,0x18
0.614182041666667,0,0xB0,0x12
0.614200083333333,0,0xFF,0x10
0.614218291666667,0,0xFF,0x18
0.616169708333333,0,0x98,0x1A
0.616187750000000,0,0xFF,0x12
0.616205958333333,0,0xFF,0x18
0.618157500000000,0,0xF0,0x12
0.618175500000000,0,0x7F,0x12
0.618193708333333,0,0xFF,0x18
0.620145166666667,0,0xF0,0x12
0.620163166666667,0,0x7F,0x12
0.620181375000000,0,0xFF,0x18
0.622132708333333,0,0xB0,0x12
0.622150750000000,0,0xFF,0x12
0.622168958333333,0,0xFF,0x18
0.624120333333333,0,0xB0,0x12
0.624138375000000,0,0xFF,0x10
0.624156583333333,0,0xFF,0x18
0.626108083333333,0,0xB0,0x12
0.626126125000000,0,0xFF,0x10
0.626144333333333,0,0xFF,0x18
0.628095750000000,0,0xB0,0x12
0.628113791666667,0,0xFF,0x12
0.628132000000000,0,0xFF,0x0C
0.630083500000000,0,0xB0,0x13
0.630101500000000,0,0x7F,0x12
0.630119708333333,0,0xFF,0x18
0.632071333333333,0,0xB0,0x12
0.632089333333333,0,0x7F,0x12
0.632107541666667,0,0xFF,0x18
0.634059250000000,0,0xF0,0x02
0.634077291666667,0,0xFF,0x12
0.634095500000000,0,0xFF,0x18
0.636047083333333,0,0x98,0x10
0.636065125000000,0,0xFF,0x12
0.636083333333333,0,0xFF,0x18
0.638034875000000,0,0x98,0x1A
0.638052916666667,0,0xFF,0x12
0.638071125000000,0,0xFF,0x18
0.638095916666667,0,0x87,0x12
0.638113958333333,0,0xFF,0x00
0.638132166666667,0,0xFF,0x9C
0.638152750000000,0,0x03,0x02
0.638170750000000,0,0x80,0x12
0.638188833333333,0,0x1E,0x10
0.639018666666667,0,0x07,0x01
0.639036708333333,0,0x00,0x01
0.639054750000000,0,0x1E,0x01
0.639075375000000,0,0x30,0x01
0.639093375000000,0,0x00,0x81
0.639111458333333,0,0x00,0x01
0.639131708333333,0,0x87,0x01
0.639149750000000,0,0xFF,0x00
0.639167958333333,0,0xFF,0x0E
0.639188833333333,0,0x07,0x01
0.639206875000000,0,0x00,0x01
0.639224916666667,0,0x1F,0x80
0.640022666666667,0,0x30,0x92
0.640040708333333,0,0xFF,0x10
0.640058916666667,0,0xFF,0x1C
0.642010458333333,0,0xB0,0x12
0.642028500000000,0,0xFF,0x10
0.642046708333333,0,0xFF,0x1C
0.643998291666667,0,0xB0,0x12
0.644016333333333,0,0xFF,0x10
0.644034541666667,0,0xFF,0x1E
0.645986125000000,0,0xB0,0x12
0.646004166666667,0,0xFF,0x12
0.646022375000000,0,0xFF,0x1C
0.647974125000000,0,0x98,0x1A
0.647992166666667,0,0xFF,0x12
0.648010375000000,0,0xFF,0x1E
0.649962083333333,0,0x98,0x10
0.649980125000000,0,0xFF,0x02
0.649998333333333,0,0xFF,0x1C
0.651949958333333,0,0x98,0x10
0.651968000000000,0,0xFF,0x12
0.651986208333333,0,0xFF,0x1C
0.653937708333333,0,0xB0,0x13
0.653955708333333,0,0x7F,0x12
0.653973916666667,0,0xFF,0x1C
0.655925291666667,0,0xB0,0x12
0.655943333333333,0,0xFF,0x12
0.655961541666667,0,0xFF,0x1C
0.657913083333333,0,0x98,0x10
0.657931125000000,0,0xFF,0x02
0.657949333333333,0,0xFF,0x1C
0.659900875000000,0,0xB0,0x12
0.659918916666667,0,0xFF,0x12
0.659937125000000,0,0xFF,0x1C
0.661888541666667,0,0xB0,0x13
0.661906541666667,0,0x7F,0x1A
0.661924750000000,0,0xFF,0x1C
0.663876125000000,0,0xB0,0x13
0.663894125000000,0,0x7F,0x1A
0.663912333333333,0,0xFF,0x1C
0.665863833333333,0,0xB0,0x12
0.665881833333333,0,0xFF,0x10
0.665900041666667,0,0xFF,0x1C
0.667851583333333,0,0xB0,0x13
0.667869583333333,0,0x7F,0x1A
0.667887791666667,0,0xFF,0x1C
0.669839291666667,0,0xB0,0x12
0.669857333333333,0,0xFF,0x02
0.669875541666667,0,0xFF,0x0C
0.669900333333333,0,0x87,0x10
0.669918375000000,0,0xFF,0x00
0.669936583333333,0,0xFF,0x8E
0.669957125000000,0,0x07,0x1A
0.669975166666667,0,0x00,0x12
0.669993250000000,0,0x02,0x12
0.670823041666667,0,0x03,0x00
0.670841041666667,0,0x00,0x01
0.670859125000000,0,0x46,0x01
0.670879708333333,0,0x34,0x81
0.670897750000000,0,0x80,0x01
0.670915833333333,0,0xC0,0x01
0.670936083333333,0,0x83,0x00
0.670954083333333,0,0xFF,0x00
0.670972291666667,0,0xFF,0x46
0.670993166666667,0,0x87,0x01
0.671011208333333,0,0x00,0x01
0.671029291666667,0,0xC3,0x00
0.671827166666667,0,0xB0,0x13
0.671845166666667,0,0x7F,0x12
0.671863375000000,0,0xFF,0x0C
0.673814625000000,0,0xB0,0x13
0.673832625000000,0,0x7F,0x1A
0.673850833333333,0,0xFF,0x04
0.675802250000000,0,0xB0,0x12
0.675820250000000,0,0xFF,0x10
0.675838458333333,0,0xFF,0x0E
0.677789833333333,0,0xF0,0x12
0.677807875000000,0,0xFF,0x12
0.677826083333333,0,0xFF,0x0C
0.679777416666667,0,0xB0,0x13
0.679795416666667,0,0x7F,0x1A
0.679813625000000,0,0xFF,0x0E
0.681764958333333,0,0xF0,0x02
0.681782958333333,0,0x7F,0x12
0.681801166666667,0,0xFF,0x0C
0.683752583333333,0,0xF0,0x12
0.683770625000000,0,0xFF,0x13
0.683788833333333,0,0xFF,0x0C
0.685740291666667,0,0x98,0x1A
0.685758333333333,0,0xFF,0x12
0.685776541666667,0,0xFF,0x0C
0.687728041666667,0,0xB0,0x12
0.687746083333333,0,0xFF,0x10
0.687764291666667,0,0xFF,0x0E
0.689715666666667,0,0xB0,0x12
0.689733708333333,0,0xFF,0x13
0.689751916666667,0,0xFF,0x0C
0.691703333333333,0,0xF0,0x02
0.691721333333333,0,0x7F,0x12
0.691739583333333,0,0xFF,0x0C
0.693691041666667,0,0x98,0x10
0.693709083333333,0,0xFF,0x02
0.693727291666667,0,0xFF,0x0C
0.695678625000000,0,0xB0,0x12
0.695696666666667,0,0xFF,0x13
0.695714875000000,0,0xFF,0x0C
0.697666250000000,0,0xF0,0x02
0.697684250000000,0,0x7F,0x12
0.697702500000000,0,0xFF,0x0C
0.699653916666667,0,0xB0,0x13
0.699671916666667,0,0x7F,0x1A
0.699690125000000,0,0xFF,0x04
0.701641500000000,0,0xB8,0x10
0.701659541666667,0,0xFF,0x02
0.701677750000000,0,0xFF,0x0C
0.701702541666667,0,0x87,0x1A
0.701720583333333,0,0xFF,0x00
0.701738791666667,0,0xFF,0xC6
0.701759333333333,0,0x87,0x12
0.701777375000000,0,0x00,0x10
0.701795458333333,0,0x00,0x12
0.702625291666667,0,0x03,0x00
0.702643291666667,0,0x80,0x01
0.702661375000000,0,0x00,0x01
0.702682000000000,0,0x30,0x01
0.702700000000000,0,0x00,0x01
0.702718083333333,0,0x80,0x01
0.702738333333333,0,0x87,0x01
0.702756375000000,0,0xFF,0x00
0.702774583333333,0,0xFF,0x00
0.702795458333333,0,0x07,0x01
0.702813500000000,0,0x00,0x01
0.702831541666667,0,0x00,0x81
0.703629333333333,0,0x98,0x10
0.703647375000000,0,0xFF,0x12
0.703665583333333,0,0xFF,0x00
0.705617125000000,0,0x98,0x10
0.705635166666667,0,0xFF,0x12
0.705653375000000,0,0xFF,0x00
0.707604875000000,0,0xF0,0x12
0.707622916666667,0,0xFF,0x13
0.707641125000000,0,0xFF,0x00
0.709592625000000,0,0xB0,0x12
0.709610666666667,0,0xFF,0x13
0.709628875000000,0,0xFF,0x00
0.711580333333333,0,0xF0,0x12
0.711598375000000,0,0xFF,0x13
0.711616583333333,0,0xFF,0x00
0.713568125000000,0,0xB0,0x12
0.713586166666667,0,0xFF,0x12
0.713604375000000,0,0xFF,0x00
0.715556041666667,0,0xF0,0x02
0.715574041666667,0,0x7F,0x12
0.715592291666667,0,0xFF,0x00
0.717543791666667,0,0x98,0x10
0.717561833333333,0,0xFF,0x12
0.717580041666667,0,0xFF,0x00
0.719531416666667,0,0xB0,0x12
0.719549458333333,0,0xFF,0x10
0.719567666666667,0,0xFF,0x00
0.721519125000000,0,0xF0,0x12
0.721537166666667,0,0xFF,0x13
0.721555375000000,0,0xFF,0x00
0.723506750000000,0,0xB0,0x12
0.723524791666667,0,0xFF,0x10
0.723543000000000,0,0xFF,0x00
0.725494458333333,0,0xB0,0x12
0.725512500000000,0,0xFF,0x12
0.725530708333333,0,0xFF,0x00
0.727482166666667,0,0xF0,0x12
0.727500166666667,0,0x7F,0x12
0.727518375000000,0,0xFF,0x00
0.729469875000000,0,0xB0,0x12
0.729487875000000,0,0xFF,0x1A
0.729506083333333,0,0xFF,0x00
0.731457583333333,0,0xB0,0x13
0.731475583333333,0,0x7F,0x1A
0.731493791666667,0,0xFF,0x00
0.733445125000000,0,0xF0,0x02
0.733463125000000,0,0x7F,0x12
0.733481333333333,0,0xFF,0x00
0.733506166666667,0,0xC3,0x12
0.733524166666667,0,0xFF,0x00
0.733542375000000,0,0xFF,0x80
0.733562958333333,0,0x03,0x12
0.733580958333333,0,0x80,0x12
0.733599041666667,0,0x00,0x10
0.734428791666667,0,0x07,0x01
0.734446833333333,0,0x00,0x01
0.734464916666667,0,0x3C,0x01
0.734485500000000,0,0x1C,0x01
0.734503541666667,0,0xC0,0x01
0.734521625000000,0,0x80,0x00
0.734541833333333,0,0x07,0x81
0.734559875000000,0,0xFF,0x00
0.734578083333333,0,0xFF,0x28
0.734598958333333,0,0x07,0x01
0.734617000000000,0,0x00,0x01
0.734635083333333,0,0xBC,0x00
0.735432750000000,0,0x18,0x1A
0.735450791666667,0,0xFF,0x12
0.735469000000000,0,0xFF,0x10
0.737420416666667,0,0x98,0x10
0.737438458333333,0,0xFF,0x02
0.737456666666667,0,0xFF,0x00
0.739408083333333,0,0x90,0x12
0.739426125000000,0,0xFF,0x12
0.739444333333333,0,0xFF,0x10
0.741395750000000,0,0xF0,0x02
0.741413750000000,0,0x7F,0x12
0.741431958333333,0,0xFF,0x10
0.743383291666667,0,0xB0,0x12
0.743401333333333,0,0xFF,0x12
0.743419541666667,0,0xFF,0x00
0.745371000000000,0,0xF0,0x12
0.745389041666667,0,0xFF,0x13
0.745407250000000,0,0xFF,0x10
0.747358791666667,0,0xF0,0x12
0.747376791666667,0,0x7F,0x12
0.747395000000000,0,0xFF,0x10
0.749346500000000,0,0xB8,0x10
0.749364541666667,0,0xFF,0x02
0.749382750000000,0,0xFF,0x00
0.751334166666667,0,0xB0,0x12
0.751352208333333,0,0xFF,0x13
0.751370416666667,0,0xFF,0x10
0.753321791666667,0,0xB0,0x12
0.753339833333333,0,0xFF,0x13
0.753358041666667,0,0xFF,0x10
0.755309583333333,0,0xF0,0x12
0.755327583333333,0,0x7F,0x12
0.755345791666667,0,0xFF,0x10
0.757297291666667,0,0x98,0x10
0.757315333333333,0,0xFF,0x02
0.757333541666667,0,0xFF,0x00
0.759285000000000,0,0xB0,0x13
0.759303000000000,0,0x7F,0x1A
0.759321208333333,0,0xFF,0x18
0.761272625000000,0,0x98,0x12
0.761290666666667,0,0xFF,0x02
0.761308875000000,0,0xFF,0x00
0.763260250000000,0,0xB8,0x10
0.763278291666667,0,0xFF,0x02
0.763296500000000,0,0xFF,0x00
0.765247916666667,0,0xF0,0x12
0.765265958333333,0,0xFF,0x12
0.765284125000000,0,0xFF,0x10
0.765308958333333,0,0xC3,0x13
0.765326958333333,0,0xFF,0x00
0.765345166666667,0,0xFF,0xA0
0.765365750000000,0,0x03,0x13
0.765383750000000,0,0x80,0x1A
0.765401833333333,0,0x00,0x12
0.766231625000000,0,0x03,0x00
0.766249625000000,0,0x00,0x01
0.766267708333333,0,0x08,0x01
0.766288291666667,0,0x34,0x81
0.766306333333333,0,0x80,0x01
0.766324416666667,0,0xC0,0x01
0.766344666666667,0,0x83,0x00
0.766362666666667,0,0xFF,0x00
0.766380875000000,0,0xFF,0x02
0.766401750000000,0,0x87,0x01
0.766419791666667,0,0x00,0x01
0.766437875000000,0,0xCA,0x01
0.767235708333333,0,0x30,0x92
0.767253750000000,0,0xFF,0x12
0.767271958333333,0,0xFF,0x14
0.769223250000000,0,0xF0,0x12
0.769241291666667,0,0xFF,0x13
0.769259500000000,0,0xFF,0x14
0.771211000000000,0,0xF0,0x12
0.771229041666667,0,0xFF,0x12
0.771247250000000,0,0xFF,0x14
0.773198666666667,0,0xB0,0x13
0.773216666666667,0,0x7F,0x1A
0.773234875000000,0,0xFF,0x1C
0.775186333333333,0,0xB0,0x12
0.775204375000000,0,0xFF,0x10
0.775222583333333,0,0xFF,0x16
0.777174125000000,0,0xB0,0x13
0.777192125000000,0,0x7F,0x1A
0.777210333333333,0,0xFF,0x14
0.779161791666667,0,0x98,0x10
0.779179833333333,0,0xFF,0x12
0.779198041666667,0,0xFF,0x14
0.781149625000000,0,0xF0,0x02
0.781167625000000,0,0x7F,0x12
0.781185833333333,0,0xFF,0x14
0.783137375000000,0,0x98,0x10
0.783155416666667,0,0xFF,0x12
0.783173625000000,0,0xFF,0x14
0.785125125000000,0,0x98,0x1A
0.785143166666667,0,0xFF,0x12
0.785161375000000,0,0xFF,0x14
0.787112791666667,0,0xB0,0x12
0.787130833333333,0,0xFF,0x10
0.787149041666667,0,0xFF,0x16
0.789100583333333,0,0xF0,0x02
0.789118583333333,0,0x7F,0x12
0.789136791666667,0,0xFF,0x14
0.791088375000000,0,0xF0,0x02
0.791106375000000,0,0x7F,0x12
0.791124583333333,0,0xFF,0x14
0.793076208333333,0,0xF0,0x12
0.793094208333333,0,0x7F,0x12
0.793112416666667,0,0xFF,0x14
0.795063916666667,0,0xB0,0x13
0.795081916666667,0,0x7F,0x1A
0.795100125000000,0,0xFF,0x1C
0.797051625000000,0,0xB0,0x12
0.797069666666667,0,0xFF,0x12
0.797087875000000,0,0xFF,0x10
0.797112666666667,0,0x87,0x12
0.797130708333333,0,0xFF,0x00
0.797148916666667,0,0xFF,0x8A
0.797169458333333,0,0x07,0x1A
0.797187500000000,0,0x00,0x12
0.797205583333333,0,0x32,0x02
0.798035458333333,0,0x03,0x00
0.798053458333333,0,0x80,0x01
0.798071541666667,0,0x18,0x01
0.798092166666667,0,0x30,0x01
0.798110166666667,0,0x00,0x01
0.798128250000000,0,0x80,0x01
0.798148500000000,0,0x87,0x01
0.798166541666667,0,0xFF,0x00
0.798184750000000,0,0xFF,0x32
0.798205625000000,0,0x07,0x01
0.798223666666667,0,0x00,0x00
0.798241708333333,0,0x12,0x01
0.799039458333333,0,0x30,0x92
0.799057500000000,0,0xFF,0x10
0.799075708333333,0,0xFF,0x04
0.801027291666667,0,0xB0,0x12
0.801045333333333,0,0xFF,0x10
0.801063541666667,0,0xFF,0x04
0.803015166666667,0,0x98,0x10
0.803033208333333,0,0xFF,0x12
0.803051416666667,0,0xFF,0x04
0.805003083333333,0,0xB0,0x12
0.805021125000000,0,0xFF,0x02
0.805039333333333,0,0xFF,0x00
0.806990916666667,0,0xB0,0x12
0.807008916666667,0,0xFF,0x1A
0.807027125000000,0,0xFF,0x04
0.808978666666667,0,0xB0,0x12
0.808996708333333,0,0xFF,0x10
0.809014916666667,0,0xFF,0x06
0.810966416666667,0,0xB0,0x12
0.810984458333333,0,0xFF,0x10
0.811002666666667,0,0xFF,0x06
0.812954166666667,0,0xF0,0x12
0.812972208333333,0,0xFF,0x13
0.812990416666667,0,0xFF,0x04
0.814941791666667,0,0xB0,0x13
0.814959791666667,0,0x7F,0x1A
0.814978000000000,0,0xFF,0x04
0.816929416666667,0,0x98,0x1A
0.816947458333333,0,0xFF,0x12
0.816965666666667,0,0xFF,0x04
0.818917083333333,0,0x98,0x1A
0.818935125000000,0,0xFF,0x12
0.818953333333333,0,0xFF,0x04
0.820904833333333,0,0xB0,0x12
0.820922875000000,0,0xFF,0x10
0.820941083333333,0,0xFF,0x06
0.822892416666667,0,0xF0,0x12
0.822910458333333,0,0xFF,0x13
0.822928666666667,0,0xFF,0x04
0.824880166666667,0,0xF0,0x02
0.824898166666667,0,0x7F,0x12
0.824916416666667,0,0xFF,0x04
0.826867916666667,0,0xB0,0x12
0.826885916666667,0,0x7F,0x12
0.826904125000000,0,0xFF,0x04
0.828855625000000,0,0xF0,0x02
0.828873625000000,0,0x7F,0x12
0.828891875000000,0,0xFF,0x04
0.828916666666667,0,0xC7,0x12
0.828934708333333,0,0xFF,0x00
0.828952916666667,0,0xFF,0xB2
0.828973458333333,0,0x07,0x12
0.828991500000000,0,0x00,0x12
0.829009541666667,0,0x1C,0x1A
0.829839375000000,0,0x07,0x01
0.829857416666667,0,0x00,0x01
0.829875500000000,0,0x00,0x01
0.829896083333333,0,0x1C,0x01
0.829914125000000,0,0x80,0x01
0.829932208333333,0,0xC0,0x01
0.829952458333333,0,0x83,0x01
0.829970458333333,0,0xFF,0x80
0.829988666666667,0,0xFF,0x14
0.830009583333333,0,0x03,0x00
0.830027583333333,0,0x00,0x01
0.830045666666667,0,0x96,0x01
0.830843416666667,0,0xF0,0x02
0.830861416666667,0,0x7F,0x12
0.830879625000000,0,0xFF,0x08
0.832831083333333,0,0xB0,0x12
0.832849083333333,0,0xFF,0x10
0.832867291666667,0,0xFF,0x00
0.834818625000000,0,0x98,0x12
0.834836666666667,0,0xFF,0x12
0.834854875000000,0,0xFF,0x08
0.836806250000000,0,0x98,0x18
0.836824291666667,0,0xFF,0x12
0.836842500000000,0,0xFF,0x08
0.838794083333333,0,0xB0,0x12
0.838812083333333,0,0xFF,0x1A
0.838830291666667,0,0xFF,0x00
0.840781833333333,0,0xF0,0x12
0.840799833333333,0,0x7F,0x12
0.840818041666667,0,0xFF,0x08
0.842769500000000,0,0xF0,0x12
0.842787541666667,0,0xFF,0x13
0.842805750000000,0,0xFF,0x08
0.844757208333333,0,0x98,0x1A
0.844775250000000,0,0xFF,0x12
0.844793458333333,0,0xFF,0x08
0.846744833333333,0,0x98,0x10
0.846762875000000,0,0xFF,0x12
0.846781083333333,0,0xFF,0x08
0.848732541666667,0,0xB0,0x12
0.848750583333333,0,0xFF,0x10
0.848768791666667,0,0xFF,0x00
0.850720333333333,0,0xF0,0x12
0.850738375000000,0,0xFF,0x13
0.850756583333333,0,0xFF,0x08
0.852708041666667,0,0x90,0x10
0.852726083333333,0,0xFF,0x02
0.852744291666667,0,0xFF,0x08
0.854695666666667,0,0xF0,0x02
0.854713666666667,0,0x7F,0x12
0.854731875000000,0,0xFF,0x08
0.856683250000000,0,0xB0,0x13
0.856701250000000,0,0x7F,0x12
0.856719458333333,0,0xFF,0x08
0.858670916666667,0,0x90,0x12
0.858688958333333,0,0xFF,0x12
0.858707166666667,0,0xFF,0x08
0.860658625000000,0,0xB0,0x12
0.860676666666667,0,0xFF,0x12
0.860694875000000,0,0xFF,0x0C
0.860719666666667,0,0x87,0x10
0.860737708333333,0,0xFF,0x00
0.860755916666667,0,0xFF,0x84
0.860776458333333,0,0x07,0x1A
0.860794500000000,0,0x00,0x12
0.860812583333333,0,0x3C,0x02
0.861642416666667,0,0x07,0x01
0.861660458333333,0,0x00,0x01
0.861678541666667,0,0x3C,0x01
0.861699125000000,0,0x34,0x81
0.861717166666667,0,0x80,0x01
0.861735250000000,0,0x80,0x01
0.861755500000000,0,0xC3,0x01
0.861773500000000,0,0xFF,0x80
0.861791708333333,0,0xFF,0x3C
0.861812625000000,0,0x03,0x00
0.861830625000000,0,0x80,0x01
0.861848708333333,0,0xBE,0x01
0.862646625000000,0,0xF0,0x02
0.862664666666667,0,0xFF,0x12
0.862682875000000,0,0xFF,0x18
0.864634125000000,0,0xF0,0x12
0.864652166666667,0,0xFF,0x12
0.864670375000000,0,0xFF,0x18
0.866621791666667,0,0x98,0x10
0.866639833333333,0,0xFF,0x02
0.866658041666667,0,0xFF,0x0C
0.868609416666667,0,0xB0,0x12
0.868627458333333,0,0xFF,0x10
0.868645666666667,0,0xFF,0x18
0.870597250000000,0,0x98,0x10
0.870615291666667,0,0xFF,0x12
0.870633500000000,0,0xFF,0x18
0.872585083333333,0,0x98,0x10
0.872603125000000,0,0xFF,0x02
0.872621333333333,0,0xFF,0x0C
0.874572750000000,0,0xF0,0x12
0.874590750000000,0,0x7F,0x12
0.874608958333333,0,0xFF,0x18
0.876560250000000,0,0xB0,0x13
0.876578250000000,0,0x7F,0x1A
0.876596458333333,0,0xFF,0x18
0.878547875000000,0,0xF0,0x12
0.878565916666667,0,0xFF,0x12
0.878584125000000,0,0xFF,0x18
0.880535416666667,0,0xB0,0x12
0.880553458333333,0,0xFF,0x12
0.880571666666667,0,0xFF,0x18
0.882523000000000,0,0xF0,0x02
0.882541000000000,0,0x7F,0x12
0.882559250000000,0,0xFF,0x18
0.884510750000000,0,0xF0,0x12
0.884528791666667,0,0xFF,0x12
0.884547000000000,0,0xFF,0x18
0.886498333333333,0,0xB0,0x12
0.886516375000000,0,0xFF,0x02
0.886534583333333,0,0xFF,0x0C
0.888486000000000,0,0xF0,0x02
0.888504041666667,0,0xFF,0x12
0.888522250000000,0,0xFF,0x18
0.890473708333333,0,0xB0,0x13
0.890491708333333,0,0x7F,0x1A
0.890509916666667,0,0xFF,0x18
0.892461291666667,0,0xB0,0x12
0.892479333333333,0,0xFF,0x10
0.892497541666667,0,0xFF,0x18
0.892522375000000,0,0x87,0x12
0.892540375000000,0,0xFF,0x00
0.892558583333333,0,0xFF,0xBC
0.892579166666667,0,0x03,0x12
0.892597166666667,0,0x80,0x12
0.892615250000000,0,0x1E,0x10
0.893445083333333,0,0x03,0x01
0.893463083333333,0,0x80,0x81
0.893481166666667,0,0x1E,0x01
0.893501791666667,0,0x30,0x01
0.893519791666667,0,0x00,0x81
0.893537875000000,0,0x00,0x01
0.893558125000000,0,0x87,0x01
0.893576166666667,0,0xFF,0x00
0.893594375000000,0,0xFF,0x0E
0.893615250000000,0,0x03,0x01
0.893633250000000,0,0x80,0x81
0.893651333333333,0,0x9E,0x01
0.894449166666667,0,0x18,0x1A
0.894467208333333,0,0xFF,0x12
0.894485416666667,0,0xFF,0x1C
0.896436666666667,0,0xF0,0x02
0.896454666666667,0,0x7F,0x12
0.896472875000000,0,0xFF,0x1C
0.898424291666667,0,0xF0,0x12
0.898442333333333,0,0xFF,0x13
0.898460541666667,0,0xFF,0x1C
0.900411958333333,0,0x98,0x1A
0.900430000000000,0,0xFF,0x12
0.900448208333333,0,0xFF,0x1C
0.902399666666667,0,0xB0,0x12
0.902417708333333,0,0xFF,0x10
0.902435916666667,0,0xFF,0x1E
0.904387375000000,0,0x90,0x12
0.904405416666667,0,0xFF,0x12
0.904423625000000,0,0xFF,0x1C
0.906375125000000,0,0xB0,0x12
0.906393166666667,0,0xFF,0x12
0.906411375000000,0,0xFF,0x1C
0.908362750000000,0,0xB0,0x12
0.908380791666667,0,0xFF,0x02
0.908399000000000,0,0xFF,0x1C
0.910350375000000,0,0xB0,0x13
0.910368375000000,0,0x7F,0x18
0.910386583333333,0,0xFF,0x1E
0.912338041666667,0,0x98,0x10
0.912356083333333,0,0xFF,0x12
0.912374291666667,0,0xFF,0x1C
0.914325791666667,0,0xB0,0x13
0.914343791666667,0,0xFF,0x10
0.914362000000000,0,0xFF,0x1E
0.916313333333333,0,0xB0,0x12
0.916331375000000,0,0xFF,0x02
0.916349583333333,0,0xFF,0x0C
0.918300958333333,0,0xF0,0x02
0.918318958333333,0,0x7F,0x12
0.918337166666667,0,0xFF,0x1C
0.920288458333333,0,0xF0,0x02
0.920306458333333,0,0x7F,0x12
0.920324666666667,0,0xFF,0x1C
0.922275916666667,0,0xB0,0x12
0.922293916666667,0,0xFF,0x12
0.922312125000000,0,0xFF,0x1C
0.924263333333333,0,0xF0,0x02
0.924281333333333,0,0x7F,0x12
0.924299541666667,0,0xFF,0x1C
0.924324375000000,0,0xC3,0x02
0.924342375000000,0,0xFF,0x00
0.924360583333333,0,0xFF,0x9E
0.924381166666667,0,0x03,0x12
0.924399166666667,0,0x80,0x12
0.924417250000000,0,0x46,0x12
0.925246958333333,0,0x07,0x01
0.925265000000000,0,0x00,0x01
0.925283083333333,0,0x02,0x01
0.925303666666667,0,0x1E,0x01
0.925321708333333,0,0xC0,0x01
0.925339791666667,0,0x80,0x01
0.925360000000000,0,0x07,0x01
0.925378041666667,0,0xFF,0x00
0.925396250000000,0,0xFF,0x46
0.925417125000000,0,0x07,0x01
0.925435166666667,0,0x00,0x01
0.925453208333333,0,0x66,0x01
0.926250791666667,0,0xB0,0x12
0.926268833333333,0,0xFF,0x12
0.926287041666667,0,0xFF,0x0C
0.928238166666667,0,0x98,0x1A
0.928256208333333,0,0xFF,0x12
0.928274416666667,0,0xFF,0x0C
0.930225916666667,0,0xB0,0x12
0.930243916666667,0,0xFF,0x10
0.930262125000000,0,0xFF,0x0E
0.932213416666667,0,0xF0,0x12
0.932231458333333,0,0xFF,0x13
0.932249666666667,0,0xFF,0x0C
0.934200666666667,0,0xF0,0x02
0.934218666666667,0,0x7F,0x12
0.934236875000000,0,0xFF,0x0C
0.936188333333333,0,0xF0,0x12
0.936206333333333,0,0x7F,0x1A
0.936224541666667,0,0xFF,0x0C
0.938175833333333,0,0xB0,0x13
0.938193833333333,0,0x7F,0x1A
0.938212041666667,0,0xFF,0x04
0.940163291666667,0,0x98,0x1A
0.940181333333333,0,0xFF,0x12
0.940199541666667,0,0xFF,0x0C
0.942150791666667,0,0xB0,0x12
0.942168791666667,0,0xFF,0x10
0.942187000000000,0,0xFF,0x0C
0.944138250000000,0,0xF0,0x12
0.944156250000000,0,0x7F,0x12
0.944174458333333,0,0xFF,0x04
0.946125625000000,0,0xB0,0x12
0.946143666666667,0,0xFF,0x12
0.946161875000000,0,0xFF,0x0C
0.948112916666667,0,0x90,0x12
0.948130958333333,0,0xFF,0x12
0.948149166666667,0,0xFF,0x0C
0.950100375000000,0,0xB0,0x13
0.950118375000000,0,0xFF,0x18
0.950136583333333,0,0xFF,0x06
0.952087708333333,0,0xB0,0x12
0.952105708333333,0,0xFF,0x12
0.952123916666667,0,0xFF,0x0C
0.954075000000000,0,0xB0,0x12
0.954093041666667,0,0xFF,0x02
0.954111250000000,0,0xFF,0x0C
0.956062291666667,0,0x98,0x1A
0.956080333333333,0,0xFF,0x12
0.956098541666667,0,0xFF,0x0C
0.956123333333333,0,0x87,0x12
0.956141375000000,0,0xFF,0x00
0.956159583333333,0,0xFF,0xC6
0.956180125000000,0,0x03,0x02
0.956198125000000,0,0x80,0x12
0.956216208333333,0,0x00,0x12
0.957045833333333,0,0x07,0x01
0.957063833333333,0,0x80,0x81
0.957081916666667,0,0x00,0x01
0.957102541666667,0,0x34,0x01
0.957120541666667,0,0x80,0x01
0.957138625000000,0,0xC0,0x00
0.957158833333333,0,0x07,0x81
0.957176875000000,0,0xFF,0x00
0.957195083333333,0,0xFF,0x00
0.957215958333333,0,0x03,0x01
0.957233958333333,0,0x80,0x01
0.957252041666667,0,0xC0,0x01
0.958049500000000,0,0x10,0x12
0.958067541666667,0,0xFF,0x12
0.958085750000000,0,0xFF,0x00
0.960036791666667,0,0xB0,0x13
0.960054791666667,0,0xFF,0x1A
0.960073000000000,0,0xFF,0x00
0.962024208333333,0,0xF0,0x02
0.962042208333333,0,0x7F,0x12
0.962060416666667,0,0xFF,0x00
0.964011375000000,0,0xB0,0x12
0.964029416666667,0,0xFF,0x12
0.964047625000000,0,0xFF,0x00
0.965998708333333,0,0xB0,0x13
0.966016708333333,0,0xFF,0x10
0.966034916666667,0,0xFF,0x00
0.967985958333333,0,0xB0,0x12
0.968004000000000,0,0xFF,0x13
0.968022208333333,0,0xFF,0x00
0.969973291666667,0,0xB0,0x12
0.969991291666667,0,0xFF,0x10
0.970009500000000,0,0xFF,0x00
0.971960583333333,0,0xB0,0x12
0.971978625000000,0,0xFF,0x12
0.971996833333333,0,0xFF,0x00
0.973947833333333,0,0xB0,0x12
0.973965833333333,0,0xFF,0x12
0.973984041666667,0,0xFF,0x00
0.975935125000000,0,0x98,0x1A
0.975953166666667,0,0xFF,0x12
0.975971375000000,0,0xFF,0x00
0.977922541666667,0,0xB0,0x12
0.977940583333333,0,0xFF,0x12
0.977958750000000,0,0xFF,0x00
0.979910000000000,0,0x90,0x12
0.979928041666667,0,0xFF,0x12
0.979946250000000,0,0xFF,0x00
0.981897541666667,0,0xF0,0x02
0.981915541666667,0,0x7F,0x12
0.981933750000000,0,0xFF,0x00
0.983884958333333,0,0x98,0x12
0.983903000000000,0,0xFF,0x12
0.983921208333333,0,0xFF,0x00
0.985872416666667,0,0x98,0x10
0.985890458333333,0,0xFF,0x02
0.985908666666667,0,0xFF,0x00
0.987859916666667,0,0xB0,0x13
0.987877916666667,0,0x7F,0x1A
0.987896125000000,0,0xFF,0x00
0.987920916666667,0,0x87,0x12
0.987938958333333,0,0xFF,0x00
0.987957166666667,0,0xFF,0x80
0.987977708333333,0,0x87,0x12
0.987995750000000,0,0x00,0x12
0.988013833333333,0,0x3C,0x13
0.988843541666667,0,0x07,0x01
0.988861583333333,0,0x00,0x01
0.988879666666667,0,0x3C,0x00
0.988900250000000,0,0x1E,0x01
0.988918291666667,0,0xC0,0x01
0.988936375000000,0,0x80,0x01
0.988956583333333,0,0x07,0x01
0.988974625000000,0,0xFF,0x00
0.988992833333333,0,0xFF,0x28
0.989013708333333,0,0x07,0x01
0.989031750000000,0,0x00,0x01
0.989049791666667,0,0x00,0x01
0.989847458333333,0,0x90,0x12
0.989865500000000,0,0xFF,0x02
0.989883708333333,0,0xFF,0x10
0.991834875000000,0,0xB0,0x12
0.991852916666667,0,0xFF,0x12
0.991871125000000,0,0xFF,0x10
0.993822416666667,0,0xB0,0x13
0.993840416666667,0,0x7F,0x1A
0.993858625000000,0,0xFF,0x18
0.995809875000000,0,0x98,0x1A
0.995827916666667,0,0xFF,0x12
0.995846125000000,0,0xFF,0x00
0.997797583333333,0,0xB0,0x13
0.997815583333333,0,0x7F,0x1A
0.997833791666667,0,0xFF,0x18
0.999785125000000,0,0xB0,0x12
0.999803166666667,0,0xFF,0x02
0.999821375000000,0,0xFF,0x00
1.001772750000000,0,0x90,0x12
1.001790791666667,0,0xFF,0x12
1.001809000000000,0,0xFF,0x10
1.003760416666667,0,0xB0,0x13
1.003778416666667,0,0xFF,0x10
1.003796625000000,0,0xFF,0x10
1.005748000000000,0,0xB0,0x12
1.005766041666667,0,0xFF,0x13
1.005784250000000,0,0xFF,0x10
1.007735666666667,0,0x98,0x10
1.007753708333333,0,0xFF,0x12
1.007771916666667,0,0xFF,0x10
1.009723416666667,0,0xB0,0x12
1.009741458333333,0,0xFF,0x12
1.009759666666667,0,0xFF,0x10
1.011710791666667,0,0xB0,0x13
1.011728791666667,0,0xFF,0x1A
1.011747000000000,0,0xFF,0x18
1.013698541666667,0,0x90,0x12
1.013716583333333,0,0xFF,0x12
1.013734791666667,0,0xFF,0x10
1.015685958333333,0,0xB0,0x12
1.015704000000000,0,0xFF,0x13
1.015722208333333,0,0xFF,0x10
1.017673500000000,0,0x98,0x1A
1.017691541666667,0,0xFF,0x12
1.017709750000000,0,0xFF,0x10
1.019661125000000,0,0xF0,0x02
1.019679125000000,0,0x7F,0x12
1.019697333333333,0,0xFF,0x10
1.019722166666667,0,0x83,0x13
1.019740166666667,0,0xFF,0x00
1.019758375000000,0,0xFF,0xA8
1.019778958333333,0,0x03,0x12
1.019796958333333,0,0x00,0x10
1.019815041666667,0,0x0A,0x02
1.020644791666667,0,0x07,0x01
1.020662833333333,0,0x00,0x01
1.020680916666667,0,0x0A,0x01
1.020701500000000,0,0x34,0x81
1.020719541666667,0,0x80,0x01
1.020737625000000,0,0x80,0x01
1.020757875000000,0,0xC7,0x01
1.020775916666667,0,0xFF,0x00
1.020794125000000,0,0xFF,0x0B
1.020815000000000,0,0x03,0x00
1.020833000000000,0,0x80,0x01
1.020851083333333,0,0x02,0x01
1.021648791666667,0,0x18,0x1A
1.021666833333333,0,0xFF,0x12
1.021685041666667,0,0xFF,0x14
1.023636458333333,0,0x98,0x10
1.023654500000000,0,0xFF,0x12
1.023672708333333,0,0xFF,0x14
1.025624166666667,0,0x98,0x10
1.025642208333333,0,0xFF,0x02
1.025660416666667,0,0xFF,0x04
1.027611833333333,0,0xF0,0x02
1.027629833333333,0,0x7F,0x12
1.027648041666667,0,0xFF,0x14
1.029599541666667,0,0xF0,0x12
1.029617583333333,0,0xFF,0x13
1.029635791666667,0,0xFF,0x14
1.031587250000000,0,0xB0,0x13
1.031605250000000,0,0x7F,0x1A
1.031623458333333,0,0xFF,0x1C
1.033575000000000,0,0xB0,0x13
1.033593000000000,0,0x7F,0x1A
1.033611208333333,0,0xFF,0x1C
1.035562708333333,0,0xB0,0x10
1.035580750000000,0,0xFF,0x02
1.035598958333333,0,0xFF,0x14
1.037550416666667,0,0xB0,0x12
1.037568416666667,0,0xFF,0x12
1.037586625000000,0,0xFF,0x14
1.039537875000000,0,0xB0,0x13
1.039555875000000,0,0x7F,0x1A
1.039574083333333,0,0xFF,0x1C
1.041525416666667,0,0x98,0x1A
1.041543458333333,0,0xFF,0x12
1.041561666666667,0,0xFF,0x04
1.043512875000000,0,0xF0,0x12
1.043530875000000,0,0x7F,0x12
1.043549083333333,0,0xFF,0x14
1.045500500000000,0,0xF0,0x13
1.045518500000000,0,0x7F,0x1A
1.045536708333333,0,0xFF,0x1E
1.047487750000000,0,0x98,0x10
1.047505791666667,0,0xFF,0x02
1.047524000000000,0,0xFF,0x00
1.049475375000000,0,0xB0,0x12
1.049493416666667,0,0xFF,0x10
1.049511625000000,0,0xFF,0x16
1.051463250000000,0,0xB0,0x12
1.051481291666667,0,0xFF,0x12
1.051499500000000,0,0xFF,0x10
1.051524291666667,0,0x87,0x12
1.051542333333333,0,0xFF,0x00
1.051560541666667,0,0xFF,0x8E
1.051581083333333,0,0x07,0x10
1.051599125000000,0,0x00,0x12
1.051617208333333,0,0x33,0x13
1.052446791666667,0,0x07,0x01
1.052464833333333,0,0x00,0x01
1.052482916666667,0,0x32,0x01
1.052503500000000,0,0x14,0x01
1.052521541666667,0,0x80,0x01
1.052539625000000,0,0xC0,0x01
1.052559875000000,0,0x83,0x01
1.052577875000000,0,0xFF,0x00
1.052596083333333,0,0xFF,0x12
1.052616958333333,0,0x87,0x01
1.052635000000000,0,0x00,0x01
1.052653083333333,0,0xF2,0x01
1.053451000000000,0,0xB0,0x13
1.053469000000000,0,0x7F,0x1A
1.053487208333333,0,0xFF,0x04
1.055438250000000,0,0xB0,0x12
1.055456291666667,0,0xFF,0x12
1.055474500000000,0,0xFF,0x04
1.057425958333333,0,0xF0,0x02
1.057443958333333,0,0x7F,0x12
1.057462166666667,0,0xFF,0x04
1.059413208333333,0,0xB0,0x12
1.059431208333333,0,0xFF,0x10
1.059449416666667,0,0xFF,0x06
1.061400750000000,0,0xF0,0x12
1.061418791666667,0,0xFF,0x13
1.061437000000000,0,0xFF,0x04
1.063388500000000,0,0xB0,0x12
1.063406541666667,0,0xFF,0x02
1.063424750000000,0,0xFF,0x04
1.065376250000000,0,0xF0,0x02
1.065394250000000,0,0x7F,0x12
1.065412500000000,0,0xFF,0x04
1.067363875000000,0,0xF0,0x02
1.067381875000000,0,0x7F,0x12
1.067400125000000,0,0xFF,0x04
1.069351500000000,0,0xF0,0x02
1.069369500000000,0,0x7F,0x12
1.069387708333333,0,0xFF,0x04
1.071339166666667,0,0xF0,0x12
1.071357208333333,0,0xFF,0x13
1.071375416666667,0,0xFF,0x04
1.073326708333333,0,0xB0,0x12
1.073344750000000,0,0xFF,0x13
1.073362958333333,0,0xFF,0x04
1.075314333333333,0,0xF0,0x12
1.075332375000000,0,0xFF,0x13
1.075350583333333,0,0xFF,0x04
1.077301875000000,0,0x98,0x1A
1.077319916666667,0,0xFF,0x12
1.077338125000000,0,0xFF,0x04
1.079289666666667,0,0xF0,0x12
1.079307666666667,0,0x7F,0x12
1.079325875000000,0,0xFF,0x04
1.081277166666667,0,0xB0,0x12
1.081295208333333,0,0xFF,0x12
1.081313416666667,0,0xFF,0x04
1.083264750000000,0,0xB0,0x13
1.083282750000000,0,0x7F,0x1A
1.083300958333333,0,0xFF,0x06
1.083325750000000,0,0x87,0x12
1.083343791666667,0,0xFF,0x00
1.083362000000000,0,0xFF,0xB2
1.083382541666667,0,0x87,0x12
1.083400583333333,0,0x00,0x12
1.083418666666667,0,0x00,0x12
1.084248250000000,0,0x07,0x01
1.084266250000000,0,0x00,0x01
1.084284333333333,0,0x14,0x01
1.084304916666667,0,0x14,0x01
1.084322958333333,0,0x80,0x01
1.084341041666667,0,0xC0,0x01
1.084361250000000,0,0x07,0x81
1.084379291666667,0,0xFF,0x00
1.084397500000000,0,0xFF,0x14
1.084418375000000,0,0x07,0x01
1.084436416666667,0,0x00,0x00
1.084454458333333,0,0x1C,0x01
1.085252083333333,0,0x10,0x12
1.085270125000000,0,0xFF,0x12
1.085288333333333,0,0xFF,0x08
1.087239666666667,0,0xB0,0x12
1.087257708333333,0,0xFF,0x13
1.087275916666667,0,0xFF,0x08
1.089227583333333,0,0xF0,0x12
1.089245625000000,0,0xFF,0x13
1.089263833333333,0,0xFF,0x08
1.091215083333333,0,0xF0,0x02
1.091233125000000,0,0xFF,0x12
1.091251333333333,0,0xFF,0x08
1.093202666666667,0,0x98,0x18
1.093220708333333,0,0xFF,0x12
1.093238916666667,0,0xFF,0x08
1.095190416666667,0,0xF0,0x12
1.095208416666667,0,0x7F,0x12
1.095226625000000,0,0xFF,0x08
1.097177875000000,0,0xF0,0x12
1.097195916666667,0,0xFF,0x12
1.097214125000000,0,0xFF,0x08
1.099165541666667,0,0xB0,0x12
1.099183583333333,0,0xFF,0x10
1.099201791666667,0,0xFF,0x08
1.101153291666667,0,0xB0,0x13
1.101171291666667,0,0x7F,0x1A
1.101189500000000,0,0xFF,0x00
1.103140916666667,0,0xB0,0x12
1.103158916666667,0,0xFF,0x10
1.103177125000000,0,0xFF,0x00
1.105128583333333,0,0xF0,0x02
1.105146625000000,0,0xFF,0x12
1.105164833333333,0,0xFF,0x08
1.107116250000000,0,0xF0,0x02
1.107134250000000,0,0x7F,0x12
1.107152458333333,0,0xFF,0x08
1.109103791666667,0,0xF0,0x02
1.109121791666667,0,0x7F,0x12
1.109140000000000,0,0xFF,0x08
1.111091375000000,0,0xB0,0x12
1.111109416666667,0,0xFF,0x12
1.111127625000000,0,0xFF,0x0C
1.113079041666667,0,0xB0,0x12
1.113097041666667,0,0xFF,0x10
1.113115250000000,0,0xFF,0x00
1.115066750000000,0,0xB0,0x13
1.115084750000000,0,0xFF,0x10
1.115102958333333,0,0xFF,0x08
1.115127750000000,0,0x87,0x12
1.115145791666667,0,0xFF,0x00
1.115164000000000,0,0xFF,0x94
1.115184541666667,0,0x87,0x12
1.115202583333333,0,0x00,0x12
1.115220666666667,0,0x3C,0x12
1.116050166666667,0,0x07,0x01
1.116068208333333,0,0x00,0x01
1.116086291666667,0,0x3C,0x01
1.116106875000000,0,0x14,0x01
1.116124916666667,0,0x80,0x01
1.116143000000000,0,0xC0,0x01
1.116163250000000,0,0x83,0x00
1.116181250000000,0,0xFF,0x00
1.116199458333333,0,0xFF,0x3C
1.116220333333333,0,0x07,0x01
1.116238375000000,0,0x00,0x01
1.116256458333333,0,0xBC,0x00
1.117054333333333,0,0x18,0x1A
1.117072375000000,0,0xFF,0x12
1.117090583333333,0,0xFF,0x18
1.119041916666667,0,0xB0,0x12
1.119059958333333,0,0xFF,0x10
1.119078166666667,0,0xFF,0x18
1.121029416666667,0,0x98,0x1A
1.121047458333333,0,0xFF,0x12
1.121065666666667,0,0xFF,0x18
1.123016916666667,0,0x98,0x10
1.123034958333333,0,0xFF,0x12
1.123053166666667,0,0xFF,0x18
1.125004583333333,0,0xB8,0x10
1.125022625000000,0,0xFF,0x02
1.125040833333333,0,0xFF,0x08
1.126992291666667,0,0xB0,0x12
1.127010333333333,0,0xFF,0x1A
1.127028541666667,0,0xFF,0x18
1.128979875000000,0,0xF0,0x02
1.128997916666667,0,0xFF,0x12
1.129016125000000,0,0xFF,0x18
1.130967416666667,0,0xF0,0x02
1.130985416666667,0,0x7F,0x12
1.131003625000000,0,0xFF,0x18
1.132954958333333,0,0xB0,0x12
1.132973000000000,0,0xFF,0x13
1.132991208333333,0,0xFF,0x18
1.134942458333333,0,0xB0,0x12
1.134960500000000,0,0xFF,0x12
1.134978708333333,0,0xFF,0x18
1.136930208333333,0,0xF0,0x12
1.136948250000000,0,0xFF,0x13
1.136966458333333,0,0xFF,0x18
1.138917625000000,0,0xB0,0x12
1.138935666666667,0,0xFF,0x13
1.138953875000000,0,0xFF,0x18
1.140905291666667,0,0xF0,0x12
1.140923333333333,0,0xFF,0x13
1.140941541666667,0,0xFF,0x18
1.142892625000000,0,0xF0,0x02
1.142910625000000,0,0x7F,0x12
1.142928833333333,0,0xFF,0x18
1.144880416666667,0,0xB0,0x12
1.144898458333333,0,0xFF,0x12
1.144916666666667,0,0xFF,0x1C
1.146867791666667,0,0xB0,0x12
1.146885833333333,0,0xFF,0x12
1.146904041666667,0,0xFF,0x18
1.146928833333333,0,0x87,0x12
1.146946875000000,0,0xFF,0x00
1.146965083333333,0,0xFF,0xBC
1.146985625000000,0,0x87,0x12
1.147003666666667,0,0x00,0x10
1.147021750000000,0,0x1E,0x12
1.147851500000000,0,0x07,0x01
1.147869500000000,0,0x00,0x01
1.147887583333333,0,0x0E,0x01
1.147908166666667,0,0x1E,0x01
1.147926208333333,0,0xC0,0x01
1.147944291666667,0,0x80,0x01
1.147964500000000,0,0x07,0x01
1.147982541666667,0,0xFF,0x00
1.148000750000000,0,0xFF,0x1E
1.148021625000000,0,0x07,0x01
1.148039625000000,0,0x80,0x81
1.148057708333333,0,0x9E,0x01
1.148855291666667,0,0x10,0x12
1.148873333333333,0,0xFF,0x12
1.148891541666667,0,0xFF,0x1C
1.150843041666667,0,0xB0,0x12
1.150861083333333,0,0xFF,0x13
1.150879291666667,0,0xFF,0x1C
1.152830583333333,0,0xB0,0x12
1.152848583333333,0,0xFF,0x12
1.152866791666667,0,0xFF,0x1C
1.154817916666667,0,0xF0,0x12
1.154835958333333,0,0xFF,0x12
1.154854166666667,0,0xFF,0x1C
1.156805458333333,0,0xF0,0x02
1.156823458333333,0,0x7F,0x12
1.156841666666667,0,0xFF,0x1C
1.158792958333333,0,0x98,0x1A
1.158811000000000,0,0xFF,0x12
1.158829208333333,0,0xFF,0x0C
1.160780541666667,0,0xF0,0x12
1.160798541666667,0,0x7F,0x12
1.160816750000000,0,0xFF,0x1C
1.162768041666667,0,0x98,0x1A
1.162786083333333,0,0xFF,0x12
1.162804291666667,0,0xFF,0x1C
1.164755791666667,0,0xF0,0x02
1.164773791666667,0,0x7F,0x12
1.164792000000000,0,0xFF,0x1C
1.166743125000000,0,0x98,0x10
1.166761166666667,0,0xFF,0x02
1.166779375000000,0,0xFF,0x0C
1.168731000000000,0,0xB0,0x12
1.168749041666667,0,0xFF,0x02
1.168767250000000,0,0xFF,0x0C
1.170718666666667,0,0xB0,0x12
1.170736708333333,0,0xFF,0x02
1.170754916666667,0,0xFF,0x0C
1.172706125000000,0,0xF0,0x12
1.172724166666667,0,0xFF,0x13
1.172742375000000,0,0xFF,0x1C
1.174694083333333,0,0xB0,0x12
1.174712083333333,0,0x7F,0x12
1.174730291666667,0,0xFF,0x1C
1.176681708333333,0,0xB0,0x13
1.176699708333333,0,0x7F,0x1A
1.176717916666667,0,0xFF,0x1C
1.178669458333333,0,0xB0,0x12
1.178687500000000,0,0xFF,0x12
1.178705708333333,0,0xFF,0x1C
1.178730500000000,0,0x87,0x10
1.178748541666667,0,0xFF,0x00
1.178766750000000,0,0xFF,0xDE
1.178787291666667,0,0x87,0x12
1.178805333333333,0,0x00,0x10
1.178823416666667,0,0x06,0x12
1.179653208333333,0,0x07,0x01
1.179671250000000,0,0x00,0x01
1.179689333333333,0,0x46,0x01
1.179709958333333,0,0x34,0x01
1.179727958333333,0,0x00,0x01
1.179746041666667,0,0x80,0x01
1.179766291666667,0,0xC7,0x01
1.179784291666667,0,0xFF,0x80
1.179802541666667,0,0xFF,0x46
1.179823416666667,0,0x03,0x00
1.179841416666667,0,0x00,0x01
1.179859500000000,0,0xC6,0x01
1.180657208333333,0,0x30,0x92
1.180675250000000,0,0xFF,0x10
1.180693458333333,0,0xFF,0x0C
1.182644833333333,0,0xF0,0x12
1.182662875000000,0,0xFF,0x13
1.182681083333333,0,0xFF,0x0C
1.184632500000000,0,0xB0,0x13
1.184650500000000,0,0x7F,0x1A
1.184668708333333,0,0xFF,0x04
1.186620125000000,0,0xB0,0x12
1.186638166666667,0,0xFF,0x10
1.186656375000000,0,0xFF,0x0E
1.188608083333333,0,0xB0,0x12
1.188626083333333,0,0xFF,0x10
1.188644291666667,0,0xFF,0x0E
1.190595375000000,0,0xB0,0x12
1.190613416666667,0,0xFF,0x12
1.190631625000000,0,0xFF,0x0C
1.192583083333333,0,0xF0,0x12
1.192601083333333,0,0x7F,0x12
1.192619291666667,0,0xFF,0x0C
1.194570916666667,0,0xB0,0x12
1.194588958333333,0,0xFF,0x02
1.194607166666667,0,0xFF,0x0C
1.196558416666667,0,0x98,0x10
1.196576458333333,0,0xFF,0x02
1.196594666666667,0,0xFF,0x0C
1.198545958333333,0,0xB0,0x12
1.198564000000000,0,0xFF,0x12
1.198582208333333,0,0xFF,0x0C
1.200533458333333,0,0xF0,0x02
1.200551458333333,0,0x7F,0x12
1.200569666666667,0,0xFF,0x0C
1.202520666666667,0,0xB0,0x12
1.202538708333333,0,0xFF,0x12
1.202556916666667,0,0xFF,0x0C
1.204508208333333,0,0x90,0x12
1.204526250000000,0,0xFF,0x12
1.204544458333333,0,0xFF,0x0C
1.206495750000000,0,0xB0,0x12
1.206513791666667,0,0xFF,0x13
1.206532000000000,0,0xFF,0x0C
1.208483291666667,0,0xB0,0x12
1.208501291666667,0,0xFF,0x10
1.208519500000000,0,0xFF,0x0C
1.210470833333333,0,0x98,0x10
1.210488875000000,0,0xFF,0x02
1.210507083333333,0,0xFF,0x0C
1.210531875000000,0,0x87,0x12
1.210549916666667,0,0xFF,0x00
1.210568125000000,0,0xFF,0xC7
1.210588666666667,0,0x07,0x12
1.210606708333333,0,0x00,0x13
1.210624750000000,0,0x00,0x1A
1.211454458333333,0,0x07,0x01
1.211472458333333,0,0x80,0x81
1.211490541666667,0,0x00,0x01
1.211511166666667,0,0x30,0x01
1.211529166666667,0,0x00,0x81
1.211547250000000,0,0x00,0x01
1.211567500000000,0,0x87,0x01
1.211585541666667,0,0xFF,0x00
1.211603750000000,0,0xFF,0x00
1.211624625000000,0,0x03,0x01
1.211642625000000,0,0x80,0x01
1.211660708333333,0,0x80,0x01
1.212458416666667,0,0xF0,0x02
1.212476416666667,0,0x7F,0x12
1.212494625000000,0,0xFF,0x00
1.214445958333333,0,0xF0,0x12
1.214463958333333,0,0x7F,0x12
1.214482166666667,0,0xFF,0x00
1.216433583333333,0,0xF0,0x02
1.216451583333333,0,0x7F,0x12
1.216469791666667,0,0xFF,0x00
1.218421208333333,0,0xF0,0x12
1.218439208333333,0,0x7F,0x12
1.218457416666667,0,0xFF,0x00
1.220408791666667,0,0x90,0x12
1.220426833333333,0,0xFF,0x12
1.220445041666667,0,0xFF,0x00
1.222396458333333,0,0xB0,0x13
1.222414458333333,0,0xFF,0x10
1.222432666666667,0,0xFF,0x00
1.224384250000000,0,0x90,0x12
1.224402291666667,0,0xFF,0x12
1.224420500000000,0,0xFF,0x00
1.226371791666667,0,0xF0,0x12
1.226389833333333,0,0xFF,0x13
1.226408041666667,0,0xFF,0x00
1.228359291666667,0,0x90,0x12
1.228377333333333,0,0xFF,0x12
1.228395541666667,0,0xFF,0x00
1.230347166666667,0,0x98,0x10
1.230365208333333,0,0xFF,0x02
1.230383416666667,0,0xFF,0x00
1.232334625000000,0,0xB0,0x12
1.232352625000000,0,0xFF,0x10
1.232370833333333,0,0xFF,0x00
1.234322333333333,0,0xB0,0x12
1.234340375000000,0,0xFF,0x12
1.234358583333333,0,0xFF,0x00
1.236309791666667,0,0x98,0x10
1.236327833333333,0,0xFF,0x02
1.236346041666667,0,0xFF,0x00
1.238297583333333,0,0xF0,0x02
1.238315583333333,0,0x7F,0x12
1.238333791666667,0,0xFF,0x00
1.240285041666667,0,0x98,0x10
1.240303083333333,0,0xFF,0x12
1.240321291666667,0,0xFF,0x00
1.242272875000000,0,0xB0,0x12
1.242290916666667,0,0xFF,0x12
1.242309083333333,0,0xFF,0x00
1.242333916666667,0,0xC3,0x02
1.242351916666667,0,0xFF,0x00
1.242370125000000,0,0xFF,0x80
1.242390708333333,0,0x03,0x13
1.242408708333333,0,0x80,0x12
1.242426791666667,0,0x20,0x10
1.243256416666667,0,0x07,0x01
1.243274458333333,0,0x00,0x01
1.243292541666667,0,0x2C,0x00
1.243313125000000,0,0x1E,0x01
1.243331166666667,0,0xC0,0x01
1.243349250000000,0,0x80,0x00
1.243369458333333,0,0x07,0x81
1.243387500000000,0,0xFF,0x00
1.243405708333333,0,0xFF,0x28
1.243426583333333,0,0x07,0x01
1.243444625000000,0,0x00,0x01
1.243462708333333,0,0xAC,0x00
1.244260708333333,0,0xF0,0x12
1.244278750000000,0,0xFF,0x13
1.244296958333333,0,0xFF,0x10
1.246248208333333,0,0xB0,0x12
1.246266208333333,0,0x7F,0x12
1.246284416666667,0,0xFF,0x10
1.248235875000000,0,0x98,0x10
1.248253916666667,0,0xFF,0x12
1.248272125000000,0,0xFF,0x10
1.250223916666667,0,0x90,0x12
1.250241958333333,0,0xFF,0x12
1.250260166666667,0,0xFF,0x10
1.252211500000000,0,0xF0,0x02
1.252229500000000,0,0x7F,0x12
1.252247708333333,0,0xFF,0x10
1.254199375000000,0,0xF0,0x02
1.254217375000000,0,0x7F,0x12
1.254235625000000,0,0xFF,0x10
1.256186833333333,0,0x90,0x12
1.256204875000000,0,0xFF,0x12
1.256223083333333,0,0xFF,0x10
1.258174625000000,0,0x98,0x10
1.258192666666667,0,0xFF,0x02
1.258210875000000,0,0xFF,0x00
1.260162333333333,0,0xF0,0x12
1.260180333333333,0,0x7F,0x12
1.260198541666667,0,0xFF,0x10
1.262149750000000,0,0x98,0x10
1.262167791666667,0,0xFF,0x02
1.262186000000000,0,0xFF,0x00
1.264137416666667,0,0xB0,0x12
1.264155416666667,0,0xFF,0x10
1.264173625000000,0,0xFF,0x10
1.266124666666667,0,0xB0,0x12
1.266142708333333,0,0xFF,0x13
1.266160916666667,0,0xFF,0x10
1.268112250000000,0,0xB0,0x12
1.268130291666667,0,0xFF,0x02
1.268148500000000,0,0xFF,0x00
1.270100208333333,0,0xF0,0x12
1.270118250000000,0,0xFF,0x13
1.270136458333333,0,0xFF,0x10
1.272087750000000,0,0xF0,0x02
1.272105750000000,0,0x7F,0x12
1.272123958333333,0,0xFF,0x10
1.274075458333333,0,0xB0,0x12
1.274093458333333,0,0xFF,0x18
1.274111666666667,0,0xFF,0x10
1.274136500000000,0,0x87,0x12
1.274154500000000,0,0xFF,0x00
1.274172708333333,0,0xFF,0xA8
1.274193291666667,0,0x03,0x12
1.274211291666667,0,0x00,0x10
1.274229375000000,0,0x0A,0x12
1.275058958333333,0,0x07,0x01
1.275077000000000,0,0x00,0x01
1.275095041666667,0,0x02,0x01
1.275115666666667,0,0x30,0x01
1.275133666666667,0,0x00,0x01
1.275151750000000,0,0x80,0x01
1.275172000000000,0,0xC7,0x01
1.275190041666667,0,0xFF,0x00
1.275208250000000,0,0xFF,0x0A
1.275229125000000,0,0x03,0x01
1.275247125000000,0,0x00,0x01
1.275265208333333,0,0x8A,0x01
1.276063125000000,0,0xB0,0x12
1.276081125000000,0,0xFF,0x10
1.276099333333333,0,0xFF,0x16
1.278050458333333,0,0xB0,0x12
1.278068458333333,0,0xFF,0x1A
1.278086666666667,0,0xFF,0x1C
1.280037833333333,0,0x90,0x12
1.280055875000000,0,0xFF,0x12
1.280074083333333,0,0xFF,0x14
1.282025500000000,0,0xB0,0x12
1.282043541666667,0,0xFF,0x12
1.282061750000000,0,0xFF,0x10
1.284013333333333,0,0x98,0x1A
1.284031375000000,0,0xFF,0x12
1.284049583333333,0,0xFF,0x14
1.286000916666667,0,0xF0,0x02
1.286018916666667,0,0x7F,0x12
1.286037166666667,0,0xFF,0x14
1.287988625000000,0,0xF0,0x12
1.288006625000000,0,0x7F,0x12
1.288024833333333,0,0xFF,0x14
1.289976375000000,0,0xB0,0x13
1.289994375000000,0,0xFF,0x1A
1.290012583333333,0,0xFF,0x1C
1.291964208333333,0,0xB0,0x12
1.291982250000000,0,0xFF,0x10
1.292000458333333,0,0xFF,0x16
1.293951541666667,0,0xF0,0x02
1.293969541666667,0,0x7F,0x12
1.293987791666667,0,0xFF,0x14
1.295939416666667,0,0xF0,0x12
1.295957458333333,0,0xFF,0x12
1.295975666666667,0,0xFF,0x14
1.297927083333333,0,0xF0,0x12
1.297945083333333,0,0x7F,0x12
1.297963291666667,0,0xFF,0x14
1.299914708333333,0,0xF0,0x12
1.299932750000000,0,0xFF,0x12
1.299950958333333,0,0xFF,0x14
1.301902166666667,0,0xB0,0x12
1.301920166666667,0,0xFF,0x10
1.301938375000000,0,0xFF,0x16
1.303889958333333,0,0xB0,0x12
1.303908000000000,0,0xFF,0x10
1.303926208333333,0,0xFF,0x16
1.305877583333333,0,0xF0,0x12
1.305895625000000,0,0xFF,0x12
1.305913833333333,0,0xFF,0x10
1.305938625000000,0,0x87,0x12
1.305956666666667,0,0xFF,0x00
1.305974875000000,0,0xFF,0x8A
1.305995416666667,0,0x07,0x12
1.306013458333333,0,0x00,0x02
1.306031500000000,0,0x33,0x12
1.306861333333333,0,0x07,0x01
1.306879333333333,0,0x00,0x01
1.306897416666667,0,0x32,0x01
1.306918000000000,0,0x34,0x81
1.306936041666667,0,0x80,0x01
1.306954125000000,0,0xC0,0x01
1.306974375000000,0,0xC3,0x01
1.306992375000000,0,0xFF,0x00
1.307010583333333,0,0xFF,0x32
1.307031458333333,0,0x87,0x01
1.307049500000000,0,0x00,0x01
1.307067583333333,0,0xF2,0x01
1.307865208333333,0,0xB0,0x12
1.307883250000000,0,0xFF,0x13
1.307901458333333,0,0xFF,0x04
1.309853041666667,0,0xB0,0x12
1.309871083333333,0,0xFF,0x13
1.309889291666667,0,0xFF,0x04
1.311840833333333,0,0xB0,0x12
1.311858875000000,0,0xFF,0x10
1.311877083333333,0,0xFF,0x04
1.313828625000000,0,0xB0,0x12
1.313846666666667,0,0xFF,0x12
1.313864875000000,0,0xFF,0x04
1.315816000000000,0,0xB0,0x12
1.315834041666667,0,0xFF,0x12
1.315852250000000,0,0xFF,0x00
1.317803958333333,0,0xF0,0x12
1.317821958333333,0,0x7F,0x12
1.317840166666667,0,0xFF,0x04
1.319791541666667,0,0x98,0x10
1.319809583333333,0,0xFF,0x02
1.319827791666667,0,0xFF,0x04
1.321779333333333,0,0xF0,0x02
1.321797333333333,0,0x7F,0x12
1.321815541666667,0,0xFF,0x04
1.323767250000000,0,0x98,0x1A
1.323785291666667,0,0xFF,0x12
1.323803500000000,0,0xFF,0x04
1.325754791666667,0,0xB0,0x12
1.325772833333333,0,0xFF,0x12
1.325791041666667,0,0xFF,0x04
1.327742583333333,0,0xF0,0x02
1.327760583333333,0,0x7F,0x12
1.327778833333333,0,0xFF,0x04
1.329730375000000,0,0x98,0x10
1.329748416666667,0,0xFF,0x02
1.329766625000000,0,0xFF,0x04
1.331718250000000,0,0xF0,0x02
1.331736291666667,0,0xFF,0x13
1.331754500000000,0,0xFF,0x04
1.333706083333333,0,0xF0,0x12
1.333724083333333,0,0x7F,0x12
1.333742291666667,0,0xFF,0x04
1.335693708333333,0,0xF0,0x12
1.335711750000000,0,0xFF,0x12
1.335729958333333,0,0xFF,0x04
1.337681541666667,0,0xF0,0x02
1.337699583333333,0,0xFF,0x13
1.337717791666667,0,0xFF,0x00
1.337742583333333,0,0x87,0x10
1.337760625000000,0,0xFF,0x00
1.337778833333333,0,0xFF,0xF2
1.337799375000000,0,0x87,0x12
1.337817416666667,0,0x00,0x12
1.337835500000000,0,0x04,0x02
1.338665375000000,0,0x07,0x01
1.338683416666667,0,0x00,0x01
1.338701500000000,0,0x04,0x01
1.338722083333333,0,0x14,0x01
1.338740125000000,0,0x80,0x01
1.338758208333333,0,0xC0,0x01
1.338778458333333,0,0xC3,0x01
1.338796458333333,0,0xFF,0x80
1.338814708333333,0,0xFF,0x14
1.338835583333333,0,0x03,0x01
1.338853583333333,0,0x80,0x81
1.338871666666667,0,0x14,0x01
1.339669500000000,0,0xB0,0x13
1.339687500000000,0,0x7F,0x1A
1.339705708333333,0,0xFF,0x00
1.341657291666667,0,0xB0,0x12
1.341675333333333,0,0xFF,0x13
1.341693541666667,0,0xFF,0x08
1.343645333333333,0,0xF0,0x02
1.343663375000000,0,0xFF,0x12
1.343681583333333,0,0xFF,0x08
1.345632916666667,0,0x90,0x12
1.345650958333333,0,0xFF,0x10
1.345669166666667,0,0xFF,0x08
1.347620750000000,0,0xF0,0x02
1.347638791666667,0,0xFF,0x13
1.347657000000000,0,0xFF,0x08
1.349608625000000,0,0xF0,0x12
1.349626666666667,0,0xFF,0x12
1.349644875000000,0,0xFF,0x08
1.351596208333333,0,0xB0,0x12
1.351614250000000,0,0xFF,0x13
1.351632458333333,0,0xFF,0x08
1.353584250000000,0,0xF0,0x12
1.353602291666667,0,0xFF,0x12
1.353620500000000,0,0xFF,0x0C
1.355571916666667,0,0xB0,0x12
1.355589916666667,0,0x7F,0x12
1.355608125000000,0,0xFF,0x08
1.357559875000000,0,0x98,0x10
1.357577916666667,0,0xFF,0x02
1.357596125000000,0,0xFF,0x0C
1.359547458333333,0,0xB0,0x13
1.359565458333333,0,0xFF,0x1A
1.359583666666667,0,0xFF,0x00
1.361535291666667,0,0xB0,0x12
1.361553291666667,0,0x7F,0x12
1.361571500000000,0,0xFF,0x08
1.363522791666667,0,0xB0,0x12
1.363540833333333,0,0xFF,0x02
1.363559041666667,0,0xFF,0x08
1.365510708333333,0,0xB0,0x12
1.365528750000000,0,0xFF,0x10
1.365546958333333,0,0xFF,0x08
1.367498458333333,0,0x98,0x10
1.367516500000000,0,0xFF,0x02
1.367534708333333,0,0xFF,0x08
1.369486041666667,0,0xF0,0x02
1.369504083333333,0,0xFF,0x13
1.369522291666667,0,0xFF,0x08
1.369547083333333,0,0x87,0x12
1.369565125000000,0,0xFF,0x00
1.369583333333333,0,0xFF,0x80
1.369603875000000,0,0x07,0x1A
1.369621916666667,0,0x00,0x12
1.369640000000000,0,0x3C,0x12
1.370469791666667,0,0x07,0x01
1.370487833333333,0,0x00,0x00
1.370505875000000,0,0x3C,0x01
1.370526500000000,0,0x34,0x01
1.370544541666667,0,0x80,0x00
1.370562583333333,0,0x00,0x01
1.370582833333333,0,0x07,0x01
1.370600875000000,0,0xFF,0x00
1.370619083333333,0,0xFF,0x3C
1.370639958333333,0,0x07,0x01
1.370658000000000,0,0x00,0x01
1.370676083333333,0,0xBC,0x01
1.371473791666667,0,0xF0,0x12
1.371491833333333,0,0xFF,0x13
1.371510041666667,0,0xFF,0x18
1.373461583333333,0,0xB0,0x12
1.373479625000000,0,0xFF,0x02
1.373497833333333,0,0xFF,0x18
1.375449458333333,0,0xB0,0x13
1.375467458333333,0,0x7F,0x1A
1.375485666666667,0,0xFF,0x18
1.377437291666667,0,0x98,0x1A
1.377455333333333,0,0xFF,0x12
1.377473541666667,0,0xFF,0x18
1.379425000000000,0,0xB0,0x12
1.379443041666667,0,0xFF,0x02
1.379461250000000,0,0xFF,0x18
1.381412708333333,0,0xB0,0x12
1.381430750000000,0,0xFF,0x10
1.381448958333333,0,0xFF,0x18
1.383400458333333,0,0xB0,0x12
1.383418458333333,0,0x7F,0x12
1.383436666666667,0,0xFF,0x18
1.385388250000000,0,0xB0,0x12
1.385406291666667,0,0xFF,0x12
1.385424500000000,0,0xFF,0x18
1.387376000000000,0,0xB0,0x12
1.387394041666667,0,0xFF,0x13
1.387412250000000,0,0xFF,0x18
1.389363625000000,0,0xB0,0x12
1.389381666666667,0,0xFF,0x10
1.389399875000000,0,0xFF,0x18
1.391351333333333,0,0x90,0x12
1.391369375000000,0,0xFF,0x12
1.391387583333333,0,0xFF,0x18
1.393339208333333,0,0x90,0x12
1.393357250000000,0,0xFF,0x12
1.393375458333333,0,0xFF,0x18
1.395326541666667,0,0x90,0x10
1.395344583333333,0,0xFF,0x02
1.395362791666667,0,0xFF,0x0C
1.397314041666667,0,0xB0,0x12
1.397332083333333,0,0xFF,0x10
1.397350291666667,0,0xFF,0x18
1.399301875000000,0,0xB0,0x12
1.399319916666667,0,0xFF,0x12
1.399338125000000,0,0xFF,0x0C
1.401289375000000,0,0xF0,0x12
1.401307375000000,0,0x7F,0x12
1.401325583333333,0,0xFF,0x18
1.401350416666667,0,0xC3,0x02
1.401368416666667,0,0xFF,0x00
1.401386625000000,0,0xFF,0x3C
1.401407208333333,0,0x07,0x12
1.401425250000000,0,0x00,0x02
1.401443333333333,0,0x1F,0x13
1.402273166666667,0,0x07,0x01
1.402291208333333,0,0x00,0x00
1.402309250000000,0,0x1F,0x81
1.402329875000000,0,0x34,0x01
1.402347916666667,0,0x80,0x00
1.402365958333333,0,0x00,0x01
1.402386208333333,0,0x87,0x01
1.402404250000000,0,0xFF,0x00
1.402422458333333,0,0xFF,0x1E
1.402443333333333,0,0x07,0x01
1.402461375000000,0,0x00,0x01
1.402479458333333,0,0x9F,0x00
1.403277166666667,0,0xF0,0x02
1.403295166666667,0,0x7F,0x12
1.403313375000000,0,0xFF,0x1C
1.405264916666667,0,0x98,0x10
1.405282958333333,0,0xFF,0x02
1.405301166666667,0,0xFF,0x0C
1.407252666666667,0,0xB0,0x12
1.407270708333333,0,0xFF,0x10
1.407288916666667,0,0xFF,0x1E
1.409240541666667,0,0x90,0x12
1.409258583333333,0,0xFF,0x12
1.409276791666667,0,0xFF,0x1C
1.411228041666667,0,0xB0,0x12
1.411246083333333,0,0xFF,0x10
1.411264291666667,0,0xFF,0x1E
1.413215916666667,0,0xF0,0x02
1.413233916666667,0,0x7F,0x12
1.413252166666667,0,0xFF,0x1C
1.415203375000000,0,0xF0,0x02
1.415221375000000,0,0x7F,0x12
1.415239583333333,0,0xFF,0x1C
1.417191208333333,0,0xF0,0x12
1.417209250000000,0,0xFF,0x13
1.417227458333333,0,0xFF,0x1C
1.419178833333333,0,0xB0,0x12
1.419196875000000,0,0xFF,0x10
1.419215083333333,0,0xFF,0x1C
1.421166250000000,0,0xF0,0x12
1.421184291666667,0,0xFF,0x12
1.421202500000000,0,0xFF,0x1C
1.423154041666667,0,0xF0,0x02
1.423172041666667,0,0x7F,0x12
1.423190250000000,0,0xFF,0x1C
1.425141625000000,0,0xB0,0x12
1.425159666666667,0,0xFF,0x12
1.425177875000000,0,0xFF,0x1C
1.427129416666667,0,0xB0,0x12
1.427147458333333,0,0xFF,0x02
1.427165666666667,0,0xFF,0x0C
1.429117166666667,0,0x98,0x10
1.429135208333333,0,0xFF,0x12
1.429153416666667,0,0xFF,0x1C
1.431105125000000,0,0xB0,0x13
1.431123125000000,0,0x7F,0x12
1.431141333333333,0,0xFF,0x1C
1.433092541666667,0,0xB0,0x12
1.433110541666667,0,0xFF,0x10
1.433128750000000,0,0xFF,0x1E
1.433153583333333,0,0x87,0x12
1.433171583333333,0,0xFF,0x00
1.433189791666667,0,0xFF,0x9E
1.433210375000000,0,0x07,0x12
1.433228375000000,0,0x00,0x12
1.433246458333333,0,0x02,0x02
1.434076250000000,0,0x07,0x01
1.434094291666667,0,0x00,0x01
1.434112375000000,0,0x02,0x01
1.434132958333333,0,0x1C,0x01
1.434151000000000,0,0xC0,0x01
1.434169083333333,0,0x80,0x00
1.434189291666667,0,0x07,0x81
1.434207333333333,0,0xFF,0x00
1.434225541666667,0,0xFF,0x46
1.434246416666667,0,0x07,0x01
1.434264458333333,0,0x00,0x00
1.434282500000000,0,0x66,0x01
1.435080166666667,0,0x30,0x12
1.435098208333333,0,0xFF,0x12
1.435116416666667,0,0xFF,0x0C
1.437067833333333,0,0xF0,0x12
1.437085875000000,0,0xFF,0x12
1.437104083333333,0,0xFF,0x0C
1.439055458333333,0,0x90,0x12
1.439073500000000,0,0xFF,0x12
1.439091708333333,0,0xFF,0x0C
1.441043041666667,0,0x90,0x12
1.441061083333333,0,0xFF,0x02
1.441079291666667,0,0xFF,0x0C
1.443030500000000,0,0x98,0x1A
1.443048541666667,0,0xFF,0x12
1.443066750000000,0,0xFF,0x0C
1.445017875000000,0,0xB0,0x12
1.445035916666667,0,0xFF,0x13
1.445054125000000,0,0xFF,0x0C
1.447005333333333,0,0x98,0x18
1.447023375000000,0,0xFF,0x02
1.447041583333333,0,0xFF,0x0C
1.448992833333333,0,0xB0,0x12
1.449010875000000,0,0xFF,0x02
1.449029083333333,0,0xFF,0x0C
1.450980583333333,0,0xB0,0x13
1.450998583333333,0,0x7F,0x1A
1.451016791666667,0,0xFF,0x04
1.452967916666667,0,0x98,0x10
1.452985958333333,0,0xFF,0x02
1.453004166666667,0,0xFF,0x0C
1.454955750000000,0,0xB0,0x13
1.454973750000000,0,0x7F,0x12
1.454991958333333,0,0xFF,0x0C
1.456943083333333,0,0xB0,0x12
1.456961125000000,0,0xFF,0x10
1.456979333333333,0,0xFF,0x0C
1.458930708333333,0,0xB0,0x12
1.458948750000000,0,0xFF,0x13
1.458966958333333,0,0xFF,0x0C
1.460918291666667,0,0x98,0x1A
1.460936333333333,0,0xFF,0x12
1.460954541666667,0,0xFF,0x0C
1.462905875000000,0,0xF0,0x12
1.462923916666667,0,0xFF,0x12
1.462942125000000,0,0xFF,0x0C
1.464893375000000,0,0xF0,0x02
1.464911375000000,0,0x7F,0x12
1.464929583333333,0,0xFF,0x0C
1.464954416666667,0,0x83,0x13
1.464972416666667,0,0xFF,0x00
1.464990625000000,0,0xFF,0xC6
1.465011208333333,0,0x03,0x13
1.465029208333333,0,0x80,0x1A
1.465047291666667,0,0x00,0x12
1.465877000000000,0,0x07,0x01
1.465895041666667,0,0x00,0x01
1.465913125000000,0,0x00,0x01
1.465933708333333,0,0x1C,0x01
1.465951750000000,0,0xC0,0x01
1.465969833333333,0,0x80,0x00
1.465990041666667,0,0x07,0x01
1.466008083333333,0,0xFF,0x00
1.466026291666667,0,0xFF,0x00
1.466047166666667,0,0x07,0x01
1.466065208333333,0,0x00,0x00
1.466083250000000,0,0x00,0x01
1.466880875000000,0,0xB0,0x12
1.466898916666667,0,0xFF,0x13
1.466917125000000,0,0xFF,0x00
1.468868208333333,0,0xF0,0x02
1.468886208333333,0,0x7F,0x12
1.468904416666667,0,0xFF,0x00
1.470855666666667,0,0x98,0x1A
1.470873708333333,0,0xFF,0x12
1.470891916666667,0,0xFF,0x00
1.472843083333333,0,0x98,0x10
1.472861125000000,0,0xFF,0x02
1.472879333333333,0,0xFF,0x00
1.474830625000000,0,0xB0,0x12
1.474848666666667,0,0xFF,0x13
1.474866875000000,0,0xFF,0x00
1.476818083333333,0,0xB0,0x12
1.476836125000000,0,0xFF,0x12
1.476854333333333,0,0xFF,0x00
1.478805625000000,0,0xB0,0x12
1.478823666666667,0,0xFF,0x12
1.478841875000000,0,0xFF,0x00
1.480793250000000,0,0xB0,0x12
1.480811291666667,0,0xFF,0x02
1.480829500000000,0,0xFF,0x00
1.482780583333333,0,0xB0,0x12
1.482798625000000,0,0xFF,0x12
1.482816833333333,0,0xFF,0x00
1.484768375000000,0,0x98,0x1A
1.484786416666667,0,0xFF,0x12
1.484804625000000,0,0xFF,0x00
1.486755625000000,0,0xB0,0x12
1.486773666666667,0,0xFF,0x12
1.486791875000000,0,0xFF,0x00
1.488743083333333,0,0xB0,0x13
1.488761083333333,0,0x7F,0x1A
1.488779291666667,0,0xFF,0x00
1.490730791666667,0,0xB0,0x12
1.490748833333333,0,0xFF,0x12
1.490767041666667,0,0xFF,0x00
1.492718166666667,0,0x90,0x12
1.492736208333333,0,0xFF,0x12
1.492754416666667,0,0xFF,0x00
1.494705875000000,0,0xB0,0x12
1.494723916666667,0,0xFF,0x10
1.494742125000000,0,0xFF,0x00
1.496693583333333,0,0x90,0x12
1.496711625000000,0,0xFF,0x12
1.496729833333333,0,0xFF,0x00
1.496754625000000,0,0x87,0x12
1.496772666666667,0,0xFF,0x00
1.496790875000000,0,0xFF,0x80
1.496811416666667,0,0x87,0x12
1.496829458333333,0,0x00,0x10
1.496847541666667,0,0x28,0x12
1.497677375000000,0,0x03,0x01
1.497695375000000,0,0x80,0x01
1.497713458333333,0,0x00,0x01
1.497734083333333,0,0x30,0x01
1.497752083333333,0,0x00,0x81
1.497770166666667,0,0x80,0x01
1.497790416666667,0,0x87,0x01
1.497808458333333,0,0xFF,0x00
1.497826666666667,0,0xFF,0x28
1.497847541666667,0,0x03,0x01
1.497865541666667,0,0x80,0x01
1.497883625000000,0,0x80,0x01
1.498681333333333,0,0xF0,0x02
1.498699375000000,0,0xFF,0x13
1.498717583333333,0,0xFF,0x10
1.500668958333333,0,0x90,0x12
1.500687000000000,0,0xFF,0x12
1.500705208333333,0,0xFF,0x10
1.502656958333333,0,0xB0,0x12
1.502675000000000,0,0xFF,0x12
1.502693208333333,0,0xFF,0x10
1.504644416666667,0,0xF0,0x02
1.504662416666667,0,0x7F,0x12
1.504680625000000,0,0xFF,0x10
1.506631916666667,0,0x98,0x1A
1.506649958333333,0,0xFF,0x02
1.506668166666667,0,0xFF,0x00
1.508619416666667,0,0xF0,0x02
1.508637416666667,0,0x7F,0x12
1.508655625000000,0,0xFF,0x10
1.510607208333333,0,0xF0,0x02
1.510625208333333,0,0x7F,0x12
1.510643416666667,0,0xFF,0x10
1.512594708333333,0,0xB0,0x12
1.512612750000000,0,0xFF,0x12
1.512630958333333,0,0xFF,0x00
1.514582625000000,0,0xB0,0x12
1.514600666666667,0,0xFF,0x13
1.514618875000000,0,0xFF,0x10
1.516570166666667,0,0xB0,0x13
1.516588166666667,0,0x7F,0x1A
1.516606375000000,0,0xFF,0x18
1.518557958333333,0,0x98,0x10
1.518576000000000,0,0xFF,0x02
1.518594208333333,0,0xFF,0x00
1.520545416666667,0,0xB0,0x12
1.520563458333333,0,0xFF,0x12
1.520581666666667,0,0xFF,0x00
1.522533000000000,0,0x98,0x1A
1.522551041666667,0,0xFF,0x12
1.522569250000000,0,0xFF,0x10
1.524520625000000,0,0xF0,0x12
1.524538666666667,0,0xFF,0x12
1.524556875000000,0,0xFF,0x10
1.526508250000000,0,0xB0,0x13
1.526526250000000,0,0x7F,0x1A
1.526544458333333,0,0xFF,0x18
1.528495833333333,0,0x98,0x1A
1.528513875000000,0,0xFF,0x12
1.528532083333333,0,0xFF,0x10
1.528556875000000,0,0x87,0x18
1.528574916666667,0,0xFF,0x00
1.528593125000000,0,0xFF,0xBC
1.528613666666667,0,0x07,0x12
1.528631708333333,0,0x00,0x02
1.528649750000000,0,0x0A,0x12
1.529479458333333,0,0x03,0x01
1.529497458333333,0,0x80,0x01
1.529515541666667,0,0x00,0x01
1.529536166666667,0,0x34,0x01
1.529554166666667,0,0x00,0x01
1.529572250000000,0,0xC0,0x01
1.529592500000000,0,0xC3,0x01
1.529610500000000,0,0xFF,0x00
1.529628708333333,0,0xFF,0x02
1.529649583333333,0,0x87,0x01
1.529667625000000,0,0x00,0x01
1.529685708333333,0,0x8F,0x00
1.530483291666667,0,0xB0,0x12
1.530501333333333,0,0xFF,0x13
1.530519541666667,0,0xFF,0x14
1.532470833333333,0,0xF0,0x02
1.532488875000000,0,0xFF,0x12
1.532507083333333,0,0xFF,0x14
1.534458416666667,0,0xB0,0x12
1.534476458333333,0,0xFF,0x10
1.534494666666667,0,0xFF,0x16
1.536445958333333,0,0xB0,0x12
1.536464000000000,0,0xFF,0x13
1.536482208333333,0,0xFF,0x14
1.538433416666667,0,0x98,0x10
1.538451458333333,0,0xFF,0x02
1.538469666666667,0,0xFF,0x00
1.540421041666667,0,0xB0,0x12
1.540439041666667,0,0xFF,0x1A
1.540457250000000,0,0xFF,0x1E
1.542408791666667,0,0xB0,0x12
1.542426833333333,0,0xFF,0x10
1.542445041666667,0,0xFF,0x16
1.544396583333333,0,0xF0,0x12
1.544414583333333,0,0x7F,0x12
1.544432791666667,0,0xFF,0x14
1.546384333333333,0,0xB0,0x12
1.546402375000000,0,0xFF,0x02
1.546420583333333,0,0xFF,0x00
1.548372083333333,0,0xB0,0x12
1.548390125000000,0,0xFF,0x10
1.548408333333333,0,0xFF,0x16
1.550359791666667,0,0xB0,0x12
1.550377833333333,0,0xFF,0x12
1.550396041666667,0,0xFF,0x14
1.552347500000000,0,0xB0,0x13
1.552365500000000,0,0x7F,0x1A
1.552383708333333,0,0xFF,0x1C
1.554335125000000,0,0xB0,0x12
1.554353166666667,0,0xFF,0x13
1.554371375000000,0,0xFF,0x14
1.556323166666667,0,0xB0,0x12
1.556341208333333,0,0xFF,0x02
1.556359416666667,0,0xFF,0x00
1.558310791666667,0,0xB0,0x12
1.558328833333333,0,0xFF,0x10
1.558347041666667,0,0xFF,0x1C
1.560298750000000,0,0xB0,0x12
1.560316791666667,0,0xFF,0x02
1.560335000000000,0,0xFF,0x04
1.560359791666667,0,0x87,0x1A
1.560377833333333,0,0xFF,0x00
1.560396041666667,0,0xFF,0x8A
1.560416583333333,0,0x87,0x12
1.560434625000000,0,0x00,0x10
1.560452708333333,0,0x32,0x12
1.561282291666667,0,0x07,0x01
1.561300333333333,0,0x00,0x01
1.561318416666667,0,0x32,0x01
1.561339000000000,0,0x34,0x81
1.561357041666667,0,0x80,0x01
1.561375125000000,0,0x80,0x01
1.561395375000000,0,0xC7,0x01
1.561413416666667,0,0xFF,0x00
1.561431625000000,0,0xFF,0x33
1.561452500000000,0,0x03,0x00
1.561470500000000,0,0x00,0x01
1.561488583333333,0,0xB0,0x01
1.562286291666667,0,0xF0,0x02
1.562304291666667,0,0x7F,0x12
1.562322500000000,0,0xFF,0x04
1.564274041666667,0,0xF0,0x12
1.564292041666667,0,0x7F,0x12
1.564310250000000,0,0xFF,0x04
1.566261666666667,0,0xB0,0x12
1.566279708333333,0,0xFF,0x12
1.566297875000000,0,0xFF,0x04
1.568249333333333,0,0xF0,0x02
1.568267333333333,0,0x7F,0x12
1.568285541666667,0,0xFF,0x04
1.570236708333333,0,0xB0,0x12
1.570254750000000,0,0xFF,0x13
1.570272958333333,0,0xFF,0x04
1.572224375000000,0,0xB0,0x12
1.572242375000000,0,0xFF,0x10
1.572260583333333,0,0xFF,0x04
1.574211500000000,0,0xB0,0x13
1.574229500000000,0,0x7F,0x1A
1.574247708333333,0,0xFF,0x04
1.576199291666667,0,0x98,0x10
1.576217333333333,0,0xFF,0x02
1.576235541666667,0,0xFF,0x00
1.578186875000000,0,0xB0,0x13
1.578204875000000,0,0x7F,0x1A
1.578223083333333,0,0xFF,0x04
1.580174208333333,0,0xB0,0x12
1.580192250000000,0,0xFF,0x02
1.580210458333333,0,0xFF,0x00
1.582162041666667,0,0x98,0x1A
1.582180083333333,0,0xFF,0x12
1.582198291666667,0,0xFF,0x04
1.584149583333333,0,0x98,0x1A
1.584167625000000,0,0xFF,0x12
1.584185833333333,0,0xFF,0x04
1.586137500000000,0,0xB0,0x13
1.586155500000000,0,0x7F,0x1A
1.586173708333333,0,0xFF,0x04
1.588125375000000,0,0xB0,0x12
1.588143416666667,0,0xFF,0x10
1.588161625000000,0,0xFF,0x04
1.590112958333333,0,0xB0,0x12
1.590130958333333,0,0x7F,0x12
1.590149166666667,0,0xFF,0x04
1.592100666666667,0,0xB0,0x12
1.592118708333333,0,0xFF,0x12
1.592136916666667,0,0xFF,0x04
1.592161708333333,0,0x87,0x1A
1.592179750000000,0,0xFF,0x00
1.592197958333333,0,0xFF,0xF2
1.592218500000000,0,0x87,0x1A
1.592236541666667,0,0x00,0x12
1.592254625000000,0,0x00,0x12
1.593084166666667,0,0x03,0x00
1.593102166666667,0,0x00,0x01
1.593120250000000,0,0x16,0x01
1.593140875000000,0,0x34,0x01
1.593158875000000,0,0x00,0x01
1.593176958333333,0,0x80,0x01
1.593197208333333,0,0xC7,0x01
1.593215250000000,0,0xFF,0x00
1.593233458333333,0,0xFF,0x14
1.593254333333333,0,0x03,0x00
1.593272333333333,0,0x80,0x01
1.593290416666667,0,0x9E,0x01
1.594088125000000,0,0xB0,0x12
1.594106166666667,0,0xFF,0x02
1.594124375000000,0,0xFF,0x08
1.596076125000000,0,0x98,0x1A
1.596094166666667,0,0xFF,0x12
1.596112375000000,0,0xFF,0x08
1.598063708333333,0,0xB0,0x12
1.598081750000000,0,0xFF,0x12
1.598099958333333,0,0xFF,0x08
1.600051375000000,0,0xF0,0x02
1.600069375000000,0,0x7F,0x12
1.600087625000000,0,0xFF,0x08
1.602039083333333,0,0xF0,0x02
1.602057083333333,0,0x7F,0x12
1.602075291666667,0,0xFF,0x08
1.604026791666667,0,0xF0,0x02
1.604044833333333,0,0xFF,0x12
1.604063041666667,0,0xFF,0x08
1.606014583333333,0,0xF0,0x12
1.606032625000000,0,0xFF,0x12
1.606050833333333,0,0xFF,0x0C
1.608002208333333,0,0xB0,0x12
1.608020250000000,0,0xFF,0x12
1.608038458333333,0,0xFF,0x08
1.609989916666667,0,0xF0,0x12
1.610007958333333,0,0xFF,0x13
1.610026166666667,0,0xFF,0x08
1.611977833333333,0,0xB0,0x13
1.611995833333333,0,0xFF,0x10
1.612014041666667,0,0xFF,0x08
1.613965375000000,0,0xB0,0x13
1.613983375000000,0,0x7F,0x1A
1.614001583333333,0,0xFF,0x00
1.615953250000000,0,0xB0,0x12
1.615971291666667,0,0xFF,0x1A
1.615989500000000,0,0xFF,0x00
1.617941041666667,0,0x98,0x1A
1.617959083333333,0,0xFF,0x12
1.617977291666667,0,0xFF,0x08
1.619928750000000,0,0xF0,0x12
1.619946791666667,0,0xFF,0x13
1.619965000000000,0,0xFF,0x08
1.621916291666667,0,0xB0,0x12
1.621934333333333,0,0xFF,0x10
1.621952541666667,0,0xFF,0x08
1.623904208333333,0,0x90,0x12
1.623922250000000,0,0xFF,0x12
1.623940458333333,0,0xFF,0x08
1.623965250000000,0,0x87,0x12
1.623983291666667,0,0xFF,0x00
1.624001500000000,0,0xFF,0x96
1.624022083333333,0,0x03,0x12
1.624040083333333,0,0x80,0x12
1.624058166666667,0,0x1C,0x1A
1.624887833333333,0,0x07,0x01
1.624905875000000,0,0x00,0x01
1.624923958333333,0,0x3C,0x01
1.624944541666667,0,0x34,0x81
1.624962583333333,0,0x80,0x01
1.624980666666667,0,0x80,0x01
1.625000916666667,0,0xC7,0x01
1.625018958333333,0,0xFF,0x00
1.625037166666667,0,0xFF,0x3C
1.625058041666667,0,0x07,0x01
1.625076041666667,0,0x80,0x81
1.625094125000000,0,0x1C,0x01
1.625891875000000,0,0x30,0x92
1.625909916666667,0,0xFF,0x10
1.625928125000000,0,0xFF,0x18
1.627879750000000,0,0x98,0x1A
1.627897791666667,0,0xFF,0x12
1.627916000000000,0,0xFF,0x18
1.629867416666667,0,0xB0,0x12
1.629885458333333,0,0xFF,0x12
1.629903666666667,0,0xFF,0x18
1.631855000000000,0,0xB0,0x12
1.631873041666667,0,0xFF,0x10
1.631891250000000,0,0xFF,0x18
1.633842583333333,0,0xB0,0x12
1.633860625000000,0,0xFF,0x13
1.633878833333333,0,0xFF,0x18
1.635830250000000,0,0xF0,0x02
1.635848250000000,0,0x7F,0x12
1.635866458333333,0,0xFF,0x18
1.637818000000000,0,0xB0,0x12
1.637836041666667,0,0xFF,0x12
1.637854250000000,0,0xFF,0x18
1.639805791666667,0,0xB0,0x12
1.639823833333333,0,0xFF,0x10
1.639842041666667,0,0xFF,0x18
1.641793625000000,0,0xB0,0x12
1.641811666666667,0,0xFF,0x02
1.641829875000000,0,0xFF,0x08
1.643781666666667,0,0xB0,0x10
1.643799708333333,0,0xFF,0x02
1.643817916666667,0,0xFF,0x18
1.645769458333333,0,0x98,0x1A
1.645787500000000,0,0xFF,0x12
1.645805708333333,0,0xFF,0x18
1.647757458333333,0,0xF0,0x02
1.647775458333333,0,0x7F,0x12
1.647793666666667,0,0xFF,0x18
1.649745000000000,0,0xB0,0x12
1.649763041666667,0,0xFF,0x02
1.649781250000000,0,0xFF,0x0C
1.651732791666667,0,0xF0,0x02
1.651750833333333,0,0xFF,0x12
1.651769041666667,0,0xFF,0x18
1.653720208333333,0,0xB0,0x12
1.653738250000000,0,0xFF,0x12
1.653756458333333,0,0xFF,0x0C
1.655708166666667,0,0xB0,0x12
1.655726208333333,0,0xFF,0x12
1.655744416666667,0,0xFF,0x0C
1.655769208333333,0,0x87,0x12
1.655787250000000,0,0xFF,0x00
1.655805458333333,0,0xFF,0xBC
1.655826000000000,0,0x07,0x1A
1.655844041666667,0,0x00,0x12
1.655862125000000,0,0x0E,0x02
1.656691791666667,0,0x07,0x01
1.656709833333333,0,0x00,0x00
1.656727875000000,0,0x1E,0x01
1.656748500000000,0,0x34,0x01
1.656766541666667,0,0x80,0x01
1.656784583333333,0,0x00,0x01
1.656804833333333,0,0x87,0x01
1.656822875000000,0,0xFF,0x00
1.656841083333333,0,0xFF,0x0E
1.656861958333333,0,0x07,0x01
1.656880000000000,0,0x00,0x01
1.656898041666667,0,0x1F,0x81
1.657696041666667,0,0x18,0x1A
1.657714083333333,0,0xFF,0x12
1.657732291666667,0,0xFF,0x1C
1.659683583333333,0,0x98,0x10
1.659701625000000,0,0xFF,0x02
1.659719833333333,0,0xFF,0x0C
1.661671583333333,0,0xF0,0x12
1.661689625000000,0,0xFF,0x13
1.661707833333333,0,0xFF,0x1C
1.663659125000000,0,0xF0,0x02
1.663677125000000,0,0x7F,0x12
1.663695375000000,0,0xFF,0x1C
1.665646958333333,0,0xB0,0x12
1.665665000000000,0,0xFF,0x12
1.665683208333333,0,0xFF,0x1C
1.667634875000000,0,0xB0,0x12
1.667652916666667,0,0xFF,0x02
1.667671125000000,0,0xFF,0x0C
1.669622375000000,0,0x98,0x10
1.669640416666667,0,0xFF,0x12
1.669658625000000,0,0xFF,0x1C
1.671610333333333,0,0x98,0x10
1.671628375000000,0,0xFF,0x12
1.671646583333333,0,0xFF,0x1C
1.673597875000000,0,0xF0,0x13
1.673615875000000,0,0x7F,0x12
1.673634083333333,0,0xFF,0x1C
1.675585708333333,0,0xB0,0x12
1.675603750000000,0,0xFF,0x13
1.675621958333333,0,0xFF,0x1C
1.677573458333333,0,0xF0,0x12
1.677591500000000,0,0xFF,0x12
1.677609666666667,0,0xFF,0x1C
1.679560833333333,0,0x98,0x10
1.679578875000000,0,0xFF,0x02
1.679597083333333,0,0xFF,0x0C
1.681548458333333,0,0xB0,0x12
1.681566458333333,0,0x7F,0x12
1.681584666666667,0,0xFF,0x1C
1.683536125000000,0,0xB0,0x12
1.683554166666667,0,0xFF,0x12
1.683572375000000,0,0xFF,0x1C
1.685524041666667,0,0xB0,0x12
1.685542083333333,0,0xFF,0x13
1.685560291666667,0,0xFF,0x1C
1.687511750000000,0,0xB0,0x12
1.687529791666667,0,0xFF,0x13
1.687548000000000,0,0xFF,0x1C
1.687572791666667,0,0x87,0x12
1.687590833333333,0,0xFF,0x00
1.687609041666667,0,0xFF,0x9F
1.687629583333333,0,0x07,0x12
1.687647625000000,0,0x00,0x12
1.687665666666667,0,0x46,0x12
1.688495500000000,0,0x07,0x01
1.688513541666667,0,0x00,0x01
1.688531625000000,0,0x46,0x01
1.688552250000000,0,0x34,0x01
1.688570250000000,0,0x00,0x01
1.688588333333333,0,0x80,0x01
1.688608583333333,0,0xC7,0x01
1.688626625000000,0,0xFF,0x00
1.688644833333333,0,0xFF,0x46
1.688665708333333,0,0x03,0x01
1.688683708333333,0,0x00,0x01
1.688701791666667,0,0xC6,0x01
1.689499166666667,0,0xF0,0x12
1.689517166666667,0,0x7F,0x12
1.689535375000000,0,0xFF,0x0C
1.691486833333333,0,0xB0,0x12
1.691504875000000,0,0xFF,0x12
1.691523083333333,0,0xFF,0x0C
1.693474750000000,0,0xF0,0x12
1.693492750000000,0,0x7F,0x12
1.693510958333333,0,0xFF,0x0C
1.695462375000000,0,0x98,0x1A
1.695480416666667,0,0xFF,0x12
1.695498625000000,0,0xFF,0x0C
1.697450000000000,0,0x98,0x10
1.697468041666667,0,0xFF,0x12
1.697486250000000,0,0xFF,0x0C
1.699437583333333,0,0x98,0x1A
1.699455625000000,0,0xFF,0x12
1.699473833333333,0,0xFF,0x0C
1.701425416666667,0,0xF0,0x12
1.701443458333333,0,0xFF,0x13
1.701461666666667,0,0xFF,0x0C
1.703412916666667,0,0xF0,0x12
1.703430916666667,0,0x7F,0x12
1.703449125000000,0,0xFF,0x0C
1.705400541666667,0,0xF0,0x12
1.705418583333333,0,0xFF,0x12
1.705436750000000,0,0xFF,0x0C
1.707388166666667,0,0xB0,0x13
1.707406166666667,0,0x7F,0x1A
1.707424375000000,0,0xFF,0x04
1.709375916666667,0,0xB0,0x12
1.709393958333333,0,0xFF,0x12
1.709412166666667,0,0xFF,0x0C
1.711363458333333,0,0x98,0x1A
1.711381500000000,0,0xFF,0x12
1.711399708333333,0,0xFF,0x0C
1.713351166666667,0,0xB0,0x12
1.713369208333333,0,0xFF,0x12
1.713387416666667,0,0xFF,0x0C
1.715338833333333,0,0xB0,0x12
1.715356875000000,0,0xFF,0x1A
1.715375083333333,0,0xFF,0x04
1.717326541666667,0,0x98,0x1A
1.717344583333333,0,0xFF,0x12
1.717362791666667,0,0xFF,0x0C
1.719314333333333,0,0xB0,0x13
1.719332333333333,0,0x7F,0x1A
1.719350541666667,0,0xFF,0x04
1.719375375000000,0,0xC3,0x02
1.719393375000000,0,0xFF,0x00
1.719411625000000,0,0xFF,0xC7
1.719432166666667,0,0x07,0x12
1.719450208333333,0,0x00,0x02
1.719468291666667,0,0x00,0x13
1.720298166666667,0,0x07,0x01
1.720316208333333,0,0x00,0x01
1.720334291666667,0,0x00,0x00
1.720354875000000,0,0x1E,0x01
1.720372916666667,0,0xC0,0x01
1.720391000000000,0,0x80,0x00
1.720411208333333,0,0x07,0x81
1.720429250000000,0,0xFF,0x00
1.720447458333333,0,0xFF,0x00
1.720468333333333,0,0x87,0x01
1.720486375000000,0,0x00,0x01
1.720504458333333,0,0xC0,0x01
1.721302208333333,0,0xF0,0x12
1.721320208333333,0,0x7F,0x12
1.721338416666667,0,0xFF,0x00
1.723289916666667,0,0x90,0x12
1.723307958333333,0,0xFF,0x12
1.723326166666667,0,0xFF,0x00
1.725277833333333,0,0xB8,0x10
1.725295875000000,0,0xFF,0x02
1.725314083333333,0,0xFF,0x00
1.727265750000000,0,0xB0,0x13
1.727283750000000,0,0x7F,0x1A
1.727301958333333,0,0xFF,0x00
1.729253583333333,0,0xB0,0x13
1.729271583333333,0,0x7F,0x12
1.729289791666667,0,0xFF,0x00
1.731241416666667,0,0x90,0x12
1.731259458333333,0,0xFF,0x12
1.731277666666667,0,0xFF,0x00
1.733229333333333,0,0xB0,0x12
1.733247375000000,0,0xFF,0x10
1.733265583333333,0,0xFF,0x00
1.735217208333333,0,0x98,0x10
1.735235250000000,0,0xFF,0x12
1.735253458333333,0,0xFF,0x00
1.737205125000000,0,0xB0,0x12
1.737223125000000,0,0x7F,0x12
1.737241333333333,0,0xFF,0x00
1.739192916666667,0,0xB0,0x12
1.739210958333333,0,0xFF,0x10
1.739229166666667,0,0xFF,0x00
1.741180708333333,0,0xF0,0x12
1.741198750000000,0,0xFF,0x12
1.741216958333333,0,0xFF,0x00
1.743168500000000,0,0x98,0x10
1.743186541666667,0,0xFF,0x02
1.743204750000000,0,0xFF,0x00
1.745156333333333,0,0xB0,0x12
1.745174333333333,0,0x7F,0x12
1.745192541666667,0,0xFF,0x00
1.747144291666667,0,0xB0,0x13
1.747162291666667,0,0x7F,0x12
1.747180500000000,0,0xFF,0x00
1.749131958333333,0,0xB0,0x12
1.749150000000000,0,0xFF,0x13
1.749168208333333,0,0xFF,0x00
1.751119916666667,0,0x98,0x1A
1.751137958333333,0,0xFF,0x12
1.751156166666667,0,0xFF,0x00
1.751180958333333,0,0x87,0x10
1.751199000000000,0,0xFF,0x00
1.751217208333333,0,0xFF,0x80
1.751237750000000,0,0x07,0x10
1.751255791666667,0,0x00,0x02
1.751273875000000,0,0x28,0x12
1.752103500000000,0,0x07,0x01
1.752121541666667,0,0x00,0x01
1.752139625000000,0,0x38,0x01
1.752160208333333,0,0x1C,0x01
1.752178250000000,0,0x80,0x01
1.752196333333333,0,0x80,0x01
1.752216541666667,0,0x07,0x81
1.752234583333333,0,0xFF,0x00
1.752252791666667,0,0xFF,0x28
1.752273666666667,0,0x07,0x01
1.752291708333333,0,0x00,0x01
1.752309791666667,0,0xA8,0x01
1.753107500000000,0,0xB0,0x12
1.753125541666667,0,0xFF,0x12
1.753143750000000,0,0xFF,0x00
1.755095500000000,0,0xB0,0x12
1.755113541666667,0,0xFF,0x12
1.755131750000000,0,0xFF,0x10
1.757083291666667,0,0xB0,0x12
1.757101333333333,0,0xFF,0x02
1.757119541666667,0,0xFF,0x10
1.759071125000000,0,0xB0,0x12
1.759089166666667,0,0xFF,0x12
1.759107375000000,0,0xFF,0x10
1.761058833333333,0,0xF0,0x12
1.761076833333333,0,0x7F,0x12
1.761095041666667,0,0xFF,0x10
1.763046541666667,0,0xB0,0x13
1.763064541666667,0,0x7F,0x1A
1.763082750000000,0,0xFF,0x10
1.765034375000000,0,0xF0,0x12
1.765052375000000,0,0x7F,0x12
1.765070583333333,0,0xFF,0x10
1.767022541666667,0,0xB0,0x12
1.767040583333333,0,0x7F,0x1A
1.767058791666667,0,0xFF,0x10
1.769010583333333,0,0xF0,0x02
1.769028625000000,0,0xFF,0x13
1.769046833333333,0,0xFF,0x10
1.770998291666667,0,0xB0,0x12
1.771016333333333,0,0xFF,0x12
1.771034541666667,0,0xFF,0x00
1.772986166666667,0,0xF0,0x12
1.773004166666667,0,0x7F,0x12
1.773022416666667,0,0xFF,0x10
1.774974125000000,0,0x90,0x12
1.774992166666667,0,0xFF,0x10
1.775010375000000,0,0xFF,0x10
1.776962000000000,0,0x98,0x1A
1.776980041666667,0,0xFF,0x12
1.776998250000000,0,0xFF,0x10
1.778949875000000,0,0xF0,0x12
1.778967916666667,0,0xFF,0x13
1.778986125000000,0,0xFF,0x10
1.780937791666667,0,0xF0,0x02
1.780955791666667,0,0x7F,0x12
1.780974000000000,0,0xFF,0x10
1.782925208333333,0,0xB0,0x13
1.782943208333333,0,0x7F,0x1A
1.782961416666667,0,0xFF,0x10
1.782986250000000,0,0x83,0x13
1.783004250000000,0,0xFF,0x00
1.783022458333333,0,0xFF,0xA0
1.783043041666667,0,0x03,0x13
1.783061041666667,0,0x80,0x1A
1.783079125000000,0,0x0A,0x12
1.783908916666667,0,0x03,0x01
1.783926916666667,0,0x80,0x81
1.783945000000000,0,0x00,0x01
1.783965625000000,0,0x30,0x00
1.783983625000000,0,0x00,0x01
1.784001708333333,0,0x80,0x01
1.784021958333333,0,0xC7,0x01
1.784039958333333,0,0xFF,0x80
1.784058166666667,0,0xFF,0x0A
1.784079041666667,0,0x87,0x01
1.784097083333333,0,0x00,0x01
1.784115166666667,0,0xCA,0x01
1.784913125000000,0,0xF0,0x12
1.784931125000000,0,0x7F,0x12
1.784949375000000,0,0xFF,0x14
1.786900583333333,0,0x98,0x1A
1.786918625000000,0,0xFF,0x12
1.786936833333333,0,0xFF,0x14
1.788888291666667,0,0xB0,0x12
1.788906333333333,0,0xFF,0x10
1.788924541666667,0,0xFF,0x16
1.790876375000000,0,0xB0,0x12
1.790894416666667,0,0xFF,0x02
1.790912625000000,0,0xFF,0x14
1.792863875000000,0,0x90,0x12
1.792881916666667,0,0xFF,0x10
1.792900125000000,0,0xFF,0x16
1.794851666666667,0,0xF0,0x02
1.794869666666667,0,0x7F,0x12
1.794887875000000,0,0xFF,0x14
1.796839375000000,0,0xB0,0x12
1.796857416666667,0,0xFF,0x10
1.796875625000000,0,0xFF,0x16
1.798827250000000,0,0xB0,0x12
1.798845291666667,0,0xFF,0x13
1.798863500000000,0,0xFF,0x14
1.800815041666667,0,0xB0,0x12
1.800833041666667,0,0x7F,0x12
1.800851250000000,0,0xFF,0x14
1.802802833333333,0,0x98,0x10
1.802820875000000,0,0xFF,0x12
1.802839083333333,0,0xFF,0x14
1.804790541666667,0,0x98,0x1A
1.804808583333333,0,0xFF,0x12
1.804826791666667,0,0xFF,0x14
1.806778083333333,0,0x98,0x1A
1.806796125000000,0,0xFF,0x12
1.806814333333333,0,0xFF,0x14
1.808766000000000,0,0xF0,0x02
1.808784041666667,0,0xFF,0x12
1.808802250000000,0,0xFF,0x14
1.810753541666667,0,0xB0,0x12
1.810771583333333,0,0xFF,0x13
1.810789791666667,0,0xFF,0x14
1.812741166666667,0,0xB0,0x12
1.812759208333333,0,0xFF,0x12
1.812777416666667,0,0xFF,0x14
1.814728916666667,0,0xB0,0x12
1.814746958333333,0,0xFF,0x12
1.814765166666667,0,0xFF,0x00
1.814789958333333,0,0x87,0x10
1.814808000000000,0,0xFF,0x00
1.814826208333333,0,0xFF,0xCA
1.814846750000000,0,0x87,0x12
1.814864791666667,0,0x00,0x10
1.814882875000000,0,0x32,0x02
1.815712708333333,0,0x07,0x01
1.815730750000000,0,0x00,0x01
1.815748791666667,0,0x33,0x81
1.815769416666667,0,0x34,0x01
1.815787458333333,0,0x80,0x00
1.815805500000000,0,0x00,0x01
1.815825750000000,0,0x07,0x01
1.815843791666667,0,0xFF,0x00
1.815862000000000,0,0xFF,0x32
1.815882875000000,0,0x07,0x01
1.815900916666667,0,0x00,0x01
1.815918958333333,0,0x33,0x81
1.816716666666667,0,0xB0,0x12
1.816734708333333,0,0xFF,0x02
1.816752916666667,0,0xFF,0x04
1.818704541666667,0,0xB0,0x13
1.818722541666667,0,0xFF,0x1A
1.818740750000000,0,0xFF,0x04
1.820692000000000,0,0x98,0x1A
1.820710041666667,0,0xFF,0x12
1.820728250000000,0,0xFF,0x04
1.822679833333333,0,0xB0,0x12
1.822697875000000,0,0xFF,0x10
1.822716083333333,0,0xFF,0x06
1.824667250000000,0,0xB0,0x12
1.824685291666667,0,0xFF,0x12
1.824703500000000,0,0xFF,0x04
1.826655000000000,0,0xB0,0x13
1.826673000000000,0,0x7F,0x1A
1.826691208333333,0,0xFF,0x04
1.828642583333333,0,0xB0,0x12
1.828660625000000,0,0xFF,0x12
1.828678833333333,0,0xFF,0x00
1.830630250000000,0,0xB0,0x12
1.830648250000000,0,0xFF,0x1A
1.830666458333333,0,0xFF,0x04
1.832617875000000,0,0xB0,0x13
1.832635875000000,0,0x7F,0x1A
1.832654083333333,0,0xFF,0x04
1.834605958333333,0,0x98,0x1A
1.834624000000000,0,0xFF,0x12
1.834642208333333,0,0xFF,0x06
1.836593500000000,0,0xF0,0x12
1.836611541666667,0,0xFF,0x12
1.836629750000000,0,0xFF,0x00
1.838581208333333,0,0xB0,0x12
1.838599250000000,0,0xFF,0x10
1.838617458333333,0,0xFF,0x06
1.840569083333333,0,0xB0,0x13
1.840587083333333,0,0x7F,0x1A
1.840605291666667,0,0xFF,0x06
1.842556500000000,0,0xB0,0x12
1.842574541666667,0,0xFF,0x12
1.842592750000000,0,0xFF,0x04
1.844544125000000,0,0xB0,0x12
1.844562166666667,0,0xFF,0x12
1.844580375000000,0,0xFF,0x04
1.846532125000000,0,0xB0,0x12
1.846550166666667,0,0xFF,0x10
1.846568375000000,0,0xFF,0x04
1.846593166666667,0,0x87,0x12
1.846611208333333,0,0xFF,0x00
1.846629416666667,0,0xFF,0xBA
1.846650000000000,0,0x03,0x12
1.846668000000000,0,0x80,0x12
1.846686083333333,0,0x1C,0x1A
1.847515791666667,0,0x03,0x01
1.847533791666667,0,0x80,0x01
1.847551875000000,0,0x1E,0x01
1.847572500000000,0,0x30,0x01
1.847590500000000,0,0x00,0x81
1.847608583333333,0,0x00,0x01
1.847628833333333,0,0x87,0x01
1.847646875000000,0,0xFF,0x00
1.847665083333333,0,0xFF,0x14
1.847685958333333,0,0x07,0x01
1.847704000000000,0,0x00,0x01
1.847722041666667,0,0x14,0x81
1.848519791666667,0,0xF0,0x12
1.848537791666667,0,0x7F,0x12
1.848556000000000,0,0xFF,0x08
1.850507583333333,0,0x98,0x10
1.850525625000000,0,0xFF,0x12
1.850543833333333,0,0xFF,0x08
1.852495333333333,0,0xB0,0x12
1.852513375000000,0,0xFF,0x1A
1.852531583333333,0,0xFF,0x00
1.854483125000000,0,0xB0,0x12
1.854501166666667,0,0xFF,0x10
1.854519375000000,0,0xFF,0x00
1.856470875000000,0,0x90,0x12
1.856488916666667,0,0xFF,0x02
1.856507125000000,0,0xFF,0x08
1.858458750000000,0,0xB0,0x12
1.858476791666667,0,0xFF,0x12
1.858495000000000,0,0xFF,0x0C
1.860446166666667,0,0xB0,0x12
1.860464208333333,0,0xFF,0x12
1.860482416666667,0,0xFF,0x08
1.862433791666667,0,0xB0,0x12
1.862451791666667,0,0xFF,0x12
1.862470000000000,0,0xFF,0x08
1.864421458333333,0,0x98,0x1A
1.864439500000000,0,0xFF,0x12
1.864457708333333,0,0xFF,0x08
1.866409166666667,0,0xB8,0x10
1.866427208333333,0,0xFF,0x02
1.866445416666667,0,0xFF,0x08
1.868396875000000,0,0x90,0x12
1.868414916666667,0,0xFF,0x10
1.868433125000000,0,0xFF,0x08
1.870385000000000,0,0xB0,0x12
1.870403041666667,0,0xFF,0x12
1.870421250000000,0,0xFF,0x08
1.872372541666667,0,0xF0,0x12
1.872390583333333,0,0xFF,0x13
1.872408791666667,0,0xFF,0x08
1.874360416666667,0,0x90,0x12
1.874378458333333,0,0xFF,0x12
1.874396666666667,0,0xFF,0x08
1.876348458333333,0,0xB0,0x13
1.876366458333333,0,0x7F,0x12
1.876384666666667,0,0xFF,0x08
1.878336375000000,0,0xB0,0x12
1.878354416666667,0,0xFF,0x10
1.878372625000000,0,0xFF,0x08
1.878397458333333,0,0x83,0x13
1.878415458333333,0,0xFF,0x00
1.878433666666667,0,0xFF,0x94
1.878454250000000,0,0x07,0x12
1.878472291666667,0,0x00,0x12
1.878490333333333,0,0x3C,0x12
1.879320291666667,0,0x07,0x01
1.879338333333333,0,0x00,0x01
1.879356375000000,0,0x3C,0x81
1.879377000000000,0,0x3E,0x01
1.879395041666667,0,0xC0,0x01
1.879413125000000,0,0xC0,0x01
1.879433375000000,0,0xC3,0x01
1.879451375000000,0,0xFF,0x80
1.879469625000000,0,0xFF,0x3C
1.879490500000000,0,0x03,0x01
1.879508500000000,0,0x80,0x81
1.879526583333333,0,0x1C,0x01
1.880324333333333,0,0x30,0x92
1.880342375000000,0,0xFF,0x1A
1.880360583333333,0,0xFF,0x18
1.882312041666667,0,0x98,0x10
1.882330083333333,0,0xFF,0x02
1.882348291666667,0,0xFF,0x08
1.884299750000000,0,0xF0,0x12
1.884317791666667,0,0xFF,0x12
1.884336000000000,0,0xFF,0x18
1.886287500000000,0,0xB0,0x13
1.886305500000000,0,0x7F,0x1A
1.886323708333333,0,0xFF,0x18
1.888275333333333,0,0xF0,0x12
1.888293333333333,0,0x7F,0x12
1.888311541666667,0,0xFF,0x18
1.890263166666667,0,0xF0,0x12
1.890281208333333,0,0xFF,0x12
1.890299416666667,0,0xFF,0x0C
1.892250916666667,0,0xB0,0x12
1.892268958333333,0,0xFF,0x12
1.892287166666667,0,0xFF,0x1C
1.894238666666667,0,0xB0,0x13
1.894256666666667,0,0x7F,0x1A
1.894274875000000,0,0xFF,0x18
1.896226250000000,0,0xB0,0x12
1.896244250000000,0,0x7F,0x12
1.896262458333333,0,0xFF,0x18
1.898214041666667,0,0xB0,0x12
1.898232083333333,0,0xFF,0x02
1.898250291666667,0,0xFF,0x08
1.900201791666667,0,0xB0,0x12
1.900219833333333,0,0xFF,0x02
1.900238041666667,0,0xFF,0x08
1.902189500000000,0,0xF0,0x02
1.902207541666667,0,0xFF,0x12
1.902225708333333,0,0xFF,0x18
1.904177458333333,0,0xB0,0x12
1.904195500000000,0,0xFF,0x12
1.904213708333333,0,0xFF,0x18
1.906165250000000,0,0xB0,0x12
1.906183291666667,0,0xFF,0x1A
1.906201500000000,0,0xFF,0x18
1.908152666666667,0,0xF0,0x12
1.908170708333333,0,0xFF,0x13
1.908188916666667,0,0xFF,0x18
1.910140333333333,0,0xF0,0x12
1.910158333333333,0,0x7F,0x12
1.910176541666667,0,0xFF,0x18
1.910201375000000,0,0x83,0x13
1.910219375000000,0,0xFF,0x00
1.910237583333333,0,0xFF,0x9C
1.910258166666667,0,0x03,0x02
1.910276166666667,0,0x80,0x12
1.910294250000000,0,0x1E,0x10
1.911124041666667,0,0x07,0x01
1.911142083333333,0,0x00,0x01
1.911160166666667,0,0x1E,0x01
1.911180750000000,0,0x34,0x81
1.911198791666667,0,0x80,0x01
1.911216875000000,0,0x80,0x01
1.911237125000000,0,0xC7,0x01
1.911255166666667,0,0xFF,0x00
1.911273375000000,0,0xFF,0x1F
1.911294250000000,0,0x03,0x01
1.911312250000000,0,0x80,0x01
1.911330333333333,0,0x9E,0x01
1.912128041666667,0,0xF0,0x12
1.912146041666667,0,0x7F,0x12
1.912164250000000,0,0xFF,0x1C
1.914115708333333,0,0xF0,0x02
1.914133750000000,0,0xFF,0x12
1.914151958333333,0,0xFF,0x1C
1.916103458333333,0,0xF0,0x12
1.916121458333333,0,0x7F,0x12
1.916139666666667,0,0xFF,0x1C
1.918091125000000,0,0xB0,0x12
1.918109166666667,0,0xFF,0x13
1.918127375000000,0,0xFF,0x1C
1.920078750000000,0,0xB0,0x12
1.920096791666667,0,0xFF,0x12
1.920115000000000,0,0xFF,0x1C
1.922066625000000,0,0xF0,0x12
1.922084625000000,0,0x7F,0x12
1.922102875000000,0,0xFF,0x1C
1.924054833333333,0,0xF0,0x02
1.924072875000000,0,0xFF,0x13
1.924091083333333,0,0xFF,0x1C
1.926042583333333,0,0xF0,0x12
1.926060625000000,0,0xFF,0x13
1.926078833333333,0,0xFF,0x1C
1.928030375000000,0,0xF0,0x02
1.928048416666667,0,0xFF,0x13
1.928066625000000,0,0xFF,0x1C
1.930018166666667,0,0xF0,0x12
1.930036166666667,0,0x7F,0x12
1.930054375000000,0,0xFF,0x1C
1.932005625000000,0,0x98,0x10
1.932023666666667,0,0xFF,0x12
1.932041875000000,0,0xFF,0x1C
1.933993333333333,0,0xF0,0x12
1.934011375000000,0,0xFF,0x13
1.934029583333333,0,0xFF,0x1C
1.935980916666667,0,0xB0,0x12
1.935998958333333,0,0xFF,0x13
1.936017166666667,0,0xFF,0x1C
1.937968625000000,0,0xB0,0x10
1.937986666666667,0,0xFF,0x12
1.938004875000000,0,0xFF,0x0C
1.939956458333333,0,0xB0,0x12
1.939974500000000,0,0xFF,0x13
1.939992708333333,0,0xFF,0x1C
1.941944291666667,0,0x98,0x1A
1.941962333333333,0,0xFF,0x12
1.941980541666667,0,0xFF,0x1E
1.942005375000000,0,0x83,0x12
1.942023375000000,0,0xFF,0x00
1.942041583333333,0,0xFF,0x9E
1.942062166666667,0,0x03,0x02
1.942080166666667,0,0x80,0x12
1.942098250000000,0,0x66,0x12
1.942928125000000,0,0x07,0x01
1.942946166666667,0,0x00,0x01
1.942964250000000,0,0x06,0x01
1.942984833333333,0,0x34,0x81
1.943002875000000,0,0x80,0x01
1.943020958333333,0,0x80,0x01
1.943041208333333,0,0xC7,0x01
1.943059250000000,0,0xFF,0x00
1.943077458333333,0,0xFF,0x47
1.943098333333333,0,0x03,0x01
1.943116333333333,0,0x80,0x01
1.943134416666667,0,0xC6,0x01
1.943932333333333,0,0xF0,0x12
1.943950375000000,0,0xFF,0x13
1.943968583333333,0,0xFF,0x0C
1.945919916666667,0,0xF0,0x12
1.945937958333333,0,0xFF,0x13
1.945956166666667,0,0xFF,0x0C
1.947907708333333,0,0xB0,0x12
1.947925708333333,0,0x7F,0x12
1.947943916666667,0,0xFF,0x0C
1.949895500000000,0,0xB0,0x12
1.949913541666667,0,0xFF,0x12
1.949931750000000,0,0xFF,0x04
1.951883166666667,0,0xB0,0x12
1.951901208333333,0,0xFF,0x10
1.951919416666667,0,0xFF,0x0E
1.953870833333333,0,0xB0,0x12
1.953888875000000,0,0xFF,0x12
1.953907083333333,0,0xFF,0x0C
1.955858583333333,0,0xB8,0x10
1.955876625000000,0,0xFF,0x02
1.955894833333333,0,0xFF,0x0C
1.957846333333333,0,0x98,0x1A
1.957864375000000,0,0xFF,0x12
1.957882583333333,0,0xFF,0x0C
1.959834083333333,0,0xF0,0x02
1.959852083333333,0,0x7F,0x12
1.959870291666667,0,0xFF,0x0C
1.961821875000000,0,0x98,0x1A
1.961839916666667,0,0xFF,0x12
1.961858125000000,0,0xFF,0x0C
1.963809833333333,0,0xF0,0x12
1.963827875000000,0,0xFF,0x12
1.963846083333333,0,0xFF,0x0C
1.965797375000000,0,0xB0,0x13
1.965815375000000,0,0x7F,0x12
1.965833583333333,0,0xFF,0x0C
1.967785000000000,0,0xF0,0x12
1.967803041666667,0,0xFF,0x13
1.967821250000000,0,0xFF,0x0C
1.969772666666667,0,0xF0,0x12
1.969790666666667,0,0x7F,0x12
1.969808875000000,0,0xFF,0x0C
1.971760125000000,0,0xB0,0x13
1.971778125000000,0,0x7F,0x1A
1.971796333333333,0,0xFF,0x0C
1.973747750000000,0,0xF0,0x02
1.973765750000000,0,0x7F,0x12
1.973784000000000,0,0xFF,0x0C
1.973808791666667,0,0xC7,0x02
1.973826833333333,0,0xFF,0x00
1.973845000000000,0,0xFF,0x46
1.973865583333333,0,0x07,0x02
1.973883625000000,0,0x00,0x12
1.973901666666667,0,0x00,0x1A
1.974731458333333,0,0x07,0x01
1.974749500000000,0,0x00,0x01
1.974767541666667,0,0x00,0x81
1.974788166666667,0,0x36,0x01
1.974806208333333,0,0xC0,0x01
1.974824250000000,0,0x00,0x81
1.974844500000000,0,0x07,0x01
1.974862541666667,0,0xFF,0x00
1.974880750000000,0,0xFF,0x00
1.974901625000000,0,0x07,0x01
1.974919666666667,0,0x00,0x00
1.974937708333333,0,0x00,0x01
1.975735416666667,0,0xB0,0x12
1.975753458333333,0,0xFF,0x13
1.975771666666667,0,0xFF,0x00
1.977723208333333,0,0xB0,0x12
1.977741250000000,0,0xFF,0x13
1.977759458333333,0,0xFF,0x00
1.979710916666667,0,0xF0,0x02
1.979728916666667,0,0x7F,0x12
1.979747125000000,0,0xFF,0x00
1.981698375000000,0,0xB0,0x12
1.981716416666667,0,0xFF,0x12
1.981734625000000,0,0xFF,0x00
1.983686041666667,0,0xB0,0x12
1.983704083333333,0,0xFF,0x02
1.983722291666667,0,0xFF,0x00
1.985673708333333,0,0xB0,0x12
1.985691750000000,0,0xFF,0x10
1.985709958333333,0,0xFF,0x00
1.987661458333333,0,0xB0,0x13
1.987679458333333,0,0x7F,0x1A
1.987697666666667,0,0xFF,0x00
1.989649250000000,0,0xB0,0x13
1.989667250000000,0,0x7F,0x1A
1.989685458333333,0,0xFF,0x00
1.991637041666667,0,0xB0,0x12
1.991655083333333,0,0xFF,0x10
1.991673291666667,0,0xFF,0x00
1.993624833333333,0,0xB0,0x12
1.993642875000000,0,0xFF,0x10
1.993661083333333,0,0xFF,0x00
1.995612583333333,0,0xB0,0x12
1.995630625000000,0,0xFF,0x13
1.995648833333333,0,0xFF,0x00
1.997600250000000,0,0xB8,0x10
1.997618291666667,0,0xFF,0x02
1.997636500000000,0,0xFF,0x00
1.999587958333333,0,0xB0,0x12
1.999606000000000,0,0xFF,0x12
1.999624208333333,0,0xFF,0x00
2.001575750000000,0,0xF0,0x12
2.001593791666667,0,0xFF,0x12
2.001612000000000,0,0xFF,0x00
2.003563708333334,0,0xF0,0x02
2.003581750000000,0,0xFF,0x12
2.003599958333333,0,0xFF,0x00
2.005551458333333,0,0xF0,0x02
2.005569458333333,0,0x7F,0x12
2.005587666666667,0,0xFF,0x00
2.005612500000000,0,0xC7,0x02
2.005630541666667,0,0xFF,0x00
2.005648750000000,0,0xFF,0x80
2.005669291666667,0,0x07,0x12
2.005687333333333,0,0x00,0x12
2.005705375000000,0,0x28,0x12
2.006535208333333,0,0x07,0x01
2.006553250000000,0,0x00,0x01
2.006571291666666,0,0x28,0x81
2.006591916666667,0,0x34,0x01
2.006609958333333,0,0x80,0x00
2.006628000000000,0,0x00,0x81
2.006648250000000,0,0x07,0x01
2.006666291666667,0,0xFF,0x00
2.006684500000000,0,0xFF,0x28
2.006705375000000,0,0x07,0x01
2.006723416666667,0,0x00,0x01
2.006741500000000,0,0xAC,0x00
2.007539208333333,0,0xB0,0x12
2.007557208333334,0,0x7F,0x12
2.007575416666667,0,0xFF,0x10
2.009526666666666,0,0x98,0x10
2.009544708333333,0,0xFF,0x02
2.009562916666667,0,0xFF,0x00
2.011514416666667,0,0xF0,0x12
2.011532458333333,0,0xFF,0x12
2.011550666666666,0,0xFF,0x10
2.013502208333333,0,0xF0,0x02
2.013520208333333,0,0x7F,0x13
2.013538458333333,0,0xFF,0x10
2.015489916666667,0,0xB0,0x12
2.015507958333334,0,0xFF,0x12
2.015526166666667,0,0xFF,0x10
2.017477541666667,0,0x98,0x1A
2.017495583333333,0,0xFF,0x12
2.017513791666667,0,0xFF,0x10
2.019465333333333,0,0x98,0x1A
2.019483375000000,0,0xFF,0x12
2.019501583333333,0,0xFF,0x10
2.021453250000000,0,0xB0,0x13
2.021471250000000,0,0x7F,0x1A
2.021489458333333,0,0xFF,0x18
2.023441125000000,0,0x98,0x10
2.023459166666667,0,0xFF,0x12
2.023477375000000,0,0xFF,0x10
2.025429041666666,0,0xF0,0x02
2.025447083333333,0,0xFF,0x12
2.025465250000000,0,0xFF,0x10
2.027416875000000,0,0xF0,0x02
2.027434916666667,0,0xFF,0x13
2.027453125000000,0,0xFF,0x10
2.029404708333333,0,0xB0,0x12
2.029422708333333,0,0xFF,0x10
2.029440916666667,0,0xFF,0x18
2.031392458333333,0,0xB0,0x12
2.031410500000000,0,0xFF,0x10
2.031428708333333,0,0xFF,0x10
2.033380208333333,0,0xB0,0x12
2.033398250000000,0,0xFF,0x13
2.033416458333333,0,0xFF,0x10
2.035367958333334,0,0xB0,0x12
2.035386000000000,0,0x7F,0x1A
2.035404208333333,0,0xFF,0x10
2.037355791666667,0,0xB0,0x12
2.037373791666667,0,0x7F,0x12
2.037392000000000,0,0xFF,0x10
2.037416833333333,0,0xC7,0x02
2.037434833333333,0,0xFF,0x00
2.037453083333333,0,0xFF,0xA8
2.037473625000000,0,0x07,0x12
2.037491666666666,0,0x00,0x02
2.037509750000000,0,0x0B,0x12
2.038339625000000,0,0x07,0x01
2.038357666666667,0,0x00,0x00
2.038375708333333,0,0x0B,0x81
2.038396333333333,0,0x36,0x01
2.038414375000000,0,0xC0,0x01
2.038432458333333,0,0x80,0x00
2.038452666666667,0,0x07,0x01
2.038470708333334,0,0xFF,0x00
2.038488916666667,0,0xFF,0x02
2.038509791666667,0,0x07,0x01
2.038527833333333,0,0x00,0x01
2.038545916666667,0,0xCE,0x01
2.039343666666667,0,0xF0,0x02
2.039361708333333,0,0xFF,0x13
2.039379916666667,0,0xFF,0x14
2.041331416666667,0,0xB0,0x13
2.041349416666667,0,0x7F,0x12
2.041367625000000,0,0xFF,0x14
2.043319125000000,0,0xB0,0x12
2.043337166666667,0,0xFF,0x1A
2.043355375000000,0,0xFF,0x14
2.045306916666667,0,0xF0,0x12
2.045324916666666,0,0x7F,0x12
2.045343125000000,0,0xFF,0x14
2.047294625000000,0,0xB0,0x12
2.047312666666667,0,0xFF,0x12
2.047330875000000,0,0xFF,0x1C
2.049282458333333,0,0x98,0x10
2.049300500000000,0,0xFF,0x12
2.049318708333333,0,0xFF,0x14
2.051270458333333,0,0x98,0x1A
2.051288500000000,0,0xFF,0x12
2.051306708333333,0,0xFF,0x14
2.053258375000000,0,0xF0,0x12
2.053276375000000,0,0x7F,0x13
2.053294625000000,0,0xFF,0x14
2.055246375000000,0,0x98,0x10
2.055264416666667,0,0xFF,0x12
2.055282625000000,0,0xFF,0x14
2.057234333333333,0,0xB0,0x12
2.057252375000000,0,0xFF,0x12
2.057270583333333,0,0xFF,0x00
2.059222208333333,0,0xB0,0x12
2.059240250000000,0,0xFF,0x02
2.059258458333333,0,0xFF,0x04
2.061210041666667,0,0xF0,0x02
2.061228041666667,0,0x7F,0x12
2.061246250000000,0,0xFF,0x14
2.063197833333333,0,0xF0,0x12
2.063215875000000,0,0xFF,0x12
2.063234083333333,0,0xFF,0x10
2.065185750000000,0,0xB0,0x12
2.065203791666667,0,0xFF,0x1A
2.065222000000000,0,0xFF,0x14
2.067173666666667,0,0xB0,0x12
2.067191708333334,0,0xFF,0x10
2.067209916666667,0,0xFF,0x16
2.069161583333333,0,0x98,0x10
2.069179625000000,0,0xFF,0x12
2.069197833333333,0,0xFF,0x14
2.069222625000000,0,0x87,0x12
2.069240666666667,0,0xFF,0x00
2.069258875000000,0,0xFF,0x82
2.069279458333333,0,0x03,0x12
2.069297458333333,0,0x80,0x12
2.069315541666667,0,0x1A,0x1A
2.070145458333333,0,0x03,0x00
2.070163458333333,0,0x00,0x01
2.070181541666666,0,0x18,0x01
2.070202166666667,0,0x30,0x01
2.070220166666667,0,0x00,0x81
2.070238250000000,0,0x00,0x01
2.070258500000000,0,0x07,0x01
2.070276541666667,0,0xFF,0x00
2.070294750000000,0,0xFF,0x32
2.070315625000000,0,0x07,0x01
2.070333666666667,0,0x00,0x01
2.070351750000000,0,0xF2,0x01
2.071149708333333,0,0xF0,0x02
2.071167750000000,0,0xFF,0x13
2.071185958333333,0,0xFF,0x00
2.073137583333333,0,0xF0,0x02
2.073155625000000,0,0xFF,0x13
2.073173833333333,0,0xFF,0x00
2.075125500000000,0,0xB0,0x12
2.075143541666667,0,0xFF,0x13
2.075161750000000,0,0xFF,0x00
2.077113291666667,0,0x98,0x1A
2.077131333333333,0,0xFF,0x12
2.077149541666667,0,0xFF,0x04
2.079101250000000,0,0xF0,0x12
2.079119291666667,0,0xFF,0x12
2.079137500000000,0,0xFF,0x00
2.081089125000000,0,0xB0,0x12
2.081107166666667,0,0xFF,0x12
2.081125375000000,0,0xFF,0x00
2.083076875000000,0,0x98,0x10
2.083094916666667,0,0xFF,0x12
2.083113125000000,0,0xFF,0x04
2.085064791666666,0,0xB0,0x12
2.085082833333333,0,0xFF,0x1A
2.085101041666667,0,0xFF,0x04
2.087052583333334,0,0x90,0x12
2.087070625000000,0,0xFF,0x12
2.087088833333334,0,0xFF,0x04
2.089040250000000,0,0xB0,0x12
2.089058291666666,0,0xFF,0x10
2.089076500000000,0,0xFF,0x06
2.091027916666667,0,0xB0,0x12
2.091045958333333,0,0xFF,0x02
2.091064166666667,0,0xFF,0x00
2.093015666666667,0,0xF0,0x02
2.093033666666666,0,0x7F,0x12
2.093051916666667,0,0xFF,0x04
2.095003416666667,0,0xF0,0x12
2.095021416666667,0,0x7F,0x12
2.095039625000000,0,0xFF,0x04
2.096991208333333,0,0xF0,0x12
2.097009250000000,0,0xFF,0x12
2.097027458333333,0,0xFF,0x00
2.098978958333333,0,0xF0,0x02
2.098996958333333,0,0x7F,0x12
2.099015208333333,0,0xFF,0x04
2.100966791666667,0,0x98,0x1A
2.100984833333333,0,0xFF,0x12
2.101003041666667,0,0xFF,0x04
2.101027833333333,0,0x87,0x12
2.101045875000000,0,0xFF,0x00
2.101064083333333,0,0xFF,0x9A
2.101084666666666,0,0x03,0x02
2.101102666666667,0,0x80,0x12
2.101120750000000,0,0x1C,0x1A
2.101950625000000,0,0x03,0x01
2.101968625000000,0,0x00,0x01
2.101986708333333,0,0x16,0x01
2.102007333333333,0,0x30,0x00
2.102025333333333,0,0x00,0x01
2.102043416666667,0,0x80,0x01
2.102063666666667,0,0x87,0x01
2.102081708333333,0,0xFF,0x00
2.102099916666667,0,0xFF,0x14
2.102120791666667,0,0x07,0x01
2.102138833333334,0,0x00,0x01
2.102156916666666,0,0x80,0x01
2.102954666666667,0,0xF0,0x02
2.102972708333333,0,0xFF,0x13
2.102990916666667,0,0xFF,0x08
2.104942541666667,0,0xB0,0x12
2.104960583333333,0,0xFF,0x12
2.104978791666666,0,0xFF,0x0C
2.106930291666667,0,0x98,0x10
2.106948333333333,0,0xFF,0x02
2.106966541666667,0,0xFF,0x0C
2.108918000000000,0,0x98,0x10
2.108936041666666,0,0xFF,0x12
2.108954250000000,0,0xFF,0x08
2.110905708333333,0,0xB0,0x12
2.110923750000000,0,0xFF,0x10
2.110941958333334,0,0xFF,0x08
2.112893666666666,0,0xB0,0x12
2.112911708333333,0,0xFF,0x02
2.112929916666667,0,0xFF,0x08
2.114881500000000,0,0x98,0x10
2.114899541666666,0,0xFF,0x12
2.114917750000000,0,0xFF,0x08
2.116869250000000,0,0xB0,0x12
2.116887291666667,0,0xFF,0x10
2.116905500000000,0,0xFF,0x00
2.118856958333333,0,0xB0,0x12
2.118875000000000,0,0xFF,0x12
2.118893208333333,0,0xFF,0x08
2.120844708333333,0,0xB0,0x13
2.120862708333333,0,0x7F,0x1A
2.120880916666667,0,0xFF,0x08
2.122832750000000,0,0x98,0x1A
2.122850791666667,0,0xFF,0x12
2.122869000000000,0,0xFF,0x08
2.124820625000000,0,0xF0,0x12
2.124838666666667,0,0xFF,0x13
2.124856875000000,0,0xFF,0x08
2.126808208333333,0,0xF0,0x12
2.126826208333333,0,0x7F,0x12
2.126844416666667,0,0xFF,0x08
2.128795958333333,0,0x98,0x10
2.128814000000000,0,0xFF,0x12
2.128832208333333,0,0xFF,0x08
2.130783666666667,0,0xF0,0x12
2.130801666666667,0,0x7F,0x12
2.130819875000000,0,0xFF,0x08
2.132771541666667,0,0x98,0x10
2.132789583333333,0,0xFF,0x02
2.132807791666667,0,0xFF,0x08
2.132832583333333,0,0x87,0x10
2.132850625000000,0,0xFF,0x00
2.132868833333333,0,0xFF,0x94
2.132889375000000,0,0x87,0x12
2.132907416666667,0,0x00,0x10
2.132925500000000,0,0x3C,0x12
2.133755375000000,0,0x03,0x01
2.133773375000000,0,0x80,0x01
2.133791458333334,0,0x1C,0x01
2.133812083333333,0,0x34,0x01
2.133830125000000,0,0x80,0x00
2.133848166666667,0,0x00,0x01
2.133868416666667,0,0x07,0x01
2.133886458333333,0,0xFF,0x00
2.133904666666667,0,0xFF,0x3C
2.133925541666667,0,0x07,0x01
2.133943583333333,0,0x00,0x01
2.133961666666667,0,0xBC,0x00
2.134759583333333,0,0x30,0x12
2.134777625000000,0,0xFF,0x10
2.134795833333333,0,0xFF,0x18
2.136747333333334,0,0xB0,0x12
2.136765375000000,0,0xFF,0x10
2.136783583333334,0,0xFF,0x18
2.138735291666667,0,0xB0,0x12
2.138753333333333,0,0xFF,0x02
2.138771541666667,0,0xFF,0x08
2.140723125000000,0,0xB0,0x12
2.140741166666666,0,0xFF,0x02
2.140759375000000,0,0xFF,0x08
2.142710875000000,0,0xB0,0x12
2.142728916666667,0,0xFF,0x12
2.142747125000000,0,0xFF,0x18
2.144698708333333,0,0xF0,0x12
2.144716750000000,0,0xFF,0x13
2.144734958333333,0,0xFF,0x18
2.146686625000000,0,0xF0,0x02
2.146704666666666,0,0xFF,0x12
2.146722875000000,0,0xFF,0x18
2.148674416666667,0,0xB0,0x12
2.148692416666667,0,0xFF,0x10
2.148710625000000,0,0xFF,0x18
2.150662166666667,0,0xB0,0x12
2.150680208333333,0,0xFF,0x12
2.150698416666667,0,0xFF,0x18
2.152650083333334,0,0xB0,0x13
2.152668083333333,0,0x7F,0x12
2.152686291666666,0,0xFF,0x18
2.154637916666667,0,0xF0,0x12
2.154655958333333,0,0xFF,0x13
2.154674166666667,0,0xFF,0x18
2.156625791666666,0,0xB0,0x13
2.156643791666667,0,0x7F,0x1A
2.156662000000000,0,0xFF,0x18
2.158613583333334,0,0xB0,0x12
2.158631625000000,0,0xFF,0x02
2.158649833333333,0,0xFF,0x18
2.160601458333333,0,0xB0,0x12
2.160619458333333,0,0x7F,0x12
2.160637666666667,0,0xFF,0x18
2.162589250000000,0,0x98,0x1A
2.162607291666667,0,0xFF,0x12
2.162625500000000,0,0xFF,0x18
2.164577125000000,0,0x98,0x10
2.164595166666667,0,0xFF,0x02
2.164613375000000,0,0xFF,0x08
2.164638166666667,0,0x87,0x1A
2.164656208333333,0,0xFF,0x00
2.164674416666667,0,0xFF,0xBC
2.164695000000000,0,0x03,0x13
2.164713000000000,0,0x80,0x1A
2.164731083333333,0,0x1E,0x12
2.165560958333333,0,0x03,0x01
2.165578958333333,0,0x80,0x01
2.165597041666667,0,0x1E,0x01
2.165617666666667,0,0x30,0x01
2.165635666666667,0,0x00,0x01
2.165653750000000,0,0x80,0x01
2.165674000000000,0,0x87,0x01
2.165692041666667,0,0xFF,0x00
2.165710250000000,0,0xFF,0x0E
2.165731125000000,0,0x03,0x01
2.165749125000000,0,0x80,0x81
2.165767208333333,0,0x1E,0x01
2.166564916666667,0,0xB0,0x12
2.166582958333333,0,0xFF,0x02
2.166601166666667,0,0xFF,0x0C
2.168552791666666,0,0xF0,0x12
2.168570833333333,0,0xFF,0x13
2.168589041666667,0,0xFF,0x1C
2.170540583333334,0,0xB0,0x13
2.170558583333333,0,0x7F,0x12
2.170576791666667,0,0xFF,0x1C
2.172528375000000,0,0xB0,0x12
2.172546416666667,0,0xFF,0x12
2.172564625000000,0,0xFF,0x1C
2.174516083333333,0,0xF0,0x02
2.174534125000000,0,0xFF,0x13
2.174552333333333,0,0xFF,0x1C
2.176503916666667,0,0xF0,0x12
2.176521958333333,0,0xFF,0x12
2.176540166666667,0,0xFF,0x1C
2.178491625000000,0,0xB0,0x12
2.178509666666667,0,0xFF,0x10
2.178527875000000,0,0xFF,0x1E
2.180479333333333,0,0x98,0x10
2.180497375000000,0,0xFF,0x02
2.180515583333333,0,0xFF,0x1C
2.182467083333334,0,0xB0,0x13
2.182485083333333,0,0x7F,0x12
2.182503291666666,0,0xFF,0x1C
2.184454833333333,0,0xF0,0x12
2.184472875000000,0,0xFF,0x12
2.184491083333334,0,0xFF,0x1C
2.186442666666667,0,0xB0,0x12
2.186460708333333,0,0xFF,0x12
2.186478916666667,0,0xFF,0x1C
2.188430333333333,0,0xF0,0x12
2.188448333333334,0,0x7F,0x12
2.188466583333333,0,0xFF,0x1C
2.190417875000000,0,0xF0,0x12
2.190435875000000,0,0x7F,0x1A
2.190454083333333,0,0xFF,0x1C
2.192405375000000,0,0xB0,0x12
2.192423416666667,0,0xFF,0x12
2.192441625000000,0,0xFF,0x1C
2.194392833333333,0,0xF0,0x02
2.194410875000000,0,0xFF,0x12
2.194429083333334,0,0xFF,0x1C
2.196380416666667,0,0xF0,0x12
2.196398458333333,0,0xFF,0x12
2.196416666666666,0,0xFF,0x1C
2.196441458333333,0,0xC7,0x12
2.196459500000000,0,0xFF,0x00
2.196477708333333,0,0xFF,0x9E
2.196498250000000,0,0x07,0x12
2.196516291666667,0,0x00,0x13
2.196534333333333,0,0x46,0x12
2.197364083333333,0,0x07,0x01
2.197382125000000,0,0x00,0x01
2.197400208333333,0,0x06,0x01
2.197420791666667,0,0x14,0x01
2.197438833333333,0,0x80,0x01
2.197456916666667,0,0xC0,0x01
2.197477166666667,0,0x83,0x00
2.197495166666667,0,0xFF,0x00
2.197513375000000,0,0xFF,0x46
2.197534250000000,0,0x07,0x01
2.197552291666667,0,0x00,0x01
2.197570375000000,0,0xC3,0x00
2.198368208333333,0,0xB0,0x12
2.198386250000000,0,0xFF,0x12
2.198404458333334,0,0xFF,0x0C
2.200355666666667,0,0xF0,0x12
2.200373708333333,0,0xFF,0x12
2.200391916666667,0,0xFF,0x0C
2.202343250000000,0,0xF0,0x12
2.202361291666667,0,0xFF,0x13
2.202379500000000,0,0xFF,0x0C
2.204331000000000,0,0x98,0x10
2.204349041666667,0,0xFF,0x02
2.204367250000000,0,0xFF,0x0C
2.206318791666666,0,0xF0,0x12
2.206336833333333,0,0xFF,0x12
2.206355041666667,0,0xFF,0x0C
2.208306583333334,0,0xB0,0x13
2.208324583333333,0,0x7F,0x12
2.208342791666666,0,0xFF,0x0C
2.210294291666667,0,0xB0,0x12
2.210312333333333,0,0xFF,0x02
2.210330541666667,0,0xFF,0x0C
2.212282000000000,0,0xB0,0x13
2.212300000000000,0,0x7F,0x12
2.212318208333333,0,0xFF,0x04
2.214269708333333,0,0x98,0x1A
2.214287750000000,0,0xFF,0x12
2.214305958333334,0,0xFF,0x0C
2.216257375000000,0,0xF0,0x02
2.216275375000000,0,0x7F,0x12
2.216293583333333,0,0xFF,0x0C
2.218245083333333,0,0xB0,0x12
2.218263125000000,0,0xFF,0x10
2.218281333333334,0,0xFF,0x04
2.220232791666667,0,0x90,0x12
2.220250833333334,0,0xFF,0x10
2.220269041666667,0,0xFF,0x0E
2.222220416666667,0,0x90,0x12
2.222238458333333,0,0xFF,0x12
2.222256666666667,0,0xFF,0x0C
2.224208166666667,0,0xB0,0x13
2.224226166666667,0,0x7F,0x1A
2.224244375000000,0,0xFF,0x0C
2.226195916666667,0,0xF0,0x02
2.226213916666667,0,0x7F,0x12
2.226232125000000,0,0xFF,0x0C
2.228183583333333,0,0xF0,0x02
2.228201625000000,0,0xFF,0x12
2.228219833333333,0,0xFF,0x0C
2.228244625000000,0,0x87,0x12
2.228262666666667,0,0xFF,0x00
2.228280875000000,0,0xFF,0xC6
2.228301416666667,0,0x07,0x1A
2.228319458333333,0,0x00,0x12
2.228337541666667,0,0x00,0x12
2.229167333333333,0,0x07,0x01
2.229185333333333,0,0x80,0x81
2.229203416666667,0,0x00,0x01
2.229224041666667,0,0x30,0x00
2.229242041666667,0,0x00,0x01
2.229260125000000,0,0x80,0x01
2.229280375000000,0,0xC3,0x01
2.229298375000000,0,0xFF,0x00
2.229316583333333,0,0xFF,0x00
2.229337458333333,0,0x87,0x01
2.229355500000000,0,0x00,0x01
2.229373583333333,0,0xC0,0x01
2.230171250000000,0,0xF0,0x12
2.230189250000000,0,0x7F,0x12
2.230207458333333,0,0xFF,0x00
2.232158833333334,0,0x98,0x1A
2.232176875000000,0,0xFF,0x12
2.232195083333333,0,0xFF,0x00
2.234146333333333,0,0xF0,0x02
2.234164333333333,0,0x7F,0x12
2.234182541666667,0,0xFF,0x00
2.236133958333333,0,0xB0,0x13
2.236151958333333,0,0xFF,0x1A
2.236170166666667,0,0xFF,0x00
2.238121541666667,0,0x90,0x12
2.238139583333334,0,0xFF,0x12
2.238157791666667,0,0xFF,0x00
2.240109250000000,0,0x98,0x1A
2.240127291666667,0,0xFF,0x12
2.240145500000000,0,0xFF,0x00
2.242096875000000,0,0xF0,0x02
2.242114875000000,0,0x7F,0x12
2.242133083333333,0,0xFF,0x00
2.244084375000000,0,0xF0,0x12
2.244102416666667,0,0xFF,0x13
2.244120625000000,0,0xFF,0x00
2.246071916666667,0,0xF0,0x12
2.246089916666667,0,0x7F,0x12
2.246108125000000,0,0xFF,0x00
2.248059666666667,0,0x98,0x1A
2.248077708333333,0,0xFF,0x12
2.248095916666667,0,0xFF,0x00
2.250047416666667,0,0xB0,0x12
2.250065458333333,0,0xFF,0x12
2.250083666666667,0,0xFF,0x00
2.252035291666667,0,0x98,0x10
2.252053333333333,0,0xFF,0x12
2.252071541666667,0,0xFF,0x00
2.254023083333333,0,0x98,0x10
2.254041125000000,0,0xFF,0x02
2.254059333333333,0,0xFF,0x00
2.256010833333333,0,0x90,0x12
2.256028875000000,0,0xFF,0x10
2.256047083333333,0,0xFF,0x00
2.257998833333333,0,0x98,0x10
2.258016875000000,0,0xFF,0x12
2.258035083333333,0,0xFF,0x00
2.259986708333333,0,0xB0,0x12
2.260004750000000,0,0xFF,0x12
2.260022958333333,0,0xFF,0x00
2.260047750000000,0,0x87,0x12
2.260065791666667,0,0xFF,0x00
2.260084000000000,0,0xFF,0x80
2.260104541666667,0,0x87,0x12
2.260122583333333,0,0x00,0x10
2.260140666666667,0,0x28,0x12
2.260970458333333,0,0x07,0x01
2.260988500000000,0,0x00,0x01
2.261006583333333,0,0x38,0x01
2.261027166666667,0,0x1C,0x01
2.261045208333333,0,0x80,0x01
2.261063291666667,0,0x80,0x00
2.261083500000000,0,0x07,0x81
2.261101541666667,0,0xFF,0x00
2.261119750000000,0,0xFF,0x28
2.261140625000000,0,0x07,0x01
2.261158666666667,0,0x00,0x01
2.261176750000000,0,0xBC,0x00
2.261974500000000,0,0x18,0x1A
2.261992541666667,0,0xFF,0x12
2.262010750000000,0,0xFF,0x10
2.263962333333333,0,0xB0,0x12
2.263980333333333,0,0x7F,0x12
2.263998541666667,0,0xFF,0x10
2.265949958333333,0,0xF0,0x02
2.265967958333333,0,0x7F,0x12
2.265986166666667,0,0xFF,0x10
2.267937541666667,0,0xB0,0x13
2.267955541666667,0,0xFF,0x10
2.267973750000000,0,0xFF,0x10
2.269925208333333,0,0xF0,0x13
2.269943208333333,0,0x7F,0x12
2.269961416666667,0,0xFF,0x18
2.271912875000000,0,0x98,0x1A
2.271930916666667,0,0xFF,0x12
2.271949125000000,0,0xFF,0x10
2.273900666666667,0,0xB0,0x12
2.273918666666667,0,0xFF,0x10
2.273936875000000,0,0xFF,0x18
2.275888416666667,0,0xB0,0x13
2.275906416666666,0,0x7F,0x1A
2.275924625000000,0,0xFF,0x18
2.277876208333333,0,0xF0,0x02
2.277894208333333,0,0x7F,0x12
2.277912416666667,0,0xFF,0x10
2.279863875000000,0,0xB0,0x12
2.279881916666667,0,0xFF,0x02
2.279900125000000,0,0xFF,0x00
2.281851583333333,0,0xB0,0x12
2.281869625000000,0,0xFF,0x10
2.281887833333333,0,0xFF,0x18
2.283839375000000,0,0xF0,0x02
2.283857375000000,0,0x7F,0x12
2.283875583333333,0,0xFF,0x10
2.285827125000000,0,0xF0,0x02
2.285845166666667,0,0xFF,0x13
2.285863375000000,0,0xFF,0x10
2.287814833333333,0,0x98,0x1A
2.287832875000000,0,0xFF,0x12
2.287851083333333,0,0xFF,0x10
2.289802375000000,0,0x90,0x12
2.289820416666667,0,0xFF,0x02
2.289838625000000,0,0xFF,0x00
2.291789916666667,0,0x98,0x10
2.291807958333334,0,0xFF,0x02
2.291826166666667,0,0xFF,0x10
2.291850958333333,0,0x87,0x12
2.291869000000000,0,0xFF,0x00
2.291887208333333,0,0xFF,0xA8
2.291907750000000,0,0x07,0x12
2.291925750000000,0,0x80,0x12
2.291943833333333,0,0x00,0x10
2.292773541666667,0,0x07,0x01
2.292791541666667,0,0x00,0x01
2.292809625000000,0,0x0A,0x01
2.292830208333333,0,0x1C,0x01
2.292848250000000,0,0xC0,0x01
2.292866333333333,0,0x80,0x01
2.292886541666667,0,0x07,0x81
2.292904583333333,0,0xFF,0x00
2.292922791666667,0,0xFF,0x08
2.292943666666666,0,0x07,0x01
2.292961708333333,0,0x00,0x01
2.292979750000000,0,0x0B,0x81
2.293777375000000,0,0xF0,0x02
2.293795375000000,0,0x7F,0x12
2.293813583333333,0,0xFF,0x14
2.295764791666667,0,0xB0,0x12
2.295782833333333,0,0xFF,0x12
2.295801000000000,0,0xFF,0x14
2.297752208333333,0,0xB0,0x12
2.297770250000000,0,0xFF,0x12
2.297788458333333,0,0xFF,0x14
2.299739625000000,0,0xB0,0x12
2.299757666666667,0,0xFF,0x13
2.299775875000000,0,0xFF,0x14
2.301727000000000,0,0xB0,0x12
2.301745041666666,0,0xFF,0x12
2.301763250000000,0,0xFF,0x14
2.303714458333333,0,0xB0,0x12
2.303732500000000,0,0xFF,0x12
2.303750708333333,0,0xFF,0x14
2.305701958333333,0,0xF0,0x12
2.305719958333333,0,0x7F,0x12
2.305738166666667,0,0xFF,0x14
2.307689541666667,0,0xF0,0x02
2.307707541666667,0,0x7F,0x12
2.307725750000000,0,0xFF,0x14
2.309677041666667,0,0xB0,0x13
2.309695041666667,0,0x7F,0x12
2.309713250000000,0,0xFF,0x14
2.311664625000000,0,0x98,0x10
2.311682666666667,0,0xFF,0x12
2.311700875000000,0,0xFF,0x14
2.313652333333333,0,0xF0,0x12
2.313670333333333,0,0x7F,0x12
2.313688541666667,0,0xFF,0x14
2.315639875000000,0,0xF0,0x12
2.315657875000000,0,0x7F,0x12
2.315676083333333,0,0xFF,0x14
2.317627666666667,0,0x98,0x1A
2.317645708333333,0,0xFF,0x12
2.317663916666667,0,0xFF,0x14
2.319615333333333,0,0xF0,0x02
2.319633333333333,0,0x7F,0x12
2.319651541666667,0,0xFF,0x14
2.321602958333334,0,0xB0,0x10
2.321621000000000,0,0xFF,0x02
2.321639208333333,0,0xFF,0x00
2.323590625000000,0,0xB0,0x13
2.323608625000000,0,0xFF,0x18
2.323626833333333,0,0xFF,0x16
2.323651625000000,0,0x87,0x12
2.323669666666667,0,0xFF,0x00
2.323687875000000,0,0xFF,0x88
2.323708458333333,0,0x07,0x12
2.323726458333333,0,0x00,0x10
2.323744541666667,0,0x32,0x12
2.324574333333334,0,0x03,0x01
2.324592333333333,0,0x80,0x81
2.324610416666667,0,0x1A,0x01
2.324631041666667,0,0x30,0x01
2.324649041666667,0,0x00,0x81
2.324667125000000,0,0x00,0x01
2.324687375000000,0,0x87,0x01
2.324705416666667,0,0xFF,0x00
2.324723625000000,0,0xFF,0x32
2.324744500000000,0,0x07,0x01
2.324762500000000,0,0x80,0x81
2.324780583333333,0,0x18,0x01
2.325578250000000,0,0x30,0x12
2.325596291666667,0,0xFF,0x12
2.325614500000000,0,0xFF,0x04
2.327565916666666,0,0xB0,0x12
2.327583958333333,0,0xFF,0x12
2.327602166666667,0,0xFF,0x04
2.329553708333334,0,0xB0,0x13
2.329571708333333,0,0x7F,0x1A
2.329589916666666,0,0xFF,0x04
2.331541625000000,0,0xF0,0x12
2.331559666666667,0,0xFF,0x13
2.331577875000000,0,0xFF,0x00
2.333529583333333,0,0x98,0x1A
2.333547625000000,0,0xFF,0x12
2.333565833333333,0,0xFF,0x04
2.335517416666667,0,0x98,0x1A
2.335535458333333,0,0xFF,0x12
2.335553666666667,0,0xFF,0x04
2.337505333333334,0,0x90,0x12
2.337523375000000,0,0xFF,0x10
2.337541583333334,0,0xFF,0x04
2.339493250000000,0,0x98,0x1A
2.339511291666667,0,0xFF,0x12
2.339529500000000,0,0xFF,0x04
2.341481000000000,0,0x98,0x10
2.341499041666667,0,0xFF,0x12
2.341517250000000,0,0xFF,0x04
2.343468833333333,0,0xB0,0x12
2.343486833333333,0,0x7F,0x12
2.343505041666667,0,0xFF,0x04
2.345456666666667,0,0x98,0x10
2.345474708333333,0,0xFF,0x12
2.345492916666667,0,0xFF,0x04
2.347444625000000,0,0xB0,0x10
2.347462666666666,0,0xFF,0x02
2.347480875000000,0,0xFF,0x04
2.349432541666667,0,0xF0,0x02
2.349450583333333,0,0xFF,0x12
2.349468791666667,0,0xFF,0x04
2.351420416666667,0,0xB0,0x12
2.351438416666667,0,0xFF,0x1A
2.351456625000000,0,0xFF,0x04
2.353408250000000,0,0x98,0x10
2.353426291666667,0,0xFF,0x02
2.353444500000000,0,0xFF,0x04
2.355396041666667,0,0xB0,0x12
2.355414083333333,0,0xFF,0x12
2.355432291666667,0,0xFF,0x04
2.355457083333333,0,0x87,0x12
2.355475125000000,0,0xFF,0x00
2.355493333333333,0,0xFF,0xB2
2.355513875000000,0,0x87,0x12
2.355531916666667,0,0x00,0x12
2.355550000000000,0,0x00,0x12
2.356379750000000,0,0x07,0x01
2.356397791666667,0,0x00,0x01
2.356415833333333,0,0x14,0x81
2.356436458333333,0,0x36,0x01
2.356454500000000,0,0xC0,0x01
2.356472541666667,0,0x00,0x81
2.356492791666667,0,0x07,0x01
2.356510833333334,0,0xFF,0x00
2.356529041666667,0,0xFF,0x16
2.356549916666667,0,0x07,0x01
2.356567958333333,0,0x00,0x01
2.356586041666667,0,0xC4,0x01
2.357383708333333,0,0xB0,0x12
2.357401750000000,0,0xFF,0x02
2.357419958333333,0,0xFF,0x08
2.359371291666667,0,0x90,0x12
2.359389333333333,0,0xFF,0x12
2.359407541666667,0,0xFF,0x08
2.361359166666666,0,0xB0,0x12
2.361377208333333,0,0xFF,0x10
2.361395416666667,0,0xFF,0x08
2.363346458333333,0,0xB0,0x12
2.363364500000000,0,0xFF,0x12
2.363382708333333,0,0xFF,0x08
2.365334000000000,0,0xB0,0x12
2.365352000000000,0,0xFF,0x10
2.365370208333333,0,0xFF,0x08
2.367321416666667,0,0xF0,0x12
2.367339458333333,0,0xFF,0x12
2.367357666666666,0,0xFF,0x08
2.369309041666666,0,0x98,0x1A
2.369327083333333,0,0xFF,0x12
2.369345291666667,0,0xFF,0x08
2.371296708333333,0,0xB0,0x13
2.371314708333333,0,0x7F,0x1A
2.371332916666667,0,0xFF,0x00
2.373284375000000,0,0xB0,0x12
2.373302416666667,0,0xFF,0x12
2.373320625000000,0,0xFF,0x08
2.375271916666667,0,0xB0,0x12
2.375289958333333,0,0xFF,0x13
2.375308166666667,0,0xFF,0x08
2.377259375000000,0,0x90,0x12
2.377277416666667,0,0xFF,0x12
2.377295625000000,0,0xFF,0x08
2.379247041666666,0,0xF0,0x02
2.379265041666667,0,0x7F,0x12
2.379283250000000,0,0xFF,0x08
2.381234916666667,0,0xB0,0x12
2.381252958333334,0,0xFF,0x12
2.381271166666667,0,0xFF,0x0C
2.383222208333333,0,0xB0,0x12
2.383240250000000,0,0xFF,0x12
2.383258458333333,0,0xFF,0x08
2.385209875000000,0,0x98,0x10
2.385227916666667,0,0xFF,0x12
2.385246125000000,0,0xFF,0x08
2.387197625000000,0,0xF0,0x02
2.387215666666667,0,0xFF,0x13
2.387233875000000,0,0xFF,0x08
2.387258666666667,0,0x87,0x12
2.387276708333333,0,0xFF,0x00
2.387294916666667,0,0xFF,0x94
2.387315458333333,0,0x07,0x10
2.387333500000000,0,0x00,0x02
2.387351583333333,0,0x3C,0x12
2.388181375000000,0,0x07,0x01
2.388199416666667,0,0x00,0x01
2.388217500000000,0,0x3C,0x01
2.388238083333333,0,0x14,0x01
2.388256125000000,0,0x80,0x01
2.388274208333333,0,0xC0,0x01
2.388294458333333,0,0xC3,0x01
2.388312458333333,0,0xFF,0x80
2.388330708333333,0,0xFF,0x3C
2.388351583333333,0,0x03,0x00
2.388369583333333,0,0x00,0x01
2.388387666666667,0,0xBE,0x01
2.389185333333333,0,0x30,0x12
2.389203375000000,0,0xFF,0x10
2.389221583333333,0,0xFF,0x18
2.391173041666667,0,0xF0,0x12
2.391191041666667,0,0x7F,0x12
2.391209250000000,0,0xFF,0x18
2.393160458333333,0,0xB0,0x12
2.393178500000000,0,0xFF,0x13
2.393196708333333,0,0xFF,0x18
2.395147875000000,0,0xB0,0x12
2.395165916666667,0,0xFF,0x12
2.395184125000000,0,0xFF,0x18
2.397135458333334,0,0xF0,0x13
2.397153458333333,0,0x7F,0x1A
2.397171666666666,0,0xFF,0x18
2.399123083333333,0,0xB0,0x12
2.399141083333333,0,0x7F,0x12
2.399159291666667,0,0xFF,0x18
2.401111208333333,0,0x90,0x12
2.401129250000000,0,0xFF,0x12
2.401147458333333,0,0xFF,0x18
2.403099000000000,0,0x98,0x10
2.403117041666667,0,0xFF,0x12
2.403135250000000,0,0xFF,0x18
2.405086583333333,0,0xF0,0x12
2.405104625000000,0,0xFF,0x13
2.405122833333333,0,0xFF,0x18
2.407074208333333,0,0xB0,0x12
2.407092250000000,0,0xFF,0x12
2.407110458333333,0,0xFF,0x18
2.409061833333333,0,0xF0,0x12
2.409079875000000,0,0xFF,0x13
2.409098083333333,0,0xFF,0x18
2.411049375000000,0,0xB0,0x12
2.411067416666667,0,0xFF,0x12
2.411085625000000,0,0xFF,0x18
2.413037000000000,0,0xB0,0x12
2.413055041666667,0,0xFF,0x02
2.413073250000000,0,0xFF,0x08
2.415024708333333,0,0x98,0x10
2.415042750000000,0,0xFF,0x02
2.415060958333333,0,0xFF,0x08
2.417012458333333,0,0xF0,0x12
2.417030500000000,0,0xFF,0x13
2.417048708333333,0,0xFF,0x18
2.419000166666667,0,0xB0,0x12
2.419018208333333,0,0xFF,0x10
2.419036416666667,0,0xFF,0x18
2.419061208333333,0,0x87,0x12
2.419079250000000,0,0xFF,0x00
2.419097458333333,0,0xFF,0xBE
2.419118041666667,0,0x03,0x13
2.419136041666667,0,0x80,0x1A
2.419154125000000,0,0x1E,0x12
2.419983958333333,0,0x07,0x01
2.420002000000000,0,0x00,0x01
2.420020083333333,0,0x1F,0x00
2.420040666666667,0,0x3E,0x01
2.420058708333333,0,0xC0,0x01
2.420076791666667,0,0x80,0x01
2.420097000000000,0,0x07,0x01
2.420115041666667,0,0xFF,0x00
2.420133250000000,0,0xFF,0x1E
2.420154125000000,0,0x07,0x01
2.420172166666667,0,0x00,0x01
2.420190208333334,0,0x1F,0x81
2.420987916666667,0,0xF0,0x12
2.421005958333333,0,0xFF,0x13
2.421024166666667,0,0xFF,0x1C
2.422975625000000,0,0xF0,0x02
2.422993625000000,0,0x7F,0x12
2.423011833333333,0,0xFF,0x1C
2.424963416666666,0,0x98,0x1A
2.424981458333333,0,0xFF,0x12
2.424999666666667,0,0xFF,0x1C
2.426951125000000,0,0xF0,0x02
2.426969125000000,0,0x7F,0x12
2.426987333333333,0,0xFF,0x1C
2.428938708333333,0,0xB0,0x12
2.428956750000000,0,0xFF,0x12
2.428974958333333,0,0xFF,0x1C
2.430926375000000,0,0xB0,0x12
2.430944416666667,0,0xFF,0x1A
2.430962625000000,0,0xFF,0x1C
2.432914125000000,0,0xB0,0x12
2.432932166666667,0,0xFF,0x12
2.432950375000000,0,0xFF,0x1C
2.434901833333333,0,0x98,0x10
2.434919875000000,0,0xFF,0x02
2.434938083333333,0,0xFF,0x0C
2.436889541666666,0,0xB0,0x12
2.436907583333333,0,0xFF,0x12
2.436925791666666,0,0xFF,0x1C
2.438877125000000,0,0xF0,0x12
2.438895166666667,0,0xFF,0x12
2.438913375000000,0,0xFF,0x1C
2.440865125000000,0,0xF0,0x02
2.440883166666667,0,0xFF,0x12
2.440901333333333,0,0xFF,0x1C
2.442852500000000,0,0x98,0x10
2.442870541666667,0,0xFF,0x02
2.442888750000000,0,0xFF,0x0C
2.444840208333333,0,0xB0,0x12
2.444858250000000,0,0xFF,0x12
2.444876458333333,0,0xFF,0x1C
2.446827791666667,0,0xB0,0x12
2.446845833333333,0,0xFF,0x12
2.446864041666667,0,0xFF,0x1C
2.448815208333333,0,0x90,0x12
2.448833250000000,0,0xFF,0x12
2.448851458333333,0,0xFF,0x1C
2.450802708333333,0,0xF0,0x12
2.450820750000000,0,0xFF,0x12
2.450838958333333,0,0xFF,0x1C
2.450863750000000,0,0xC3,0x02
2.450881750000000,0,0xFF,0x00
2.450899958333333,0,0xFF,0x1E
2.450920541666667,0,0x03,0x02
2.450938541666666,0,0x80,0x12
2.450956625000000,0,0x46,0x12
2.451786375000000,0,0x07,0x01
2.451804375000000,0,0x80,0x81
2.451822458333333,0,0x66,0x01
2.451843083333333,0,0x30,0x01
2.451861083333333,0,0x00,0x01
2.451879166666667,0,0x80,0x01
2.451899416666667,0,0x87,0x01
2.451917458333333,0,0xFF,0x00
2.451935666666667,0,0xFF,0x46
2.451956541666667,0,0x03,0x01
2.451974541666667,0,0x80,0x01
2.451992625000000,0,0xE6,0x01
2.452790250000000,0,0x18,0x1A
2.452808291666666,0,0xFF,0x12
2.452826500000000,0,0xFF,0x0C
2.454777791666667,0,0x98,0x1A
2.454795833333333,0,0xFF,0x12
2.454814041666667,0,0xFF,0x0C
2.456765333333333,0,0xF0,0x12
2.456783375000000,0,0xFF,0x12
2.456801583333333,0,0xFF,0x0C
2.458752916666667,0,0x98,0x10
2.458770958333333,0,0xFF,0x02
2.458789166666667,0,0xFF,0x0C
2.460740541666667,0,0xF0,0x02
2.460758541666667,0,0x7F,0x12
2.460776750000000,0,0xFF,0x0C
2.462728083333333,0,0xF0,0x12
2.462746125000000,0,0xFF,0x12
2.462764333333333,0,0xFF,0x0C
2.464715666666667,0,0x98,0x10
2.464733708333333,0,0xFF,0x02
2.464751916666667,0,0xFF,0x0C
2.466703375000000,0,0xB0,0x12
2.466721416666667,0,0xFF,0x12
2.466739625000000,0,0xFF,0x0C
2.468690916666667,0,0x98,0x12
2.468708958333333,0,0xFF,0x12
2.468727166666667,0,0xFF,0x0C
2.470678541666667,0,0xB0,0x12
2.470696541666667,0,0xFF,0x10
2.470714750000000,0,0xFF,0x0E
2.472666041666667,0,0xB0,0x12
2.472684083333333,0,0xFF,0x10
2.472702291666667,0,0xFF,0x0E
2.474653833333333,0,0xB0,0x12
2.474671875000000,0,0xFF,0x12
2.474690083333333,0,0xFF,0x0C
2.476641666666667,0,0xB0,0x12
2.476659666666666,0,0xFF,0x10
2.476677875000000,0,0xFF,0x04
2.478629291666667,0,0x98,0x1A
2.478647333333333,0,0xFF,0x12
2.478665541666667,0,0xFF,0x0C
2.480617166666667,0,0x98,0x1A
2.480635208333333,0,0xFF,0x12
2.480653416666667,0,0xFF,0x0C
2.482604583333333,0,0xF0,0x02
2.482622625000000,0,0xFF,0x12
2.482640833333333,0,0xFF,0x0C
2.482665625000000,0,0xC7,0x12
2.482683666666667,0,0xFF,0x00
2.482701833333333,0,0xFF,0x46
2.482722416666667,0,0x07,0x12
2.482740458333333,0,0x00,0x12
2.482758500000000,0,0x00,0x1A
2.483588333333334,0,0x07,0x01
2.483606375000000,0,0x00,0x01
2.483624458333333,0,0x00,0x01
2.483645041666667,0,0x34,0x81
2.483663083333334,0,0x80,0x01
2.483681166666666,0,0xC0,0x01
2.483701416666667,0,0x83,0x01
2.483719416666667,0,0xFF,0x00
2.483737625000000,0,0xFF,0x00
2.483758500000000,0,0x87,0x01
2.483776541666667,0,0x00,0x01
2.483794625000000,0,0xC0,0x01
2.484592291666667,0,0xF0,0x12
2.484610291666667,0,0x7F,0x12
2.484628500000000,0,0xFF,0x00
2.486579875000000,0,0xF0,0x12
2.486597916666667,0,0xFF,0x13
2.486616125000000,0,0xFF,0x00
2.488567625000000,0,0xF0,0x12
2.488585666666667,0,0xFF,0x12
2.488603875000000,0,0xFF,0x00
2.490555375000000,0,0xF0,0x02
2.490573416666667,0,0xFF,0x12
2.490591625000000,0,0xFF,0x00
2.492543125000000,0,0x98,0x1A
2.492561166666666,0,0xFF,0x12
2.492579375000000,0,0xFF,0x00
2.494530833333333,0,0xB0,0x12
2.494548875000000,0,0xFF,0x12
2.494567083333334,0,0xFF,0x00
2.496518500000000,0,0xF0,0x02
2.496536500000000,0,0x7F,0x12
2.496554708333333,0,0xFF,0x00
2.498506083333333,0,0xB0,0x12
2.498524125000000,0,0xFF,0x10
2.498542333333333,0,0xFF,0x00
2.500493666666667,0,0xB0,0x13
2.500511666666667,0,0x7F,0x1A
2.500529875000000,0,0xFF,0x00
2.502481083333334,0,0xB0,0x12
2.502499125000000,0,0xFF,0x12
2.502517333333333,0,0xFF,0x00
2.504468416666667,0,0x98,0x1A
2.504486458333333,0,0xFF,0x02
2.504504666666667,0,0xFF,0x00
2.506455875000000,0,0x98,0x1A
2.506473916666667,0,0xFF,0x12
2.506492125000000,0,0xFF,0x00
2.508443458333333,0,0x98,0x10
2.508461500000000,0,0xFF,0x02
2.508479708333333,0,0xFF,0x00
2.510431000000000,0,0xB0,0x12
2.510449041666666,0,0xFF,0x12
2.510467250000000,0,0xFF,0x00
2.512418666666667,0,0xB0,0x12
2.512436708333333,0,0xFF,0x10
2.512454916666667,0,0xFF,0x00
2.514406333333334,0,0xF0,0x02
2.514424333333333,0,0x7F,0x12
2.514442541666666,0,0xFF,0x00
2.514467375000000,0,0xC7,0x02
2.514485375000000,0,0xFF,0x00
2.514503625000000,0,0xFF,0x80
2.514524166666666,0,0x07,0x12
2.514542208333333,0,0x00,0x12
2.514560250000000,0,0x28,0x12
2.515390041666667,0,0x07,0x01
2.515408083333333,0,0x00,0x01
2.515426166666667,0,0x38,0x01
2.515446750000000,0,0x1C,0x01
2.515464791666667,0,0x80,0x01
2.515482875000000,0,0x80,0x01
2.515503125000000,0,0x87,0x01
2.515521125000000,0,0xFF,0x00
2.515539333333333,0,0xFF,0x28
2.515560208333333,0,0x07,0x01
2.515578250000000,0,0x00,0x01
2.515596291666667,0,0x28,0x81
2.516394125000000,0,0xB0,0x12
2.516412166666667,0,0xFF,0x12
2.516430375000000,0,0xFF,0x10
2.518381625000000,0,0xB0,0x12
2.518399666666667,0,0xFF,0x02
2.518417875000000,0,0xFF,0x00
2.520369250000000,0,0x98,0x1A
2.520387291666667,0,0xFF,0x12
2.520405500000000,0,0xFF,0x10
2.522356875000000,0,0x98,0x10
2.522374916666667,0,0xFF,0x02
2.522393125000000,0,0xFF,0x00
2.524344333333334,0,0xB0,0x12
2.524362375000000,0,0xFF,0x12
2.524380583333333,0,0xFF,0x10
2.526331875000000,0,0xB0,0x12
2.526349875000000,0,0xFF,0x10
2.526368083333333,0,0xFF,0x10
2.528319333333333,0,0xF0,0x02
2.528337333333333,0,0x7F,0x12
2.528355541666667,0,0xFF,0x10
2.530306875000000,0,0xF0,0x12
2.530324916666667,0,0xFF,0x13
2.530343125000000,0,0xFF,0x10
2.532294333333333,0,0xB0,0x12
2.532312375000000,0,0xFF,0x13
2.532330583333333,0,0xFF,0x10
2.534281791666666,0,0x90,0x12
2.534299833333333,0,0xFF,0x02
2.534318041666667,0,0xFF,0x10
2.536269458333333,0,0xF0,0x02
2.536287458333333,0,0x7F,0x12
2.536305666666667,0,0xFF,0x10
2.538257000000000,0,0x98,0x10
2.538275041666667,0,0xFF,0x02
2.538293250000000,0,0xFF,0x00
2.540244750000000,0,0xB0,0x12
2.540262791666667,0,0xFF,0x12
2.540280958333333,0,0xFF,0x10
2.542232125000000,0,0xB0,0x13
2.542250125000000,0,0x7F,0x1A
2.542268333333333,0,0xFF,0x10
2.544219375000000,0,0xB0,0x12
2.544237416666667,0,0xFF,0x02
2.544255625000000,0,0xFF,0x10
2.546206791666667,0,0xF0,0x12
2.546224791666666,0,0x7F,0x12
2.546243000000000,0,0xFF,0x10
2.546267833333333,0,0xC3,0x12
2.546285833333333,0,0xFF,0x00
2.546304041666667,0,0xFF,0x80
2.546324625000000,0,0x03,0x13
2.546342625000000,0,0x80,0x12
2.546360708333333,0,0x00,0x12
2.547190458333333,0,0x07,0x01
2.547208500000000,0,0x00,0x01
2.547226583333333,0,0x0B,0x00
2.547247166666667,0,0x36,0x01
2.547265208333333,0,0xC0,0x01
2.547283250000000,0,0x00,0x81
2.547303500000000,0,0x07,0x01
2.547321541666667,0,0xFF,0x00
2.547339750000000,0,0xFF,0x0A
2.547360625000000,0,0x07,0x01
2.547378666666666,0,0x00,0x01
2.547396708333333,0,0x02,0x01
2.548194250000000,0,0x10,0x12
2.548212291666667,0,0xFF,0x12
2.548230500000000,0,0xFF,0x14
2.550181666666667,0,0xB0,0x13
2.550199666666667,0,0x7F,0x1A
2.550217875000000,0,0xFF,0x1C
2.552169083333333,0,0x98,0x1A
2.552187125000000,0,0xFF,0x12
2.552205333333333,0,0xFF,0x14
2.554156625000000,0,0xB0,0x12
2.554174666666666,0,0xFF,0x10
2.554192875000000,0,0xFF,0x16
2.556144208333333,0,0xB0,0x13
2.556162208333333,0,0xFF,0x1A
2.556180416666667,0,0xFF,0x1C
2.558131708333333,0,0x98,0x10
2.558149750000000,0,0xFF,0x12
2.558167958333333,0,0xFF,0x14
2.560119333333333,0,0xF0,0x02
2.560137333333333,0,0x7F,0x12
2.560155541666667,0,0xFF,0x14
2.562106875000000,0,0x90,0x10
2.562124916666667,0,0xFF,0x02
2.562143125000000,0,0xFF,0x10
2.564094375000000,0,0x98,0x18
2.564112416666667,0,0xFF,0x12
2.564130625000000,0,0xFF,0x00
2.566081833333334,0,0xB0,0x12
2.566099875000000,0,0xFF,0x12
2.566118083333333,0,0xFF,0x14
2.568069291666667,0,0xF0,0x12
2.568087291666667,0,0x7F,0x12
2.568105500000000,0,0xFF,0x14
2.570056791666667,0,0xB0,0x12
2.570074833333333,0,0xFF,0x13
2.570093041666667,0,0xFF,0x14
2.572044333333333,0,0xB0,0x12
2.572062375000000,0,0xFF,0x13
2.572080583333333,0,0xFF,0x14
2.574031875000000,0,0x98,0x1A
2.574049916666667,0,0xFF,0x02
2.574068125000000,0,0xFF,0x00
2.576019333333333,0,0xB0,0x12
2.576037375000000,0,0xFF,0x12
2.576055583333333,0,0xFF,0x14
2.578006833333333,0,0xF0,0x02
2.578024833333334,0,0x7F,0x12
2.578043041666667,0,0xFF,0x1C
2.578067875000000,0,0x83,0x13
2.578085875000000,0,0xFF,0x00
2.578104083333333,0,0xFF,0x80
2.578124666666667,0,0x03,0x13
2.578142666666666,0,0x80,0x1A
2.578160750000000,0,0x32,0x12
2.578990500000000,0,0x07,0x01
2.579008541666667,0,0x00,0x01
2.579026625000000,0,0x33,0x01
2.579047208333333,0,0x36,0x01
2.579065250000000,0,0x80,0x01
2.579083291666667,0,0x00,0x81
2.579103541666667,0,0x07,0x01
2.579121583333333,0,0xFF,0x00
2.579139791666667,0,0xFF,0x32
2.579160666666667,0,0x07,0x01
2.579178708333334,0,0x00,0x00
2.579196750000000,0,0x12,0x01
2.579994416666667,0,0xB0,0x12
2.580012458333333,0,0xFF,0x12
2.580030666666667,0,0xFF,0x04
2.581981833333333,0,0x98,0x1A
2.581999875000000,0,0xFF,0x12
2.582018083333333,0,0xFF,0x04
2.583969458333333,0,0xB0,0x12
2.583987500000000,0,0xFF,0x12
2.584005708333333,0,0xFF,0x06
2.585957125000000,0,0xF0,0x12
2.585975166666667,0,0xFF,0x13
2.585993375000000,0,0xFF,0x04
2.587944791666667,0,0xB0,0x12
2.587962833333334,0,0xFF,0x10
2.587981041666667,0,0xFF,0x04
2.589932541666667,0,0xB0,0x13
2.589950541666667,0,0x7F,0x12
2.589968750000000,0,0xFF,0x04
2.591920208333333,0,0xB0,0x13
2.591938208333334,0,0x7F,0x12
2.591956416666667,0,0xFF,0x04
2.593907791666667,0,0xB0,0x12
2.593925791666666,0,0xFF,0x10
2.593944000000000,0,0xFF,0x06
2.595895375000000,0,0x98,0x10
2.595913416666667,0,0xFF,0x02
2.595931625000000,0,0xFF,0x04
2.597883000000000,0,0xF0,0x12
2.597901041666667,0,0xFF,0x12
2.597919208333333,0,0xFF,0x04
2.599870833333333,0,0xF0,0x12
2.599888833333333,0,0x7F,0x12
2.599907041666667,0,0xFF,0x04
2.601858500000000,0,0xB0,0x12
2.601876541666666,0,0xFF,0x10
2.601894750000000,0,0xFF,0x04
2.603845916666667,0,0xF0,0x12
2.603863916666667,0,0x7F,0x12
2.603882125000000,0,0xFF,0x04
2.605833708333333,0,0xF0,0x02
2.605851708333333,0,0x7F,0x12
2.605869916666667,0,0xFF,0x04
2.607821458333333,0,0xB0,0x13
2.607839458333333,0,0xFF,0x1A
2.607857666666667,0,0xFF,0x04
2.609809166666667,0,0xB0,0x13
2.609827166666667,0,0x7F,0x1A
2.609845375000000,0,0xFF,0x04
2.609870208333333,0,0x83,0x12
2.609888208333333,0,0xFF,0x00
2.609906416666667,0,0xFF,0x32
2.609927000000000,0,0x07,0x02
2.609945041666667,0,0x00,0x12
2.609963083333333,0,0x1C,0x1A
2.610792916666667,0,0x07,0x01
2.610810958333333,0,0x00,0x01
2.610829041666667,0,0x00,0x00
2.610849625000000,0,0x1E,0x01
2.610867666666667,0,0xC0,0x01
2.610885750000000,0,0xC0,0x01
2.610906000000000,0,0x83,0x00
2.610924000000000,0,0xFF,0x00
2.610942208333333,0,0xFF,0x14
2.610963083333333,0,0x87,0x01
2.610981125000000,0,0x00,0x01
2.610999208333333,0,0x94,0x01
2.611796875000000,0,0x98,0x10
2.611814916666667,0,0xFF,0x02
2.611833125000000,0,0xFF,0x0C
2.613784583333334,0,0xF0,0x02
2.613802583333333,0,0x7F,0x12
2.613820833333333,0,0xFF,0x08
2.615772208333333,0,0xB0,0x12
2.615790250000000,0,0xFF,0x12
2.615808458333333,0,0xFF,0x08
2.617759875000000,0,0xB0,0x13
2.617777875000000,0,0x7F,0x1A
2.617796083333333,0,0xFF,0x00
2.619747625000000,0,0xB0,0x13
2.619765625000000,0,0x7F,0x12
2.619783833333333,0,0xFF,0x08
2.621735375000000,0,0xB0,0x12
2.621753416666667,0,0xFF,0x12
2.621771625000000,0,0xFF,0x0C
2.623723041666667,0,0x98,0x1A
2.623741083333333,0,0xFF,0x12
2.623759291666667,0,0xFF,0x08
2.625710666666667,0,0xB0,0x12
2.625728708333333,0,0xFF,0x12
2.625746916666666,0,0xFF,0x08
2.627698333333333,0,0xF0,0x02
2.627716333333333,0,0x7F,0x12
2.627734541666667,0,0xFF,0x08
2.629685958333333,0,0xB0,0x12
2.629704000000000,0,0xFF,0x13
2.629722208333333,0,0xFF,0x08
2.631673500000000,0,0xB0,0x12
2.631691541666667,0,0xFF,0x10
2.631709750000000,0,0xFF,0x00
2.633661250000000,0,0xB0,0x13
2.633679250000000,0,0x7F,0x1A
2.633697458333333,0,0xFF,0x08
2.635648958333333,0,0xB0,0x12
2.635667000000000,0,0xFF,0x12
2.635685208333333,0,0xFF,0x0C
2.637636625000000,0,0xB0,0x12
2.637654666666667,0,0xFF,0x10
2.637672875000000,0,0xFF,0x08
2.639624333333333,0,0xF0,0x02
2.639642333333333,0,0x7F,0x12
2.639660541666667,0,0xFF,0x08
2.641612083333333,0,0xB0,0x12
2.641630125000000,0,0xFF,0x13
2.641648333333333,0,0xFF,0x08
2.641673125000000,0,0x87,0x12
2.641691166666666,0,0xFF,0x00
2.641709375000000,0,0xFF,0x90
2.641729916666667,0,0x07,0x10
2.641747958333333,0,0x00,0x12
2.641766041666667,0,0x3C,0x13
2.642595875000000,0,0x07,0x01
2.642613916666666,0,0x00,0x01
2.642632000000000,0,0x3C,0x01
2.642652583333333,0,0x1C,0x01
2.642670625000000,0,0x80,0x01
2.642688708333333,0,0xC0,0x01
2.642708958333333,0,0x83,0x00
2.642726958333333,0,0xFF,0x00
2.642745166666667,0,0xFF,0x1C
2.642766041666667,0,0x87,0x01
2.642784083333333,0,0x00,0x01
2.642802166666667,0,0xFC,0x01
2.643599875000000,0,0xB0,0x12
2.643617916666666,0,0xFF,0x02
2.643636125000000,0,0xFF,0x0C
2.645587583333334,0,0x98,0x1A
2.645605625000000,0,0xFF,0x12
2.645623833333334,0,0xFF,0x18
2.647575416666667,0,0x90,0x12
2.647593458333333,0,0xFF,0x12
2.647611666666667,0,0xFF,0x18
2.649563208333333,0,0xB0,0x12
2.649581250000000,0,0xFF,0x02
2.649599458333333,0,0xFF,0x0C
2.651551000000000,0,0xF0,0x02
2.651569000000000,0,0x7F,0x12
2.651587208333333,0,0xFF,0x18
2.653538666666666,0,0xF0,0x02
2.653556666666667,0,0x7F,0x12
2.653574875000000,0,0xFF,0x18
2.655526291666667,0,0xB0,0x13
2.655544291666667,0,0x7F,0x1A
2.655562500000000,0,0xFF,0x18
2.657514041666666,0,0xB0,0x12
2.657532083333333,0,0xFF,0x02
2.657550291666666,0,0xFF,0x08
2.659502083333333,0,0xB0,0x12
2.659520125000000,0,0xFF,0x12
2.659538333333333,0,0xFF,0x18
2.661489833333333,0,0xB0,0x12
2.661507875000000,0,0xFF,0x02
2.661526083333333,0,0xFF,0x08
2.663477541666667,0,0x90,0x10
2.663495583333333,0,0xFF,0x02
2.663513791666666,0,0xFF,0x0C
2.665464875000000,0,0x98,0x1A
2.665482916666666,0,0xFF,0x12
2.665501125000000,0,0xFF,0x18
2.667452583333333,0,0xB0,0x12
2.667470583333333,0,0xFF,0x10
2.667488791666667,0,0xFF,0x18
2.669440291666667,0,0xF0,0x02
2.669458291666666,0,0x7F,0x12
2.669476541666667,0,0xFF,0x18
2.671428000000000,0,0xB0,0x12
2.671446041666667,0,0xFF,0x12
2.671464250000000,0,0xFF,0x1C
2.673415875000000,0,0xF0,0x12
2.673433916666667,0,0xFF,0x13
2.673452125000000,0,0xFF,0x18
2.673476916666667,0,0xC7,0x12
2.673494958333333,0,0xFF,0x00
2.673513166666666,0,0xFF,0xBC
2.673533708333333,0,0x07,0x12
2.673551750000000,0,0x00,0x02
2.673569833333334,0,0x1F,0x13
2.674399750000000,0,0x07,0x01
2.674417791666666,0,0x00,0x01
2.674435875000000,0,0x1F,0x00
2.674456458333333,0,0x1E,0x01
2.674474500000000,0,0xC0,0x01
2.674492583333334,0,0xC0,0x01
2.674512833333333,0,0x83,0x01
2.674530833333333,0,0xFF,0x00
2.674549041666667,0,0xFF,0x1E
2.674569958333334,0,0x07,0x01
2.674587958333333,0,0x00,0x01
2.674606041666667,0,0x9E,0x01
2.675404000000000,0,0xB0,0x12
2.675422041666667,0,0xFF,0x12
2.675440250000000,0,0xFF,0x0C
2.677391625000000,0,0x98,0x10
2.677409666666667,0,0xFF,0x12
2.677427875000000,0,0xFF,0x1C
2.679379291666667,0,0xB0,0x12
2.679397333333333,0,0xFF,0x10
2.679415541666667,0,0xFF,0x1C
2.681367083333333,0,0x98,0x10
2.681385125000000,0,0xFF,0x02
2.681403333333333,0,0xFF,0x0C
2.683354750000000,0,0x98,0x18
2.683372791666667,0,0xFF,0x12
2.683391000000000,0,0xFF,0x1C
2.685342458333333,0,0xF0,0x02
2.685360458333333,0,0x7F,0x12
2.685378666666667,0,0xFF,0x1C
2.687330125000000,0,0xF0,0x02
2.687348125000000,0,0x7F,0x12
2.687366333333333,0,0xFF,0x1C
2.689317875000000,0,0xB0,0x13
2.689335875000000,0,0x7F,0x1A
2.689354083333333,0,0xFF,0x1C
2.691305583333333,0,0x90,0x12
2.691323625000000,0,0xFF,0x12
2.691341833333333,0,0xFF,0x1E
2.693293291666667,0,0x98,0x10
2.693311333333333,0,0xFF,0x12
2.693329541666666,0,0xFF,0x1C
2.695280833333333,0,0x98,0x10
2.695298875000000,0,0xFF,0x02
2.695317083333333,0,0xFF,0x0C
2.697268333333333,0,0xB0,0x12
2.697286375000000,0,0xFF,0x13
2.697304583333333,0,0xFF,0x1C
2.699255875000000,0,0xB0,0x13
2.699273875000000,0,0x7F,0x1A
2.699292083333333,0,0xFF,0x1C
2.701243291666667,0,0x90,0x12
2.701261333333334,0,0xFF,0x12
2.701279541666667,0,0xFF,0x1C
2.703230875000000,0,0xF0,0x02
2.703248916666666,0,0xFF,0x13
2.703267125000000,0,0xFF,0x1C
2.705218541666667,0,0x98,0x10
2.705236583333333,0,0xFF,0x02
2.705254791666666,0,0xFF,0x0C
2.705279583333333,0,0x87,0x10
2.705297625000000,0,0xFF,0x00
2.705315833333333,0,0xFF,0xDE
2.705336375000000,0,0x87,0x1A
2.705354416666667,0,0x00,0x12
2.705372500000000,0,0x02,0x02
2.706202333333333,0,0x07,0x01
2.706220375000000,0,0x00,0x01
2.706238416666667,0,0x47,0x81
2.706259041666667,0,0x34,0x01
2.706277083333333,0,0x80,0x01
2.706295125000000,0,0x00,0x81
2.706315375000000,0,0x07,0x01
2.706333416666667,0,0xFF,0x00
2.706351625000000,0,0xFF,0x46
2.706372500000000,0,0x07,0x01
2.706390541666666,0,0x00,0x01
2.706408583333333,0,0x47,0x81
2.707206208333333,0,0x18,0x1A
2.707224250000000,0,0xFF,0x12
2.707242458333333,0,0xFF,0x0C
2.709193916666667,0,0xB0,0x13
2.709211916666667,0,0x7F,0x1A
2.709230125000000,0,0xFF,0x0C
2.711181708333333,0,0xB0,0x12
2.711199750000000,0,0xFF,0x10
2.711217958333333,0,0xFF,0x0E
2.713169625000000,0,0xB0,0x12
2.713187666666667,0,0xFF,0x10
2.713205875000000,0,0xFF,0x0E
2.715157458333334,0,0x98,0x10
2.715175500000000,0,0xFF,0x12
2.715193708333334,0,0xFF,0x0C
2.717145166666667,0,0x90,0x12
2.717163208333333,0,0xFF,0x12
2.717181416666667,0,0xFF,0x0C
2.719132750000000,0,0xB0,0x12
2.719150791666667,0,0xFF,0x12
2.719169000000000,0,0xFF,0x0C
2.721120708333333,0,0xF0,0x02
2.721138750000000,0,0xFF,0x13
2.721156958333333,0,0xFF,0x0C
2.723108541666666,0,0xB0,0x12
2.723126583333333,0,0xFF,0x1A
2.723144791666666,0,0xFF,0x04
2.725096333333333,0,0xB0,0x12
2.725114333333333,0,0x7F,0x12
2.725132541666667,0,0xFF,0x0C
2.727084125000000,0,0x90,0x12
2.727102166666667,0,0xFF,0x12
2.727120375000000,0,0xFF,0x0C
2.729071958333333,0,0x90,0x12
2.729090000000000,0,0xFF,0x12
2.729108208333333,0,0xFF,0x0C
2.731059791666667,0,0x90,0x12
2.731077833333333,0,0xFF,0x10
2.731096041666667,0,0xFF,0x0E
2.733047625000000,0,0xF0,0x12
2.733065666666667,0,0xFF,0x13
2.733083875000000,0,0xFF,0x0C
2.735035666666667,0,0xB0,0x12
2.735053666666666,0,0x7F,0x13
2.735071916666667,0,0xFF,0x0C
2.737023541666667,0,0xB0,0x12
2.737041583333333,0,0xFF,0x12
2.737059791666667,0,0xFF,0x0C
2.737084583333333,0,0x87,0x10
2.737102625000000,0,0xFF,0x00
2.737120833333333,0,0xFF,0xC6
2.737141375000000,0,0x87,0x12
2.737159416666667,0,0x00,0x1A
2.737177500000000,0,0x00,0x12
2.738007375000000,0,0x07,0x01
2.738025416666667,0,0x00,0x01
2.738043500000000,0,0x00,0x01
2.738064083333333,0,0x14,0x01
2.738082125000000,0,0x80,0x01
2.738100208333333,0,0xC0,0x01
2.738120458333333,0,0x87,0x01
2.738138458333333,0,0xFF,0x00
2.738156666666667,0,0xFF,0x00
2.738177541666666,0,0x07,0x01
2.738195583333333,0,0x00,0x01
2.738213666666667,0,0x80,0x00
2.739011625000000,0,0xF0,0x02
2.739029625000000,0,0x7F,0x12
2.739047875000000,0,0xFF,0x00
2.740999083333334,0,0xB0,0x12
2.741017125000000,0,0xFF,0x10
2.741035333333333,0,0xFF,0x00
2.742986791666667,0,0xF0,0x02
2.743004791666667,0,0x7F,0x12
2.743023000000000,0,0xFF,0x00
2.744974500000000,0,0xB0,0x10
2.744992541666667,0,0xFF,0x02
2.745010750000000,0,0xFF,0x00
2.746962333333333,0,0xB0,0x12
2.746980375000000,0,0xFF,0x02
2.746998583333333,0,0xFF,0x00
2.748950083333333,0,0xB0,0x12
2.748968125000000,0,0xFF,0x02
2.748986333333333,0,0xFF,0x00
2.750937875000000,0,0xB0,0x12
2.750955916666667,0,0xFF,0x12
2.750974125000000,0,0xFF,0x00
2.752925666666667,0,0xB0,0x13
2.752943666666666,0,0x7F,0x12
2.752961875000000,0,0xFF,0x00
2.754913458333333,0,0xB0,0x13
2.754931458333334,0,0x7F,0x1A
2.754949666666667,0,0xFF,0x00
2.756901166666667,0,0xF0,0x12
2.756919166666667,0,0x7F,0x12
2.756937375000000,0,0xFF,0x00
2.758888750000000,0,0xB0,0x12
2.758906791666667,0,0xFF,0x13
2.758925000000000,0,0xFF,0x00
2.760876375000000,0,0xB0,0x12
2.760894416666666,0,0xFF,0x10
2.760912625000000,0,0xFF,0x00
2.762864250000000,0,0xB0,0x12
2.762882291666667,0,0xFF,0x10
2.762900500000000,0,0xFF,0x00
2.764851666666666,0,0xB0,0x12
2.764869666666667,0,0xFF,0x12
2.764887875000000,0,0xFF,0x00
2.766839208333333,0,0x98,0x1A
2.766857250000000,0,0xFF,0x12
2.766875458333333,0,0xFF,0x00
2.768826958333333,0,0xB0,0x13
2.768844958333333,0,0x7F,0x12
2.768863166666667,0,0xFF,0x00
2.768888000000000,0,0xC3,0x02
2.768906000000000,0,0xFF,0x00
2.768924208333333,0,0xFF,0x00
2.768944791666667,0,0x07,0x12
2.768962833333333,0,0x00,0x13
2.768980875000000,0,0x28,0x12
2.769810750000000,0,0x07,0x01
2.769828791666667,0,0x00,0x01
2.769846833333333,0,0x28,0x81
2.769867458333333,0,0x36,0x01
2.769885500000000,0,0xC0,0x01
2.769903541666667,0,0x00,0x81
2.769923791666667,0,0x07,0x01
2.769941833333333,0,0xFF,0x00
2.769960041666667,0,0xFF,0x28
2.769980916666666,0,0x07,0x01
2.769998958333333,0,0x00,0x01
2.770017000000000,0,0x28,0x81
2.770814666666667,0,0x10,0x12
2.770832708333333,0,0xFF,0x10
2.770850916666667,0,0xFF,0x10
2.772802333333333,0,0xB0,0x12
2.772820375000000,0,0xFF,0x12
2.772838583333333,0,0xFF,0x10
2.774790083333333,0,0x98,0x1A
2.774808125000000,0,0xFF,0x12
2.774826333333333,0,0xFF,0x10
2.776777916666667,0,0x90,0x12
2.776795958333333,0,0xFF,0x10
2.776814166666667,0,0xFF,0x10
2.778765708333333,0,0xB0,0x12
2.778783750000000,0,0xFF,0x10
2.778801958333333,0,0xFF,0x10
2.780753458333333,0,0xF0,0x02
2.780771458333333,0,0x7F,0x12
2.780789708333333,0,0xFF,0x10
2.782741166666667,0,0xB0,0x12
2.782759208333333,0,0xFF,0x12
2.782777416666667,0,0xFF,0x00
2.784729291666667,0,0xB0,0x12
2.784747291666667,0,0xFF,0x1A
2.784765500000000,0,0xFF,0x18
2.786717083333333,0,0xB0,0x12
2.786735125000000,0,0xFF,0x02
2.786753333333333,0,0xFF,0x10
2.788704958333333,0,0xB0,0x12
2.788723000000000,0,0xFF,0x12
2.788741208333333,0,0xFF,0x00
2.790692708333333,0,0x98,0x1A
2.790710750000000,0,0xFF,0x12
2.790728958333333,0,0xFF,0x10
2.792680541666666,0,0xB0,0x12
2.792698541666667,0,0xFF,0x10
2.792716750000000,0,0xFF,0x18
2.794668333333334,0,0x98,0x10
2.794686375000000,0,0xFF,0x12
2.794704583333333,0,0xFF,0x10
2.796656083333333,0,0x90,0x12
2.796674125000000,0,0xFF,0x12
2.796692333333333,0,0xFF,0x10
2.798644250000000,0,0xB0,0x12
2.798662291666667,0,0xFF,0x02
2.798680500000000,0,0xFF,0x00
2.800632041666667,0,0xB0,0x13
2.800650041666667,0,0xFF,0x1A
2.800668250000000,0,0xFF,0x18
2.800693083333333,0,0x83,0x13
2.800711083333333,0,0xFF,0x00
2.800729291666667,0,0xFF,0x80
2.800749875000000,0,0x03,0x12
2.800767875000000,0,0x80,0x12
2.800785958333333,0,0x00,0x10
2.801615791666667,0,0x03,0x00
2.801633791666667,0,0x00,0x01
2.801651875000000,0,0x00,0x01
2.801672500000000,0,0x30,0x01
2.801690500000000,0,0x00,0x01
2.801708583333333,0,0x80,0x01
2.801728833333333,0,0x87,0x01
2.801746875000000,0,0xFF,0x00
2.801765083333333,0,0xFF,0x0A
2.801785958333333,0,0x07,0x01
2.801804000000000,0,0x00,0x01
2.801822041666667,0,0x0B,0x81
2.802619708333333,0,0xB0,0x12
2.802637750000000,0,0xFF,0x02
2.802655958333333,0,0xFF,0x00
2.804607291666667,0,0x98,0x10
2.804625333333334,0,0xFF,0x12
2.804643541666667,0,0xFF,0x14
2.806594958333333,0,0x98,0x10
2.806613000000000,0,0xFF,0x02
2.806631208333333,0,0xFF,0x14
2.808582666666667,0,0xF0,0x02
2.808600666666667,0,0x7F,0x12
2.808618875000000,0,0xFF,0x14
2.810570375000000,0,0xB0,0x12
2.810588375000000,0,0xFF,0x10
2.810606583333333,0,0xFF,0x14
2.812558000000000,0,0x98,0x10
2.812576041666667,0,0xFF,0x02
2.812594250000000,0,0xFF,0x04
2.814545916666667,0,0xB0,0x12
2.814563916666667,0,0x7F,0x12
2.814582125000000,0,0xFF,0x14
2.816533875000000,0,0xF0,0x12
2.816551875000000,0,0x7F,0x12
2.816570125000000,0,0xFF,0x14
2.818521625000000,0,0xB0,0x12
2.818539666666667,0,0xFF,0x10
2.818557875000000,0,0xFF,0x1C
2.820509416666667,0,0xB0,0x12
2.820527458333333,0,0xFF,0x10
2.820545666666667,0,0xFF,0x16
2.822497083333333,0,0x98,0x10
2.822515125000000,0,0xFF,0x12
2.822533333333333,0,0xFF,0x14
2.824484833333333,0,0xF0,0x02
2.824502875000000,0,0xFF,0x12
2.824521083333333,0,0xFF,0x14
2.826472583333334,0,0xB0,0x12
2.826490625000000,0,0xFF,0x12
2.826508833333333,0,0xFF,0x10
2.828460333333333,0,0x90,0x12
2.828478375000000,0,0xFF,0x12
2.828496583333334,0,0xFF,0x14
2.830448083333333,0,0xF0,0x12
2.830466125000000,0,0xFF,0x02
2.830484333333333,0,0xFF,0x14
2.832436000000000,0,0xB0,0x12
2.832454041666667,0,0xFF,0x1A
2.832472250000000,0,0xFF,0x14
2.832497083333333,0,0xC3,0x02
2.832515083333333,0,0xFF,0x00
2.832533333333333,0,0xFF,0x8A
2.832553875000000,0,0x07,0x12
2.832571916666667,0,0x00,0x12
2.832589958333333,0,0x33,0x12
2.833419708333333,0,0x07,0x01
2.833437750000000,0,0x00,0x01
2.833455791666667,0,0x33,0x81
2.833476416666667,0,0x3E,0x01
2.833494458333333,0,0xC0,0x01
2.833512541666667,0,0x80,0x00
2.833532750000000,0,0x07,0x01
2.833550791666667,0,0xFF,0x00
2.833569000000000,0,0xFF,0x32
2.833589875000000,0,0x07,0x01
2.833607916666667,0,0x00,0x01
2.833626000000000,0,0xB3,0x00
2.834423708333333,0,0x98,0x10
2.834441750000000,0,0xFF,0x12
2.834459958333333,0,0xFF,0x04
2.836411791666666,0,0x90,0x10
2.836429833333333,0,0xFF,0x02
2.836448041666667,0,0xFF,0x04
2.838399375000000,0,0x98,0x1A
2.838417416666667,0,0xFF,0x12
2.838435625000000,0,0xFF,0x04
2.840387458333333,0,0xB0,0x12
2.840405500000000,0,0xFF,0x13
2.840423708333333,0,0xFF,0x00
2.842374958333334,0,0xF0,0x02
2.842392958333333,0,0x7F,0x12
2.842411166666666,0,0xFF,0x04
2.844362791666667,0,0xB0,0x12
2.844380833333333,0,0xFF,0x12
2.844399041666667,0,0xFF,0x00
2.846350333333334,0,0x98,0x1A
2.846368375000000,0,0xFF,0x12
2.846386583333333,0,0xFF,0x04
2.848338333333333,0,0xB0,0x12
2.848356333333333,0,0x7F,0x1A
2.848374541666667,0,0xFF,0x04
2.850326125000000,0,0x98,0x10
2.850344166666666,0,0xFF,0x12
2.850362375000000,0,0xFF,0x04
2.852313750000000,0,0xB0,0x12
2.852331791666667,0,0xFF,0x02
2.852350000000000,0,0xFF,0x04
2.854301541666667,0,0x90,0x12
2.854319583333333,0,0xFF,0x12
2.854337791666667,0,0xFF,0x04
2.856289458333333,0,0xB0,0x13
2.856307458333333,0,0x7F,0x1A
2.856325666666667,0,0xFF,0x04
2.858277208333333,0,0x90,0x12
2.858295250000000,0,0xFF,0x12
2.858313458333333,0,0xFF,0x04
2.860264916666666,0,0x90,0x12
2.860282958333333,0,0xFF,0x12
2.860301166666666,0,0xFF,0x04
2.862252708333333,0,0xB0,0x13
2.862270708333333,0,0x7F,0x1A
2.862288916666667,0,0xFF,0x04
2.864240333333333,0,0xB0,0x12
2.864258375000000,0,0xFF,0x12
2.864276583333333,0,0xFF,0x06
2.864301416666667,0,0x83,0x12
2.864319416666667,0,0xFF,0x00
2.864337625000000,0,0xFF,0xBA
2.864358208333333,0,0x03,0x12
2.864376208333333,0,0x80,0x12
2.864394291666667,0,0x1E,0x10
2.865224041666667,0,0x07,0x01
2.865242083333333,0,0x00,0x01
2.865260166666667,0,0x14,0x01
2.865280750000000,0,0x34,0x01
2.865298791666667,0,0x80,0x01
2.865316875000000,0,0xC0,0x01
2.865337125000000,0,0xC3,0x01
2.865355125000000,0,0xFF,0x00
2.865373333333333,0,0xFF,0x14
2.865394208333333,0,0x87,0x01
2.865412250000000,0,0x00,0x01
2.865430333333333,0,0x94,0x01
2.866228000000000,0,0xB0,0x12
2.866246041666667,0,0xFF,0x02
2.866264250000000,0,0xFF,0x08
2.868215625000000,0,0xB0,0x13
2.868233625000000,0,0x7F,0x1A
2.868251833333333,0,0xFF,0x00
2.870203166666667,0,0xB0,0x12
2.870221208333333,0,0xFF,0x13
2.870239416666667,0,0xFF,0x08
2.872190750000000,0,0xB0,0x12
2.872208791666667,0,0xFF,0x12
2.872227000000000,0,0xFF,0x0C
2.874178333333334,0,0xB0,0x12
2.874196375000000,0,0xFF,0x13
2.874214583333333,0,0xFF,0x08
2.876166000000000,0,0xF0,0x02
2.876184000000000,0,0x7F,0x12
2.876202208333333,0,0xFF,0x08
2.878153791666667,0,0xB0,0x12
2.878171791666666,0,0xFF,0x10
2.878190000000000,0,0xFF,0x08
2.880141250000000,0,0xB0,0x12
2.880159291666667,0,0xFF,0x13
2.880177500000000,0,0xFF,0x08
2.882128625000000,0,0xF0,0x02
2.882146625000000,0,0x7F,0x12
2.882164833333333,0,0xFF,0x08
2.884115875000000,0,0xB0,0x13
2.884133875000000,0,0x7F,0x1A
2.884152083333333,0,0xFF,0x00
2.886103458333333,0,0xF0,0x12
2.886121500000000,0,0xFF,0x13
2.886139708333333,0,0xFF,0x08
2.888091083333333,0,0x98,0x1A
2.888109125000000,0,0xFF,0x12
2.888127333333333,0,0xFF,0x08
2.890078708333333,0,0xB0,0x12
2.890096750000000,0,0xFF,0x13
2.890114958333333,0,0xFF,0x08
2.892066250000000,0,0xB0,0x12
2.892084291666666,0,0xFF,0x12
2.892102500000000,0,0xFF,0x08
2.894053708333333,0,0xF0,0x02
2.894071708333333,0,0x7F,0x12
2.894089958333333,0,0xFF,0x08
2.896041250000000,0,0x98,0x1A
2.896059291666667,0,0xFF,0x12
2.896077500000000,0,0xFF,0x08
2.896102291666667,0,0x87,0x10
2.896120333333333,0,0xFF,0x00
2.896138541666667,0,0xFF,0x90
2.896159083333333,0,0x07,0x12
2.896177125000000,0,0x00,0x13
2.896195166666667,0,0x3C,0x12
2.897024666666667,0,0x07,0x01
2.897042708333333,0,0x00,0x01
2.897060791666667,0,0x3C,0x01
2.897081375000000,0,0x1E,0x01
2.897099416666667,0,0xC0,0x01
2.897117500000000,0,0x80,0x01
2.897137708333333,0,0x07,0x01
2.897155750000000,0,0xFF,0x00
2.897173958333333,0,0xFF,0x3C
2.897194833333333,0,0x07,0x01
2.897212875000000,0,0x00,0x01
2.897230916666667,0,0x1C,0x01
2.898028833333333,0,0x98,0x10
2.898046875000000,0,0xFF,0x02
2.898065083333333,0,0xFF,0x0C
2.900016000000000,0,0x98,0x18
2.900034041666667,0,0xFF,0x02
2.900052250000000,0,0xFF,0x0C
2.902003666666667,0,0x98,0x10
2.902021708333333,0,0xFF,0x12
2.902039916666667,0,0xFF,0x18
2.903991250000000,0,0xB0,0x12
2.904009291666667,0,0xFF,0x12
2.904027500000000,0,0xFF,0x18
2.905978916666667,0,0x98,0x10
2.905996958333333,0,0xFF,0x02
2.906015166666667,0,0xFF,0x08
2.907966458333333,0,0xB0,0x12
2.907984458333333,0,0xFF,0x10
2.908002666666667,0,0xFF,0x18
2.909953916666667,0,0xB0,0x12
2.909971958333333,0,0xFF,0x13
2.909990166666667,0,0xFF,0x18
2.911941416666667,0,0xB0,0x12
2.911959458333333,0,0xFF,0x12
2.911977625000000,0,0xFF,0x18
2.913929000000000,0,0xF0,0x12
2.913947000000000,0,0x7F,0x12
2.913965208333333,0,0xFF,0x18
2.915916625000000,0,0xF0,0x02
2.915934625000000,0,0x7F,0x12
2.915952833333333,0,0xFF,0x18
2.917904333333333,0,0xB0,0x12
2.917922375000000,0,0xFF,0x12
2.917940583333333,0,0xFF,0x18
2.919892166666667,0,0xF0,0x02
2.919910208333333,0,0xFF,0x13
2.919928416666667,0,0xFF,0x18
2.921879666666667,0,0x98,0x10
2.921897708333333,0,0xFF,0x02
2.921915916666667,0,0xFF,0x18
2.923867333333333,0,0xF0,0x12
2.923885333333333,0,0x7F,0x12
2.923903541666667,0,0xFF,0x18
2.925854958333333,0,0xB0,0x12
2.925872958333333,0,0x7F,0x1A
2.925891166666667,0,0xFF,0x18
2.927842541666667,0,0xF0,0x02
2.927860583333334,0,0xFF,0x13
2.927878791666667,0,0xFF,0x18
2.927903583333333,0,0xC7,0x12
2.927921625000000,0,0xFF,0x00
2.927939833333333,0,0xFF,0xBC
2.927960375000000,0,0x07,0x12
2.927978416666666,0,0x00,0x02
2.927996500000000,0,0x1F,0x12
2.928826250000000,0,0x07,0x01
2.928844291666667,0,0x00,0x01
2.928862333333333,0,0x1E,0x01
2.928882958333333,0,0x30,0x01
2.928900958333333,0,0x00,0x81
2.928919041666667,0,0x80,0x01
2.928939291666667,0,0x87,0x01
2.928957333333333,0,0xFF,0x00
2.928975541666667,0,0xFF,0x1E
2.928996416666667,0,0x03,0x01
2.929014416666667,0,0x80,0x81
2.929032500000000,0,0x9E,0x01
2.929830416666667,0,0x18,0x1A
2.929848458333333,0,0xFF,0x12
2.929866666666667,0,0xFF,0x1C
2.931817791666667,0,0xB0,0x12
2.931835833333333,0,0xFF,0x12
2.931854041666667,0,0xFF,0x0C
2.933805583333333,0,0xF0,0x12
2.933823625000000,0,0xFF,0x12
2.933841833333333,0,0xFF,0x1C
2.935793083333333,0,0x98,0x10
2.935811125000000,0,0xFF,0x02
2.935829333333333,0,0xFF,0x0C
2.937780875000000,0,0x98,0x10
2.937798916666666,0,0xFF,0x12
2.937817125000000,0,0xFF,0x1C
2.939768708333333,0,0xB0,0x12
2.939786750000000,0,0xFF,0x10
2.939804958333333,0,0xFF,0x1E
2.941756583333333,0,0x90,0x12
2.941774625000000,0,0xFF,0x12
2.941792833333333,0,0xFF,0x1E
2.943744333333334,0,0xF0,0x02
2.943762333333333,0,0x7F,0x12
2.943780541666666,0,0xFF,0x1C
2.945731833333333,0,0xF0,0x02
2.945749833333333,0,0x7F,0x12
2.945768041666667,0,0xFF,0x1C
2.947719125000000,0,0xB0,0x12
2.947737166666667,0,0xFF,0x1A
2.947755375000000,0,0xFF,0x1C
2.949707000000000,0,0xF0,0x12
2.949725000000000,0,0x7F,0x12
2.949743208333333,0,0xFF,0x1C
2.951694833333333,0,0xB0,0x12
2.951712875000000,0,0xFF,0x10
2.951731083333333,0,0xFF,0x1E
2.953682666666666,0,0x98,0x10
2.953700708333333,0,0xFF,0x12
2.953718916666667,0,0xFF,0x1C
2.955670541666667,0,0xB0,0x13
2.955688541666667,0,0x7F,0x1A
2.955706750000000,0,0xFF,0x1C
2.957658375000000,0,0x98,0x10
2.957676416666667,0,0xFF,0x12
2.957694625000000,0,0xFF,0x1C
2.959646208333333,0,0x98,0x10
2.959664250000000,0,0xFF,0x12
2.959682458333333,0,0xFF,0x1C
2.959707250000000,0,0x87,0x12
2.959725291666667,0,0xFF,0x00
2.959743500000000,0,0xFF,0x9E
2.959764083333333,0,0x03,0x13
2.959782083333333,0,0x00,0x1A
2.959800166666667,0,0x46,0x12
2.960630000000000,0,0x07,0x01
2.960648000000000,0,0x80,0x81
2.960666083333333,0,0x66,0x01
2.960686708333333,0,0x30,0x01
2.960704708333334,0,0x00,0x81
2.960722791666667,0,0x00,0x01
2.960743041666666,0,0x87,0x01
2.960761083333333,0,0xFF,0x00
2.960779291666667,0,0xFF,0x06
2.960800166666667,0,0x07,0x01
2.960818208333333,0,0x00,0x00
2.960836250000000,0,0x66,0x01
2.961634041666667,0,0xF0,0x02
2.961652041666667,0,0x7F,0x13
2.961670291666667,0,0xFF,0x0C
2.963621958333333,0,0xF0,0x02
2.963639958333333,0,0x7F,0x12
2.963658208333333,0,0xFF,0x0C
2.965609750000000,0,0xF0,0x02
2.965627791666666,0,0xFF,0x12
2.965646000000000,0,0xFF,0x0C
2.967597458333334,0,0xF0,0x12
2.967615500000000,0,0xFF,0x13
2.967633708333334,0,0xFF,0x0C
2.969585166666667,0,0xB0,0x12
2.969603208333333,0,0xFF,0x12
2.969621416666667,0,0xFF,0x0C
2.971572833333334,0,0xB0,0x12
2.971590833333333,0,0xFF,0x10
2.971609041666667,0,0xFF,0x0E
2.973560458333333,0,0xF0,0x12
2.973578500000000,0,0xFF,0x12
2.973596708333333,0,0xFF,0x0C
2.975548166666667,0,0xB0,0x12
2.975566166666667,0,0xFF,0x10
2.975584375000000,0,0xFF,0x0E
2.977535916666667,0,0xF0,0x12
2.977553958333333,0,0xFF,0x13
2.977572166666667,0,0xFF,0x0C
2.979523875000000,0,0x98,0x1A
2.979541916666667,0,0xFF,0x12
2.979560125000000,0,0xFF,0x0E
2.981511750000000,0,0xB0,0x12
2.981529791666667,0,0xFF,0x12
2.981548000000000,0,0xFF,0x04
2.983499708333333,0,0xF0,0x02
2.983517750000000,0,0xFF,0x13
2.983535958333333,0,0xFF,0x0C
2.985487583333333,0,0xB0,0x12
2.985505625000000,0,0xFF,0x02
2.985523833333333,0,0xFF,0x0C
2.987475625000000,0,0xB0,0x12
2.987493666666666,0,0xFF,0x10
2.987511875000000,0,0xFF,0x04
2.989463583333333,0,0xB0,0x12
2.989481625000000,0,0xFF,0x02
2.989499833333333,0,0xFF,0x0C
2.991451458333333,0,0xF0,0x02
2.991469458333333,0,0x7F,0x12
2.991487708333334,0,0xFF,0x0C
2.991512500000000,0,0xC7,0x12
2.991530541666667,0,0xFF,0x00
2.991548750000000,0,0xFF,0xC2
2.991569291666667,0,0x07,0x10
2.991587333333333,0,0x00,0x02
2.991605416666667,0,0x00,0x13
2.992435041666667,0,0x07,0x01
2.992453083333333,0,0x00,0x01
2.992471166666667,0,0x00,0x00
2.992491750000000,0,0x1E,0x01
2.992509791666667,0,0xC0,0x01
2.992527875000000,0,0x80,0x00
2.992548083333333,0,0x07,0x81
2.992566125000000,0,0xFF,0x00
2.992584333333333,0,0xFF,0x00
2.992605208333333,0,0x87,0x01
2.992623250000000,0,0x00,0x01
2.992641333333333,0,0xC0,0x01
2.993439333333333,0,0xF0,0x02
2.993457333333333,0,0x7F,0x12
2.993475541666667,0,0xFF,0x00
2.995426750000000,0,0x98,0x1A
2.995444791666667,0,0xFF,0x12
2.995463000000000,0,0xFF,0x00
2.997414583333333,0,0xF0,0x12
2.997432625000000,0,0xFF,0x12
2.997450833333333,0,0xFF,0x00
2.999402458333333,0,0x98,0x12
2.999420500000000,0,0xFF,0x12
2.999438708333333,0,0xFF,0x00
3.001390291666667,0,0xB0,0x12
3.001408333333333,0,0xFF,0x02
3.001426541666667,0,0xFF,0x00
3.003378041666667,0,0xB0,0x13
3.003396083333334,0,0x7F,0x1A
3.003414291666667,0,0xFF,0x00
3.005365750000000,0,0x98,0x10
3.005383791666667,0,0xFF,0x12
3.005402000000000,0,0xFF,0x00
3.007353458333333,0,0x98,0x10
3.007371500000000,0,0xFF,0x02
3.007389708333333,0,0xFF,0x00
3.009341166666667,0,0xF0,0x02
3.009359208333333,0,0xFF,0x12
3.009377416666667,0,0xFF,0x00
3.011328958333333,0,0x90,0x10
3.011347000000000,0,0xFF,0x02
3.011365208333333,0,0xFF,0x00
3.013316708333333,0,0xB0,0x12
3.013334750000000,0,0xFF,0x10
3.013352958333333,0,0xFF,0x00
3.015304708333333,0,0xB0,0x12
3.015322750000000,0,0xFF,0x1A
3.015340958333333,0,0xFF,0x00
3.017292458333333,0,0xB0,0x12
3.017310458333333,0,0xFF,0x1A
3.017328666666667,0,0xFF,0x00
3.019280250000000,0,0x98,0x10
3.019298291666667,0,0xFF,0x02
3.019316500000000,0,0xFF,0x00
3.021268000000000,0,0xB0,0x12
3.021286041666666,0,0xFF,0x13
3.021304250000000,0,0xFF,0x00
3.023255708333333,0,0xB0,0x13
3.023273708333333,0,0x7F,0x1A
3.023291916666667,0,0xFF,0x00
3.023316750000000,0,0x83,0x13
3.023334750000000,0,0xFF,0x00
3.023352958333333,0,0xFF,0x80
3.023373541666666,0,0x07,0x02
3.023391541666667,0,0x80,0x12
3.023409625000000,0,0x00,0x1A
3.024239416666667,0,0x03,0x00
3.024257416666666,0,0x80,0x01
3.024275500000000,0,0x20,0x01
3.024296125000000,0,0x30,0x00
3.024314125000000,0,0x00,0x01
3.024332208333333,0,0x80,0x01
3.024352458333333,0,0xC7,0x01
3.024370458333333,0,0xFF,0x80
3.024388708333333,0,0xFF,0x28
3.024409583333334,0,0x07,0x01
3.024427583333333,0,0x00,0x01
3.024445666666667,0,0xF8,0x01
3.025243291666667,0,0xF0,0x12
3.025261291666667,0,0x7F,0x12
3.025279500000000,0,0xFF,0x10
3.027231166666667,0,0xB0,0x12
3.027249208333334,0,0xFF,0x12
3.027267416666667,0,0xFF,0x10
3.029218791666667,0,0xF0,0x12
3.029236833333333,0,0xFF,0x13
3.029255041666667,0,0xFF,0x10
3.031206458333333,0,0xB0,0x12
3.031224500000000,0,0xFF,0x02
3.031242708333334,0,0xFF,0x00
3.033194000000000,0,0xB8,0x10
3.033212041666667,0,0xFF,0x02
3.033230250000000,0,0xFF,0x00
3.035181625000000,0,0xB0,0x12
3.035199666666667,0,0xFF,0x10
3.035217875000000,0,0xFF,0x10
3.037169208333333,0,0x98,0x10
3.037187250000000,0,0xFF,0x12
3.037205458333333,0,0xFF,0x10
3.039157000000000,0,0xB0,0x13
3.039175000000000,0,0x7F,0x1A
3.039193208333333,0,0xFF,0x18
3.041144750000000,0,0xF0,0x12
3.041162750000000,0,0x7F,0x12
3.041180958333333,0,0xFF,0x10
3.043132416666666,0,0x90,0x12
3.043150458333333,0,0xFF,0x12
3.043168666666667,0,0xFF,0x10
3.045120208333334,0,0x98,0x1A
3.045138250000000,0,0xFF,0x12
3.045156458333333,0,0xFF,0x10
3.047108083333333,0,0xF0,0x12
3.047126125000000,0,0xFF,0x13
3.047144333333333,0,0xFF,0x10
3.049095708333333,0,0x98,0x10
3.049113750000000,0,0xFF,0x02
3.049131958333333,0,0xFF,0x00
3.051083333333333,0,0xB0,0x12
3.051101375000000,0,0xFF,0x12
3.051119583333334,0,0xFF,0x00
3.053071125000000,0,0xB0,0x12
3.053089125000000,0,0xFF,0x1A
3.053107333333333,0,0xFF,0x10
3.055058750000000,0,0xF0,0x02
3.055076791666667,0,0xFF,0x13
3.055095000000000,0,0xFF,0x10
3.055119791666667,0,0x87,0x12
3.055137833333333,0,0xFF,0x00
3.055156041666667,0,0xFF,0xB8
3.055176583333334,0,0x87,0x1A
3.055194625000000,0,0x00,0x12
3.055212708333333,0,0x0E,0x02
3.056042541666667,0,0x07,0x01
3.056060583333333,0,0x00,0x01
3.056078666666667,0,0x08,0x01
3.056099291666666,0,0x30,0x00
3.056117291666667,0,0x00,0x01
3.056135375000000,0,0x80,0x01
3.056155625000000,0,0x87,0x01
3.056173666666667,0,0xFF,0x00
3.056191875000000,0,0xFF,0x0A
3.056212750000000,0,0x07,0x01
3.056230791666667,0,0x00,0x01
3.056248833333334,0,0x0B,0x81
3.057046833333333,0,0xB0,0x12
3.057064875000000,0,0xFF,0x02
3.057083083333333,0,0xFF,0x04
3.059034208333333,0,0xB0,0x12
3.059052250000000,0,0xFF,0x1A
3.059070458333333,0,0xFF,0x14
3.061022000000000,0,0xB0,0x12
3.061040041666667,0,0xFF,0x12
3.061058250000000,0,0xFF,0x14
3.063009708333333,0,0x98,0x10
3.063027750000000,0,0xFF,0x12
3.063045958333333,0,0xFF,0x14
3.064997541666667,0,0xF0,0x12
3.065015541666666,0,0x7F,0x12
3.065033750000000,0,0xFF,0x14
3.066985416666667,0,0xB0,0x12
3.067003416666667,0,0x7F,0x12
3.067021625000000,0,0xFF,0x14
3.068973166666667,0,0xF0,0x12
3.068991208333333,0,0xFF,0x13
3.069009416666667,0,0xFF,0x14
3.070961125000000,0,0xB0,0x12
3.070979166666667,0,0xFF,0x10
3.070997375000000,0,0xFF,0x16
3.072948958333333,0,0x98,0x1A
3.072967000000000,0,0xFF,0x12
3.072985208333333,0,0xFF,0x14
3.074936833333333,0,0xB0,0x12
3.074954875000000,0,0xFF,0x10
3.074973083333334,0,0xFF,0x1C
3.076924541666667,0,0xF0,0x12
3.076942583333333,0,0xFF,0x13
3.076960791666667,0,0xFF,0x10
3.078912291666667,0,0xB0,0x12
3.078930333333334,0,0x7F,0x1A
3.078948541666667,0,0xFF,0x1C
3.080900125000000,0,0xB0,0x12
3.080918166666667,0,0xFF,0x02
3.080936375000000,0,0xFF,0x14
3.082888000000000,0,0x90,0x12
3.082906041666666,0,0xFF,0x12
3.082924250000000,0,0xFF,0x14
3.084875666666667,0,0xB0,0x12
3.084893708333333,0,0xFF,0x10
3.084911916666667,0,0xFF,0x1E
3.086863416666667,0,0x98,0x1A
3.086881458333333,0,0xFF,0x12
3.086899666666667,0,0xFF,0x14
3.086924458333333,0,0x87,0x12
3.086942500000000,0,0xFF,0x00
3.086960708333333,0,0xFF,0x88
3.086981291666667,0,0x03,0x13
3.086999291666667,0,0x80,0x1A
3.087017375000000,0,0x30,0x12
3.087847166666667,0,0x07,0x01
3.087865208333333,0,0x00,0x00
3.087883250000000,0,0x13,0x01
3.087903875000000,0,0x34,0x01
3.087921916666667,0,0x80,0x00
3.087939958333333,0,0x00,0x01
3.087960208333334,0,0x87,0x01
3.087978250000000,0,0xFF,0x00
3.087996458333333,0,0xFF,0x32
3.088017333333333,0,0x07,0x01
3.088035375000000,0,0x00,0x01
3.088053416666667,0,0x33,0x81
3.088851125000000,0,0x10,0x12
3.088869166666667,0,0xFF,0x12
3.088887375000000,0,0xFF,0x04
3.090838833333333,0,0xB0,0x12
3.090856833333333,0,0x7F,0x12
3.090875041666667,0,0xFF,0x04
3.092826458333333,0,0xB0,0x12
3.092844500000000,0,0xFF,0x1A
3.092862708333334,0,0xFF,0x04
3.094814166666667,0,0xB0,0x12
3.094832208333334,0,0xFF,0x12
3.094850416666667,0,0xFF,0x00
3.096801791666667,0,0xB0,0x12
3.096819833333333,0,0xFF,0x13
3.096838041666667,0,0xFF,0x04
3.098789416666667,0,0xB0,0x12
3.098807416666667,0,0x7F,0x12
3.098825625000000,0,0xFF,0x04
3.100777041666666,0,0xB0,0x12
3.100795083333333,0,0xFF,0x10
3.100813291666667,0,0xFF,0x04
3.102764791666667,0,0xF0,0x12
3.102782791666667,0,0x7F,0x12
3.102801000000000,0,0xFF,0x04
3.104752250000000,0,0xF0,0x12
3.104770250000000,0,0x7F,0x12
3.104788458333333,0,0xFF,0x04
3.106739708333333,0,0xB0,0x12
3.106757750000000,0,0xFF,0x10
3.106775958333333,0,0xFF,0x06
3.108727250000000,0,0x98,0x12
3.108745291666667,0,0xFF,0x02
3.108763500000000,0,0xFF,0x00
3.110714791666667,0,0xB0,0x12
3.110732791666666,0,0xFF,0x10
3.110751000000000,0,0xFF,0x04
3.112702791666667,0,0xB0,0x13
3.112720791666667,0,0x7F,0x12
3.112739000000000,0,0xFF,0x04
3.114690375000000,0,0xF0,0x12
3.114708416666667,0,0xFF,0x13
3.114726625000000,0,0xFF,0x04
3.116678041666667,0,0xF0,0x02
3.116696083333333,0,0xFF,0x13
3.116714291666667,0,0xFF,0x04
3.118665750000000,0,0xB0,0x12
3.118683750000000,0,0x7F,0x12
3.118701958333333,0,0xFF,0x04
3.118726791666667,0,0xC7,0x02
3.118744833333333,0,0xFF,0x00
3.118763041666667,0,0xFF,0xB3
3.118783583333333,0,0x07,0x12
3.118801625000000,0,0x00,0x12
3.118819666666667,0,0x14,0x12
3.119649500000000,0,0x07,0x01
3.119667541666667,0,0x00,0x01
3.119685625000000,0,0x14,0x01
3.119706208333333,0,0x34,0x81
3.119724250000000,0,0x80,0x01
3.119742333333333,0,0x80,0x01
3.119762583333333,0,0xC7,0x01
3.119780583333333,0,0xFF,0x80
3.119798791666667,0,0xFF,0x14
3.119819666666667,0,0x87,0x01
3.119837708333333,0,0x00,0x01
3.119855791666667,0,0xD4,0x01
3.120653708333333,0,0x30,0x92
3.120671750000000,0,0xFF,0x12
3.120689958333333,0,0xFF,0x08
3.122641083333333,0,0x98,0x10
3.122659125000000,0,0xFF,0x12
3.122677333333333,0,0xFF,0x08
3.124628875000000,0,0xB0,0x12
3.124646875000000,0,0xFF,0x10
3.124665083333333,0,0xFF,0x08
3.126616625000000,0,0x90,0x12
3.126634666666666,0,0xFF,0x12
3.126652875000000,0,0xFF,0x08
3.128604416666667,0,0xF0,0x12
3.128622458333334,0,0xFF,0x13
3.128640666666667,0,0xFF,0x08
3.130592291666667,0,0xF0,0x02
3.130610333333333,0,0xFF,0x13
3.130628541666667,0,0xFF,0x08
3.132580166666667,0,0xB0,0x12
3.132598166666666,0,0xFF,0x1A
3.132616375000000,0,0xFF,0x00
3.134568000000000,0,0x98,0x10
3.134586041666667,0,0xFF,0x12
3.134604250000000,0,0xFF,0x08
3.136555791666667,0,0xB0,0x13
3.136573791666667,0,0x7F,0x1A
3.136592000000000,0,0xFF,0x08
3.138543583333333,0,0xB0,0x12
3.138561583333333,0,0x7F,0x12
3.138579791666666,0,0xFF,0x08
3.140531416666667,0,0x90,0x12
3.140549458333334,0,0xFF,0x10
3.140567666666667,0,0xFF,0x08
3.142519125000000,0,0xB0,0x12
3.142537166666667,0,0xFF,0x12
3.142555375000000,0,0xFF,0x0C
3.144506875000000,0,0xB0,0x13
3.144524875000000,0,0x7F,0x1A
3.144543083333333,0,0xFF,0x08
3.146494833333333,0,0x90,0x12
3.146512875000000,0,0xFF,0x10
3.146531083333334,0,0xFF,0x08
3.148482750000000,0,0x98,0x10
3.148500791666667,0,0xFF,0x12
3.148519000000000,0,0xFF,0x08
3.150470666666667,0,0xB0,0x13
3.150488666666666,0,0x7F,0x12
3.150506875000000,0,0xFF,0x08
3.150531708333333,0,0xC7,0x02
3.150549750000000,0,0xFF,0x00
3.150567958333333,0,0xFF,0x94
3.150588500000000,0,0x07,0x10
3.150606541666667,0,0x00,0x02
3.150624625000000,0,0x3C,0x12
3.151454333333333,0,0x07,0x01
3.151472375000000,0,0x00,0x01
3.151490458333333,0,0x3C,0x00
3.151511041666667,0,0x1E,0x01
3.151529083333333,0,0xC0,0x01
3.151547166666667,0,0x80,0x01
3.151567375000000,0,0x07,0x81
3.151585416666667,0,0xFF,0x00
3.151603625000000,0,0xFF,0x1C
3.151624500000000,0,0x87,0x01
3.151642541666666,0,0x00,0x01
3.151660625000000,0,0xFC,0x01
3.152458333333333,0,0x30,0x92
3.152476375000000,0,0xFF,0x10
3.152494583333334,0,0xFF,0x18
3.154446375000000,0,0xB0,0x12
3.154464416666667,0,0xFF,0x10
3.154482625000000,0,0xFF,0x18
3.156434000000000,0,0xF0,0x12
3.156452041666667,0,0xFF,0x13
3.156470250000000,0,0xFF,0x18
3.158421791666667,0,0x98,0x1A
3.158439833333333,0,0xFF,0x12
3.158458041666667,0,0xFF,0x18
3.160409541666667,0,0x98,0x1A
3.160427583333334,0,0xFF,0x12
3.160445791666667,0,0xFF,0x18
3.162397375000000,0,0xB0,0x12
3.162415416666667,0,0xFF,0x10
3.162433625000000,0,0xFF,0x18
3.164385250000000,0,0x98,0x10
3.164403291666666,0,0xFF,0x12
3.164421500000000,0,0xFF,0x18
3.166372958333334,0,0xB0,0x12
3.166391000000000,0,0xFF,0x12
3.166409208333334,0,0xFF,0x18
3.168360791666667,0,0xB0,0x13
3.168378791666667,0,0x7F,0x1A
3.168397000000000,0,0xFF,0x18
3.170348541666667,0,0xB0,0x12
3.170366541666667,0,0x7F,0x12
3.170384750000000,0,0xFF,0x18
3.172336250000000,0,0xF0,0x02
3.172354250000000,0,0x7F,0x12
3.172372458333333,0,0xFF,0x18
3.174324250000000,0,0xB0,0x12
3.174342291666667,0,0xFF,0x13
3.174360500000000,0,0xFF,0x1C
3.176312208333333,0,0x98,0x10
3.176330250000000,0,0xFF,0x12
3.176348458333333,0,0xFF,0x18
3.178299791666667,0,0xB0,0x12
3.178317833333333,0,0xFF,0x02
3.178336041666667,0,0xFF,0x18
3.180287791666667,0,0xB0,0x12
3.180305791666667,0,0xFF,0x10
3.180324000000000,0,0xFF,0x18
3.182275291666667,0,0xF0,0x02
3.182293291666667,0,0x7F,0x12
3.182311500000000,0,0xFF,0x18
3.182336333333333,0,0xC3,0x02
3.182354333333334,0,0xFF,0x00
3.182372583333333,0,0xFF,0xBC
3.182393125000000,0,0x07,0x12
3.182411166666667,0,0x00,0x02
3.182429208333333,0,0x1F,0x12
3.183259041666667,0,0x07,0x01
3.183277083333333,0,0x00,0x01
3.183295166666666,0,0x1E,0x01
3.183315750000000,0,0x34,0x81
3.183333791666667,0,0x80,0x01
3.183351875000000,0,0x80,0x01
3.183372125000000,0,0xC7,0x01
3.183390166666667,0,0xFF,0x00
3.183408375000000,0,0xFF,0x1F
3.183429250000000,0,0x03,0x00
3.183447250000000,0,0x00,0x01
3.183465333333333,0,0x9E,0x01
3.184263000000000,0,0x18,0x1A
3.184281041666666,0,0xFF,0x12
3.184299250000000,0,0xFF,0x1C
3.186250833333333,0,0xB0,0x12
3.186268875000000,0,0xFF,0x13
3.186287083333333,0,0xFF,0x1C
3.188238291666667,0,0x98,0x1A
3.188256333333333,0,0xFF,0x12
3.188274541666666,0,0xFF,0x1C
3.190225958333333,0,0xB0,0x12
3.190244000000000,0,0xFF,0x13
3.190262208333333,0,0xFF,0x1C
3.192213833333333,0,0xB0,0x13
3.192231833333333,0,0x7F,0x1A
3.192250041666667,0,0xFF,0x1C
3.194201333333333,0,0xB0,0x12
3.194219375000000,0,0xFF,0x12
3.194237583333333,0,0xFF,0x1C
3.196189041666667,0,0xF0,0x02
3.196207041666667,0,0x7F,0x12
3.196225291666666,0,0xFF,0x1C
3.198177000000000,0,0xF0,0x02
3.198195000000000,0,0x7F,0x12
3.198213208333333,0,0xFF,0x1C
3.200164333333333,0,0xB0,0x13
3.200182333333333,0,0x7F,0x12
3.200200541666667,0,0xFF,0x1C
3.202152166666667,0,0xF0,0x02
3.202170208333333,0,0xFF,0x13
3.202188416666667,0,0xFF,0x1C
3.204140041666667,0,0xB0,0x13
3.204158041666667,0,0xFF,0x10
3.204176250000000,0,0xFF,0x1E
3.206127458333333,0,0xF0,0x12
3.206145458333333,0,0x7F,0x12
3.206163666666667,0,0xFF,0x1C
3.208115083333333,0,0x98,0x1A
3.208133125000000,0,0xFF,0x12
3.208151333333333,0,0xFF,0x1C
3.210102750000000,0,0x98,0x10
3.210120791666667,0,0xFF,0x12
3.210139000000000,0,0xFF,0x0C
3.212090291666667,0,0xB0,0x12
3.212108333333333,0,0xFF,0x02
3.212126541666667,0,0xFF,0x1C
3.214078125000000,0,0xF0,0x02
3.214096166666667,0,0xFF,0x13
3.214114375000000,0,0xFF,0x1C
3.214139166666667,0,0x87,0x12
3.214157208333333,0,0xFF,0x00
3.214175416666667,0,0xFF,0x8E
3.214195958333333,0,0x07,0x1A
3.214214000000000,0,0x00,0x12
3.214232083333334,0,0x02,0x12
3.215061916666667,0,0x07,0x00
3.215079916666667,0,0x00,0x01
3.215098000000000,0,0x46,0x01
3.215118625000000,0,0x34,0x01
3.215136625000000,0,0x80,0x01
3.215154708333333,0,0xC0,0x01
3.215174958333333,0,0xC3,0x01
3.215192958333333,0,0xFF,0x00
3.215211166666667,0,0xFF,0x46
3.215232041666667,0,0x87,0x01
3.215250083333333,0,0x00,0x01
3.215268166666667,0,0xC6,0x01
3.216065958333334,0,0x98,0x10
3.216084000000000,0,0xFF,0x12
3.216102208333333,0,0xFF,0x0C
3.218053708333333,0,0xB0,0x12
3.218071750000000,0,0xFF,0x13
3.218089958333333,0,0xFF,0x0C
3.220041416666667,0,0xB8,0x10
3.220059458333334,0,0xFF,0x02
3.220077666666667,0,0xFF,0x0C
3.222029500000000,0,0xB0,0x12
3.222047541666667,0,0xFF,0x1A
3.222065750000000,0,0xFF,0x06
3.224017083333333,0,0xB0,0x13
3.224035083333333,0,0x7F,0x1A
3.224053291666667,0,0xFF,0x04
3.226004916666667,0,0xB0,0x12
3.226022958333334,0,0xFF,0x02
3.226041166666667,0,0xFF,0x0C
3.227992666666667,0,0xB0,0x12
3.228010708333333,0,0xFF,0x02
3.228028916666667,0,0xFF,0x0C
3.229980208333334,0,0x90,0x12
3.229998250000000,0,0xFF,0x12
3.230016458333334,0,0xFF,0x0C
3.231967916666667,0,0x98,0x1A
3.231985958333333,0,0xFF,0x12
3.232004166666667,0,0xFF,0x0C
3.233955583333334,0,0x98,0x1A
3.233973625000000,0,0xFF,0x12
3.233991833333334,0,0xFF,0x0C
3.235943541666667,0,0xF0,0x02
3.235961583333333,0,0xFF,0x12
3.235979791666667,0,0xFF,0x0C
3.237931041666667,0,0xB0,0x12
3.237949083333334,0,0xFF,0x13
3.237967291666667,0,0xFF,0x0C
3.239918833333333,0,0xB0,0x13
3.239936833333333,0,0x7F,0x1A
3.239955041666667,0,0xFF,0x04
3.241906166666667,0,0xF0,0x02
3.241924166666667,0,0x7F,0x12
3.241942375000000,0,0xFF,0x0C
3.243893750000000,0,0xB0,0x12
3.243911791666667,0,0xFF,0x12
3.243930000000000,0,0xFF,0x0C
3.245881291666667,0,0xB0,0x12
3.245899333333333,0,0xFF,0x12
3.245917541666667,0,0xFF,0x0C
3.245942333333333,0,0x87,0x12
3.245960375000000,0,0xFF,0x00
3.245978583333333,0,0xFF,0xC2
3.245999125000000,0,0x07,0x1A
3.246017166666667,0,0x00,0x12
3.246035250000000,0,0x00,0x12
3.246865041666667,0,0x07,0x01
3.246883083333334,0,0x00,0x01
3.246901166666667,0,0x00,0x01
3.246921750000000,0,0x34,0x81
3.246939791666667,0,0x80,0x01
3.246957875000000,0,0x80,0x01
3.246978125000000,0,0xC3,0x01
3.246996125000000,0,0xFF,0x80
3.247014333333333,0,0xFF,0x00
3.247035250000000,0,0x07,0x01
3.247053250000000,0,0x00,0x01
3.247071333333333,0,0x80,0x01
3.247869041666667,0,0xB0,0x12
3.247887083333334,0,0xFF,0x12
3.247905291666667,0,0xFF,0x00
3.249856833333333,0,0x90,0x12
3.249874875000000,0,0xFF,0x12
3.249893083333333,0,0xFF,0x00
3.251844583333333,0,0xB0,0x12
3.251862625000000,0,0xFF,0x10
3.251880833333333,0,0xFF,0x00
3.253832375000000,0,0x90,0x10
3.253850416666667,0,0xFF,0x02
3.253868625000000,0,0xFF,0x00
3.255820208333333,0,0xB0,0x13
3.255838208333333,0,0x7F,0x12
3.255856416666667,0,0xFF,0x00
3.257808375000000,0,0xB0,0x13
3.257826375000000,0,0x7F,0x12
3.257844583333333,0,0xFF,0x00
3.259796333333334,0,0x98,0x10
3.259814375000000,0,0xFF,0x12
3.259832583333333,0,0xFF,0x00
3.261784208333333,0,0x98,0x1A
3.261802250000000,0,0xFF,0x12
3.261820458333333,0,0xFF,0x00
3.263771958333333,0,0xB0,0x12
3.263790000000000,0,0xFF,0x1A
3.263808208333333,0,0xFF,0x00
3.265760250000000,0,0xB0,0x13
3.265778250000000,0,0x7F,0x1A
3.265796458333333,0,0xFF,0x00
3.267748000000000,0,0xB0,0x12
3.267766041666667,0,0xFF,0x1A
3.267784250000000,0,0xFF,0x00
3.269736166666667,0,0xB0,0x13
3.269754166666667,0,0x7F,0x12
3.269772375000000,0,0xFF,0x00
3.271723916666667,0,0xB0,0x12
3.271741958333333,0,0xFF,0x10
3.271760166666667,0,0xFF,0x00
3.273712083333333,0,0xB0,0x12
3.273730125000000,0,0xFF,0x12
3.273748333333333,0,0xFF,0x00
3.275699708333333,0,0xB0,0x12
3.275717750000000,0,0xFF,0x02
3.275735958333333,0,0xFF,0x00
3.277687583333333,0,0xF0,0x12
3.277705625000000,0,0xFF,0x13
3.277723833333333,0,0xFF,0x00
3.277748625000000,0,0x87,0x12
3.277766666666666,0,0xFF,0x00
3.277784875000000,0,0xFF,0xC0
3.277805416666667,0,0x87,0x1A
3.277823458333333,0,0x00,0x12
3.277841541666667,0,0x38,0x02
3.278671375000000,0,0x07,0x01
3.278689416666666,0,0x00,0x01
3.278707458333333,0,0x28,0x81
3.278728083333333,0,0x36,0x01
3.278746125000000,0,0xC0,0x01
3.278764208333333,0,0x80,0x00
3.278784416666667,0,0x07,0x81
3.278802458333333,0,0xFF,0x00
3.278820666666667,0,0xFF,0x00
3.278841541666667,0,0x87,0x01
3.278859583333333,0,0x00,0x01
3.278877666666667,0,0xF8,0x01
3.279675375000000,0,0x30,0x92
3.279693416666666,0,0xFF,0x10
3.279711625000000,0,0xFF,0x10
3.281663250000000,0,0x98,0x1A
3.281681291666667,0,0xFF,0x12
3.281699500000000,0,0xFF,0x10
3.283650833333333,0,0xB0,0x12
3.283668875000000,0,0xFF,0x1A
3.283687083333333,0,0xFF,0x18
3.285638708333333,0,0x98,0x10
3.285656750000000,0,0xFF,0x12
3.285674958333333,0,0xFF,0x10
3.287626791666667,0,0xB0,0x13
3.287644791666667,0,0x7F,0x12
3.287663000000000,0,0xFF,0x10
3.289614541666666,0,0xB0,0x13
3.289632541666667,0,0x7F,0x12
3.289650750000000,0,0xFF,0x10
3.291602666666666,0,0xF0,0x02
3.291620666666667,0,0x7F,0x12
3.291638916666667,0,0xFF,0x10
3.293590375000000,0,0xB0,0x12
3.293608416666667,0,0xFF,0x02
3.293626625000000,0,0xFF,0x10
3.295578416666667,0,0xB0,0x13
3.295596416666667,0,0x7F,0x12
3.295614625000000,0,0xFF,0x10
3.297566416666667,0,0xF0,0x12
3.297584458333333,0,0xFF,0x12
3.297602666666667,0,0xFF,0x10
3.299554375000000,0,0xB0,0x12
3.299572416666666,0,0xFF,0x1A
3.299590625000000,0,0xFF,0x10
3.301542291666667,0,0xB0,0x12
3.301560333333333,0,0xFF,0x10
3.301578541666667,0,0xFF,0x10
3.303530208333334,0,0x90,0x12
3.303548250000000,0,0xFF,0x10
3.303566458333334,0,0xFF,0x18
3.305518375000000,0,0xF0,0x12
3.305536416666667,0,0xFF,0x12
3.305554625000000,0,0xFF,0x00
3.307506250000000,0,0xF0,0x02
3.307524291666667,0,0xFF,0x13
3.307542500000000,0,0xFF,0x10
3.309494250000000,0,0xB8,0x10
3.309512291666667,0,0xFF,0x02
3.309530500000000,0,0xFF,0x10
3.309555291666667,0,0x87,0x12
3.309573333333333,0,0xFF,0x00
3.309591541666667,0,0xFF,0xA8
3.309612125000000,0,0x03,0x12
3.309630125000000,0,0x80,0x12
3.309648208333333,0,0x02,0x1A
3.310477958333333,0,0x03,0x00
3.310495958333334,0,0x00,0x01
3.310514041666667,0,0x00,0x01
3.310534666666667,0,0x30,0x01
3.310552666666667,0,0x00,0x01
3.310570750000000,0,0x80,0x01
3.310591000000000,0,0x87,0x01
3.310609041666666,0,0xFF,0x00
3.310627250000000,0,0xFF,0x0A
3.310648125000000,0,0x07,0x01
3.310666166666667,0,0x00,0x00
3.310684208333333,0,0x0B,0x81
3.311482041666667,0,0x18,0x1A
3.311500083333333,0,0xFF,0x12
3.311518291666667,0,0xFF,0x14
3.313469958333333,0,0xB0,0x10
3.313488000000000,0,0xFF,0x12
3.313506208333334,0,0xFF,0x14
3.315458250000000,0,0xB8,0x10
3.315476291666667,0,0xFF,0x12
3.315494500000000,0,0xFF,0x14
3.317446208333333,0,0x90,0x12
3.317464250000000,0,0xFF,0x10
3.317482458333334,0,0xFF,0x1C
3.319434166666666,0,0xB0,0x12
3.319452208333333,0,0xFF,0x10
3.319470416666667,0,0xFF,0x1C
3.321421833333333,0,0xB0,0x12
3.321439875000000,0,0xFF,0x02
3.321458083333333,0,0xFF,0x04
3.323409750000000,0,0xB0,0x12
3.323427791666667,0,0xFF,0x02
3.323446000000000,0,0xFF,0x14
3.325397875000000,0,0x98,0x1A
3.325415916666667,0,0xFF,0x12
3.325434125000000,0,0xFF,0x14
3.327385875000000,0,0xB0,0x12
3.327403916666666,0,0xFF,0x1A
3.327422125000000,0,0xFF,0x14
3.329373625000000,0,0x98,0x1A
3.329391666666667,0,0xFF,0x12
3.329409875000000,0,0xFF,0x14
3.331361791666667,0,0xB0,0x12
3.331379833333334,0,0xFF,0x10
3.331398041666667,0,0xFF,0x1C
3.333349791666667,0,0x98,0x1A
3.333367833333333,0,0xFF,0x12
3.333386041666667,0,0xFF,0x16
3.335338000000000,0,0x98,0x1A
3.335356041666667,0,0xFF,0x12
3.335374250000000,0,0xFF,0x14
3.337326083333333,0,0xF0,0x12
3.337344125000000,0,0xFF,0x12
3.337362333333334,0,0xFF,0x10
3.339314208333333,0,0xB0,0x12
3.339332208333333,0,0x7F,0x12
3.339350458333334,0,0xFF,0x14
3.341302333333333,0,0xB0,0x13
3.341320333333333,0,0x7F,0x12
3.341338541666667,0,0xFF,0x14
3.341363375000000,0,0xC7,0x12
3.341381416666667,0,0xFF,0x00
3.341399625000000,0,0xFF,0x8A
3.341420166666667,0,0x87,0x12
3.341438208333333,0,0x00,0x12
3.341456291666667,0,0x30,0x12
3.342286291666666,0,0x03,0x00
3.342304291666667,0,0x00,0x01
3.342322375000000,0,0x18,0x01
3.342343000000000,0,0x30,0x01
3.342361000000000,0,0x00,0x01
3.342379083333333,0,0x00,0x01
3.342399333333333,0,0x87,0x01
3.342417375000000,0,0xFF,0x00
3.342435583333333,0,0xFF,0x32
3.342456458333333,0,0x07,0x01
3.342474500000000,0,0x00,0x01
3.342492583333333,0,0xF2,0x01
3.343290375000000,0,0x30,0x93
3.343308416666666,0,0x7F,0x12
3.343326625000000,0,0xFF,0x04
3.345278583333333,0,0xF0,0x12
3.345296583333333,0,0x7F,0x12
3.345314833333333,0,0xFF,0x04
3.347266875000000,0,0xF0,0x12
3.347284916666667,0,0xFF,0x12
3.347303125000000,0,0xFF,0x00
3.349254625000000,0,0xB0,0x12
3.349272666666667,0,0xFF,0x1A
3.349290875000000,0,0xFF,0x04
3.351242625000000,0,0xF0,0x02
3.351260666666667,0,0xFF,0x13
3.351278875000000,0,0xFF,0x00
3.353230833333333,0,0xF0,0x02
3.353248875000000,0,0xFF,0x12
3.353267083333333,0,0xFF,0x04
3.355218500000000,0,0xB0,0x12
3.355236541666667,0,0xFF,0x10
3.355254750000000,0,0xFF,0x04
3.357206375000000,0,0xB0,0x12
3.357224416666666,0,0xFF,0x1A
3.357242625000000,0,0xFF,0x04
3.359194291666667,0,0xB0,0x12
3.359212333333333,0,0xFF,0x12
3.359230541666667,0,0xFF,0x04
3.361182208333333,0,0xB0,0x12
3.361200250000000,0,0xFF,0x10
3.361218458333334,0,0xFF,0x04
3.363170375000000,0,0xB0,0x10
3.363188416666667,0,0xFF,0x02
3.363206625000000,0,0xFF,0x04
3.365158125000000,0,0x98,0x10
3.365176166666667,0,0xFF,0x12
3.365194375000000,0,0xFF,0x04
3.367145875000000,0,0xF0,0x12
3.367163916666667,0,0xFF,0x12
3.367182125000000,0,0xFF,0x00
3.369133875000000,0,0xF0,0x12
3.369151916666667,0,0xFF,0x13
3.369170125000000,0,0xFF,0x04
3.371121916666667,0,0xB0,0x12
3.371139958333333,0,0xFF,0x1A
3.371158166666667,0,0xFF,0x04
3.373109666666667,0,0xF0,0x12
3.373127708333334,0,0xFF,0x13
3.373145916666667,0,0xFF,0x00
3.373170708333333,0,0x87,0x10
3.373188750000000,0,0xFF,0x00
3.373206958333333,0,0xFF,0xB2
3.373227500000000,0,0x87,0x12
3.373245541666666,0,0x00,0x10
3.373263625000000,0,0x16,0x12
3.374093500000000,0,0x07,0x01
3.374111541666667,0,0x00,0x01
3.374129625000000,0,0x00,0x01
3.374150208333333,0,0x14,0x01
3.374168250000000,0,0x80,0x01
3.374186333333333,0,0xC0,0x01
3.374206583333333,0,0xC7,0x01
3.374224625000000,0,0xFF,0x00
3.374242833333333,0,0xFF,0x14
3.374263708333333,0,0x03,0x01
3.374281708333333,0,0x80,0x81
3.374299791666667,0,0x14,0x01
3.375097625000000,0,0xB0,0x13
3.375115625000000,0,0x7F,0x12
3.375133833333333,0,0xFF,0x08
3.377085833333333,0,0xF0,0x02
3.377103875000000,0,0xFF,0x13
3.377122083333334,0,0xFF,0x0C
3.379073416666666,0,0xB0,0x12
3.379091458333333,0,0xFF,0x12
3.379109666666666,0,0xFF,0x0C
3.381061375000000,0,0xB0,0x12
3.381079416666667,0,0xFF,0x02
3.381097625000000,0,0xFF,0x08
3.383049291666667,0,0xB0,0x13
3.383067291666667,0,0x7F,0x12
3.383085500000000,0,0xFF,0x08
3.385036958333334,0,0xF0,0x12
3.385055000000000,0,0xFF,0x13
3.385073208333333,0,0xFF,0x08
3.387024875000000,0,0xB0,0x12
3.387042916666667,0,0xFF,0x12
3.387061125000000,0,0xFF,0x0C
3.389012500000000,0,0xB8,0x10
3.389030541666667,0,0xFF,0x12
3.389048750000000,0,0xFF,0x08
3.391000291666667,0,0x98,0x10
3.391018333333333,0,0xFF,0x12
3.391036541666667,0,0xFF,0x08
3.392988041666666,0,0x90,0x12
3.393006083333333,0,0xFF,0x12
3.393024291666667,0,0xFF,0x08
3.394975958333333,0,0xB0,0x12
3.394994000000000,0,0xFF,0x12
3.395012208333333,0,0xFF,0x08
3.396963916666667,0,0xF0,0x02
3.396981958333333,0,0xFF,0x13
3.397000166666666,0,0xFF,0x08
3.398951541666666,0,0xB0,0x12
3.398969583333333,0,0xFF,0x1A
3.398987791666667,0,0xFF,0x00
3.400939541666667,0,0x98,0x10
3.400957583333333,0,0xFF,0x02
3.400975791666667,0,0xFF,0x08
3.402927416666667,0,0xB0,0x13
3.402945416666667,0,0x7F,0x1A
3.402963625000000,0,0xFF,0x08
3.404915208333333,0,0xB0,0x13
3.404933208333333,0,0x7F,0x1A
3.404951416666667,0,0xFF,0x08
3.404976250000000,0,0x83,0x12
3.404994250000000,0,0xFF,0x00
3.405012458333333,0,0xFF,0x14
3.405033041666667,0,0x07,0x02
3.405051083333333,0,0x00,0x12
3.405069125000000,0,0x1C,0x1A
3.405898958333333,0,0x07,0x01
3.405917000000000,0,0x00,0x01
3.405935041666666,0,0x3C,0x81
3.405955666666667,0,0x36,0x01
3.405973708333333,0,0xC0,0x01
3.405991791666667,0,0x80,0x01
3.406012000000000,0,0x07,0x01
3.406030041666666,0,0xFF,0x00
3.406048250000000,0,0xFF,0x3C
3.406069125000000,0,0x07,0x01
3.406087166666667,0,0x00,0x01
3.406105208333333,0,0x3C,0x81
3.406902875000000,0,0xB0,0x12
3.406920916666667,0,0xFF,0x13
3.406939125000000,0,0xFF,0x18
3.408890666666667,0,0xB0,0x12
3.408908708333333,0,0xFF,0x1A
3.408926916666667,0,0xFF,0x18
3.410878541666666,0,0xB0,0x12
3.410896583333333,0,0xFF,0x12
3.410914791666666,0,0xFF,0x18
3.412866333333333,0,0x98,0x1A
3.412884375000000,0,0xFF,0x12
3.412902583333334,0,0xFF,0x18
3.414854416666667,0,0xB0,0x13
3.414872416666667,0,0x7F,0x12
3.414890625000000,0,0xFF,0x18
3.416841958333333,0,0xB0,0x12
3.416860000000000,0,0xFF,0x10
3.416878208333333,0,0xFF,0x18
3.418829791666667,0,0xF0,0x02
3.418847833333333,0,0xFF,0x13
3.418866041666667,0,0xFF,0x18
3.420817666666667,0,0xB0,0x13
3.420835666666667,0,0x7F,0x12
3.420853875000000,0,0xFF,0x18
3.422805875000000,0,0xB0,0x13
3.422823875000000,0,0x7F,0x12
3.422842083333333,0,0xFF,0x18
3.424793708333334,0,0xF0,0x02
3.424811708333333,0,0x7F,0x12
3.424829958333333,0,0xFF,0x18
3.426781625000000,0,0xF0,0x02
3.426799666666667,0,0xFF,0x13
3.426817875000000,0,0xFF,0x1C
3.428769416666666,0,0x98,0x10
3.428787458333333,0,0xFF,0x12
3.428805666666667,0,0xFF,0x18
3.430757291666667,0,0xB0,0x12
3.430775291666667,0,0x7F,0x12
3.430793500000000,0,0xFF,0x18
3.432745333333334,0,0xF0,0x02
3.432763375000000,0,0xFF,0x12
3.432781583333333,0,0xFF,0x18
3.434733041666667,0,0xB0,0x12
3.434751083333333,0,0xFF,0x02
3.434769291666667,0,0xFF,0x08
3.436720958333333,0,0xF0,0x02
3.436739000000000,0,0xFF,0x13
3.436757208333333,0,0xFF,0x18
3.436782000000000,0,0x87,0x10
3.436800041666667,0,0xFF,0x00
3.436818250000000,0,0xFF,0xFC
3.436838791666667,0,0x87,0x12
3.436856833333333,0,0x00,0x12
3.436874916666667,0,0x0E,0x02
3.437704791666667,0,0x07,0x01
3.437722833333333,0,0x00,0x01
3.437740916666667,0,0x0E,0x01
3.437761500000000,0,0x1C,0x01
3.437779541666667,0,0x80,0x01
3.437797625000000,0,0xC0,0x01
3.437817875000000,0,0xC7,0x01
3.437835916666667,0,0xFF,0x00
3.437854125000000,0,0xFF,0x1E
3.437875000000000,0,0x03,0x01
3.437893041666667,0,0x00,0x00
3.437911083333333,0,0x1F,0x01
3.438708833333334,0,0x10,0x12
3.438726875000000,0,0xFF,0x12
3.438745083333334,0,0xFF,0x1E
3.440696625000000,0,0xB0,0x12
3.440714625000000,0,0xFF,0x1A
3.440732833333333,0,0xFF,0x1C
3.442684500000000,0,0xB0,0x12
3.442702541666667,0,0xFF,0x12
3.442720750000000,0,0xFF,0x0C
3.444672541666667,0,0xB0,0x12
3.444690583333333,0,0xFF,0x02
3.444708791666667,0,0xFF,0x0C
3.446660208333333,0,0xF0,0x02
3.446678208333333,0,0x7F,0x12
3.446696458333333,0,0xFF,0x1C
3.448648250000000,0,0xB0,0x12
3.448666291666667,0,0xFF,0x13
3.448684500000000,0,0xFF,0x1C
3.450635750000000,0,0xF0,0x02
3.450653750000000,0,0x7F,0x12
3.450672000000000,0,0xFF,0x1C
3.452623875000000,0,0xB0,0x12
3.452641916666667,0,0xFF,0x02
3.452660125000000,0,0xFF,0x1C
3.454611833333333,0,0xB0,0x12
3.454629875000000,0,0xFF,0x02
3.454648083333333,0,0xFF,0x1C
3.456599541666667,0,0xB0,0x13
3.456617541666667,0,0x7F,0x1A
3.456635750000000,0,0xFF,0x1C
3.458587375000000,0,0xF0,0x02
3.458605375000000,0,0x7F,0x12
3.458623625000000,0,0xFF,0x1C
3.460575250000000,0,0x98,0x1A
3.460593291666667,0,0xFF,0x12
3.460611500000000,0,0xFF,0x1C
3.462563041666667,0,0xB0,0x12
3.462581083333333,0,0xFF,0x02
3.462599291666667,0,0xFF,0x0C
3.464551000000000,0,0xB0,0x12
3.464569041666667,0,0xFF,0x1A
3.464587250000000,0,0xFF,0x1C
3.466538708333333,0,0xB0,0x12
3.466556750000000,0,0xFF,0x10
3.466574958333333,0,0xFF,0x1C
3.468526416666667,0,0x98,0x10
3.468544458333333,0,0xFF,0x12
3.468562666666667,0,0xFF,0x1C
3.468587458333333,0,0x87,0x1A
3.468605500000000,0,0xFF,0x00
3.468623708333333,0,0xFF,0x9E
3.468644291666667,0,0x03,0x13
3.468662291666667,0,0x80,0x12
3.468680375000000,0,0x66,0x10
3.469510000000000,0,0x07,0x01
3.469528000000000,0,0x00,0x01
3.469546083333333,0,0x06,0x01
3.469566666666667,0,0x34,0x81
3.469584708333334,0,0x80,0x01
3.469602791666667,0,0xC0,0x01
3.469623041666666,0,0xC3,0x01
3.469641041666667,0,0xFF,0x00
3.469659250000000,0,0xFF,0x66
3.469680125000000,0,0x87,0x01
3.469698166666667,0,0x00,0x01
3.469716250000000,0,0xC2,0x01
3.470514125000000,0,0x30,0x92
3.470532166666667,0,0xFF,0x12
3.470550375000000,0,0xFF,0x0E
3.472501541666666,0,0xB0,0x12
3.472519541666667,0,0xFF,0x18
3.472537750000000,0,0xFF,0x0E
3.474489208333333,0,0x98,0x10
3.474507250000000,0,0xFF,0x12
3.474525458333333,0,0xFF,0x0C
3.476477083333333,0,0xB0,0x12
3.476495083333333,0,0x7F,0x12
3.476513291666667,0,0xFF,0x0C
3.478464916666667,0,0xB0,0x12
3.478482916666667,0,0x7F,0x12
3.478501125000000,0,0xFF,0x0C
3.480452916666667,0,0xB0,0x13
3.480470916666667,0,0x7F,0x1A
3.480489125000000,0,0xFF,0x0C
3.482440500000000,0,0xB0,0x13
3.482458500000000,0,0x7F,0x12
3.482476708333333,0,0xFF,0x0C
3.484428458333333,0,0xF0,0x02
3.484446500000000,0,0xFF,0x12
3.484464708333333,0,0xFF,0x0C
3.486416125000000,0,0x98,0x10
3.486434166666667,0,0xFF,0x12
3.486452375000000,0,0xFF,0x0C
3.488404083333333,0,0xB0,0x12
3.488422083333333,0,0xFF,0x1A
3.488440291666667,0,0xFF,0x04
3.490391833333333,0,0xB0,0x12
3.490409875000000,0,0xFF,0x1A
3.490428083333333,0,0xFF,0x0C
3.492379458333333,0,0x98,0x1A
3.492397500000000,0,0xFF,0x12
3.492415708333333,0,0xFF,0x0C
3.494367208333333,0,0x98,0x1A
3.494385250000000,0,0xFF,0x12
3.494403458333333,0,0xFF,0x0C
3.496355083333333,0,0x98,0x1A
3.496373125000000,0,0xFF,0x12
3.496391333333333,0,0xFF,0x0C
3.498342875000000,0,0x98,0x1A
3.498360916666666,0,0xFF,0x12
3.498379125000000,0,0xFF,0x0C
3.500330458333333,0,0xB0,0x12
3.500348500000000,0,0xFF,0x10
3.500366708333333,0,0xFF,0x04
3.500391541666667,0,0x83,0x13
3.500409541666667,0,0xFF,0x00
3.500427750000000,0,0xFF,0xE6
3.500448333333333,0,0x03,0x12
3.500466333333333,0,0x80,0x12
3.500484416666667,0,0x00,0x10
3.501314291666667,0,0x03,0x00
3.501332291666666,0,0x80,0x01
3.501350375000000,0,0x00,0x01
3.501371000000000,0,0x30,0x01
3.501389000000000,0,0x00,0x81
3.501407083333334,0,0x00,0x01
3.501427333333333,0,0x87,0x01
3.501445375000000,0,0xFF,0x00
3.501463583333333,0,0xFF,0x00
3.501484458333334,0,0x07,0x01
3.501502500000000,0,0x00,0x01
3.501520583333333,0,0x80,0x00
3.502318291666667,0,0x30,0x92
3.502336333333333,0,0xFF,0x10
3.502354541666667,0,0xFF,0x00
3.504306166666667,0,0x98,0x12
3.504324208333333,0,0xFF,0x12
3.504342416666667,0,0xFF,0x00
3.506294041666667,0,0xB0,0x12
3.506312083333333,0,0xFF,0x12
3.506330291666667,0,0xFF,0x00
3.508282041666666,0,0x98,0x1A
3.508300083333333,0,0xFF,0x12
3.508318291666667,0,0xFF,0x00
3.510270000000000,0,0x98,0x10
3.510288041666667,0,0xFF,0x12
3.510306250000000,0,0xFF,0x00
3.512257916666667,0,0xB0,0x12
3.512275958333333,0,0xFF,0x10
3.512294166666666,0,0xFF,0x00
3.514246000000000,0,0xF0,0x12
3.514264041666667,0,0xFF,0x02
3.514282250000000,0,0xFF,0x00
3.516234125000000,0,0x98,0x10
3.516252166666667,0,0xFF,0x12
3.516270375000000,0,0xFF,0x00
3.518221708333333,0,0x90,0x12
3.518239750000000,0,0xFF,0x12
3.518257958333333,0,0xFF,0x00
3.520209750000000,0,0xF0,0x02
3.520227750000000,0,0x7F,0x12
3.520246000000000,0,0xFF,0x00
3.522197375000000,0,0xB0,0x12
3.522215416666667,0,0xFF,0x12
3.522233625000000,0,0xFF,0x00
3.524185250000000,0,0xB0,0x12
3.524203291666667,0,0xFF,0x12
3.524221500000000,0,0xFF,0x00
3.526173208333333,0,0xB0,0x12
3.526191250000000,0,0xFF,0x12
3.526209458333333,0,0xFF,0x00
3.528161375000000,0,0xF0,0x12
3.528179416666667,0,0xFF,0x12
3.528197625000000,0,0xFF,0x00
3.530149416666667,0,0xF0,0x12
3.530167458333333,0,0xFF,0x13
3.530185666666667,0,0xFF,0x00
3.532144000000000,0,0xB0,0x12
3.532162000000000,0,0x7F,0x12
3.532180208333333,0,0xFF,0x00
3.532205041666667,0,0xC7,0x12
3.532223083333333,0,0xFF,0x00
3.532241291666667,0,0xFF,0x80
3.532261833333334,0,0x07,0x1A
3.532279875000000,0,0x00,0x12
3.532297958333333,0,0x38,0x02
3.533121041666667,0,0x03,0x01
3.533139041666667,0,0x80,0x01
3.533157125000000,0,0x00,0x01
3.533177750000000,0,0x30,0x01
3.533195750000000,0,0x00,0x81
3.533213833333333,0,0x00,0x01
3.533234083333333,0,0x07,0x01
3.533252125000000,0,0xFF,0x00
3.533270333333333,0,0xFF,0x28
3.533291208333333,0,0x07,0x01
3.533309250000000,0,0x00,0x01
3.533327333333333,0,0xFC,0x01
3.534139666666666,0,0x30,0x92
3.534157708333333,0,0x7F,0x1A
3.534175916666667,0,0xFF,0x10
3.536132291666667,0,0xB0,0x12
3.536150333333334,0,0xFF,0x10
3.536168541666667,0,0xFF,0x10
3.538125250000000,0,0xB0,0x12
3.538143291666667,0,0xFF,0x02
3.538161500000000,0,0xFF,0x10
3.540119291666667,0,0xB0,0x12
3.540137333333333,0,0xFF,0x02
3.540155541666667,0,0xFF,0x00
3.542108916666667,0,0xF0,0x02
3.542126916666667,0,0x7F,0x12
3.542145166666667,0,0xFF,0x10
3.544105708333333,0,0x98,0x1A
3.544123750000000,0,0xFF,0x12
3.544141958333333,0,0xFF,0x10
3.546095541666667,0,0xF0,0x12
3.546113541666667,0,0x7F,0x12
3.546131750000000,0,0xFF,0x10
3.548089958333333,0,0xB0,0x12
3.548107958333333,0,0x7F,0x12
3.548126166666667,0,0xFF,0x10
3.550080208333333,0,0xB0,0x13
3.550098208333333,0,0x7F,0x1A
3.550116416666667,0,0xFF,0x10
3.552075208333333,0,0x98,0x10
3.552093250000000,0,0xFF,0x12
3.552111458333334,0,0xFF,0x10
3.554068125000000,0,0x98,0x1A
3.554086166666667,0,0xFF,0x12
3.554104375000000,0,0xFF,0x10
3.556059708333333,0,0xB0,0x12
3.556077750000000,0,0xFF,0x02
3.556095958333333,0,0xFF,0x10
3.558051250000000,0,0xF0,0x12
3.558069291666667,0,0xFF,0x12
3.558087500000000,0,0xFF,0x00
3.560040041666667,0,0xB0,0x12
3.560058083333333,0,0xFF,0x02
3.560076291666667,0,0xFF,0x10
3.562036791666667,0,0x98,0x1A
3.562054833333333,0,0xFF,0x12
3.562073041666667,0,0xFF,0x10
3.564030166666666,0,0xB0,0x12
3.564048208333333,0,0xFF,0x13
3.564066416666666,0,0xFF,0x10
3.564091208333333,0,0xC7,0x02
3.564109208333333,0,0xFF,0x00
3.564127416666667,0,0xFF,0x28
3.564148000000000,0,0x03,0x02
3.564166000000000,0,0x80,0x12
3.564184083333333,0,0x00,0x10
3.564927333333333,0,0x07,0x01
3.564945333333333,0,0x00,0x01
3.564963416666667,0,0x08,0x01
3.564984041666666,0,0x30,0x00
3.565002041666667,0,0x00,0x01
3.565020125000000,0,0x80,0x01
3.565040375000000,0,0x87,0x01
3.565058416666667,0,0xFF,0x00
3.565076625000000,0,0xFF,0x0E
3.565097500000000,0,0x07,0x01
3.565115541666667,0,0x00,0x00
3.565133583333334,0,0x0B,0x81
3.566517458333333,0,0xF0,0x12
3.566535500000000,0,0xFF,0x13
3.566553708333333,0,0xFF,0x14
3.568508416666667,0,0xB0,0x12
3.568526416666667,0,0x7F,0x12
3.568544625000000,0,0xFF,0x14
3.570498333333334,0,0x98,0x10
3.570516375000000,0,0xFF,0x02
3.570534583333334,0,0xFF,0x14
3.572488750000000,0,0xF0,0x12
3.572506791666667,0,0xFF,0x13
3.572525000000000,0,0xFF,0x14
3.574478583333333,0,0xB0,0x12
3.574496625000000,0,0xFF,0x10
3.574514833333333,0,0xFF,0x1C
3.576474291666667,0,0xF0,0x12
3.576492291666667,0,0x7F,0x12
3.576510500000000,0,0xFF,0x14
3.578466458333333,0,0xB0,0x12
3.578484458333334,0,0xFF,0x10
3.578502666666667,0,0xFF,0x16
3.580455625000000,0,0x98,0x1A
3.580473666666667,0,0xFF,0x12
3.580491875000000,0,0xFF,0x14
3.582449333333333,0,0x98,0x10
3.582467375000000,0,0xFF,0x12
3.582485583333333,0,0xFF,0x14
3.584440666666667,0,0xB0,0x12
3.584458708333333,0,0xFF,0x10
3.584476916666667,0,0xFF,0x1E
3.586438375000000,0,0x98,0x10
3.586456416666667,0,0xFF,0x12
3.586474625000000,0,0xFF,0x14
3.588437333333333,0,0x98,0x12
3.588455375000000,0,0xFF,0x02
3.588473583333333,0,0xFF,0x04
3.590435958333333,0,0x98,0x1A
3.590454000000000,0,0xFF,0x12
3.590472208333333,0,0xFF,0x14
3.592425791666667,0,0xB0,0x12
3.592443833333333,0,0xFF,0x12
3.592462041666667,0,0xFF,0x10
3.594423791666667,0,0xB0,0x12
3.594441833333333,0,0xFF,0x02
3.594460041666667,0,0xFF,0x14
3.596414875000000,0,0xB0,0x12
3.596432916666667,0,0xFF,0x12
3.596451125000000,0,0xFF,0x10
3.596475916666667,0,0x87,0x12
3.596493958333333,0,0xFF,0x00
3.596512166666667,0,0xFF,0x8A
3.596532708333333,0,0x07,0x1A
3.596550750000000,0,0x00,0x12
3.596568833333333,0,0x32,0x02
3.596730250000000,0,0x07,0x01
3.596748291666667,0,0x00,0x00
3.596766333333334,0,0x1A,0x01
3.596786958333333,0,0x34,0x01
3.596804958333333,0,0x00,0x81
3.596823041666667,0,0x80,0x01
3.596843291666667,0,0x87,0x01
3.596861333333333,0,0xFF,0x00
3.596879541666667,0,0xFF,0x33
3.596900416666667,0,0x03,0x00
3.596918416666667,0,0x00,0x01
3.596936500000000,0,0xB8,0x01
3.598410666666667,0,0x30,0x92
3.598428708333334,0,0xFF,0x12
3.598446916666667,0,0xFF,0x04
3.600402583333334,0,0x98,0x10
3.600420625000000,0,0xFF,0x12
3.600438833333333,0,0xFF,0x04
3.602393583333333,0,0xB0,0x12
3.602411583333333,0,0xFF,0x10
3.602429791666667,0,0xFF,0x06
3.604383500000000,0,0xF0,0x12
3.604401541666667,0,0xFF,0x13
3.604419750000000,0,0xFF,0x04
3.606371458333333,0,0x90,0x12
3.606389500000000,0,0xFF,0x02
3.606407708333333,0,0xFF,0x00
3.608367083333333,0,0xF0,0x12
3.608385125000000,0,0xFF,0x13
3.608403333333333,0,0xFF,0x04
3.610358208333333,0,0xF0,0x02
3.610376208333333,0,0x7F,0x13
3.610394458333333,0,0xFF,0x04
3.612349166666667,0,0x90,0x12
3.612367208333333,0,0xFF,0x12
3.612385416666667,0,0xFF,0x06
3.614347125000000,0,0x98,0x1A
3.614365166666667,0,0xFF,0x12
3.614383375000000,0,0xFF,0x04
3.616339291666667,0,0xB0,0x12
3.616357333333333,0,0xFF,0x02
3.616375541666667,0,0xFF,0x04
3.618336541666667,0,0xB0,0x12
3.618354583333333,0,0xFF,0x10
3.618372791666667,0,0xFF,0x06
3.620331750000000,0,0x98,0x10
3.620349791666666,0,0xFF,0x12
3.620368000000000,0,0xFF,0x04
3.622329083333333,0,0xF0,0x02
3.622347125000000,0,0xFF,0x13
3.622365333333333,0,0xFF,0x04
3.624321375000000,0,0x90,0x12
3.624339416666666,0,0xFF,0x12
3.624357625000000,0,0xFF,0x06
3.626318541666667,0,0xB0,0x13
3.626336541666667,0,0x7F,0x12
3.626354750000000,0,0xFF,0x04
3.628307208333333,0,0x90,0x12
3.628325250000000,0,0xFF,0x12
3.628343458333333,0,0xFF,0x06
3.628368291666667,0,0x83,0x13
3.628386291666667,0,0xFF,0x00
3.628404500000000,0,0xFF,0x92
3.628425083333333,0,0x07,0x02
3.628443125000000,0,0x00,0x13
3.628461166666667,0,0x14,0x12
3.628533416666667,0,0x07,0x01
3.628551458333333,0,0x00,0x01
3.628569541666667,0,0x00,0x01
3.628590125000000,0,0x1C,0x01
3.628608166666667,0,0x80,0x01
3.628626250000000,0,0xC0,0x01
3.628646500000000,0,0xC3,0x01
3.628664500000000,0,0xFF,0x80
3.628682708333333,0,0xFF,0x14
3.628703583333333,0,0x83,0x00
3.628721625000000,0,0x00,0x01
3.628739708333333,0,0x96,0x01
3.630298083333333,0,0xB0,0x12
3.630316125000000,0,0xFF,0x02
3.630334333333333,0,0xFF,0x08
3.632291333333333,0,0xB0,0x12
3.632309375000000,0,0xFF,0x13
3.632327583333333,0,0xFF,0x08
3.634288375000000,0,0xF0,0x02
3.634306416666667,0,0xFF,0x13
3.634324625000000,0,0xFF,0x08
3.636282458333334,0,0xB0,0x12
3.636300458333333,0,0x7F,0x12
3.636318708333333,0,0xFF,0x08
3.638274291666667,0,0xB0,0x12
3.638292333333333,0,0xFF,0x10
3.638310541666667,0,0xFF,0x00
3.640262625000000,0,0xF0,0x12
3.640280666666666,0,0xFF,0x12
3.640298875000000,0,0xFF,0x0C
3.642259625000000,0,0xB0,0x13
3.642277625000000,0,0x7F,0x12
3.642295833333333,0,0xFF,0x08
3.644252708333333,0,0x98,0x10
3.644270750000000,0,0xFF,0x12
3.644288958333334,0,0xFF,0x08
3.646242375000000,0,0xF0,0x02
3.646260416666667,0,0xFF,0x13
3.646278625000000,0,0xFF,0x0C
3.648233833333333,0,0xB0,0x12
3.648251875000000,0,0xFF,0x12
3.648270083333333,0,0xFF,0x08
3.650225166666667,0,0xB0,0x12
3.650243166666667,0,0x7F,0x12
3.650261375000000,0,0xFF,0x08
3.652217250000000,0,0xB0,0x13
3.652235250000000,0,0x7F,0x12
3.652253458333333,0,0xFF,0x08
3.654209250000000,0,0x98,0x10
3.654227291666666,0,0xFF,0x12
3.654245500000000,0,0xFF,0x08
3.656201125000000,0,0xB0,0x12
3.656219166666667,0,0xFF,0x1A
3.656237375000000,0,0xFF,0x00
3.658198791666667,0,0xB0,0x13
3.658216791666667,0,0x7F,0x12
3.658235000000000,0,0xFF,0x08
3.660186625000000,0,0xF0,0x02
3.660204625000000,0,0x7F,0x12
3.660222875000000,0,0xFF,0x08
3.660247666666667,0,0x87,0x12
3.660265708333333,0,0xFF,0x00
3.660283916666667,0,0xFF,0x84
3.660304458333334,0,0x87,0x1A
3.660322500000000,0,0x00,0x12
3.660340791666667,0,0x1C,0x12
3.661333041666667,0,0x03,0x01
3.661351041666667,0,0x80,0x01
3.661369125000000,0,0x1E,0x01
3.661389750000000,0,0x30,0x01
3.661407750000000,0,0x00,0x81
3.661425833333333,0,0x00,0x01
3.661446083333333,0,0x87,0x01
3.661464125000000,0,0xFF,0x00
3.661482333333333,0,0xFF,0x3C
3.661503208333333,0,0x07,0x01
3.661521250000000,0,0x00,0x01
3.661539291666667,0,0x3C,0x81
3.662923666666666,0,0xB0,0x12
3.662941708333333,0,0xFF,0x12
3.662959916666667,0,0xFF,0x0C
3.664923416666667,0,0xB0,0x12
3.664941458333333,0,0xFF,0x02
3.664959666666667,0,0xFF,0x18
3.666920125000000,0,0xB0,0x13
3.666938125000000,0,0x7F,0x12
3.666956333333333,0,0xFF,0x18
3.668909750000000,0,0x98,0x1A
3.668927791666666,0,0xFF,0x12
3.668946000000000,0,0xFF,0x18
3.670906666666667,0,0xB0,0x13
3.670924666666667,0,0x7F,0x12
3.670942875000000,0,0xFF,0x18
3.672894500000000,0,0xB0,0x12
3.672912541666667,0,0xFF,0x1A
3.672930750000000,0,0xFF,0x18
3.674888041666667,0,0xB0,0x12
3.674906083333333,0,0xFF,0x12
3.674924291666667,0,0xFF,0x0C
3.676880208333333,0,0x90,0x12
3.676898250000000,0,0xFF,0x12
3.676916458333333,0,0xFF,0x18
3.678873458333333,0,0x98,0x12
3.678891500000000,0,0xFF,0x12
3.678909708333333,0,0xFF,0x18
3.680869666666667,0,0x90,0x12
3.680887708333333,0,0xFF,0x10
3.680905916666667,0,0xFF,0x18
3.682857791666667,0,0x90,0x12
3.682875833333333,0,0xFF,0x12
3.682894041666667,0,0xFF,0x18
3.684851333333333,0,0x90,0x12
3.684869375000000,0,0xFF,0x10
3.684887583333333,0,0xFF,0x18
3.686848541666667,0,0xB0,0x10
3.686866583333333,0,0xFF,0x02
3.686884791666666,0,0xFF,0x18
3.688839041666667,0,0x90,0x12
3.688857083333333,0,0xFF,0x10
3.688875291666667,0,0xFF,0x18
3.690839000000000,0,0x90,0x12
3.690857041666667,0,0xFF,0x12
3.690875250000000,0,0xFF,0x18
3.692827833333333,0,0xF0,0x02
3.692845833333333,0,0x7F,0x12
3.692864041666667,0,0xFF,0x18
3.692888875000000,0,0xC7,0x12
3.692906916666667,0,0xFF,0x00
3.692925125000000,0,0xFF,0xBC
3.692945666666667,0,0x07,0x10
3.692963708333334,0,0x00,0x02
3.692981791666667,0,0x1E,0x12
3.693137708333333,0,0x07,0x01
3.693155750000000,0,0x00,0x01
3.693173833333333,0,0x0F,0x00
3.693194416666667,0,0x1E,0x01
3.693212458333333,0,0xC0,0x01
3.693230541666667,0,0xC0,0x01
3.693250791666667,0,0x83,0x00
3.693268791666667,0,0xFF,0x00
3.693287000000000,0,0xFF,0x1E
3.693307875000000,0,0x87,0x01
3.693325916666667,0,0x00,0x01
3.693344000000000,0,0xDE,0x01
3.694826500000000,0,0x30,0x92
3.694844541666667,0,0xFF,0x10
3.694862750000000,0,0xFF,0x1C
3.696825625000000,0,0x98,0x1A
3.696843666666667,0,0xFF,0x12
3.696861875000000,0,0xFF,0x1C
3.698825291666667,0,0xB0,0x13
3.698843333333333,0,0x7F,0x1A
3.698861541666667,0,0xFF,0x1C
3.700819000000000,0,0xF0,0x12
3.700837041666666,0,0xFF,0x12
3.700855250000000,0,0xFF,0x1C
3.702817791666666,0,0x90,0x12
3.702835833333333,0,0xFF,0x12
3.702854041666667,0,0xFF,0x1C
3.704816708333333,0,0xB0,0x12
3.704834750000000,0,0xFF,0x12
3.704852958333333,0,0xFF,0x0C
3.706810791666667,0,0xB0,0x13
3.706828833333333,0,0x7F,0x1A
3.706847041666667,0,0xFF,0x1C
3.708805666666667,0,0xB0,0x12
3.708823708333334,0,0xFF,0x10
3.708841916666667,0,0xFF,0x1C
3.710793375000000,0,0x98,0x1A
3.710811416666667,0,0xFF,0x12
3.710829625000000,0,0xFF,0x1E
3.712782833333333,0,0xB0,0x13
3.712800833333334,0,0x7F,0x1A
3.712819041666667,0,0xFF,0x1C
3.714779666666667,0,0x98,0x1A
3.714797708333333,0,0xFF,0x12
3.714815916666667,0,0xFF,0x1C
3.716773083333333,0,0x98,0x10
3.716791125000000,0,0xFF,0x12
3.716809333333333,0,0xFF,0x1C
3.718762166666667,0,0xB0,0x12
3.718780166666667,0,0xFF,0x10
3.718798375000000,0,0xFF,0x1E
3.720756291666667,0,0x98,0x1A
3.720774333333333,0,0xFF,0x12
3.720792541666667,0,0xFF,0x1C
3.722743958333333,0,0x90,0x12
3.722762000000000,0,0xFF,0x10
3.722780208333333,0,0xFF,0x1E
3.724739458333334,0,0xF0,0x12
3.724757458333333,0,0x7F,0x12
3.724775666666666,0,0xFF,0x1C
3.724800500000000,0,0xC7,0x12
3.724818541666667,0,0xFF,0x00
3.724836750000000,0,0xFF,0x9F
3.724857291666666,0,0x07,0x12
3.724875333333333,0,0x00,0x12
3.724893375000000,0,0x47,0x12
3.724941583333333,0,0x07,0x01
3.724959625000000,0,0x00,0x01
3.724977708333333,0,0x06,0x01
3.724998291666667,0,0x34,0x81
3.725016333333333,0,0x80,0x01
3.725034416666666,0,0x80,0x01
3.725054666666667,0,0xC3,0x01
3.725072666666667,0,0xFF,0x80
3.725090875000000,0,0xFF,0x46
3.725111791666667,0,0x07,0x01
3.725129791666667,0,0x00,0x01
3.725147875000000,0,0xC6,0x01
3.726735458333333,0,0xB0,0x12
3.726753500000000,0,0xFF,0x02
3.726771708333333,0,0xFF,0x0C
3.728727791666667,0,0xB0,0x12
3.728745833333333,0,0xFF,0x10
3.728764041666667,0,0xFF,0x0E
3.730722541666667,0,0xB0,0x12
3.730740583333333,0,0xFF,0x1A
3.730758791666667,0,0xFF,0x04
3.732714166666667,0,0x90,0x12
3.732732208333333,0,0xFF,0x10
3.732750416666667,0,0xFF,0x0E
3.734701791666667,0,0xB0,0x12
3.734719791666667,0,0x7F,0x12
3.734738000000000,0,0xFF,0x0C
3.736690333333333,0,0xB0,0x12
3.736708375000000,0,0xFF,0x02
3.736726583333333,0,0xFF,0x0C
3.738684291666666,0,0x98,0x1A
3.738702333333333,0,0xFF,0x12
3.738720541666666,0,0xFF,0x0C
3.740672750000000,0,0xB0,0x10
3.740690791666667,0,0xFF,0x02
3.740709000000000,0,0xFF,0x0C
3.742663708333333,0,0xB0,0x13
3.742681708333333,0,0x7F,0x1A
3.742699916666667,0,0xFF,0x0C
3.744654583333333,0,0xF0,0x02
3.744672625000000,0,0xFF,0x12
3.744690833333333,0,0xFF,0x0C
3.746649291666666,0,0xF0,0x02
3.746667333333333,0,0xFF,0x12
3.746685541666666,0,0xFF,0x0C
3.748640291666667,0,0xB0,0x13
3.748658333333333,0,0x7F,0x12
3.748676541666667,0,0xFF,0x0C
3.750638041666666,0,0xB0,0x12
3.750656083333333,0,0xFF,0x13
3.750674291666667,0,0xFF,0x0C
3.752627208333333,0,0xB0,0x12
3.752645250000000,0,0xFF,0x10
3.752663458333333,0,0xFF,0x0C
3.754619458333333,0,0xB0,0x12
3.754637500000000,0,0xFF,0x02
3.754655708333333,0,0xFF,0x0C
3.756611708333333,0,0xB0,0x12
3.756629750000000,0,0xFF,0x12
3.756647958333333,0,0xFF,0x0C
3.756672750000000,0,0x87,0x10
3.756690791666667,0,0xFF,0x00
3.756709000000000,0,0xFF,0xC6
3.756729583333333,0,0x07,0x13
3.756747416666667,0,0x00,0x12
3.756765500000000,0,0x00,0x02
3.757738875000000,0,0x07,0x01
3.757756916666667,0,0x00,0x01
3.757775000000000,0,0x00,0x00
3.757795583333333,0,0x1E,0x01
3.757813625000000,0,0xC0,0x01
3.757831708333333,0,0x80,0x00
3.757851958333333,0,0x83,0x01
3.757869958333333,0,0xFF,0x00
3.757888166666667,0,0xFF,0x00
3.757909041666667,0,0x07,0x01
3.757927083333333,0,0x00,0x01
3.757945166666667,0,0xC0,0x01
3.759333166666667,0,0x18,0x1A
3.759351208333333,0,0xFF,0x12
3.759369416666666,0,0xFF,0x00
3.761332541666667,0,0x98,0x10
3.761350583333333,0,0xFF,0x02
3.761368791666666,0,0xFF,0x00
3.763328041666667,0,0xB0,0x10
3.763346083333333,0,0xFF,0x02
3.763364291666667,0,0xFF,0x00
3.765316791666667,0,0x98,0x10
3.765334833333333,0,0xFF,0x02
3.765353041666667,0,0xFF,0x00
3.767311791666667,0,0xF0,0x12
3.767329791666667,0,0x7F,0x12
3.767348000000000,0,0xFF,0x00
3.769311166666667,0,0xB0,0x13
3.769329166666667,0,0x7F,0x12
3.769347375000000,0,0xFF,0x00
3.771300125000000,0,0xB0,0x12
3.771318166666667,0,0xFF,0x10
3.771336375000000,0,0xFF,0x00
3.773297583333334,0,0xB0,0x12
3.773315625000000,0,0xFF,0x12
3.773333791666666,0,0xFF,0x00
3.775286208333333,0,0x98,0x10
3.775304250000000,0,0xFF,0x12
3.775322458333333,0,0xFF,0x00
3.777274541666667,0,0xF0,0x02
3.777292541666667,0,0x7F,0x12
3.777310791666667,0,0xFF,0x00
3.779264458333333,0,0xF0,0x12
3.779282500000000,0,0xFF,0x13
3.779300708333333,0,0xFF,0x00
3.781256791666667,0,0xF0,0x02
3.781274791666667,0,0x7F,0x12
3.781293000000000,0,0xFF,0x00
3.783256833333333,0,0xB0,0x13
3.783274833333333,0,0x7F,0x1A
3.783293041666667,0,0xFF,0x00
3.785250625000000,0,0xB0,0x12
3.785268666666667,0,0xFF,0x10
3.785286875000000,0,0xFF,0x00
3.787250000000000,0,0xB0,0x12
3.787268041666667,0,0xFF,0x12
3.787286250000000,0,0xFF,0x00
3.789242000000000,0,0xB0,0x12
3.789260041666667,0,0xFF,0x12
3.789278250000000,0,0xFF,0x00
3.789303041666667,0,0x87,0x12
3.789321083333333,0,0xFF,0x00
3.789339291666667,0,0xFF,0x80
3.789359833333333,0,0x07,0x1A
3.789377875000000,0,0x00,0x12
3.789395958333333,0,0x3C,0x13
3.789540000000000,0,0x03,0x00
3.789558000000000,0,0x80,0x01
3.789576083333333,0,0x20,0x01
3.789596708333333,0,0x30,0x00
3.789614708333333,0,0x00,0x01
3.789632791666667,0,0x80,0x01
3.789653041666666,0,0xC7,0x01
3.789671083333333,0,0xFF,0x00
3.789689291666666,0,0xFF,0x28
3.789710166666667,0,0x07,0x01
3.789728166666666,0,0x00,0x01
3.789746250000000,0,0xA8,0x01
3.791241750000000,0,0xB0,0x12
3.791259750000000,0,0xFF,0x10
3.791277958333333,0,0xFF,0x10
3.793232250000000,0,0xB8,0x12
3.793250291666667,0,0xFF,0x02
3.793268500000000,0,0xFF,0x00
3.795222208333333,0,0x90,0x12
3.795240250000000,0,0xFF,0x12
3.795258458333334,0,0xFF,0x10
3.797222291666666,0,0x98,0x1A
3.797240333333333,0,0xFF,0x12
3.797258541666667,0,0xFF,0x10
3.799210708333333,0,0x98,0x1A
3.799228750000000,0,0xFF,0x12
3.799246958333333,0,0xFF,0x10
3.801203000000000,0,0xF0,0x12
3.801221041666667,0,0xFF,0x12
3.801239250000000,0,0xFF,0x10
3.803197958333334,0,0xB0,0x12
3.803216000000000,0,0xFF,0x10
3.803234208333333,0,0xFF,0x10
3.805187125000000,0,0xB0,0x12
3.805205166666667,0,0xFF,0x10
3.805223375000000,0,0xFF,0x10
3.807178875000000,0,0x98,0x1A
3.807196916666667,0,0xFF,0x12
3.807215125000000,0,0xFF,0x10
3.809170458333333,0,0xF0,0x12
3.809188500000000,0,0xFF,0x13
3.809206708333333,0,0xFF,0x10
3.811160208333333,0,0xB0,0x13
3.811178208333333,0,0x7F,0x12
3.811196416666667,0,0xFF,0x10
3.813151791666667,0,0xB0,0x13
3.813169791666667,0,0x7F,0x1A
3.813188000000000,0,0xFF,0x18
3.815144416666667,0,0x98,0x1A
3.815162458333333,0,0xFF,0x12
3.815180666666667,0,0xFF,0x10
3.817135208333333,0,0x98,0x10
3.817153250000000,0,0xFF,0x12
3.817171458333333,0,0xFF,0x10
3.819133208333333,0,0xB0,0x12
3.819151250000000,0,0xFF,0x02
3.819169458333334,0,0xFF,0x00
3.821126875000000,0,0x98,0x1A
3.821144916666666,0,0xFF,0x12
3.821163125000000,0,0xFF,0x10
3.821187916666667,0,0x87,0x12
3.821205958333334,0,0xFF,0x00
3.821224166666667,0,0xFF,0xA8
3.821244708333333,0,0x87,0x12
3.821262750000000,0,0x00,0x10
3.821280833333333,0,0x0A,0x12
3.821341666666667,0,0x07,0x01
3.821359708333333,0,0x00,0x01
3.821377791666666,0,0x0F,0x00
3.821398375000000,0,0x1E,0x01
3.821416416666667,0,0xC0,0x01
3.821434458333334,0,0x00,0x81
3.821454708333333,0,0x07,0x01
3.821472750000000,0,0xFF,0x00
3.821490958333333,0,0xFF,0x0A
3.821511833333334,0,0x07,0x01
3.821529875000000,0,0x00,0x00
3.821547916666667,0,0x0B,0x81
3.823114958333333,0,0xF0,0x02
3.823132958333333,0,0x7F,0x12
3.823151208333333,0,0xFF,0x14
3.825102750000000,0,0xF0,0x02
3.825120791666667,0,0xFF,0x12
3.825139000000000,0,0xFF,0x14
3.827100333333334,0,0xB0,0x12
3.827118375000000,0,0xFF,0x10
3.827136583333334,0,0xFF,0x16
3.829094000000000,0,0xB0,0x13
3.829112000000000,0,0x7F,0x1A
3.829130208333333,0,0xFF,0x14
3.831083583333333,0,0xF0,0x02
3.831101583333334,0,0x7F,0x12
3.831119833333333,0,0xFF,0x14
3.833076541666667,0,0xF0,0x12
3.833094541666667,0,0x7F,0x12
3.833112750000000,0,0xFF,0x14
3.835064875000000,0,0xF0,0x02
3.835082875000000,0,0x7F,0x12
3.835101125000000,0,0xFF,0x14
3.837057083333333,0,0xB0,0x12
3.837075125000000,0,0xFF,0x12
3.837093333333333,0,0xFF,0x14
3.839045708333333,0,0x98,0x18
3.839063750000000,0,0xFF,0x02
3.839081958333333,0,0xFF,0x00
3.841038083333333,0,0xB0,0x12
3.841056125000000,0,0xFF,0x12
3.841074333333333,0,0xFF,0x14
3.843029875000000,0,0xF0,0x12
3.843047875000000,0,0x7F,0x12
3.843066083333333,0,0xFF,0x1C
3.845021166666667,0,0x90,0x12
3.845039208333333,0,0xFF,0x12
3.845057416666667,0,0xFF,0x14
3.847016458333333,0,0xB0,0x13
3.847034458333333,0,0xFF,0x18
3.847052666666666,0,0xFF,0x16
3.849008833333333,0,0xB0,0x12
3.849026875000000,0,0xFF,0x13
3.849045083333333,0,0xFF,0x14
3.851003708333333,0,0xF0,0x02
3.851021708333333,0,0x7F,0x12
3.851039916666667,0,0xFF,0x14
3.852994916666667,0,0x98,0x1A
3.853012958333333,0,0xFF,0x12
3.853031166666667,0,0xFF,0x14
3.853055958333333,0,0x87,0x1A
3.853074000000000,0,0xFF,0x00
3.853092208333333,0,0xFF,0x8A
3.853112750000000,0,0x87,0x12
3.853130791666667,0,0x00,0x10
3.853148791666666,0,0x32,0x12
3.854135083333333,0,0x07,0x01
3.854153125000000,0,0x00,0x01
3.854171208333333,0,0x33,0x01
3.854191791666667,0,0x36,0x01
3.854209833333333,0,0xC0,0x01
3.854227916666667,0,0x80,0x00
3.854248125000000,0,0x07,0x81
3.854266166666667,0,0xFF,0x00
3.854284375000000,0,0xFF,0x30
3.854305250000000,0,0x07,0x01
3.854323291666667,0,0x00,0x01
3.854341375000000,0,0xF2,0x01
3.855737750000000,0,0x18,0x1A
3.855755791666667,0,0xFF,0x12
3.855774000000000,0,0xFF,0x04
3.857730083333333,0,0x98,0x10
3.857748125000000,0,0xFF,0x12
3.857766333333333,0,0xFF,0x04
3.859724625000000,0,0xB0,0x13
3.859742625000000,0,0x7F,0x12
3.859760833333334,0,0xFF,0x04
3.861711541666667,0,0x90,0x12
3.861729583333333,0,0xFF,0x12
3.861747791666667,0,0xFF,0x04
3.863710125000000,0,0x98,0x1A
3.863728166666667,0,0xFF,0x12
3.863746375000000,0,0xFF,0x04
3.865699875000000,0,0xF0,0x12
3.865717916666667,0,0xFF,0x12
3.865736125000000,0,0xFF,0x04
3.867690458333333,0,0xF0,0x12
3.867708458333333,0,0x7F,0x12
3.867726666666667,0,0xFF,0x04
3.869689416666667,0,0x98,0x10
3.869707458333334,0,0xFF,0x02
3.869725666666667,0,0xFF,0x00
3.871686083333334,0,0x98,0x10
3.871704125000000,0,0xFF,0x12
3.871722333333333,0,0xFF,0x04
3.873684291666667,0,0xF0,0x02
3.873702333333333,0,0xFF,0x13
3.873720541666667,0,0xFF,0x04
3.875674583333333,0,0xF0,0x02
3.875692583333334,0,0x7F,0x12
3.875710791666667,0,0xFF,0x04
3.877662708333333,0,0xB0,0x12
3.877680750000000,0,0xFF,0x13
3.877698958333333,0,0xFF,0x04
3.879653708333333,0,0x98,0x1A
3.879671750000000,0,0xFF,0x12
3.879689958333334,0,0xFF,0x04
3.881649625000000,0,0xF0,0x12
3.881667666666667,0,0xFF,0x13
3.881685875000000,0,0xFF,0x04
3.883647041666667,0,0xB0,0x12
3.883665083333333,0,0xFF,0x10
3.883683291666667,0,0xFF,0x04
3.885637375000000,0,0xF0,0x02
3.885655375000000,0,0x7F,0x12
3.885673583333333,0,0xFF,0x04
3.885698416666667,0,0xC7,0x02
3.885716458333333,0,0xFF,0x00
3.885734666666667,0,0xFF,0xB3
3.885755208333333,0,0x07,0x12
3.885773250000000,0,0x00,0x12
3.885791291666667,0,0x14,0x12
3.885935666666667,0,0x07,0x01
3.885953708333334,0,0x00,0x01
3.885971750000000,0,0x14,0x81
3.885992375000000,0,0x34,0x01
3.886010416666667,0,0x80,0x01
3.886028458333334,0,0x00,0x01
3.886048708333333,0,0x87,0x01
3.886066750000000,0,0xFF,0x00
3.886084958333333,0,0xFF,0x10
3.886105833333333,0,0x03,0x01
3.886123833333333,0,0x80,0x01
3.886141916666667,0,0x96,0x01
3.887626000000000,0,0xF0,0x12
3.887644000000000,0,0x7F,0x12
3.887662208333333,0,0xFF,0x08
3.889618916666667,0,0xB0,0x12
3.889636916666667,0,0x7F,0x1A
3.889655125000000,0,0xFF,0x00
3.891617125000000,0,0xF0,0x02
3.891635166666667,0,0xFF,0x12
3.891653375000000,0,0xFF,0x08
3.893609625000000,0,0x98,0x1A
3.893627666666667,0,0xFF,0x12
3.893645875000000,0,0xFF,0x08
3.895598000000000,0,0xF0,0x12
3.895616041666667,0,0xFF,0x13
3.895634250000000,0,0xFF,0x08
3.897594125000000,0,0x98,0x10
3.897612166666667,0,0xFF,0x12
3.897630375000000,0,0xFF,0x08
3.899593916666667,0,0x90,0x12
3.899611958333333,0,0xFF,0x10
3.899630166666667,0,0xFF,0x08
3.901586708333333,0,0xB0,0x13
3.901604708333333,0,0xFF,0x1A
3.901622916666667,0,0xFF,0x00
3.903582458333333,0,0xB0,0x13
3.903600458333333,0,0x7F,0x12
3.903618666666667,0,0xFF,0x08
3.905572291666667,0,0xB0,0x12
3.905590333333333,0,0xFF,0x02
3.905608541666667,0,0xFF,0x08
3.907567583333333,0,0xB0,0x12
3.907585625000000,0,0xFF,0x02
3.907603833333333,0,0xFF,0x08
3.909560125000000,0,0xB0,0x12
3.909578125000000,0,0xFF,0x1A
3.909596333333333,0,0xFF,0x00
3.911553791666667,0,0xB0,0x12
3.911571833333333,0,0xFF,0x02
3.911590041666666,0,0xFF,0x08
3.913547750000000,0,0xF0,0x02
3.913565791666667,0,0xFF,0x12
3.913584000000000,0,0xFF,0x08
3.915545333333333,0,0xF0,0x12
3.915563375000000,0,0xFF,0x12
3.915581583333333,0,0xFF,0x0C
3.917535250000000,0,0xB0,0x12
3.917553291666667,0,0xFF,0x12
3.917571500000000,0,0xFF,0x08
3.917596291666666,0,0x87,0x12
3.917614333333333,0,0xFF,0x00
3.917632541666667,0,0xFF,0x90
3.917653083333333,0,0x07,0x12
3.917671125000000,0,0x00,0x13
3.917689166666666,0,0x1C,0x12
3.917738833333333,0,0x07,0x01
3.917756875000000,0,0x00,0x00
3.917774916666667,0,0x3C,0x01
3.917795541666667,0,0x34,0x01
3.917813583333333,0,0x80,0x00
3.917831625000000,0,0x00,0x01
3.917851875000000,0,0x07,0x01
3.917869916666667,0,0xFF,0x00
3.917888125000000,0,0xFF,0x3C
3.917909000000000,0,0x07,0x01
3.917927041666667,0,0x00,0x00
3.917945083333333,0,0x3C,0x01
3.919529125000000,0,0xF0,0x12
3.919547166666667,0,0xFF,0x13
3.919565375000000,0,0xFF,0x18
3.921521708333333,0,0xB0,0x13
3.921539708333333,0,0x7F,0x1A
3.921557916666667,0,0xFF,0x18
3.923517041666666,0,0xF0,0x02
3.923535083333333,0,0xFF,0x13
3.923553291666667,0,0xFF,0x1C
3.925506666666667,0,0xF0,0x02
3.925524708333333,0,0xFF,0x12
3.925542916666667,0,0xFF,0x18
3.927506250000000,0,0x98,0x10
3.927524291666667,0,0xFF,0x12
3.927542500000000,0,0xFF,0x18
3.929494750000000,0,0xF0,0x12
3.929512750000000,0,0x7F,0x12
3.929530958333333,0,0xFF,0x18
3.931484000000000,0,0xF0,0x02
3.931502000000000,0,0x7F,0x12
3.931520250000000,0,0xFF,0x18
3.933474416666667,0,0x98,0x1A
3.933492458333333,0,0xFF,0x12
3.933510666666667,0,0xFF,0x18
3.935474416666667,0,0xB0,0x12
3.935492458333333,0,0xFF,0x02
3.935510666666667,0,0xFF,0x0C
3.937465500000000,0,0xF0,0x02
3.937483541666666,0,0xFF,0x12
3.937501750000000,0,0xFF,0x18
3.939463041666666,0,0x98,0x1A
3.939481083333333,0,0xFF,0x12
3.939499291666666,0,0xFF,0x18
3.941455083333333,0,0xF0,0x12
3.941473125000000,0,0xFF,0x12
3.941491291666666,0,0xFF,0x18
3.943453125000000,0,0xB0,0x12
3.943471166666667,0,0xFF,0x10
3.943489375000000,0,0xFF,0x18
3.945443000000000,0,0x98,0x1A
3.945461041666666,0,0xFF,0x12
3.945479250000000,0,0xFF,0x18
3.947434833333333,0,0xF0,0x13
3.947452833333333,0,0x7F,0x1A
3.947471041666667,0,0xFF,0x18
3.949425083333333,0,0xF0,0x02
3.949443083333333,0,0x7F,0x12
3.949461291666667,0,0xFF,0x18
3.949486125000000,0,0xC7,0x02
3.949504125000000,0,0xFF,0x00
3.949522375000000,0,0xFF,0xBC
3.949543083333333,0,0x87,0x12
3.949561125000000,0,0x00,0x12
3.949579208333333,0,0x0E,0x02
3.950534416666667,0,0x07,0x01
3.950552458333333,0,0x00,0x01
3.950570500000000,0,0x1F,0x81
3.950591125000000,0,0x34,0x01
3.950609166666667,0,0x80,0x00
3.950627208333333,0,0x00,0x01
3.950647458333334,0,0x87,0x01
3.950665500000000,0,0xFF,0x00
3.950683708333333,0,0xFF,0x1E
3.950704583333333,0,0x03,0x01
3.950722583333333,0,0x80,0x01
3.950740666666666,0,0x9E,0x01
3.952115208333333,0,0xB0,0x13
3.952133208333333,0,0x7F,0x1A
3.952151416666667,0,0xFF,0x1C
3.954115916666667,0,0x98,0x1A
3.954133958333333,0,0xFF,0x12
3.954152166666667,0,0xFF,0x1C
3.956105875000000,0,0xB0,0x12
3.956123916666667,0,0xFF,0x12
3.956142125000000,0,0xFF,0x1C
3.958098166666667,0,0xB0,0x13
3.958116166666667,0,0x7F,0x18
3.958134375000000,0,0xFF,0x1E
3.960094250000000,0,0x98,0x10
3.960112291666666,0,0xFF,0x02
3.960130500000000,0,0xFF,0x0C
3.962082791666667,0,0xB0,0x12
3.962100833333333,0,0xFF,0x13
3.962119041666667,0,0xFF,0x1C
3.964070541666667,0,0x98,0x1A
3.964088583333333,0,0xFF,0x12
3.964106791666667,0,0xFF,0x0C
3.966069875000000,0,0xB0,0x12
3.966087916666666,0,0xFF,0x10
3.966106125000000,0,0xFF,0x1E
3.968067041666667,0,0xB0,0x13
3.968085041666667,0,0x7F,0x1A
3.968103250000000,0,0xFF,0x1C
3.970058708333333,0,0xB0,0x12
3.970076708333333,0,0xFF,0x10
3.970094916666667,0,0xFF,0x1E
3.972046875000000,0,0xF0,0x02
3.972064875000000,0,0x7F,0x12
3.972083125000000,0,0xFF,0x1C
3.974046000000000,0,0xB0,0x13
3.974064000000000,0,0x7F,0x1A
3.974082208333333,0,0xFF,0x1C
3.976045000000000,0,0x90,0x12
3.976063041666666,0,0xFF,0x02
3.976081250000000,0,0xFF,0x1C
3.978045250000000,0,0xB0,0x12
3.978063291666667,0,0xFF,0x12
3.978081500000000,0,0xFF,0x1C
3.980040708333333,0,0xB0,0x12
3.980058750000000,0,0xFF,0x12
3.980076958333334,0,0xFF,0x1C
3.982031791666667,0,0x98,0x10
3.982049833333333,0,0xFF,0x02
3.982068041666667,0,0xFF,0x0C
3.982092833333333,0,0x87,0x12
3.982110875000000,0,0xFF,0x00
3.982129083333333,0,0xFF,0x9E
3.982149625000000,0,0x07,0x10
3.982167666666667,0,0x00,0x02
3.982185708333333,0,0x47,0x12
3.982333708333333,0,0x07,0x01
3.982351750000000,0,0x00,0x00
3.982369791666667,0,0x66,0x01
3.982390416666667,0,0x30,0x01
3.982408416666666,0,0x00,0x81
3.982426500000000,0,0x80,0x01
3.982446750000000,0,0x87,0x01
3.982464791666667,0,0xFF,0x00
3.982483000000000,0,0xFF,0x42
3.982503875000000,0,0x03,0x01
3.982521875000000,0,0x80,0x01
3.982539958333333,0,0xE6,0x01
3.984023125000000,0,0xB0,0x12
3.984041166666667,0,0xFF,0x12
3.984059375000000,0,0xFF,0x0C
3.986019375000000,0,0xB0,0x13
3.986037375000000,0,0x7F,0x1A
3.986055583333334,0,0xFF,0x04
3.988017125000000,0,0x90,0x12
3.988035166666667,0,0xFF,0x12
3.988053375000000,0,0xFF,0x0C
3.990009541666667,0,0x98,0x10
3.990027583333333,0,0xFF,0x02
3.990045791666667,0,0xFF,0x0C
3.992008125000000,0,0xF0,0x12
3.992026166666667,0,0xFF,0x12
3.992044375000000,0,0xFF,0x0C
3.993997791666667,0,0xB0,0x12
3.994015791666667,0,0x7F,0x12
3.994034000000000,0,0xFF,0x0C
3.995987208333333,0,0xB0,0x12
3.996005250000000,0,0xFF,0x12
3.996023458333333,0,0xFF,0x0E
3.997979625000000,0,0xB0,0x12
3.997997666666667,0,0xFF,0x02
3.998015875000000,0,0xFF,0x0C
3.999972541666667,0,0x98,0x10
3.999990583333333,0,0xFF,0x02
4.000008791666667,0,0xFF,0x0C
4.001965250000000,0,0xB0,0x12
4.001983250000000,0,0xFF,0x10
4.002001458333333,0,0xFF,0x0C
4.003964458333333,0,0xF0,0x12
4.003982458333334,0,0x7F,0x12
4.004000666666666,0,0xFF,0x0C
4.005955625000000,0,0xB0,0x13
4.005973625000000,0,0x7F,0x1A
4.005991833333334,0,0xFF,0x04
4.007950208333333,0,0xB0,0x12
4.007968250000000,0,0xFF,0x12
4.007986458333333,0,0xFF,0x0C
4.009943750000000,0,0xB0,0x12
4.009961791666667,0,0xFF,0x12
4.009980000000000,0,0xFF,0x0C
4.011935041666667,0,0xF0,0x02
4.011953041666667,0,0x7F,0x12
4.011971250000000,0,0xFF,0x0C
4.013931291666666,0,0xF0,0x12
4.013949291666667,0,0x7F,0x12
4.013967500000000,0,0xFF,0x0C
4.013992333333333,0,0xC7,0x12
4.014010375000000,0,0xFF,0x00
4.014028583333333,0,0xFF,0xC7
4.014049125000000,0,0x07,0x12
4.014067166666667,0,0x00,0x02
4.014085250000000,0,0x00,0x13
4.014133333333334,0,0x07,0x01
4.014151375000000,0,0x00,0x01
4.014169458333333,0,0x00,0x01
4.014190041666667,0,0x34,0x81
4.014208083333333,0,0x80,0x01
4.014226166666667,0,0xC0,0x01
4.014246416666666,0,0x83,0x01
4.014264416666666,0,0xFF,0x00
4.014282625000000,0,0xFF,0x00
4.014303500000000,0,0x87,0x01
4.014321541666667,0,0x00,0x01
4.014339625000000,0,0xC0,0x01
4.015925000000000,0,0xB0,0x12
4.015943000000000,0,0xFF,0x10
4.015961208333334,0,0xFF,0x00
4.017912833333333,0,0xB0,0x12
4.017930875000000,0,0xFF,0x13
4.017949083333333,0,0xFF,0x00
4.019902083333333,0,0xB0,0x13
4.019920083333333,0,0x7F,0x1A
4.019938291666667,0,0xFF,0x00
4.021895458333334,0,0xB0,0x12
4.021913458333334,0,0xFF,0x10
4.021931666666666,0,0xFF,0x00
4.023890041666666,0,0xF0,0x02
4.023908083333334,0,0xFF,0x12
4.023926250000000,0,0xFF,0x00
4.025886541666667,0,0xB0,0x12
4.025904583333333,0,0xFF,0x12
4.025922750000000,0,0xFF,0x00
4.027878291666667,0,0xF0,0x02
4.027896291666667,0,0x7F,0x12
4.027914500000000,0,0xFF,0x00
4.029872875000000,0,0xB0,0x13
4.029890875000000,0,0x7F,0x1A
4.029909083333333,0,0xFF,0x00
4.031860541666667,0,0xB0,0x12
4.031878583333333,0,0xFF,0x12
4.031896791666667,0,0xFF,0x00
4.033854958333333,0,0x98,0x1A
4.033873000000000,0,0xFF,0x12
4.033891208333333,0,0xFF,0x00
4.035854375000000,0,0xB0,0x12
4.035872416666667,0,0xFF,0x13
4.035890625000000,0,0xFF,0x00
4.037845166666667,0,0xB0,0x12
4.037863208333333,0,0xFF,0x12
4.037881416666667,0,0xFF,0x00
4.039840625000000,0,0x98,0x18
4.039858666666666,0,0xFF,0x02
4.039876875000000,0,0xFF,0x00
4.041833583333333,0,0xB0,0x13
4.041851583333333,0,0x7F,0x18
4.041869791666667,0,0xFF,0x00
4.043821000000000,0,0xB0,0x13
4.043839000000000,0,0xFF,0x1A
4.043857208333334,0,0xFF,0x00
4.045810916666666,0,0xB0,0x12
4.045828958333333,0,0xFF,0x10
4.045847166666666,0,0xFF,0x00
4.045871958333334,0,0x87,0x12
4.045890000000000,0,0xFF,0x00
4.045908208333334,0,0xFF,0x80
4.045930750000000,0,0x87,0x1A
4.045948791666667,0,0x00,0x12
4.045966875000000,0,0x3C,0x02
4.046925208333334,0,0x07,0x01
4.046943250000000,0,0x00,0x01
4.046961333333333,0,0x3C,0x01
4.046981916666667,0,0x1E,0x01
4.046999958333333,0,0xC0,0x01
4.047018041666667,0,0x80,0x01
4.047038250000000,0,0x07,0x01
4.047056291666666,0,0xFF,0x00
4.047074500000000,0,0xFF,0x28
4.047095375000000,0,0x07,0x01
4.047113375000000,0,0x80,0x81
4.047131458333333,0,0x80,0x01
4.048514500000000,0,0xB0,0x12
4.048532500000000,0,0x7F,0x12
4.048550708333333,0,0xFF,0x10
4.050507375000000,0,0xB0,0x12
4.050525416666667,0,0xFF,0x13
4.050543625000000,0,0xFF,0x10
4.052499833333333,0,0xF0,0x12
4.052517875000000,0,0xFF,0x12
4.052536083333333,0,0xFF,0x10
4.054500083333333,0,0xB8,0x12
4.054518125000000,0,0xFF,0x12
4.054536333333333,0,0xFF,0x10
4.056487291666667,0,0xF0,0x12
4.056505333333333,0,0xFF,0x13
4.056523541666667,0,0xFF,0x10
4.058478458333333,0,0xB0,0x12
4.058496500000000,0,0xFF,0x12
4.058514708333333,0,0xFF,0x10
4.060475708333334,0,0xB0,0x12
4.060493750000000,0,0xFF,0x13
4.060511958333334,0,0xFF,0x10
4.062466375000000,0,0xF0,0x02
4.062484375000000,0,0x7F,0x12
4.062502583333333,0,0xFF,0x10
4.064463458333333,0,0xB0,0x12
4.064481500000000,0,0xFF,0x12
4.064499708333333,0,0xFF,0x10
4.066450958333333,0,0xF0,0x12
4.066468958333333,0,0x7F,0x12
4.066487166666667,0,0xFF,0x10
4.068448958333334,0,0xB0,0x12
4.068467000000000,0,0xFF,0x12
4.068485208333334,0,0xFF,0x10
4.070438875000000,0,0xB0,0x13
4.070456875000000,0,0x7F,0x1A
4.070475083333333,0,0xFF,0x10
4.072428375000000,0,0xF0,0x12
4.072446416666667,0,0xFF,0x12
4.072464625000000,0,0xFF,0x10
4.074419875000000,0,0xF0,0x02
4.074437875000000,0,0x7F,0x12
4.074456083333334,0,0xFF,0x10
4.076408750000000,0,0xF0,0x02
4.076426750000000,0,0x7F,0x12
4.076444958333333,0,0xFF,0x10
4.078398541666667,0,0x98,0x10
4.078416583333333,0,0xFF,0x02
4.078434791666667,0,0xFF,0x00
4.078459583333333,0,0x87,0x12
4.078477625000000,0,0xFF,0x00
4.078495833333333,0,0xFF,0xA8
4.078516375000000,0,0x07,0x12
4.078534416666667,0,0x00,0x12
4.078552458333333,0,0x00,0x18
4.078723208333333,0,0x07,0x01
4.078741208333334,0,0x00,0x01
4.078759291666667,0,0x0A,0x01
4.078779875000000,0,0x14,0x01
4.078797916666667,0,0x80,0x01
4.078816000000000,0,0xC0,0x01
4.078836208333334,0,0x07,0x81
4.078854250000000,0,0xFF,0x00
4.078872458333334,0,0xFF,0x0A
4.078893333333333,0,0x07,0x01
4.078911375000000,0,0x00,0x01
4.078929416666667,0,0x80,0x01
4.080397833333334,0,0xF0,0x02
4.080415833333333,0,0x7F,0x12
4.080434041666667,0,0xFF,0x1E
4.082386791666667,0,0x90,0x12
4.082404833333333,0,0xFF,0x12
4.082423041666667,0,0xFF,0x14
4.084375000000000,0,0xB0,0x12
4.084393000000000,0,0xFF,0x12
4.084411208333333,0,0xFF,0x14
4.086366875000000,0,0x98,0x10
4.086384916666667,0,0xFF,0x02
4.086403125000000,0,0xFF,0x00
4.088357916666666,0,0xB0,0x12
4.088375958333334,0,0xFF,0x12
4.088394166666666,0,0xFF,0x14
4.090349083333333,0,0xF0,0x02
4.090367083333334,0,0x7F,0x12
4.090385291666666,0,0xFF,0x1C
4.092347333333334,0,0xF0,0x02
4.092365333333333,0,0x7F,0x12
4.092383541666667,0,0xFF,0x14
4.094338708333333,0,0xF0,0x02
4.094356708333334,0,0x7F,0x12
4.094374916666666,0,0xFF,0x1C
4.096333416666667,0,0xB0,0x12
4.096351458333333,0,0xFF,0x12
4.096369666666667,0,0xFF,0x14
4.098325250000000,0,0xF0,0x12
4.098343291666667,0,0xFF,0x12
4.098361500000000,0,0xFF,0x14
4.100324708333333,0,0xB0,0x12
4.100342750000000,0,0xFF,0x12
4.100360958333333,0,0xFF,0x14
4.102317125000000,0,0xB0,0x12
4.102335166666666,0,0xFF,0x12
4.102353375000000,0,0xFF,0x14
4.104309458333334,0,0xB0,0x12
4.104327500000000,0,0xFF,0x12
4.104345708333334,0,0xFF,0x14
4.106300583333334,0,0xF0,0x02
4.106318625000000,0,0xFF,0x12
4.106336833333334,0,0xFF,0x14
4.108297041666667,0,0xB0,0x12
4.108315083333333,0,0xFF,0x10
4.108333291666667,0,0xFF,0x16
4.110284583333334,0,0x90,0x12
4.110302625000000,0,0xFF,0x12
4.110320833333334,0,0xFF,0x14
4.110345625000000,0,0x87,0x1A
4.110363666666666,0,0xFF,0x00
4.110381875000000,0,0xFF,0x8A
4.110402416666667,0,0x87,0x12
4.110420458333333,0,0x00,0x12
4.110438541666666,0,0x33,0x13
4.110520875000000,0,0x03,0x00
4.110538875000000,0,0x00,0x01
4.110556958333333,0,0x30,0x01
4.110577541666666,0,0x34,0x81
4.110595583333334,0,0x80,0x01
4.110613666666667,0,0xC0,0x01
4.110633916666667,0,0x87,0x01
4.110651916666667,0,0xFF,0x00
4.110670125000000,0,0xFF,0x30
4.110691000000000,0,0x07,0x01
4.110709041666667,0,0x00,0x01
4.110727083333333,0,0x33,0x81
4.112283791666667,0,0x10,0x12
4.112301833333333,0,0xFF,0x12
4.112320041666667,0,0xFF,0x04
4.114273583333333,0,0xB0,0x12
4.114291625000000,0,0xFF,0x12
4.114309833333333,0,0xFF,0x04
4.116262458333333,0,0xB0,0x12
4.116280458333334,0,0xFF,0x12
4.116298666666666,0,0xFF,0x04
4.118254250000000,0,0xF0,0x12
4.118272250000000,0,0x7F,0x12
4.118290458333333,0,0xFF,0x04
4.120244000000000,0,0xB0,0x12
4.120262000000000,0,0xFF,0x10
4.120280208333333,0,0xFF,0x06
4.122234125000000,0,0xB0,0x12
4.122252166666667,0,0xFF,0x12
4.122270375000000,0,0xFF,0x04
4.124229416666667,0,0xB0,0x12
4.124247458333334,0,0xFF,0x12
4.124265666666667,0,0xFF,0x04
4.126222791666667,0,0xB0,0x13
4.126240791666667,0,0xFF,0x1A
4.126259000000000,0,0xFF,0x04
4.128215208333334,0,0xB0,0x12
4.128233250000000,0,0xFF,0x10
4.128251458333334,0,0xFF,0x04
4.130209875000000,0,0xF0,0x12
4.130227916666667,0,0xFF,0x12
4.130246125000000,0,0xFF,0x04
4.132205750000000,0,0xB0,0x12
4.132223750000000,0,0xFF,0x10
4.132241958333333,0,0xFF,0x06
4.134198250000000,0,0xB0,0x12
4.134216250000000,0,0x7F,0x12
4.134234458333333,0,0xFF,0x04
4.136187083333334,0,0x98,0x1A
4.136205125000000,0,0xFF,0x12
4.136223333333334,0,0xFF,0x04
4.138179208333334,0,0x98,0x1A
4.138197250000000,0,0xFF,0x12
4.138215458333334,0,0xFF,0x04
4.140172833333334,0,0xB0,0x12
4.140190833333333,0,0x7F,0x12
4.140209041666667,0,0xFF,0x04
4.142161250000000,0,0xF0,0x02
4.142179250000000,0,0x7F,0x12
4.142197458333333,0,0xFF,0x04
4.142222291666666,0,0x83,0x13
4.142240291666667,0,0xFF,0x00
4.142258500000000,0,0xFF,0x9A
4.142279083333333,0,0x03,0x12
4.142297083333333,0,0x80,0x12
4.142317166666666,0,0x14,0x12
4.143312541666667,0,0x07,0x01
4.143330583333333,0,0x00,0x01
4.143348666666666,0,0x00,0x00
4.143369250000000,0,0x1E,0x01
4.143387291666667,0,0xC0,0x01
4.143405375000000,0,0x80,0x01
4.143425583333333,0,0x07,0x01
4.143443625000000,0,0xFF,0x00
4.143461833333333,0,0xFF,0x14
4.143482708333333,0,0x07,0x01
4.143500750000000,0,0x00,0x01
4.143518791666667,0,0x14,0x81
4.144897708333334,0,0x18,0x18
4.144915750000000,0,0xFF,0x12
4.144933958333334,0,0xFF,0x08
4.146889166666667,0,0xF0,0x12
4.146907166666667,0,0x7F,0x12
4.146925375000000,0,0xFF,0x08
4.148880875000000,0,0xB0,0x13
4.148898875000000,0,0x7F,0x1A
4.148917083333333,0,0xFF,0x00
4.150873083333333,0,0xB0,0x12
4.150891125000000,0,0xFF,0x13
4.150909333333333,0,0xFF,0x08
4.152861250000000,0,0xF0,0x02
4.152879250000000,0,0x7F,0x12
4.152897458333333,0,0xFF,0x00
4.154851958333333,0,0xF0,0x02
4.154869958333333,0,0x7F,0x12
4.154888166666667,0,0xFF,0x08
4.156846708333333,0,0xB0,0x12
4.156864750000000,0,0xFF,0x12
4.156882916666667,0,0xFF,0x08
4.158837333333333,0,0xB0,0x12
4.158855333333333,0,0xFF,0x10
4.158873541666667,0,0xFF,0x08
4.160824458333333,0,0xB0,0x12
4.160842500000000,0,0xFF,0x12
4.160860666666666,0,0xFF,0x08
4.162813083333333,0,0xB0,0x12
4.162831125000000,0,0xFF,0x12
4.162849333333333,0,0xFF,0x08
4.164809291666667,0,0xB0,0x12
4.164827333333333,0,0xFF,0x02
4.164845541666667,0,0xFF,0x0C
4.166800583333333,0,0xF0,0x12
4.166818625000000,0,0xFF,0x13
4.166836833333333,0,0xFF,0x08
4.168790625000000,0,0xF0,0x02
4.168808625000000,0,0x7F,0x12
4.168826833333333,0,0xFF,0x08
4.170782583333334,0,0xB0,0x13
4.170800583333333,0,0x7F,0x1A
4.170818791666667,0,0xFF,0x00
4.172772833333333,0,0xB0,0x12
4.172790875000000,0,0xFF,0x13
4.172809083333333,0,0xFF,0x08
4.174761291666667,0,0x98,0x1A
4.174779333333333,0,0xFF,0x12
4.174797541666667,0,0xFF,0x08
4.174822333333333,0,0x87,0x12
4.174840375000000,0,0xFF,0x00
4.174858583333333,0,0xFF,0x94
4.174879125000000,0,0x07,0x12
4.174897166666667,0,0x00,0x13
4.174915208333333,0,0x1C,0x12
4.175111125000000,0,0x03,0x01
4.175129125000000,0,0x00,0x01
4.175147208333334,0,0x3C,0x01
4.175167791666667,0,0x34,0x81
4.175185833333333,0,0x80,0x01
4.175203916666667,0,0xC0,0x01
4.175224125000000,0,0x07,0x81
4.175242166666667,0,0xFF,0x00
4.175260375000000,0,0xFF,0x3C
4.175281250000000,0,0x07,0x01
4.175299291666667,0,0x00,0x00
4.175317333333333,0,0x1C,0x01
4.176749416666667,0,0xB0,0x12
4.176767416666666,0,0xFF,0x10
4.176785625000000,0,0xFF,0x18
4.178738166666666,0,0xB0,0x12
4.178756166666667,0,0xFF,0x12
4.178774375000000,0,0xFF,0x18
4.180736208333333,0,0xF0,0x12
4.180754250000000,0,0xFF,0x12
4.180772416666667,0,0xFF,0x18
4.182723333333334,0,0x98,0x10
4.182741375000000,0,0xFF,0x02
4.182759583333334,0,0xFF,0x0C
4.184720000000000,0,0xB0,0x12
4.184738041666667,0,0xFF,0x13
4.184756250000000,0,0xFF,0x18
4.186713750000000,0,0xB0,0x12
4.186731791666666,0,0xFF,0x12
4.186750000000000,0,0xFF,0x18
4.188711333333333,0,0xB0,0x12
4.188729375000000,0,0xFF,0x12
4.188747583333333,0,0xFF,0x18
4.190701833333334,0,0x90,0x12
4.190719875000000,0,0xFF,0x12
4.190738083333334,0,0xFF,0x18
4.192698833333333,0,0xF0,0x12
4.192716875000000,0,0xFF,0x12
4.192735041666666,0,0xFF,0x18
4.194697541666667,0,0xB0,0x12
4.194715583333333,0,0xFF,0x12
4.194733791666667,0,0xFF,0x18
4.196689250000000,0,0x98,0x10
4.196707291666667,0,0xFF,0x02
4.196725500000000,0,0xFF,0x0C
4.198677708333333,0,0xF0,0x02
4.198695708333333,0,0x7F,0x12
4.198713916666667,0,0xFF,0x18
4.200677166666667,0,0x98,0x10
4.200695208333333,0,0xFF,0x02
4.200713416666667,0,0xFF,0x0C
4.202663750000000,0,0x98,0x1A
4.202681791666667,0,0xFF,0x12
4.202700000000000,0,0xFF,0x18
4.204661041666666,0,0xB0,0x13
4.204679041666667,0,0xFF,0x10
4.204697250000000,0,0xFF,0x18
4.206653208333333,0,0xB0,0x12
4.206671208333334,0,0xFF,0x10
4.206689416666666,0,0xFF,0x18
4.206714208333334,0,0x87,0x12
4.206732250000000,0,0xFF,0x00
4.206750458333333,0,0xFF,0xBC
4.206771000000000,0,0x87,0x1A
4.206789041666666,0,0x00,0x12
4.206807125000000,0,0x1F,0x13
4.206908958333333,0,0x07,0x01
4.206927000000000,0,0x00,0x01
4.206945041666667,0,0x1F,0x81
4.206965666666667,0,0x34,0x01
4.206983708333333,0,0x80,0x00
4.207001750000000,0,0x00,0x01
4.207022000000000,0,0x87,0x01
4.207040041666667,0,0xFF,0x00
4.207058250000000,0,0xFF,0x1F
4.207079125000000,0,0x03,0x01
4.207097125000000,0,0x00,0x01
4.207115208333334,0,0x9E,0x01
4.208645250000000,0,0x30,0x92
4.208663291666666,0,0xFF,0x12
4.208681500000000,0,0xFF,0x1C
4.210641375000000,0,0xF0,0x02
4.210659375000000,0,0x7F,0x12
4.210677583333333,0,0xFF,0x1C
4.212634416666667,0,0xB0,0x12
4.212652416666667,0,0xFF,0x12
4.212670625000000,0,0xFF,0x1C
4.214628125000000,0,0xF0,0x02
4.214646125000000,0,0x7F,0x12
4.214664333333333,0,0xFF,0x1C
4.216625291666666,0,0xB0,0x12
4.216643333333334,0,0xFF,0x12
4.216661541666666,0,0xFF,0x1C
4.218618666666667,0,0x98,0x1A
4.218636708333333,0,0xFF,0x02
4.218654916666667,0,0xFF,0x0C
4.220609875000000,0,0xF0,0x02
4.220627875000000,0,0x7F,0x12
4.220646083333333,0,0xFF,0x1C
4.222600875000000,0,0x98,0x10
4.222618916666667,0,0xFF,0x02
4.222637125000000,0,0xFF,0x1C
4.224597416666667,0,0xF0,0x02
4.224615416666667,0,0x7F,0x12
4.224633625000000,0,0xFF,0x1C
4.226590291666667,0,0x98,0x10
4.226608333333333,0,0xFF,0x12
4.226626541666667,0,0xFF,0x1C
4.228580250000000,0,0xB0,0x12
4.228598291666667,0,0xFF,0x12
4.228616458333334,0,0xFF,0x1C
4.230571375000000,0,0xB0,0x12
4.230589375000000,0,0xFF,0x10
4.230607583333334,0,0xFF,0x1C
4.232564666666667,0,0x98,0x10
4.232582708333333,0,0xFF,0x02
4.232600916666667,0,0xFF,0x0C
4.234552333333333,0,0xB0,0x12
4.234570333333333,0,0xFF,0x12
4.234588541666667,0,0xFF,0x1C
4.236540458333334,0,0xB0,0x13
4.236558458333334,0,0xFF,0x10
4.236576666666667,0,0xFF,0x1C
4.238534125000000,0,0x90,0x12
4.238552166666667,0,0xFF,0x12
4.238570375000000,0,0xFF,0x0C
4.238595166666666,0,0x87,0x12
4.238613208333334,0,0xFF,0x00
4.238631416666666,0,0xFF,0x9F
4.238651958333334,0,0x07,0x12
4.238670000000000,0,0x00,0x12
4.238688041666666,0,0x66,0x18
4.239698958333333,0,0x07,0x01
4.239717000000000,0,0x00,0x01
4.239735041666667,0,0x66,0x01
4.239755666666666,0,0x30,0x00
4.239773666666666,0,0x00,0x01
4.239791750000000,0,0xC0,0x01
4.239812000000000,0,0x83,0x00
4.239830000000000,0,0xFF,0x00
4.239848208333333,0,0xFF,0x46
4.239869083333334,0,0x07,0x01
4.239887125000000,0,0x00,0x00
4.239905166666667,0,0x46,0x01
4.241279375000000,0,0x10,0x12
4.241297416666667,0,0xFF,0x12
4.241315625000000,0,0xFF,0x0C
4.243270625000000,0,0xF0,0x02
4.243288625000000,0,0x7F,0x12
4.243306833333333,0,0xFF,0x0C
4.245258291666667,0,0xB0,0x12
4.245276333333333,0,0xFF,0x12
4.245294541666667,0,0xFF,0x0C
4.247250250000000,0,0xB0,0x12
4.247268291666667,0,0xFF,0x12
4.247286500000000,0,0xFF,0x0E
4.249245208333333,0,0xB0,0x12
4.249263250000000,0,0xFF,0x12
4.249281458333333,0,0xFF,0x0C
4.251236875000000,0,0xB0,0x12
4.251254875000000,0,0x7F,0x12
4.251273083333333,0,0xFF,0x0C
4.253235375000000,0,0xB0,0x12
4.253253416666666,0,0xFF,0x13
4.253271625000000,0,0xFF,0x0C
4.255224083333333,0,0x98,0x10
4.255242125000000,0,0xFF,0x02
4.255260333333333,0,0xFF,0x0C
4.257218333333333,0,0xB0,0x12
4.257236375000000,0,0xFF,0x13
4.257254583333333,0,0xFF,0x0C
4.259206375000000,0,0xB0,0x13
4.259224375000000,0,0x7F,0x1A
4.259242583333333,0,0xFF,0x0C
4.261199500000000,0,0xF0,0x12
4.261217541666666,0,0xFF,0x13
4.261235750000000,0,0xFF,0x0C
4.263192416666667,0,0x98,0x1A
4.263210458333333,0,0xFF,0x12
4.263228666666667,0,0xFF,0x0C
4.265186916666667,0,0xF0,0x02
4.265204916666667,0,0x7F,0x12
4.265223125000000,0,0xFF,0x0C
4.267175500000000,0,0xB0,0x13
4.267193500000000,0,0xFF,0x18
4.267211708333333,0,0xFF,0x0E
4.269171750000000,0,0xF0,0x12
4.269189750000000,0,0x7F,0x1A
4.269207958333333,0,0xFF,0x0E
4.271170000000000,0,0xB0,0x12
4.271188041666667,0,0xFF,0x12
4.271206250000000,0,0xFF,0x0C
4.271231041666667,0,0x87,0x12
4.271249083333333,0,0xFF,0x00
4.271267291666667,0,0xFF,0xC6
4.271287833333333,0,0x87,0x12
4.271305875000000,0,0x00,0x12
4.271323958333333,0,0x00,0x13
4.271496541666667,0,0x07,0x01
4.271514583333333,0,0x00,0x01
4.271532666666666,0,0x00,0x01
4.271553250000000,0,0x36,0x01
4.271571291666667,0,0x80,0x00
4.271589333333333,0,0x00,0x01
4.271609583333333,0,0x87,0x01
4.271627625000000,0,0xFF,0x00
4.271645833333333,0,0xFF,0x00
4.271666708333333,0,0x03,0x00
4.271684708333333,0,0x00,0x01
4.271702791666667,0,0xC0,0x01
4.273166791666666,0,0xB0,0x12
4.273184833333334,0,0xFF,0x12
4.273203000000000,0,0xFF,0x00
4.275155333333333,0,0xF0,0x12
4.275173375000000,0,0xFF,0x12
4.275191541666667,0,0xFF,0x00
4.277144583333333,0,0x98,0x10
4.277162625000000,0,0xFF,0x02
4.277180833333333,0,0xFF,0x00
4.279131958333333,0,0x98,0x1A
4.279150000000000,0,0xFF,0x12
4.279168208333333,0,0xFF,0x00
4.281128041666666,0,0xB0,0x12
4.281146083333334,0,0xFF,0x12
4.281164291666666,0,0xFF,0x00
4.283120333333334,0,0xB0,0x12
4.283138375000000,0,0xFF,0x12
4.283156583333334,0,0xFF,0x00
4.285109583333333,0,0x90,0x12
4.285127625000000,0,0xFF,0x12
4.285145833333333,0,0xFF,0x00
4.287098166666667,0,0xB0,0x13
4.287116166666666,0,0x7F,0x1A
4.287134375000000,0,0xFF,0x00
4.289094000000000,0,0xB0,0x12
4.289112041666667,0,0xFF,0x12
4.289130250000000,0,0xFF,0x00
4.291082375000000,0,0x98,0x1A
4.291100416666667,0,0xFF,0x12
4.291118625000000,0,0xFF,0x00
4.293071625000000,0,0xF0,0x02
4.293089625000000,0,0x7F,0x12
4.293107833333333,0,0xFF,0x00
4.295059875000000,0,0xF0,0x02
4.295077875000000,0,0x7F,0x12
4.295096125000000,0,0xFF,0x00
4.297057750000000,0,0x98,0x10
4.297075791666667,0,0xFF,0x02
4.297094000000000,0,0xFF,0x00
4.299045166666667,0,0xB0,0x12
4.299063208333333,0,0xFF,0x13
4.299081416666667,0,0xFF,0x00
4.301035958333333,0,0x98,0x1A
4.301054000000000,0,0xFF,0x12
4.301072208333333,0,0xFF,0x00
4.303027583333333,0,0xF0,0x12
4.303045583333334,0,0x7F,0x12
4.303063791666666,0,0xFF,0x00
4.303088625000000,0,0x83,0x13
4.303106625000000,0,0xFF,0x00
4.303124833333333,0,0xFF,0x80
4.303145416666666,0,0x03,0x13
4.303163416666667,0,0x80,0x12
4.303181500000000,0,0x20,0x12
4.303294375000000,0,0x07,0x01
4.303312416666667,0,0x00,0x00
4.303330458333333,0,0x08,0x01
4.303351083333333,0,0x30,0x01
4.303369083333333,0,0x00,0x81
4.303387166666667,0,0x80,0x01
4.303407416666666,0,0x87,0x01
4.303425458333333,0,0xFF,0x00
4.303443666666666,0,0xFF,0x28
4.303464541666667,0,0x03,0x00
4.303482541666667,0,0x00,0x01
4.303500625000000,0,0xE8,0x01
4.305020333333333,0,0xB0,0x12
4.305038333333333,0,0xFF,0x10
4.305056541666667,0,0xFF,0x10
4.307011291666667,0,0xB0,0x12
4.307029333333333,0,0xFF,0x13
4.307047541666667,0,0xFF,0x10
4.309003291666667,0,0xB0,0x12
4.309021333333333,0,0xFF,0x12
4.309039500000000,0,0xFF,0x10
4.310994708333333,0,0xF0,0x02
4.311012708333333,0,0x7F,0x12
4.311030916666667,0,0xFF,0x10
4.312994166666667,0,0xB0,0x12
4.313012208333333,0,0xFF,0x13
4.313030416666667,0,0xFF,0x10
4.314983041666666,0,0xB0,0x12
4.315001041666667,0,0xFF,0x12
4.315019250000000,0,0xFF,0x10
4.316981708333334,0,0x98,0x10
4.316999750000000,0,0xFF,0x02
4.317017958333333,0,0xFF,0x10
4.318970541666666,0,0xB0,0x12
4.318988583333334,0,0xFF,0x12
4.319006791666666,0,0xFF,0x10
4.320957416666666,0,0xF0,0x12
4.320975458333334,0,0xFF,0x12
4.320993666666666,0,0xFF,0x10
4.322956291666666,0,0xF0,0x02
4.322974291666666,0,0x7F,0x12
4.322992500000000,0,0xFF,0x10
4.324945958333333,0,0xF0,0x02
4.324963958333333,0,0x7F,0x12
4.324982166666667,0,0xFF,0x18
4.326933083333333,0,0xB0,0x12
4.326951125000000,0,0xFF,0x13
4.326969333333333,0,0xFF,0x10
4.328923083333334,0,0x90,0x12
4.328941125000000,0,0xFF,0x12
4.328959333333334,0,0xFF,0x10
4.330911916666667,0,0xB0,0x12
4.330929958333333,0,0xFF,0x12
4.330948166666666,0,0xFF,0x10
4.332899833333333,0,0xB0,0x12
4.332917833333333,0,0xFF,0x10
4.332936041666667,0,0xFF,0x10
4.334893250000000,0,0x98,0x1A
4.334911291666667,0,0xFF,0x12
4.334929500000000,0,0xFF,0x10
4.334954291666667,0,0x87,0x1A
4.334972333333333,0,0xFF,0x00
4.334990541666667,0,0xFF,0xA8
4.335011083333334,0,0x87,0x12
4.335029125000000,0,0x00,0x10
4.335047208333333,0,0x0A,0x12
4.335091333333334,0,0x07,0x01
4.335109375000000,0,0x00,0x01
4.335127458333333,0,0x0E,0x01
4.335148041666667,0,0x1C,0x01
4.335166083333333,0,0xC0,0x01
4.335184166666667,0,0x80,0x00
4.335204375000000,0,0x07,0x81
4.335222416666666,0,0xFF,0x00
4.335240625000000,0,0xFF,0x08
4.335261500000000,0,0x07,0x01
4.335279541666667,0,0x00,0x01
4.335297625000000,0,0x8F,0x00
4.336892083333334,0,0xB8,0x12
4.336910125000000,0,0xFF,0x02
4.336928333333334,0,0xFF,0x00
4.338887416666667,0,0xB0,0x12
4.338905416666667,0,0xFF,0x12
4.338923625000000,0,0xFF,0x1C
4.340881541666667,0,0xB0,0x12
4.340899541666666,0,0xFF,0x10
4.340917750000000,0,0xFF,0x16
4.342870666666666,0,0xB0,0x12
4.342888708333334,0,0xFF,0x13
4.342906916666666,0,0xFF,0x14
4.344864250000000,0,0xB0,0x12
4.344882250000000,0,0xFF,0x18
4.344900458333333,0,0xFF,0x1C
4.346851750000000,0,0xB0,0x12
4.346869791666666,0,0xFF,0x12
4.346888000000000,0,0xFF,0x14
4.348850333333333,0,0xB0,0x12
4.348868375000000,0,0xFF,0x12
4.348886583333333,0,0xFF,0x10
4.350838666666666,0,0xB0,0x13
4.350856666666667,0,0x7F,0x10
4.350874875000000,0,0xFF,0x16
4.352829750000000,0,0x98,0x18
4.352847791666667,0,0xFF,0x02
4.352866000000000,0,0xFF,0x04
4.354818958333333,0,0x98,0x1A
4.354837000000000,0,0xFF,0x12
4.354855208333333,0,0xFF,0x14
4.356816208333333,0,0xB0,0x12
4.356834250000000,0,0xFF,0x12
4.356852458333333,0,0xFF,0x14
4.358806875000000,0,0xB0,0x12
4.358824916666666,0,0xFF,0x12
4.358843125000000,0,0xFF,0x14
4.360795791666667,0,0xB0,0x12
4.360813833333333,0,0xFF,0x10
4.360832041666667,0,0xFF,0x16
4.362788041666667,0,0xB0,0x12
4.362806083333333,0,0xFF,0x13
4.362824291666667,0,0xFF,0x14
4.364787750000000,0,0xB0,0x12
4.364805750000000,0,0x7F,0x1A
4.364823958333333,0,0xFF,0x1C
4.366776125000000,0,0x98,0x1A
4.366794166666667,0,0xFF,0x12
4.366812375000000,0,0xFF,0x14
4.366837166666667,0,0x87,0x10
4.366855208333333,0,0xFF,0x00
4.366873416666667,0,0xFF,0xCA
4.366894208333333,0,0x03,0x12
4.366912208333333,0,0x80,0x12
4.366930291666667,0,0x10,0x12
4.367883833333333,0,0x07,0x01
4.367901875000000,0,0x00,0x01
4.367919958333333,0,0x32,0x01
4.367940541666667,0,0x1C,0x01
4.367958583333333,0,0xC0,0x01
4.367976666666666,0,0x80,0x00
4.367996875000000,0,0x07,0x81
4.368014916666667,0,0xFF,0x00
4.368033125000000,0,0xFF,0x32
4.368054000000000,0,0x07,0x01
4.368072041666666,0,0x00,0x01
4.368090083333334,0,0x33,0x81
4.369485291666667,0,0xB0,0x12
4.369503333333333,0,0xFF,0x12
4.369521541666667,0,0xFF,0x00
4.371477500000000,0,0xB0,0x13
4.371495500000000,0,0x7F,0x1A
4.371513708333334,0,0xFF,0x06
4.373467416666666,0,0x98,0x10
4.373485458333334,0,0xFF,0x02
4.373503666666666,0,0xFF,0x04
4.375458916666667,0,0xB0,0x13
4.375476916666667,0,0x7F,0x1A
4.375495125000000,0,0xFF,0x04
4.377455000000000,0,0xB0,0x12
4.377473041666667,0,0xFF,0x12
4.377491250000000,0,0xFF,0x04
4.379445583333333,0,0x98,0x1A
4.379463625000000,0,0xFF,0x12
4.379481833333333,0,0xFF,0x04
4.381441250000000,0,0x98,0x1A
4.381459291666666,0,0xFF,0x12
4.381477500000000,0,0xFF,0x04
4.383441125000000,0,0xF0,0x02
4.383459125000000,0,0x7F,0x12
4.383477333333333,0,0xFF,0x04
4.385436708333334,0,0xB0,0x12
4.385454750000000,0,0xFF,0x13
4.385472958333334,0,0xFF,0x04
4.387430208333333,0,0xB0,0x12
4.387448208333334,0,0xFF,0x10
4.387466416666666,0,0xFF,0x06
4.389424375000000,0,0xB0,0x12
4.389442416666666,0,0xFF,0x12
4.389460625000000,0,0xFF,0x04
4.391414458333333,0,0xB0,0x12
4.391432500000000,0,0xFF,0x13
4.391450708333333,0,0xFF,0x04
4.393411958333333,0,0xB0,0x12
4.393430000000000,0,0xFF,0x02
4.393448208333333,0,0xFF,0x00
4.395405541666666,0,0x98,0x10
4.395423583333334,0,0xFF,0x12
4.395441791666666,0,0xFF,0x04
4.397395000000000,0,0xF0,0x02
4.397413000000000,0,0x7F,0x12
4.397431208333333,0,0xFF,0x04
4.399382083333333,0,0x98,0x12
4.399400125000000,0,0xFF,0x02
4.399418333333333,0,0xFF,0x00
4.399443125000000,0,0x87,0x12
4.399461166666667,0,0xFF,0x00
4.399479375000000,0,0xFF,0xB3
4.399499916666667,0,0x07,0x12
4.399517958333333,0,0x00,0x13
4.399536000000000,0,0x14,0x12
4.399682250000000,0,0x07,0x01
4.399700291666667,0,0x00,0x01
4.399718333333333,0,0x14,0x81
4.399738958333334,0,0x34,0x01
4.399756958333334,0,0x00,0x81
4.399775041666667,0,0x80,0x01
4.399795291666667,0,0xC7,0x01
4.399813333333333,0,0xFF,0x00
4.399831500000000,0,0xFF,0x14
4.399852375000000,0,0x87,0x01
4.399870416666666,0,0x00,0x01
4.399888500000000,0,0xC0,0x01
4.401372208333333,0,0xB0,0x12
4.401390250000000,0,0xFF,0x12
4.401408458333333,0,0xFF,0x08
4.403362291666666,0,0x98,0x1A
4.403380333333334,0,0xFF,0x12
4.403398541666666,0,0xFF,0x08
4.405356708333334,0,0x90,0x12
4.405374750000000,0,0xFF,0x12
4.405392958333334,0,0xFF,0x08
4.407349916666667,0,0xB0,0x12
4.407367916666667,0,0xFF,0x10
4.407386125000000,0,0xFF,0x08
4.409348750000000,0,0x98,0x1A
4.409366791666667,0,0xFF,0x12
4.409385000000000,0,0xFF,0x08
4.411344291666667,0,0xB0,0x12
4.411362333333333,0,0xFF,0x13
4.411380541666666,0,0xFF,0x08
4.413335708333333,0,0xB0,0x13
4.413353708333333,0,0x7F,0x1A
4.413371916666667,0,0xFF,0x00
4.415331500000000,0,0xB0,0x13
4.415349500000000,0,0x7F,0x18
4.415367708333333,0,0xFF,0x08
4.417320916666666,0,0x98,0x10
4.417338958333334,0,0xFF,0x02
4.417357166666666,0,0xFF,0x08
4.419313333333333,0,0x98,0x1A
4.419331375000000,0,0xFF,0x12
4.419349583333333,0,0xFF,0x08
4.421310041666667,0,0xB0,0x13
4.421328041666666,0,0xFF,0x18
4.421346250000000,0,0xFF,0x08
4.423298833333333,0,0xB0,0x12
4.423316875000000,0,0xFF,0x12
4.423335083333333,0,0xFF,0x0C
4.425289250000000,0,0xB0,0x12
4.425307250000000,0,0xFF,0x10
4.425325458333333,0,0xFF,0x00
4.427282791666666,0,0x90,0x12
4.427300833333334,0,0xFF,0x10
4.427319041666666,0,0xFF,0x08
4.429276291666667,0,0xB0,0x13
4.429294291666666,0,0x7F,0x1A
4.429312500000000,0,0xFF,0x00
4.431266250000000,0,0xB0,0x12
4.431284291666667,0,0xFF,0x12
4.431302458333334,0,0xFF,0x08
4.431327291666666,0,0xC7,0x02
4.431345333333334,0,0xFF,0x00
4.431363541666666,0,0xFF,0x94
4.431384083333334,0,0x07,0x12
4.431402083333333,0,0x80,0x12
4.431420166666666,0,0x1E,0x10
4.431481208333333,0,0x03,0x01
4.431499208333333,0,0x80,0x81
4.431517291666666,0,0x1E,0x01
4.431537916666667,0,0x30,0x01
4.431555916666666,0,0x00,0x01
4.431574000000000,0,0x80,0x01
4.431594250000000,0,0xC7,0x01
4.431612250000000,0,0xFF,0x80
4.431630458333333,0,0xFF,0x3C
4.431651333333333,0,0x87,0x01
4.431669375000000,0,0x00,0x01
4.431687458333333,0,0xFC,0x01
4.433265250000000,0,0xF0,0x12
4.433283291666666,0,0xFF,0x13
4.433301500000000,0,0xFF,0x18
4.435258041666667,0,0xB0,0x10
4.435276083333333,0,0xFF,0x02
4.435294291666667,0,0xFF,0x08
4.437252333333333,0,0xB0,0x13
4.437270333333333,0,0x7F,0x1A
4.437288541666667,0,0xFF,0x18
4.439247375000000,0,0xB0,0x12
4.439265416666666,0,0xFF,0x12
4.439283625000000,0,0xFF,0x18
4.441237083333333,0,0xF0,0x02
4.441255083333333,0,0x7F,0x12
4.441273291666667,0,0xFF,0x18
4.443227458333333,0,0x98,0x1A
4.443245500000000,0,0xFF,0x12
4.443263708333333,0,0xFF,0x18
4.445225041666666,0,0xB0,0x10
4.445243083333334,0,0xFF,0x02
4.445261291666666,0,0xFF,0x18
4.447215458333333,0,0xB0,0x12
4.447233500000000,0,0xFF,0x13
4.447251708333333,0,0xFF,0x18
4.449208750000000,0,0xB0,0x13
4.449226750000000,0,0x7F,0x1A
4.449244958333334,0,0xFF,0x18
4.451198875000000,0,0xF0,0x02
4.451216875000000,0,0x7F,0x12
4.451235083333334,0,0xFF,0x18
4.453191958333333,0,0xB0,0x12
4.453210000000000,0,0xFF,0x12
4.453228208333333,0,0xFF,0x18
4.455184541666667,0,0xB0,0x13
4.455202541666667,0,0xFF,0x1A
4.455220750000000,0,0xFF,0x18
4.457175916666666,0,0x98,0x1A
4.457193958333334,0,0xFF,0x12
4.457212166666666,0,0xFF,0x18
4.459166666666667,0,0x90,0x12
4.459184708333333,0,0xFF,0x12
4.459202916666666,0,0xFF,0x18
4.461160625000000,0,0x98,0x1A
4.461178666666667,0,0xFF,0x12
4.461196875000000,0,0xFF,0x18
4.463159791666667,0,0x98,0x10
4.463177833333333,0,0xFF,0x02
4.463196041666667,0,0xFF,0x0C
4.463220833333334,0,0x87,0x12
4.463238875000000,0,0xFF,0x00
4.463257083333334,0,0xFF,0xBC
4.463279833333333,0,0x07,0x10
4.463297875000000,0,0x00,0x02
4.463315958333333,0,0x1F,0x12
4.464273958333333,0,0x07,0x01
4.464292000000000,0,0x00,0x01
4.464310041666667,0,0x1F,0x81
4.464330666666666,0,0x34,0x01
4.464348708333334,0,0x80,0x01
4.464366750000000,0,0x00,0x01
4.464387000000000,0,0x87,0x01
4.464405041666667,0,0xFF,0x00
4.464423250000000,0,0xFF,0x0E
4.464444125000000,0,0x03,0x01
4.464462125000000,0,0x80,0x01
4.464480208333334,0,0x9E,0x01
4.465872541666666,0,0x90,0x10
4.465890583333334,0,0xFF,0x02
4.465908791666667,0,0xFF,0x0C
4.467861833333333,0,0xF0,0x02
4.467879833333333,0,0x7F,0x12
4.467898041666666,0,0xFF,0x1C
4.469854583333333,0,0xB0,0x12
4.469872625000000,0,0xFF,0x12
4.469890833333333,0,0xFF,0x1C
4.471844250000000,0,0xB0,0x12
4.471862291666667,0,0xFF,0x12
4.471880500000000,0,0xFF,0x0C
4.473844041666666,0,0xB0,0x13
4.473862041666667,0,0x7F,0x1A
4.473880250000000,0,0xFF,0x1C
4.475832166666667,0,0xF0,0x02
4.475850208333333,0,0xFF,0x12
4.475868416666667,0,0xFF,0x1C
4.477832041666667,0,0xF0,0x12
4.477850083333333,0,0xFF,0x12
4.477868291666667,0,0xFF,0x1C
4.479825000000000,0,0x90,0x12
4.479843041666666,0,0xFF,0x12
4.479861250000000,0,0xFF,0x1C
4.481813916666667,0,0xB0,0x12
4.481831958333333,0,0xFF,0x10
4.481850166666667,0,0xFF,0x1C
4.483813875000000,0,0xB0,0x12
4.483831875000000,0,0xFF,0x18
4.483850083333333,0,0xFF,0x1E
4.485801000000000,0,0x98,0x1A
4.485819041666667,0,0xFF,0x12
4.485837250000000,0,0xFF,0x1C
4.487792250000000,0,0xB0,0x12
4.487810250000000,0,0x7F,0x12
4.487828458333333,0,0xFF,0x1C
4.489789166666666,0,0x98,0x10
4.489807208333334,0,0xFF,0x02
4.489825416666666,0,0xFF,0x0C
4.491784500000000,0,0xB0,0x12
4.491802541666667,0,0xFF,0x12
4.491820750000000,0,0xFF,0x1C
4.493779625000000,0,0xB0,0x12
4.493797625000000,0,0xFF,0x10
4.493815833333334,0,0xFF,0x1C
4.495770583333333,0,0xB0,0x12
4.495788625000000,0,0xFF,0x10
4.495806833333333,0,0xFF,0x1E
4.495831625000000,0,0x87,0x12
4.495849666666667,0,0xFF,0x00
4.495867875000000,0,0xFF,0x9E
4.495888458333333,0,0x03,0x12
4.495906458333334,0,0x00,0x1A
4.495924541666667,0,0x46,0x12
4.496073583333334,0,0x07,0x01
4.496091625000000,0,0x00,0x01
4.496109708333333,0,0x06,0x01
4.496130291666667,0,0x14,0x01
4.496148333333333,0,0x80,0x01
4.496166416666667,0,0xC0,0x01
4.496186625000000,0,0x07,0x81
4.496204666666666,0,0xFF,0x00
4.496222875000000,0,0xFF,0x46
4.496243750000000,0,0x07,0x01
4.496261791666667,0,0x00,0x01
4.496279875000000,0,0xC6,0x01
4.497762125000000,0,0xB0,0x13
4.497780125000000,0,0x7F,0x1A
4.497798333333333,0,0xFF,0x06
4.499751000000000,0,0xF0,0x02
4.499769000000000,0,0x7F,0x12
4.499787208333333,0,0xFF,0x0C
4.501749000000000,0,0x98,0x10
4.501767041666667,0,0xFF,0x02
4.501785250000000,0,0xFF,0x0C
4.503736166666667,0,0xF0,0x02
4.503754166666667,0,0x7F,0x12
4.503772375000000,0,0xFF,0x0C
4.505725625000000,0,0xF0,0x12
4.505743625000000,0,0x7F,0x12
4.505761833333334,0,0xFF,0x04
4.507715125000000,0,0xB0,0x12
4.507733166666666,0,0xFF,0x12
4.507751375000000,0,0xFF,0x0C
4.509706333333333,0,0xB0,0x12
4.509724333333334,0,0xFF,0x12
4.509742541666666,0,0xFF,0x0C
4.511698166666666,0,0xF0,0x12
4.511716166666667,0,0x7F,0x12
4.511734375000000,0,0xFF,0x04
4.513691791666667,0,0x98,0x10
4.513709833333333,0,0xFF,0x02
4.513728041666667,0,0xFF,0x0C
4.515683916666666,0,0xF0,0x02
4.515701916666667,0,0x7F,0x1A
4.515720125000000,0,0xFF,0x0E
4.517673208333333,0,0xB0,0x12
4.517691208333333,0,0xFF,0x10
4.517709416666666,0,0xFF,0x0E
4.519668583333333,0,0xF0,0x12
4.519686583333334,0,0x7F,0x12
4.519704791666666,0,0xFF,0x0C
4.521667333333333,0,0xB0,0x12
4.521685333333333,0,0xFF,0x10
4.521703541666667,0,0xFF,0x0C
4.523660875000000,0,0xF0,0x12
4.523678875000000,0,0x7F,0x12
4.523697083333333,0,0xFF,0x0C
4.525651500000000,0,0xB0,0x13
4.525669500000000,0,0x7F,0x18
4.525687708333333,0,0xFF,0x0E
4.527650041666667,0,0xF0,0x12
4.527668041666667,0,0x7F,0x12
4.527686250000000,0,0xFF,0x0C
4.527711083333333,0,0xC3,0x12
4.527729083333333,0,0xFF,0x00
4.527747291666667,0,0xFF,0xC6
4.527767875000000,0,0x07,0x02
4.527785875000000,0,0x80,0x12
4.527803958333333,0,0x00,0x10
4.527871750000000,0,0x07,0x01
4.527889750000000,0,0x00,0x01
4.527907833333333,0,0x00,0x01
4.527928416666667,0,0x34,0x81
4.527946458333333,0,0x80,0x01
4.527964541666667,0,0xC0,0x01
4.527984791666666,0,0x83,0x00
4.528002791666666,0,0xFF,0x00
4.528021000000000,0,0xFF,0x00
4.528041875000000,0,0x87,0x01
4.528059916666667,0,0x00,0x01
4.528078000000000,0,0xC0,0x01
4.529648583333334,0,0xF0,0x12
4.529666625000000,0,0xFF,0x12
4.529684791666667,0,0xFF,0x00
4.531641166666667,0,0x98,0x1A
4.531659208333333,0,0xFF,0x12
4.531677416666667,0,0xFF,0x00
4.533631166666667,0,0xB0,0x12
4.533649208333333,0,0xFF,0x13
4.533667416666667,0,0xFF,0x00
4.535623375000000,0,0xB0,0x13
4.535641375000000,0,0xFF,0x10
4.535659583333334,0,0xFF,0x00
4.537618208333333,0,0xB0,0x12
4.537636250000000,0,0xFF,0x13
4.537654458333333,0,0xFF,0x00
4.539611625000000,0,0xF0,0x02
4.539629625000000,0,0x7F,0x12
4.539647833333333,0,0xFF,0x00
4.541607458333333,0,0xF0,0x12
4.541625500000000,0,0xFF,0x13
4.541643708333333,0,0xFF,0x00
4.543598583333333,0,0x98,0x10
4.543616625000000,0,0xFF,0x02
4.543634833333333,0,0xFF,0x00
4.545595666666666,0,0x98,0x10
4.545613708333334,0,0xFF,0x02
4.545631916666666,0,0xFF,0x00
4.547586208333334,0,0x98,0x10
4.547604250000000,0,0xFF,0x02
4.547622458333334,0,0xFF,0x00
4.549578416666667,0,0xF0,0x13
4.549596416666667,0,0xFF,0x10
4.549614625000000,0,0xFF,0x00
4.551573375000000,0,0xB0,0x13
4.551591375000000,0,0x7F,0x1A
4.551609583333334,0,0xFF,0x00
4.553566041666667,0,0xF0,0x02
4.553584041666666,0,0x7F,0x12
4.553602250000000,0,0xFF,0x00
4.555555416666667,0,0x98,0x10
4.555573458333333,0,0xFF,0x02
4.555591666666666,0,0xFF,0x00
4.557552416666667,0,0x90,0x12
4.557570458333333,0,0xFF,0x12
4.557588666666667,0,0xFF,0x00
4.559541791666667,0,0xF0,0x12
4.559559833333333,0,0xFF,0x12
4.559578000000000,0,0xFF,0x00
4.559602833333333,0,0xC3,0x02
4.559620833333334,0,0xFF,0x00
4.559639041666666,0,0xFF,0x00
4.559659625000000,0,0x07,0x12
4.559677833333334,0,0x00,0x12
4.559695916666667,0,0x3C,0x13
4.560662541666667,0,0x03,0x00
4.560680541666667,0,0x80,0x01
4.560698625000000,0,0x28,0x01
4.560719250000000,0,0x34,0x01
4.560737250000000,0,0x00,0x01
4.560755333333334,0,0xC0,0x01
4.560775583333333,0,0xC3,0x01
4.560793583333333,0,0xFF,0x80
4.560811791666667,0,0xFF,0x28
4.560832666666666,0,0x87,0x01
4.560850708333334,0,0x00,0x01
4.560868791666667,0,0xFC,0x01
4.562266333333334,0,0x18,0x12
4.562284375000000,0,0xFF,0x12
4.562302583333333,0,0xFF,0x10
4.564256708333334,0,0xB0,0x12
4.564274750000000,0,0xFF,0x10
4.564292958333334,0,0xFF,0x18
4.566245250000000,0,0xF0,0x12
4.566263291666667,0,0xFF,0x13
4.566281500000000,0,0xFF,0x10
4.568244916666667,0,0xB0,0x13
4.568262916666667,0,0xFF,0x1A
4.568281125000000,0,0xFF,0x18
4.570234291666667,0,0x98,0x10
4.570252333333333,0,0xFF,0x12
4.570270541666667,0,0xFF,0x10
4.572232708333333,0,0xF0,0x02
4.572250708333334,0,0x7F,0x12
4.572268958333333,0,0xFF,0x10
4.574224791666667,0,0x90,0x12
4.574242833333333,0,0xFF,0x12
4.574261041666666,0,0xFF,0x10
4.576215041666667,0,0xB0,0x12
4.576233083333333,0,0xFF,0x12
4.576251291666667,0,0xFF,0x10
4.578203208333333,0,0x98,0x10
4.578221250000000,0,0xFF,0x02
4.578239458333333,0,0xFF,0x10
4.580195750000000,0,0xB0,0x12
4.580213791666667,0,0xFF,0x12
4.580232000000000,0,0xFF,0x10
4.582182625000000,0,0xB0,0x12
4.582200666666667,0,0xFF,0x12
4.582218875000000,0,0xFF,0x10
4.584174416666666,0,0x90,0x12
4.584192458333334,0,0xFF,0x12
4.584210666666666,0,0xFF,0x10
4.586167500000000,0,0x90,0x12
4.586185541666667,0,0xFF,0x12
4.586203750000000,0,0xFF,0x10
4.588158500000000,0,0xB0,0x13
4.588176500000000,0,0x7F,0x18
4.588194708333333,0,0xFF,0x10
4.590145333333333,0,0x98,0x10
4.590163375000000,0,0xFF,0x12
4.590181583333333,0,0xFF,0x10
4.592135833333334,0,0xF0,0x02
4.592153833333334,0,0x7F,0x12
4.592172041666666,0,0xFF,0x10
4.592196875000000,0,0xC7,0x12
4.592214916666666,0,0xFF,0x00
4.592233125000000,0,0xFF,0xA8
4.592253666666666,0,0x07,0x12
4.592271708333334,0,0x00,0x13
4.592289750000000,0,0x0A,0x12
4.592461916666666,0,0x03,0x00
4.592479916666667,0,0x00,0x01
4.592498000000000,0,0x0A,0x01
4.592518583333334,0,0x34,0x81
4.592536625000000,0,0x80,0x01
4.592554708333333,0,0xC0,0x01
4.592574958333334,0,0x83,0x00
4.592592958333333,0,0xFF,0x00
4.592611166666667,0,0xFF,0x02
4.592632041666667,0,0x87,0x01
4.592650083333333,0,0x00,0x01
4.592668166666667,0,0xCE,0x01
4.594125375000000,0,0xB0,0x13
4.594143375000000,0,0xFF,0x1A
4.594161583333333,0,0xFF,0x1C
4.596115875000000,0,0xB0,0x12
4.596133916666667,0,0xFF,0x10
4.596152125000000,0,0xFF,0x1C
4.598108750000000,0,0x98,0x10
4.598126791666667,0,0xFF,0x02
4.598145000000000,0,0xFF,0x04
4.600096750000000,0,0xB0,0x12
4.600114791666667,0,0xFF,0x12
4.600133000000000,0,0xFF,0x14
4.602094416666667,0,0xF0,0x02
4.602112416666666,0,0x7F,0x12
4.602130625000000,0,0xFF,0x14
4.604091291666666,0,0xB0,0x12
4.604109291666667,0,0xFF,0x10
4.604127500000000,0,0xFF,0x16
4.606082291666667,0,0xB0,0x12
4.606100333333333,0,0xFF,0x12
4.606118500000000,0,0xFF,0x14
4.608069750000000,0,0x98,0x10
4.608087791666667,0,0xFF,0x02
4.608106000000000,0,0xFF,0x00
4.610059375000000,0,0xF0,0x02
4.610077375000000,0,0x7F,0x12
4.610095583333333,0,0xFF,0x1C
4.612048333333333,0,0xB0,0x12
4.612066375000000,0,0xFF,0x12
4.612084541666666,0,0xFF,0x14
4.614039791666666,0,0x98,0x1A
4.614057833333334,0,0xFF,0x12
4.614076041666666,0,0xFF,0x14
4.616030583333333,0,0x90,0x12
4.616048625000000,0,0xFF,0x12
4.616066833333333,0,0xFF,0x14
4.618027000000000,0,0xF0,0x02
4.618045000000000,0,0x7F,0x12
4.618063208333333,0,0xFF,0x14
4.620014916666666,0,0xF0,0x12
4.620032958333334,0,0xFF,0x13
4.620051166666666,0,0xFF,0x14
4.622005708333333,0,0xB0,0x13
4.622023708333334,0,0x7F,0x1A
4.622041916666666,0,0xFF,0x16
4.623994791666667,0,0xF0,0x12
4.624012791666667,0,0x7F,0x12
4.624031000000000,0,0xFF,0x14
4.624055833333333,0,0xC3,0x12
4.624073833333333,0,0xFF,0x00
4.624092041666667,0,0xFF,0x0A
4.624112625000000,0,0x07,0x02
4.624130625000000,0,0x80,0x12
4.624148708333333,0,0x18,0x10
4.624260500000000,0,0x07,0x01
4.624278541666667,0,0x00,0x01
4.624296583333333,0,0x33,0x81
4.624317208333333,0,0x36,0x01
4.624335250000000,0,0x80,0x00
4.624353291666667,0,0x00,0x81
4.624373541666666,0,0x07,0x01
4.624391583333334,0,0xFF,0x00
4.624409791666666,0,0xFF,0x32
4.624430666666667,0,0x07,0x01
4.624448666666667,0,0x80,0x81
4.624466750000000,0,0x98,0x01
4.625987000000000,0,0xB0,0x13
4.626005000000000,0,0x7F,0x1A
4.626023208333334,0,0xFF,0x04
4.627979083333333,0,0x90,0x12
4.627997125000000,0,0xFF,0x12
4.628015333333333,0,0xFF,0x04
4.629967416666666,0,0x90,0x12
4.629985458333334,0,0xFF,0x12
4.630003666666667,0,0xFF,0x04
4.631962083333334,0,0xB0,0x12
4.631980125000000,0,0xFF,0x13
4.631998333333334,0,0xFF,0x04
4.633961958333333,0,0xF0,0x12
4.633980000000000,0,0xFF,0x13
4.633998208333334,0,0xFF,0x04
4.635949041666667,0,0xF0,0x02
4.635967041666667,0,0x7F,0x12
4.635985250000000,0,0xFF,0x04
4.637945500000000,0,0xB0,0x12
4.637963541666666,0,0xFF,0x02
4.637981750000000,0,0xFF,0x04
4.639937125000000,0,0xB0,0x12
4.639955166666667,0,0xFF,0x13
4.639973375000000,0,0xFF,0x04
4.641927000000000,0,0x90,0x12
4.641945041666666,0,0xFF,0x12
4.641963250000000,0,0xFF,0x04
4.643918041666667,0,0xF0,0x12
4.643936083333333,0,0xFF,0x12
4.643954291666667,0,0xFF,0x04
4.645915375000000,0,0x98,0x12
4.645933416666667,0,0xFF,0x12
4.645951625000000,0,0xFF,0x04
4.647908625000000,0,0x90,0x12
4.647926666666667,0,0xFF,0x12
4.647944875000000,0,0xFF,0x04
4.649902416666666,0,0xB0,0x12
4.649920458333333,0,0xFF,0x10
4.649938666666666,0,0xFF,0x06
4.651902583333333,0,0xF0,0x12
4.651920583333333,0,0x7F,0x12
4.651938791666667,0,0xFF,0x04
4.653900291666667,0,0xB0,0x12
4.653918333333333,0,0xFF,0x10
4.653936541666667,0,0xFF,0x06
4.655893333333333,0,0x98,0x1A
4.655911375000000,0,0xFF,0x12
4.655929583333333,0,0xFF,0x04
4.655954375000000,0,0x87,0x1A
4.655972416666667,0,0xFF,0x00
4.655990625000000,0,0xFF,0xB2
4.656011166666667,0,0x87,0x12
4.656029208333333,0,0x00,0x12
4.656047291666667,0,0x00,0x12
4.657053958333333,0,0x03,0x00
4.657071958333334,0,0x00,0x01
4.657090041666667,0,0x14,0x01
4.657110625000000,0,0x34,0x81
4.657128666666667,0,0x80,0x01
4.657146750000000,0,0xC0,0x01
4.657167000000000,0,0x83,0x00
4.657185000000000,0,0xFF,0x00
4.657203208333334,0,0xFF,0x1C
4.657224083333333,0,0x87,0x01
4.657242125000000,0,0x00,0x01
4.657260208333334,0,0xC0,0x01
4.658678583333334,0,0xB0,0x12
4.658696625000000,0,0xFF,0x12
4.658714833333334,0,0xFF,0x0C
4.660668416666667,0,0x98,0x18
4.660686458333333,0,0xFF,0x12
4.660704666666667,0,0xFF,0x08
4.662658916666667,0,0xB0,0x13
4.662676916666666,0,0x7F,0x1A
4.662695125000000,0,0xFF,0x00
4.664650958333334,0,0xB0,0x12
4.664669000000000,0,0xFF,0x12
4.664687208333334,0,0xFF,0x0C
4.666641041666667,0,0xF0,0x12
4.666659083333333,0,0xFF,0x12
4.666677291666667,0,0xFF,0x08
4.668633666666667,0,0xB0,0x12
4.668651708333333,0,0xFF,0x12
4.668669916666667,0,0xFF,0x0C
4.670631916666666,0,0xB0,0x12
4.670649958333334,0,0xFF,0x02
4.670668166666666,0,0xFF,0x0C
4.672628333333333,0,0x98,0x18
4.672646375000000,0,0xFF,0x12
4.672664583333333,0,0xFF,0x08
4.674627666666667,0,0x90,0x12
4.674645708333333,0,0xFF,0x12
4.674663916666667,0,0xFF,0x08
4.676616583333334,0,0xB0,0x12
4.676634625000000,0,0xFF,0x10
4.676652833333334,0,0xFF,0x08
4.678612166666666,0,0xB0,0x12
4.678630208333334,0,0xFF,0x12
4.678648416666666,0,0xFF,0x08
4.680606875000000,0,0xF0,0x12
4.680624916666667,0,0xFF,0x13
4.680643125000000,0,0xFF,0x08
4.682594333333333,0,0xB0,0x12
4.682612375000000,0,0xFF,0x13
4.682630583333333,0,0xFF,0x08
4.684590916666667,0,0xF0,0x12
4.684608958333333,0,0xFF,0x13
4.684627166666667,0,0xFF,0x08
4.686579250000000,0,0xB8,0x10
4.686597291666667,0,0xFF,0x02
4.686615500000000,0,0xFF,0x0C
4.688572083333334,0,0x98,0x1A
4.688590125000000,0,0xFF,0x12
4.688608333333334,0,0xFF,0x08
4.688633125000000,0,0x87,0x10
4.688651166666666,0,0xFF,0x00
4.688669375000000,0,0xFF,0xC4
4.688689916666666,0,0x07,0x10
4.688707958333334,0,0x00,0x02
4.688726041666667,0,0x3C,0x12
4.688854791666667,0,0x07,0x01
4.688872833333333,0,0x00,0x01
4.688890875000000,0,0x3C,0x81
4.688911500000000,0,0x36,0x01
4.688929541666667,0,0xC0,0x01
4.688947583333333,0,0x00,0x81
4.688967833333333,0,0x07,0x01
4.688985875000000,0,0xFF,0x00
4.689004083333334,0,0xFF,0x3C
4.689024958333333,0,0x07,0x01
4.689043000000000,0,0x00,0x01
4.689061041666666,0,0x3C,0x81
4.690567458333334,0,0xF0,0x02
4.690585458333334,0,0x7F,0x12
4.690603666666667,0,0xFF,0x18
4.692557958333333,0,0xF0,0x02
4.692576000000000,0,0xFF,0x12
4.692594208333333,0,0xFF,0x18
4.694548250000000,0,0xB0,0x12
4.694566291666667,0,0xFF,0x12
4.694584500000000,0,0xFF,0x1C
4.696538458333333,0,0x98,0x10
4.696556500000000,0,0xFF,0x02
4.696574708333333,0,0xFF,0x08
4.698530125000000,0,0xB0,0x12
4.698548166666667,0,0xFF,0x12
4.698566375000000,0,0xFF,0x18
4.700522041666667,0,0xB0,0x10
4.700540083333333,0,0xFF,0x02
4.700558291666667,0,0xFF,0x0C
4.702519958333333,0,0xF0,0x12
4.702537958333333,0,0x7F,0x12
4.702556166666667,0,0xFF,0x18
4.704512625000000,0,0xB0,0x12
4.704530666666667,0,0xFF,0x12
4.704548875000000,0,0xFF,0x18
4.706510666666667,0,0x90,0x12
4.706528708333333,0,0xFF,0x12
4.706546916666666,0,0xFF,0x18
4.708498250000000,0,0xB0,0x12
4.708516291666666,0,0xFF,0x13
4.708534500000000,0,0xFF,0x18
4.710497500000000,0,0x90,0x12
4.710515541666667,0,0xFF,0x12
4.710533750000000,0,0xFF,0x18
4.712490708333333,0,0x98,0x10
4.712508750000000,0,0xFF,0x12
4.712526958333333,0,0xFF,0x18
4.714483375000000,0,0xB0,0x12
4.714501416666667,0,0xFF,0x12
4.714519625000000,0,0xFF,0x18
4.716475625000000,0,0xB0,0x12
4.716493625000000,0,0xFF,0x10
4.716511833333334,0,0xFF,0x18
4.718470375000000,0,0x90,0x12
4.718488416666666,0,0xFF,0x12
4.718506625000000,0,0xFF,0x18
4.720457666666666,0,0xF0,0x12
4.720475666666666,0,0x7F,0x12
4.720493875000000,0,0xFF,0x18
4.720518708333334,0,0x83,0x12
4.720536708333333,0,0xFF,0x00
4.720554916666667,0,0xFF,0xBC
4.720575500000000,0,0x03,0x02
4.720593500000000,0,0x80,0x12
4.720611583333334,0,0x1E,0x10
4.720655416666666,0,0x07,0x01
4.720673458333334,0,0x00,0x01
4.720691500000000,0,0x1F,0x81
4.720712125000000,0,0x36,0x01
4.720730166666667,0,0x80,0x01
4.720748208333333,0,0x00,0x81
4.720768458333334,0,0x07,0x01
4.720786500000000,0,0xFF,0x00
4.720804708333334,0,0xFF,0x1E
4.720825583333333,0,0x07,0x01
4.720843625000000,0,0x00,0x01
4.720861708333334,0,0x9F,0x01
4.722450333333334,0,0x18,0x10
4.722468375000000,0,0xFF,0x12
4.722486583333334,0,0xFF,0x1C
4.724442250000000,0,0x98,0x10
4.724460291666666,0,0xFF,0x02
4.724478500000000,0,0xFF,0x1C
4.726430125000000,0,0x90,0x12
4.726448166666667,0,0xFF,0x12
4.726466375000000,0,0xFF,0x1C
4.728421500000000,0,0x98,0x10
4.728439541666667,0,0xFF,0x02
4.728457750000000,0,0xFF,0x0C
4.730415583333333,0,0xF0,0x02
4.730433583333333,0,0x7F,0x12
4.730451833333333,0,0xFF,0x1C
4.732408666666666,0,0xB0,0x12
4.732426708333334,0,0xFF,0x12
4.732444916666666,0,0xFF,0x1C
4.734401583333334,0,0xF0,0x02
4.734419583333334,0,0x7F,0x13
4.734437833333334,0,0xFF,0x1C
4.736394583333333,0,0xB0,0x12
4.736412625000000,0,0xFF,0x02
4.736430833333333,0,0xFF,0x0C
4.738390875000000,0,0xF0,0x12
4.738408875000000,0,0x7F,0x12
4.738427125000000,0,0xFF,0x1C
4.740386083333333,0,0xB0,0x12
4.740404083333333,0,0xFF,0x10
4.740422291666667,0,0xFF,0x1E
4.742380583333333,0,0x98,0x10
4.742398625000000,0,0xFF,0x12
4.742416833333333,0,0xFF,0x1C
4.744371041666667,0,0xF0,0x02
4.744389083333333,0,0xFF,0x13
4.744407291666667,0,0xFF,0x1C
4.746361958333333,0,0xF0,0x12
4.746379958333334,0,0x7F,0x12
4.746398166666666,0,0xFF,0x1C
4.748355541666666,0,0x98,0x10
4.748373583333334,0,0xFF,0x12
4.748391791666666,0,0xFF,0x1C
4.750346333333333,0,0xF0,0x12
4.750364375000000,0,0xFF,0x13
4.750382583333334,0,0xFF,0x1C
4.752337791666666,0,0xB0,0x12
4.752355833333334,0,0xFF,0x10
4.752374041666667,0,0xFF,0x1E
4.752398875000000,0,0x83,0x12
4.752416875000000,0,0xFF,0x00
4.752435083333333,0,0xFF,0x9E
4.752457666666666,0,0x87,0x12
4.752475708333334,0,0x00,0x10
4.752493791666667,0,0x46,0x12
4.753451333333333,0,0x07,0x01
4.753469375000000,0,0x00,0x01
4.753487458333334,0,0x46,0x01
4.753508041666667,0,0x34,0x81
4.753526083333333,0,0x00,0x01
4.753544166666667,0,0x80,0x01
4.753564416666666,0,0xC7,0x01
4.753582458333334,0,0xFF,0x00
4.753600666666666,0,0xFF,0x47
4.753621541666667,0,0x03,0x00
4.753639541666667,0,0x00,0x01
4.753657625000000,0,0xC6,0x01
4.755038583333334,0,0xF0,0x12
4.755056583333333,0,0x7F,0x12
4.755074791666667,0,0xFF,0x0C
4.757029041666667,0,0xF0,0x12
4.757047041666667,0,0x7F,0x12
4.757065250000000,0,0xFF,0x0C
4.759017458333333,0,0xF0,0x02
4.759035458333333,0,0x7F,0x12
4.759053708333333,0,0xFF,0x0C
4.761008333333334,0,0xF0,0x02
4.761026333333334,0,0x7F,0x12
4.761044583333334,0,0xFF,0x0C
4.763004041666667,0,0xF0,0x12
4.763022041666667,0,0x7F,0x12
4.763040250000000,0,0xFF,0x0C
4.764996000000000,0,0xB0,0x12
4.765014041666666,0,0xFF,0x10
4.765032250000000,0,0xFF,0x04
4.766987375000000,0,0x90,0x12
4.767005416666667,0,0xFF,0x12
4.767023625000000,0,0xFF,0x0C
4.768976166666667,0,0xB0,0x12
4.768994208333333,0,0xFF,0x12
4.769012416666667,0,0xFF,0x0C
4.770966291666666,0,0xB0,0x12
4.770984333333334,0,0xFF,0x12
4.771002541666666,0,0xFF,0x0C
4.772954041666667,0,0xB0,0x12
4.772972083333333,0,0xFF,0x02
4.772990291666667,0,0xFF,0x0C
4.774949541666667,0,0xF0,0x12
4.774967583333333,0,0xFF,0x13
4.774985791666666,0,0xFF,0x0C
4.776948541666667,0,0x98,0x1A
4.776966583333333,0,0xFF,0x12
4.776984791666667,0,0xFF,0x0C
4.778935541666667,0,0xF0,0x12
4.778953541666667,0,0x7F,0x12
4.778971750000000,0,0xFF,0x04
4.780923583333333,0,0xB0,0x13
4.780941583333333,0,0x7F,0x1A
4.780959791666667,0,0xFF,0x04
4.782919916666667,0,0xB0,0x10
4.782937958333333,0,0xFF,0x02
4.782956166666667,0,0xFF,0x0C
4.784911041666667,0,0xB0,0x12
4.784929041666667,0,0xFF,0x10
4.784947250000000,0,0xFF,0x0E
4.784972041666666,0,0x87,0x12
4.784990083333334,0,0xFF,0x00
4.785008291666666,0,0xFF,0xC6
4.785028875000000,0,0x03,0x13
4.785046875000000,0,0x80,0x1A
4.785064958333333,0,0x00,0x12
4.785252916666667,0,0x07,0x01
4.785270958333333,0,0x00,0x01
4.785289000000000,0,0x00,0x01
4.785309625000000,0,0x34,0x01
4.785327625000000,0,0x00,0x81
4.785345708333334,0,0x00,0x01
4.785365958333333,0,0x87,0x01
4.785384000000000,0,0xFF,0x00
4.785402208333333,0,0xFF,0x00
4.785423083333334,0,0x07,0x01
4.785441083333334,0,0x00,0x01
4.785459166666667,0,0xC0,0x01
4.786907541666666,0,0xB0,0x12
4.786925583333334,0,0xFF,0x12
4.786943791666666,0,0xFF,0x00
4.788905500000000,0,0x98,0x10
4.788923541666667,0,0xFF,0x02
4.788941750000000,0,0xFF,0x00
4.790902333333333,0,0x98,0x1A
4.790920375000000,0,0xFF,0x12
4.790938583333333,0,0xFF,0x00
4.792902208333333,0,0xF0,0x02
4.792920208333333,0,0x7F,0x12
4.792938416666667,0,0xFF,0x00
4.794892750000000,0,0xF0,0x12
4.794910791666666,0,0xFF,0x13
4.794929000000000,0,0xFF,0x00
4.796884333333334,0,0xF0,0x02
4.796902333333334,0,0x7F,0x12
4.796920583333334,0,0xFF,0x00
4.798871125000000,0,0xB0,0x12
4.798889125000000,0,0xFF,0x1A
4.798907333333333,0,0xFF,0x00
4.800864208333333,0,0xB0,0x13
4.800882208333333,0,0x7F,0x1A
4.800900416666667,0,0xFF,0x00
4.802854958333334,0,0x90,0x12
4.802873000000000,0,0xFF,0x12
4.802891208333333,0,0xFF,0x00
4.804844166666666,0,0xB0,0x12
4.804862166666667,0,0xFF,0x10
4.804880375000000,0,0xFF,0x00
4.806839833333333,0,0xB0,0x12
4.806857875000000,0,0xFF,0x02
4.806876083333333,0,0xFF,0x00
4.808835958333334,0,0xB0,0x13
4.808853958333334,0,0x7F,0x1A
4.808872166666666,0,0xFF,0x00
4.810831416666667,0,0xB0,0x12
4.810849458333333,0,0xFF,0x13
4.810867666666667,0,0xFF,0x00
4.812826458333333,0,0xF0,0x12
4.812844458333333,0,0x7F,0x12
4.812862666666667,0,0xFF,0x00
4.814813625000000,0,0xF0,0x02
4.814831625000000,0,0x7F,0x12
4.814849833333334,0,0xFF,0x00
4.816805625000000,0,0x90,0x10
4.816823666666667,0,0xFF,0x02
4.816841875000000,0,0xFF,0x00
4.816866666666667,0,0x87,0x12
4.816884708333333,0,0xFF,0x00
4.816902916666667,0,0xFF,0x80
4.816923500000000,0,0x07,0x12
4.816941500000000,0,0x00,0x1A
4.816959583333333,0,0x20,0x12
4.817053833333333,0,0x03,0x01
4.817071833333333,0,0x80,0x01
4.817089916666666,0,0x00,0x01
4.817110541666667,0,0x30,0x00
4.817128541666666,0,0x00,0x01
4.817146625000000,0,0x80,0x01
4.817166875000000,0,0x87,0x01
4.817184916666666,0,0xFF,0x00
4.817203125000000,0,0xFF,0x28
4.817224000000000,0,0x03,0x01
4.817242000000000,0,0x80,0x81
4.817260083333333,0,0x80,0x01
4.818801625000000,0,0x30,0x92
4.818819666666666,0,0xFF,0x10
4.818837875000000,0,0xFF,0x10
4.820793000000000,0,0xF0,0x12
4.820811041666667,0,0xFF,0x13
4.820829250000000,0,0xFF,0x10
4.822790625000000,0,0xB0,0x12
4.822808666666667,0,0xFF,0x10
4.822826875000000,0,0xFF,0x10
4.824780833333334,0,0xF0,0x02
4.824798875000000,0,0xFF,0x13
4.824817083333333,0,0xFF,0x10
4.826777041666666,0,0x98,0x10
4.826795083333334,0,0xFF,0x12
4.826813291666666,0,0xFF,0x10
4.828765791666667,0,0x98,0x1A
4.828783833333333,0,0xFF,0x12
4.828802041666667,0,0xFF,0x10
4.830757583333333,0,0xF0,0x12
4.830775625000000,0,0xFF,0x12
4.830793833333333,0,0xFF,0x10
4.832748625000000,0,0xF0,0x02
4.832766666666667,0,0xFF,0x13
4.832784875000000,0,0xFF,0x10
4.834738666666667,0,0xB0,0x12
4.834756708333333,0,0xFF,0x02
4.834774916666666,0,0xFF,0x00
4.836727291666667,0,0xB0,0x13
4.836745291666666,0,0x7F,0x1A
4.836763500000000,0,0xFF,0x18
4.838716541666667,0,0x98,0x10
4.838734583333333,0,0xFF,0x12
4.838752791666667,0,0xFF,0x10
4.840709666666666,0,0xB8,0x10
4.840727708333334,0,0xFF,0x02
4.840745916666667,0,0xFF,0x10
4.842704541666667,0,0xF0,0x12
4.842722541666666,0,0x7F,0x12
4.842740750000000,0,0xFF,0x10
4.844696083333333,0,0xB0,0x13
4.844714083333334,0,0x7F,0x12
4.844732291666666,0,0xFF,0x10
4.846684541666667,0,0x98,0x10
4.846702583333333,0,0xFF,0x12
4.846720791666667,0,0xFF,0x10
4.848680958333333,0,0x98,0x10
4.848699000000000,0,0xFF,0x02
4.848717208333333,0,0xFF,0x00
4.848742000000000,0,0x87,0x10
4.848760041666667,0,0xFF,0x00
4.848778250000000,0,0xFF,0xF8
4.848798791666667,0,0x07,0x1A
4.848816833333333,0,0x00,0x12
4.848834916666667,0,0x0F,0x13
4.849850416666666,0,0x07,0x01
4.849868458333333,0,0x00,0x01
4.849886541666667,0,0x0E,0x01
4.849907125000000,0,0x1C,0x01
4.849925166666667,0,0x80,0x01
4.849943250000000,0,0xC0,0x01
4.849963500000000,0,0x83,0x00
4.849981500000000,0,0xFF,0x00
4.849999708333334,0,0xFF,0x0A
4.850020583333333,0,0x87,0x01
4.850038625000000,0,0x00,0x01
4.850056708333334,0,0xCA,0x01
4.851451250000000,0,0x18,0x10
4.851469291666667,0,0xFF,0x12
4.851487500000000,0,0xFF,0x14
4.853444333333333,0,0x90,0x12
4.853462375000000,0,0xFF,0x10
4.853480583333333,0,0xFF,0x16
4.855434791666666,0,0xB0,0x12
4.855452833333334,0,0xFF,0x12
4.855471041666667,0,0xFF,0x14
4.857424291666667,0,0xB0,0x12
4.857442333333333,0,0xFF,0x10
4.857460541666667,0,0xFF,0x16
4.859417458333334,0,0x98,0x10
4.859435500000000,0,0xFF,0x02
4.859453708333334,0,0xFF,0x00
4.861407541666667,0,0x98,0x10
4.861425583333333,0,0xFF,0x02
4.861443791666667,0,0xFF,0x04
4.863402875000000,0,0xB0,0x12
4.863420916666667,0,0xFF,0x12
4.863439125000000,0,0xFF,0x14
4.865393041666667,0,0xB0,0x12
4.865411083333333,0,0xFF,0x12
4.865429291666667,0,0xFF,0x14
4.867389041666667,0,0xB0,0x12
4.867407083333333,0,0xFF,0x02
4.867425291666667,0,0xFF,0x00
4.869388291666667,0,0xB0,0x12
4.869406291666666,0,0x7F,0x12
4.869424500000000,0,0xFF,0x14
4.871386791666667,0,0xB0,0x12
4.871404833333333,0,0xFF,0x10
4.871423041666667,0,0xFF,0x16
4.873381250000000,0,0xB0,0x13
4.873399250000000,0,0x7F,0x1A
4.873417458333333,0,0xFF,0x1C
4.875368208333334,0,0x90,0x12
4.875386250000000,0,0xFF,0x12
4.875404458333334,0,0xFF,0x14
4.877360291666666,0,0x98,0x1A
4.877378333333334,0,0xFF,0x12
4.877396541666666,0,0xFF,0x14
4.879351958333333,0,0xF0,0x12
4.879370000000000,0,0xFF,0x12
4.879388208333333,0,0xFF,0x14
4.881342916666667,0,0xB0,0x12
4.881360958333333,0,0xFF,0x13
4.881379166666667,0,0xFF,0x14
4.881403958333333,0,0x87,0x12
4.881422000000000,0,0xFF,0x00
4.881440208333333,0,0xFF,0x8B
4.881460750000000,0,0x07,0x12
4.881478791666667,0,0x00,0x12
4.881496833333333,0,0x33,0x12
4.881650916666667,0,0x07,0x01
4.881668958333333,0,0x00,0x01
4.881687000000000,0,0x32,0x81
4.881707625000000,0,0x34,0x01
4.881725625000000,0,0x00,0x81
4.881743708333333,0,0x80,0x01
4.881763958333333,0,0x87,0x01
4.881782000000000,0,0xFF,0x00
4.881800208333333,0,0xFF,0x33
4.881821083333334,0,0x03,0x00
4.881839083333333,0,0x80,0x01
4.881857166666666,0,0xB0,0x01
4.883339375000000,0,0xB0,0x12
4.883357416666667,0,0xFF,0x13
4.883375625000000,0,0xFF,0x04
4.885330333333333,0,0xB0,0x12
4.885348375000000,0,0xFF,0x10
4.885366583333333,0,0xFF,0x04
4.887317833333333,0,0xB0,0x12
4.887335875000000,0,0xFF,0x12
4.887354083333333,0,0xFF,0x00
4.889307958333333,0,0xF0,0x02
4.889325958333333,0,0x7F,0x12
4.889344166666667,0,0xFF,0x04
4.891303916666667,0,0x98,0x1A
4.891321958333333,0,0xFF,0x12
4.891340166666667,0,0xFF,0x04
4.893294583333334,0,0x98,0x1A
4.893312625000000,0,0xFF,0x12
4.893330833333334,0,0xFF,0x04
4.895285125000000,0,0xB0,0x12
4.895303166666666,0,0xFF,0x12
4.895321375000000,0,0xFF,0x00
4.897277625000000,0,0xB0,0x12
4.897295666666666,0,0xFF,0x13
4.897313875000000,0,0xFF,0x04
4.899265083333334,0,0xB0,0x13
4.899283083333334,0,0x7F,0x18
4.899301291666666,0,0xFF,0x06
4.901255500000000,0,0xB0,0x12
4.901273500000000,0,0x7F,0x12
4.901291708333333,0,0xFF,0x04
4.903247041666667,0,0x90,0x12
4.903265083333333,0,0xFF,0x12
4.903283291666667,0,0xFF,0x04
4.905239166666667,0,0xF0,0x12
4.905257166666667,0,0x7F,0x12
4.905275375000000,0,0xFF,0x04
4.907230708333334,0,0xB0,0x12
4.907248750000000,0,0xFF,0x12
4.907266958333333,0,0xFF,0x04
4.909220916666666,0,0xB0,0x12
4.909238916666666,0,0x7F,0x12
4.909257125000000,0,0xFF,0x04
4.911215375000000,0,0x98,0x1A
4.911233416666667,0,0xFF,0x12
4.911251625000000,0,0xFF,0x04
4.913208291666667,0,0xB0,0x12
4.913226333333333,0,0xFF,0x13
4.913244541666667,0,0xFF,0x04
4.913269333333333,0,0x87,0x12
4.913287375000000,0,0xFF,0x00
4.913305583333333,0,0xFF,0xB2
4.913326125000000,0,0x07,0x10
4.913344166666667,0,0x00,0x02
4.913362250000000,0,0x10,0x12
4.913452875000000,0,0x03,0x00
4.913470875000000,0,0x00,0x01
4.913488958333334,0,0x1E,0x01
4.913509583333333,0,0x30,0x01
4.913527583333333,0,0x00,0x01
4.913545666666667,0,0x80,0x01
4.913565916666666,0,0x87,0x01
4.913583958333334,0,0xFF,0x00
4.913602166666666,0,0xFF,0x00
4.913623041666667,0,0x07,0x01
4.913641083333333,0,0x00,0x00
4.913659125000000,0,0x14,0x01
4.915195541666667,0,0xF0,0x02
4.915213541666667,0,0x7F,0x12
4.915231750000000,0,0xFF,0x08
4.917188500000000,0,0xB0,0x12
4.917206541666666,0,0xFF,0x12
4.917224750000000,0,0xFF,0x08
4.919175791666667,0,0x98,0x1A
4.919193833333333,0,0xFF,0x12
4.919212041666666,0,0xFF,0x08
4.921165666666667,0,0x90,0x12
4.921183708333333,0,0xFF,0x12
4.921201916666667,0,0xFF,0x08
4.923159083333333,0,0xF0,0x02
4.923177083333333,0,0x7F,0x12
4.923195291666667,0,0xFF,0x08
4.925148333333333,0,0x98,0x1A
4.925166375000000,0,0xFF,0x12
4.925184583333333,0,0xFF,0x0C
4.927138875000000,0,0xB0,0x13
4.927156875000000,0,0x7F,0x1A
4.927175083333333,0,0xFF,0x08
4.929134041666667,0,0xB0,0x12
4.929152083333333,0,0xFF,0x02
4.929170291666667,0,0xFF,0x08
4.931130500000000,0,0xB0,0x12
4.931148541666666,0,0xFF,0x12
4.931166750000000,0,0xFF,0x0C
4.933123291666667,0,0xB0,0x12
4.933141333333333,0,0xFF,0x12
4.933159541666667,0,0xFF,0x08
4.935121291666666,0,0xB0,0x12
4.935139333333334,0,0xFF,0x13
4.935157541666666,0,0xFF,0x08
4.937118041666666,0,0xB0,0x13
4.937136041666666,0,0xFF,0x1A
4.937154250000000,0,0xFF,0x00
4.939114333333333,0,0x90,0x12
4.939132375000000,0,0xFF,0x12
4.939150583333333,0,0xFF,0x08
4.941107916666667,0,0xF0,0x02
4.941125916666667,0,0x7F,0x12
4.941144166666667,0,0xFF,0x08
4.943096583333333,0,0xF0,0x02
4.943114583333333,0,0x7F,0x12
4.943132791666667,0,0xFF,0x08
4.945087958333334,0,0xF0,0x12
4.945105958333333,0,0x7F,0x12
4.945124208333334,0,0xFF,0x08
4.945149000000000,0,0x87,0x12
4.945167041666667,0,0xFF,0x00
4.945185250000000,0,0xFF,0xD4
4.945205791666667,0,0x87,0x12
4.945223833333333,0,0x00,0x10
4.945241916666666,0,0x3E,0x12
4.946247416666667,0,0x07,0x01
4.946265458333333,0,0x00,0x01
4.946283541666666,0,0x3C,0x01
4.946304125000000,0,0x34,0x81
4.946322166666667,0,0x80,0x01
4.946340250000000,0,0x80,0x01
4.946360500000000,0,0xC3,0x01
4.946378500000000,0,0xFF,0x80
4.946396708333333,0,0xFF,0x3C
4.946417583333333,0,0x87,0x01
4.946435625000000,0,0x00,0x01
4.946453708333333,0,0xFC,0x01
4.947845416666667,0,0xB0,0x12
4.947863458333333,0,0xFF,0x12
4.947881666666667,0,0xFF,0x1C
4.949836541666667,0,0xB0,0x12
4.949854583333333,0,0xFF,0x12
4.949872791666666,0,0xFF,0x1C
4.951831750000000,0,0x98,0x18
4.951849791666667,0,0xFF,0x12
4.951868000000000,0,0xFF,0x18
4.953821041666667,0,0xB0,0x12
4.953839041666667,0,0xFF,0x10
4.953857250000000,0,0xFF,0x18
4.955811375000000,0,0xB0,0x12
4.955829416666667,0,0xFF,0x12
4.955847625000000,0,0xFF,0x18
4.957811333333333,0,0xB8,0x10
4.957829375000000,0,0xFF,0x02
4.957847583333334,0,0xFF,0x08
4.959807375000000,0,0xB0,0x13
4.959825375000000,0,0x7F,0x1A
4.959843583333333,0,0xFF,0x18
4.961805625000000,0,0xF0,0x02
4.961823666666667,0,0xFF,0x13
4.961841875000000,0,0xFF,0x18
4.963799458333333,0,0xB0,0x12
4.963817500000000,0,0xFF,0x02
4.963835708333334,0,0xFF,0x1C
4.965794916666667,0,0xB0,0x12
4.965812958333333,0,0xFF,0x13
4.965831166666667,0,0xFF,0x18
4.967788583333333,0,0x98,0x10
4.967806625000000,0,0xFF,0x02
4.967824833333333,0,0xFF,0x0C
4.969776666666666,0,0xB0,0x12
4.969794708333334,0,0xFF,0x12
4.969812916666666,0,0xFF,0x18
4.971770250000000,0,0x98,0x1A
4.971788291666667,0,0xFF,0x12
4.971806500000000,0,0xFF,0x18
4.973759208333333,0,0xB0,0x12
4.973777208333333,0,0xFF,0x1A
4.973795416666666,0,0xFF,0x18
4.975754916666666,0,0xF0,0x12
4.975772958333334,0,0xFF,0x13
4.975791166666666,0,0xFF,0x18
4.977747625000000,0,0x98,0x10
4.977765666666667,0,0xFF,0x12
4.977783875000000,0,0xFF,0x18
4.977808666666666,0,0x87,0x10
4.977826708333334,0,0xFF,0x00
4.977844916666666,0,0xFF,0xFC
4.977865458333333,0,0x87,0x1A
4.977883500000000,0,0x00,0x12
4.977901583333334,0,0x0E,0x02
4.978048333333334,0,0x07,0x01
4.978066375000000,0,0x00,0x01
4.978084458333333,0,0x1F,0x00
4.978105041666667,0,0x1E,0x01
4.978123083333333,0,0xC0,0x01
4.978141166666667,0,0x80,0x00
4.978161375000000,0,0x07,0x81
4.978179416666666,0,0xFF,0x00
4.978197625000000,0,0xFF,0x1E
4.978218500000000,0,0x87,0x01
4.978236541666667,0,0x00,0x01
4.978254625000000,0,0xCE,0x01
4.979740666666666,0,0xB0,0x12
4.979758666666667,0,0x7F,0x12
4.979776875000000,0,0xFF,0x1C
4.981735000000000,0,0x98,0x1A
4.981753041666667,0,0xFF,0x12
4.981771250000000,0,0xFF,0x1C
4.983725375000000,0,0xB0,0x12
4.983743416666667,0,0xFF,0x13
4.983761625000000,0,0xFF,0x1C
4.985722958333334,0,0xB0,0x12
4.985741000000000,0,0xFF,0x12
4.985759208333334,0,0xFF,0x0C
4.987718041666667,0,0x90,0x12
4.987736083333333,0,0xFF,0x12
4.987754291666667,0,0xFF,0x1E
4.989712708333333,0,0xF0,0x12
4.989730708333333,0,0x7F,0x12
4.989748916666667,0,0xFF,0x1C
4.991702083333333,0,0xB0,0x12
4.991720125000000,0,0xFF,0x10
4.991738333333333,0,0xFF,0x1C
4.993691250000000,0,0x98,0x10
4.993709291666667,0,0xFF,0x12
4.993727500000000,0,0xFF,0x1C
4.995691000000000,0,0xB0,0x12
4.995709041666666,0,0xFF,0x02
4.995727250000000,0,0xFF,0x1C
4.997681750000000,0,0xB0,0x12
4.997699791666666,0,0xFF,0x10
4.997718000000000,0,0xFF,0x1C
4.999678166666667,0,0x98,0x10
4.999696208333333,0,0xFF,0x12
4.999714416666666,0,0xFF,0x1C
5.001667250000000,0,0xB8,0x10
5.001685291666667,0,0xFF,0x02
5.001703500000000,0,0xFF,0x1C
5.003654708333333,0,0x98,0x1A
5.003672750000000,0,0xFF,0x12
5.003690958333333,0,0xFF,0x1E
5.005647916666667,0,0xF0,0x12
5.005665958333333,0,0xFF,0x13
5.005684166666667,0,0xFF,0x1C
5.007644541666667,0,0x98,0x18
5.007662583333333,0,0xFF,0x12
5.007680791666667,0,0xFF,0x1C
5.009636916666667,0,0xF0,0x12
5.009654958333333,0,0xFF,0x13
5.009673166666667,0,0xFF,0x1C
5.009697958333334,0,0x87,0x12
5.009716000000000,0,0xFF,0x00
5.009734208333334,0,0xFF,0xDE
5.009754750000000,0,0x87,0x1A
5.009772791666666,0,0x00,0x12
5.009790875000000,0,0x02,0x02
5.009852625000000,0,0x07,0x01
5.009870666666667,0,0x00,0x00
5.009888708333333,0,0x47,0x01
5.009909333333334,0,0x36,0x01
5.009927375000000,0,0xC0,0x01
5.009945416666667,0,0x00,0x81
5.009965666666667,0,0x07,0x01
5.009983708333333,0,0xFF,0x00
5.010001916666667,0,0xFF,0x46
5.010022791666667,0,0x07,0x01
5.010040833333333,0,0x00,0x01
5.010058916666667,0,0xC3,0x00
5.011625333333333,0,0x18,0x1A
5.011643375000000,0,0xFF,0x12
5.011661583333333,0,0xFF,0x0C
5.013617833333333,0,0xB0,0x10
5.013635875000000,0,0xFF,0x02
5.013654083333333,0,0xFF,0x0C
5.015607250000000,0,0xF0,0x02
5.015625250000000,0,0x7F,0x12
5.015643458333333,0,0xFF,0x0C
5.017599166666667,0,0xB0,0x12
5.017617208333333,0,0xFF,0x10
5.017635416666667,0,0xFF,0x0E
5.019589916666667,0,0xB0,0x12
5.019607958333333,0,0xFF,0x10
5.019626166666667,0,0xFF,0x0E
5.021581000000000,0,0x98,0x10
5.021599041666667,0,0xFF,0x12
5.021617250000000,0,0xFF,0x0C
5.023578375000000,0,0xF0,0x02
5.023596375000000,0,0x7F,0x12
5.023614625000000,0,0xFF,0x0C
5.025570208333333,0,0xB0,0x13
5.025588208333334,0,0x7F,0x1A
5.025606416666666,0,0xFF,0x04
5.027568708333333,0,0xB0,0x12
5.027586708333334,0,0xFF,0x12
5.027604916666666,0,0xFF,0x0C
5.029562416666667,0,0xF0,0x02
5.029580458333333,0,0xFF,0x13
5.029598666666667,0,0xFF,0x0C
5.031562375000000,0,0xB0,0x12
5.031580416666666,0,0xFF,0x10
5.031598625000000,0,0xFF,0x04
5.033550833333333,0,0xB0,0x12
5.033568875000000,0,0xFF,0x13
5.033587083333333,0,0xFF,0x0C
5.035541000000000,0,0xF0,0x12
5.035559041666667,0,0xFF,0x13
5.035577250000000,0,0xFF,0x0C
5.037534416666666,0,0xB0,0x12
5.037552416666666,0,0x7F,0x12
5.037570625000000,0,0xFF,0x0C
5.039531083333333,0,0xB0,0x12
5.039549083333333,0,0x7F,0x12
5.039567291666667,0,0xFF,0x0C
5.041520875000000,0,0xB0,0x13
5.041538875000000,0,0x7F,0x12
5.041557083333333,0,0xFF,0x0C
5.041581916666667,0,0xC7,0x12
5.041599958333333,0,0xFF,0x00
5.041618166666667,0,0xFF,0xC2
5.041638708333333,0,0x07,0x12
5.041656958333333,0,0x80,0x12
5.041675041666666,0,0x00,0x1A
5.042648458333334,0,0x07,0x01
5.042666500000000,0,0x00,0x00
5.042684541666667,0,0x00,0x81
5.042705166666667,0,0x36,0x01
5.042723208333333,0,0xC0,0x01
5.042741291666666,0,0x80,0x01
5.042761500000000,0,0x07,0x01
5.042779541666667,0,0xFF,0x00
5.042797750000000,0,0xFF,0x00
5.042818625000000,0,0x87,0x01
5.042836666666667,0,0x00,0x01
5.042854750000000,0,0x80,0x01
5.044221125000000,0,0x30,0x92
5.044239166666666,0,0xFF,0x10
5.044257375000000,0,0xFF,0x00
5.046216250000000,0,0xB0,0x12
5.046234291666667,0,0xFF,0x10
5.046252500000000,0,0xFF,0x00
5.048212416666667,0,0xB0,0x12
5.048230458333333,0,0xFF,0x10
5.048248666666667,0,0xFF,0x00
5.050203958333333,0,0x98,0x1A
5.050222000000000,0,0xFF,0x12
5.050240208333333,0,0xFF,0x00
5.052196291666666,0,0x98,0x10
5.052214333333334,0,0xFF,0x12
5.052232541666666,0,0xFF,0x00
5.054186916666667,0,0x98,0x10
5.054204958333333,0,0xFF,0x02
5.054223166666667,0,0xFF,0x00
5.056175958333333,0,0xF0,0x02
5.056193958333333,0,0x7F,0x12
5.056212166666667,0,0xFF,0x00
5.058167083333333,0,0xB0,0x12
5.058185125000000,0,0xFF,0x02
5.058203333333333,0,0xFF,0x00
5.060162708333333,0,0xF0,0x12
5.060180708333333,0,0x7F,0x1A
5.060198916666667,0,0xFF,0x00
5.062150958333334,0,0xF0,0x12
5.062169000000000,0,0xFF,0x12
5.062187208333333,0,0xFF,0x00
5.064149958333333,0,0xF0,0x12
5.064167958333333,0,0x7F,0x12
5.064186166666667,0,0xFF,0x00
5.066144791666667,0,0xB0,0x12
5.066162833333333,0,0xFF,0x12
5.066181041666667,0,0xFF,0x00
5.068136333333333,0,0xB0,0x12
5.068154375000000,0,0xFF,0x12
5.068172583333333,0,0xFF,0x00
5.070124416666666,0,0x98,0x1A
5.070142458333334,0,0xFF,0x12
5.070160666666666,0,0xFF,0x00
5.072116208333333,0,0xB0,0x13
5.072134208333333,0,0x7F,0x1A
5.072152416666666,0,0xFF,0x00
5.074106333333333,0,0xB0,0x12
5.074124375000000,0,0xFF,0x13
5.074142583333333,0,0xFF,0x00
5.074167375000000,0,0x87,0x12
5.074185416666666,0,0xFF,0x00
5.074203625000000,0,0xFF,0x80
5.074224166666666,0,0x07,0x12
5.074242208333334,0,0x00,0x02
5.074260291666667,0,0x2C,0x13
5.074448250000000,0,0x07,0x01
5.074466250000000,0,0x00,0x01
5.074484333333333,0,0x28,0x01
5.074504916666666,0,0x34,0x01
5.074522958333334,0,0x80,0x01
5.074541041666667,0,0xC0,0x01
5.074561291666667,0,0x83,0x00
5.074579291666667,0,0xFF,0x00
5.074597500000000,0,0xFF,0x00
5.074618375000000,0,0x87,0x01
5.074636416666666,0,0x00,0x01
5.074654500000000,0,0xFC,0x01
5.076099291666667,0,0x18,0x1A
5.076117333333333,0,0xFF,0x12
5.076135541666667,0,0xFF,0x10
5.078087333333333,0,0xF0,0x02
5.078105333333333,0,0x7F,0x12
5.078123541666667,0,0xFF,0x10
5.080083416666667,0,0x98,0x10
5.080101458333333,0,0xFF,0x12
5.080119666666667,0,0xFF,0x10
5.082071375000000,0,0xF0,0x02
5.082089375000000,0,0x7F,0x12
5.082107583333333,0,0xFF,0x10
5.084058791666667,0,0xB0,0x12
5.084076833333333,0,0xFF,0x13
5.084095041666667,0,0xFF,0x10
5.086048625000000,0,0xB0,0x12
5.086066666666667,0,0xFF,0x12
5.086084875000000,0,0xFF,0x10
5.088036041666666,0,0xB0,0x12
5.088054083333334,0,0xFF,0x12
5.088072291666666,0,0xFF,0x10
5.090028416666667,0,0xB0,0x12
5.090046458333333,0,0xFF,0x13
5.090064666666667,0,0xFF,0x10
5.092025416666667,0,0xF0,0x12
5.092043458333333,0,0xFF,0x13
5.092061666666667,0,0xFF,0x10
5.094023375000000,0,0xF0,0x02
5.094041375000000,0,0x7F,0x12
5.094059583333333,0,0xFF,0x10
5.096015916666667,0,0xF0,0x02
5.096033916666666,0,0x7F,0x12
5.096052125000000,0,0xFF,0x10
5.098010208333333,0,0xB0,0x13
5.098028208333333,0,0x7F,0x1A
5.098046416666667,0,0xFF,0x10
5.100009875000000,0,0xB0,0x12
5.100027916666667,0,0xFF,0x12
5.100046125000000,0,0xFF,0x10
5.101999416666667,0,0xB0,0x12
5.102017458333333,0,0xFF,0x12
5.102035666666667,0,0xFF,0x10
5.103998666666667,0,0xB0,0x13
5.104016666666666,0,0x7F,0x1A
5.104034875000000,0,0xFF,0x18
5.105990416666667,0,0xB0,0x12
5.106008458333333,0,0xFF,0x12
5.106026666666667,0,0xFF,0x10
5.106051458333333,0,0x87,0x12
5.106069500000000,0,0xFF,0x00
5.106087708333333,0,0xFF,0xA8
5.106108250000000,0,0x87,0x12
5.106126291666667,0,0x00,0x12
5.106144375000000,0,0x0F,0x13
5.106247875000000,0,0x07,0x01
5.106265916666667,0,0x00,0x01
5.106283958333333,0,0x0B,0x81
5.106304583333333,0,0x34,0x01
5.106322583333333,0,0x00,0x81
5.106340666666667,0,0x80,0x01
5.106360916666667,0,0xC7,0x01
5.106378916666666,0,0xFF,0x80
5.106397125000000,0,0xFF,0x0A
5.106418000000000,0,0x87,0x01
5.106436041666667,0,0x00,0x01
5.106454125000000,0,0x8B,0x01
5.107989375000000,0,0xF0,0x02
5.108007375000000,0,0x7F,0x12
5.108025583333333,0,0xFF,0x14
5.109981000000000,0,0xF0,0x02
5.109999041666667,0,0xFF,0x12
5.110017250000000,0,0xFF,0x14
5.111968500000000,0,0x98,0x10
5.111986541666667,0,0xFF,0x02
5.112004750000000,0,0xFF,0x10
5.113960958333333,0,0xF0,0x02
5.113978958333333,0,0x7F,0x12
5.113997166666667,0,0xFF,0x14
5.115953541666666,0,0xF0,0x12
5.115971541666666,0,0x7F,0x12
5.115989750000000,0,0xFF,0x14
5.117942875000000,0,0xB0,0x12
5.117960916666667,0,0xFF,0x12
5.117979125000000,0,0xFF,0x14
5.119932416666667,0,0xB0,0x12
5.119950458333333,0,0xFF,0x13
5.119968666666667,0,0xFF,0x14
5.121927375000000,0,0xB0,0x13
5.121945375000000,0,0x7F,0x1A
5.121963583333334,0,0xFF,0x16
5.123923875000000,0,0x98,0x10
5.123941916666666,0,0xFF,0x02
5.123960125000000,0,0xFF,0x00
5.125916958333334,0,0xB0,0x13
5.125934958333334,0,0xFF,0x10
5.125953166666666,0,0xFF,0x14
5.127913916666667,0,0xB0,0x12
5.127931958333333,0,0xFF,0x13
5.127950166666666,0,0xFF,0x14
5.129903958333333,0,0x90,0x12
5.129922000000000,0,0xFF,0x12
5.129940208333333,0,0xFF,0x14
5.131894958333334,0,0xB0,0x12
5.131913000000000,0,0xFF,0x12
5.131931208333333,0,0xFF,0x14
5.133886791666667,0,0x98,0x10
5.133904833333333,0,0xFF,0x02
5.133923041666667,0,0xFF,0x04
5.135876916666667,0,0x98,0x10
5.135894958333333,0,0xFF,0x02
5.135913166666667,0,0xFF,0x14
5.137868541666666,0,0xB0,0x13
5.137886541666667,0,0x7F,0x12
5.137904750000000,0,0xFF,0x14
5.137929583333333,0,0xC3,0x02
5.137947583333333,0,0xFF,0x00
5.137965791666667,0,0xFF,0x0A
5.137986375000000,0,0x07,0x12
5.138004416666667,0,0x00,0x12
5.138022458333333,0,0x18,0x18
5.138046625000000,0,0x07,0x01
5.138064666666667,0,0x00,0x01
5.138082750000000,0,0x32,0x01
5.138103333333333,0,0x1E,0x01
5.138121375000000,0,0xC0,0x01
5.138139458333334,0,0x80,0x01
5.138159666666667,0,0x07,0x01
5.138177708333333,0,0xFF,0x00
5.138195916666667,0,0xFF,0x32
5.138216791666666,0,0x07,0x01
5.138234833333334,0,0x00,0x00
5.138252875000000,0,0x12,0x01
5.139857291666667,0,0x30,0x92
5.139875333333333,0,0xFF,0x10
5.139893541666667,0,0xFF,0x04
5.141850083333333,0,0xF0,0x12
5.141868083333334,0,0x7F,0x12
5.141886291666666,0,0xFF,0x04
5.143846458333333,0,0xB0,0x12
5.143864500000000,0,0xFF,0x13
5.143882708333333,0,0xFF,0x04
5.145837833333333,0,0x98,0x1A
5.145855875000000,0,0xFF,0x12
5.145874083333333,0,0xFF,0x04
5.147825625000000,0,0xB0,0x12
5.147843666666667,0,0xFF,0x10
5.147861875000000,0,0xFF,0x06
5.149816625000000,0,0x98,0x1A
5.149834666666667,0,0xFF,0x12
5.149852875000000,0,0xFF,0x04
5.151805791666667,0,0xB0,0x12
5.151823833333333,0,0xFF,0x12
5.151842041666667,0,0xFF,0x04
5.153796458333334,0,0xB0,0x13
5.153814458333334,0,0x7F,0x1A
5.153832666666666,0,0xFF,0x04
5.155789166666667,0,0xF0,0x02
5.155807166666666,0,0x7F,0x12
5.155825375000000,0,0xFF,0x04
5.157788541666666,0,0xB0,0x12
5.157806583333334,0,0xFF,0x12
5.157824791666667,0,0xFF,0x04
5.159786625000000,0,0xB0,0x12
5.159804666666667,0,0xFF,0x13
5.159822875000000,0,0xFF,0x04
5.161782041666667,0,0xF0,0x12
5.161800041666667,0,0x7F,0x12
5.161818250000000,0,0xFF,0x04
5.163771000000000,0,0x98,0x10
5.163789041666667,0,0xFF,0x02
5.163807250000000,0,0xFF,0x00
5.165759708333334,0,0x98,0x1A
5.165777750000000,0,0xFF,0x12
5.165795958333334,0,0xFF,0x04
5.167756458333334,0,0xB0,0x12
5.167774500000000,0,0xFF,0x12
5.167792708333334,0,0xFF,0x04
5.169751833333334,0,0xB0,0x13
5.169769833333334,0,0x7F,0x12
5.169788041666667,0,0xFF,0x04
5.169812875000000,0,0x83,0x13
5.169830875000000,0,0xFF,0x00
5.169848916666667,0,0xFF,0xB2
5.169869458333333,0,0x87,0x12
5.169887500000000,0,0x00,0x12
5.169905583333334,0,0x00,0x02
5.170839875000000,0,0x07,0x01
5.170857916666667,0,0x00,0x01
5.170876000000000,0,0x00,0x01
5.170896583333334,0,0x1C,0x01
5.170914625000000,0,0xC0,0x01
5.170932708333333,0,0xC0,0x01
5.170952958333333,0,0x83,0x00
5.170970958333333,0,0xFF,0x00
5.170989166666667,0,0xFF,0x1C
5.171010041666666,0,0x87,0x01
5.171028083333334,0,0x00,0x01
5.171046166666667,0,0xC0,0x01
5.172428791666666,0,0xF0,0x12
5.172446791666666,0,0x7F,0x12
5.172465000000000,0,0xFF,0x00
5.174421750000000,0,0xF0,0x02
5.174439750000000,0,0x7F,0x12
5.174457958333333,0,0xFF,0x00
5.176412541666667,0,0x98,0x10
5.176430583333334,0,0xFF,0x02
5.176448791666667,0,0xFF,0x0C
5.178402000000000,0,0xB0,0x12
5.178420041666667,0,0xFF,0x13
5.178438250000000,0,0xFF,0x08
5.180401708333333,0,0xF0,0x12
5.180419708333333,0,0x7F,0x12
5.180437916666667,0,0xFF,0x08
5.182388791666667,0,0xB0,0x12
5.182406833333333,0,0xFF,0x12
5.182425041666667,0,0xFF,0x08
5.184376916666666,0,0x98,0x1A
5.184394958333334,0,0xFF,0x12
5.184413166666666,0,0xFF,0x08
5.186376000000000,0,0x98,0x10
5.186394041666667,0,0xFF,0x12
5.186412250000000,0,0xFF,0x08
5.188374083333334,0,0xF0,0x02
5.188392083333333,0,0x7F,0x12
5.188410291666667,0,0xFF,0x08
5.190366125000000,0,0x90,0x12
5.190384166666667,0,0xFF,0x12
5.190402375000000,0,0xFF,0x08
5.192362125000000,0,0x98,0x18
5.192380166666666,0,0xFF,0x12
5.192398375000000,0,0xFF,0x08
5.194351208333333,0,0xB0,0x13
5.194369208333334,0,0x7F,0x1A
5.194387416666666,0,0xFF,0x00
5.196347500000000,0,0xB0,0x13
5.196365500000000,0,0x7F,0x12
5.196383708333333,0,0xFF,0x08
5.198340041666667,0,0xF0,0x12
5.198358041666666,0,0x7F,0x12
5.198376250000000,0,0xFF,0x08
5.200332625000000,0,0xB0,0x12
5.200350666666667,0,0xFF,0x1A
5.200368875000000,0,0xFF,0x00
5.202325666666667,0,0xB0,0x12
5.202343708333333,0,0xFF,0x13
5.202361916666667,0,0xFF,0x08
5.202386708333333,0,0xC7,0x02
5.202404750000000,0,0xFF,0x00
5.202422916666666,0,0xFF,0x14
5.202443500000000,0,0x07,0x12
5.202461541666667,0,0x00,0x12
5.202479583333333,0,0x1C,0x1A
5.202639333333333,0,0x07,0x01
5.202657375000000,0,0x00,0x01
5.202675458333333,0,0x3C,0x01
5.202696041666667,0,0x34,0x81
5.202714083333333,0,0x80,0x01
5.202732166666666,0,0xC0,0x01
5.202752416666667,0,0xC3,0x01
5.202770416666667,0,0xFF,0x00
5.202788625000000,0,0xFF,0x3C
5.202809500000000,0,0x87,0x01
5.202827541666666,0,0x00,0x01
5.202845625000000,0,0xFC,0x01
5.204314041666667,0,0x30,0x92
5.204332083333333,0,0xFF,0x1A
5.204350291666667,0,0xFF,0x18
5.206303791666667,0,0xB0,0x12
5.206321833333333,0,0xFF,0x10
5.206340041666667,0,0xFF,0x18
5.208303583333334,0,0xB0,0x12
5.208321625000000,0,0xFF,0x10
5.208339833333334,0,0xFF,0x18
5.210296291666666,0,0xB0,0x12
5.210314333333334,0,0xFF,0x10
5.210332541666666,0,0xFF,0x18
5.212295250000000,0,0xB0,0x13
5.212313250000000,0,0xFF,0x10
5.212331458333333,0,0xFF,0x18
5.214288041666666,0,0xB0,0x12
5.214306083333334,0,0xFF,0x13
5.214324291666666,0,0xFF,0x18
5.216284333333333,0,0xB0,0x12
5.216302375000000,0,0xFF,0x12
5.216320583333333,0,0xFF,0x1C
5.218272500000000,0,0x98,0x18
5.218290541666667,0,0xFF,0x12
5.218308750000000,0,0xFF,0x18
5.220261041666666,0,0x98,0x10
5.220279083333334,0,0xFF,0x02
5.220297291666666,0,0xFF,0x18
5.222253166666667,0,0xB0,0x12
5.222271208333333,0,0xFF,0x13
5.222289416666666,0,0xFF,0x18
5.224244875000000,0,0xB0,0x12
5.224262916666667,0,0xFF,0x12
5.224281125000000,0,0xFF,0x1C
5.226236416666667,0,0x98,0x1A
5.226254458333333,0,0xFF,0x12
5.226272666666667,0,0xFF,0x18
5.228234958333333,0,0xF0,0x02
5.228252958333333,0,0x7F,0x12
5.228271166666667,0,0xFF,0x18
5.230222458333333,0,0x98,0x10
5.230240500000000,0,0xFF,0x02
5.230258708333333,0,0xFF,0x0C
5.232219541666667,0,0xB0,0x12
5.232237583333333,0,0xFF,0x12
5.232255791666667,0,0xFF,0x1C
5.234210541666667,0,0xB0,0x12
5.234228583333334,0,0xFF,0x12
5.234246791666667,0,0xFF,0x18
5.234271583333333,0,0x87,0x12
5.234289625000000,0,0xFF,0x00
5.234307833333333,0,0xFF,0xBC
5.234328375000000,0,0x87,0x12
5.234346416666667,0,0x00,0x12
5.234364500000000,0,0x0E,0x02
5.234438875000000,0,0x07,0x01
5.234456916666667,0,0x00,0x01
5.234475000000000,0,0x0E,0x01
5.234495583333334,0,0x1E,0x01
5.234513625000000,0,0xC0,0x01
5.234531708333333,0,0x80,0x00
5.234551916666667,0,0x07,0x81
5.234569958333333,0,0xFF,0x00
5.234588166666667,0,0xFF,0x1E
5.234609041666666,0,0x07,0x01
5.234627083333334,0,0x00,0x01
5.234645125000000,0,0x1F,0x81
5.236207916666666,0,0x30,0x92
5.236225958333334,0,0xFF,0x12
5.236244166666666,0,0xFF,0x1C
5.238204583333333,0,0x98,0x1A
5.238222625000000,0,0xFF,0x12
5.238240833333333,0,0xFF,0x1C
5.240203833333333,0,0xB0,0x13
5.240221833333333,0,0x7F,0x1A
5.240240041666667,0,0xFF,0x1C
5.242190833333333,0,0x98,0x10
5.242208875000000,0,0xFF,0x12
5.242227083333334,0,0xFF,0x1C
5.244183250000000,0,0xF0,0x02
5.244201250000000,0,0x7F,0x12
5.244219458333333,0,0xFF,0x1C
5.246175166666666,0,0x98,0x10
5.246193208333334,0,0xFF,0x12
5.246211416666666,0,0xFF,0x1C
5.248171000000000,0,0x98,0x10
5.248189041666667,0,0xFF,0x02
5.248207250000000,0,0xFF,0x0C
5.250164416666666,0,0xB0,0x12
5.250182458333334,0,0xFF,0x10
5.250200666666666,0,0xFF,0x1E
5.252154291666667,0,0xB0,0x12
5.252172333333333,0,0xFF,0x02
5.252190541666667,0,0xFF,0x0C
5.254144708333333,0,0xB0,0x12
5.254162750000000,0,0xFF,0x02
5.254180958333333,0,0xFF,0x0C
5.256136875000000,0,0xF0,0x02
5.256154916666667,0,0xFF,0x12
5.256173125000000,0,0xFF,0x1C
5.258137333333333,0,0xB0,0x13
5.258155333333334,0,0xFF,0x18
5.258173541666666,0,0xFF,0x1C
5.260127125000000,0,0xB0,0x12
5.260145166666667,0,0xFF,0x12
5.260163375000000,0,0xFF,0x1C
5.262120625000000,0,0xF0,0x02
5.262138625000000,0,0x7F,0x12
5.262156875000000,0,0xFF,0x1C
5.264118958333333,0,0x98,0x1A
5.264137000000000,0,0xFF,0x12
5.264155208333333,0,0xFF,0x0C
5.266108708333333,0,0xB0,0x12
5.266126750000000,0,0xFF,0x12
5.266144958333333,0,0xFF,0x1C
5.266169750000000,0,0x87,0x12
5.266187791666667,0,0xFF,0x00
5.266206000000000,0,0xFF,0x9E
5.266226583333333,0,0x03,0x13
5.266244750000000,0,0x00,0x12
5.266262791666667,0,0x66,0x1A
5.267234250000000,0,0x03,0x01
5.267252250000000,0,0x80,0x81
5.267270333333333,0,0x66,0x01
5.267290958333334,0,0x34,0x01
5.267309000000000,0,0x80,0x00
5.267327041666666,0,0x00,0x01
5.267347291666667,0,0x87,0x01
5.267365333333333,0,0xFF,0x00
5.267383541666667,0,0xFF,0x06
5.267404416666666,0,0x07,0x01
5.267422458333333,0,0x00,0x00
5.267440500000000,0,0x47,0x01
5.268834333333333,0,0xB0,0x12
5.268852375000000,0,0xFF,0x12
5.268870583333333,0,0xFF,0x0C
5.270828083333333,0,0xB0,0x12
5.270846125000000,0,0xFF,0x12
5.270864333333333,0,0xFF,0x0C
5.272818375000000,0,0xB0,0x13
5.272836375000000,0,0xFF,0x1A
5.272854583333333,0,0xFF,0x06
5.274808875000000,0,0xB0,0x12
5.274826916666667,0,0xFF,0x12
5.274845125000000,0,0xFF,0x0C
5.276806541666667,0,0xF0,0x12
5.276824541666667,0,0x7F,0x12
5.276842750000000,0,0xFF,0x0C
5.278798458333333,0,0x98,0x18
5.278816500000000,0,0xFF,0x12
5.278834708333333,0,0xFF,0x0C
5.280787500000000,0,0xF0,0x02
5.280805500000000,0,0x7F,0x12
5.280823708333333,0,0xFF,0x04
5.282780208333334,0,0xB0,0x13
5.282798208333333,0,0x7F,0x1A
5.282816416666667,0,0xFF,0x04
5.284779541666667,0,0xF0,0x02
5.284797541666666,0,0x7F,0x12
5.284815750000000,0,0xFF,0x0C
5.286770625000000,0,0xF0,0x12
5.286788625000000,0,0x7F,0x12
5.286806833333333,0,0xFF,0x0C
5.288768958333334,0,0xF0,0x12
5.288787000000000,0,0xFF,0x13
5.288805208333334,0,0xFF,0x0C
5.290760458333334,0,0xB0,0x12
5.290778500000000,0,0xFF,0x12
5.290796708333334,0,0xFF,0x0C
5.292748916666667,0,0x90,0x12
5.292766958333333,0,0xFF,0x12
5.292785166666667,0,0xFF,0x0C
5.294739000000000,0,0xB0,0x12
5.294757041666666,0,0xFF,0x13
5.294775250000000,0,0xFF,0x0C
5.296735208333334,0,0xF0,0x02
5.296753208333334,0,0x7F,0x12
5.296771416666667,0,0xFF,0x0C
5.298730041666667,0,0x98,0x10
5.298748083333333,0,0xFF,0x02
5.298766291666666,0,0xFF,0x0C
5.298791083333334,0,0x87,0x10
5.298809125000000,0,0xFF,0x00
5.298827333333334,0,0xFF,0xC6
5.298847875000000,0,0x87,0x12
5.298865916666666,0,0x00,0x12
5.298884000000000,0,0x00,0x02
5.299033125000000,0,0x03,0x01
5.299051125000000,0,0x00,0x01
5.299069208333333,0,0x00,0x01
5.299089791666667,0,0x34,0x81
5.299107833333333,0,0x00,0x01
5.299125916666667,0,0x80,0x01
5.299146166666667,0,0xC7,0x01
5.299164166666666,0,0xFF,0x80
5.299182375000000,0,0xFF,0x00
5.299203250000000,0,0x87,0x01
5.299221291666667,0,0x00,0x01
5.299239375000000,0,0xC0,0x01
5.300724875000000,0,0x30,0x92
5.300742916666667,0,0xFF,0x12
5.300761125000000,0,0xFF,0x00
5.302718375000000,0,0xB0,0x13
5.302736375000000,0,0xFF,0x10
5.302754583333333,0,0xFF,0x00
5.304708291666667,0,0xB0,0x12
5.304726333333333,0,0xFF,0x12
5.304744541666667,0,0xFF,0x00
5.306698583333334,0,0xF0,0x12
5.306716625000000,0,0xFF,0x12
5.306734791666667,0,0xFF,0x00
5.308688708333333,0,0xF0,0x12
5.308706708333333,0,0x7F,0x12
5.308724916666667,0,0xFF,0x00
5.310677708333333,0,0xB0,0x12
5.310695750000000,0,0xFF,0x02
5.310713958333333,0,0xFF,0x00
5.312673166666666,0,0xB0,0x12
5.312691208333334,0,0xFF,0x13
5.312709416666666,0,0xFF,0x00
5.314663375000000,0,0xB0,0x12
5.314681416666667,0,0xFF,0x02
5.314699625000000,0,0xFF,0x00
5.316659791666667,0,0xF0,0x02
5.316677791666667,0,0x7F,0x12
5.316696000000000,0,0xFF,0x00
5.318652125000000,0,0x98,0x10
5.318670166666666,0,0xFF,0x02
5.318688375000000,0,0xFF,0x00
5.320642875000000,0,0xB0,0x13
5.320660875000000,0,0x7F,0x12
5.320679083333333,0,0xFF,0x00
5.322632916666667,0,0xB0,0x12
5.322650958333333,0,0xFF,0x02
5.322669166666667,0,0xFF,0x00
5.324621041666667,0,0xF0,0x12
5.324639041666667,0,0x7F,0x12
5.324657250000000,0,0xFF,0x00
5.326615875000000,0,0x98,0x10
5.326633916666666,0,0xFF,0x12
5.326652125000000,0,0xFF,0x00
5.328614000000000,0,0xB0,0x12
5.328632041666666,0,0xFF,0x02
5.328650250000000,0,0xFF,0x00
5.330605041666667,0,0xB0,0x12
5.330623083333333,0,0xFF,0x10
5.330641291666667,0,0xFF,0x00
5.330666083333333,0,0x87,0x12
5.330684125000000,0,0xFF,0x00
5.330702333333333,0,0xFF,0x80
5.330722875000000,0,0x07,0x18
5.330740916666667,0,0x00,0x02
5.330758958333333,0,0x28,0x12
5.330833000000000,0,0x07,0x01
5.330851041666667,0,0x00,0x00
5.330869083333333,0,0x08,0x01
5.330889708333333,0,0x30,0x01
5.330907708333333,0,0x00,0x01
5.330925791666667,0,0x80,0x01
5.330946041666667,0,0xC7,0x01
5.330964041666666,0,0xFF,0x80
5.330982250000000,0,0xFF,0x28
5.331003125000000,0,0x87,0x01
5.331021166666667,0,0x00,0x01
5.331039250000000,0,0xFC,0x01
5.332601416666667,0,0xB0,0x12
5.332619458333333,0,0xFF,0x02
5.332637666666667,0,0xFF,0x10
5.334596833333333,0,0x98,0x12
5.334614875000000,0,0xFF,0x12
5.334633083333333,0,0xFF,0x10
5.336589666666667,0,0xB0,0x12
5.336607666666667,0,0xFF,0x10
5.336625875000000,0,0xFF,0x10
5.338584875000000,0,0x98,0x10
5.338602916666667,0,0xFF,0x12
5.338621125000000,0,0xFF,0x10
5.340573625000000,0,0x98,0x10
5.340591666666667,0,0xFF,0x12
5.340609875000000,0,0xFF,0x10
5.342564791666667,0,0xB0,0x12
5.342582833333333,0,0xFF,0x13
5.342601041666667,0,0xFF,0x10
5.344562666666667,0,0xF0,0x02
5.344580666666666,0,0x7F,0x12
5.344598875000000,0,0xFF,0x10
5.346556250000000,0,0x98,0x1A
5.346574291666666,0,0xFF,0x12
5.346592500000000,0,0xFF,0x10
5.348554958333334,0,0x98,0x1A
5.348573000000000,0,0xFF,0x12
5.348591208333334,0,0xFF,0x10
5.350544791666667,0,0xB0,0x12
5.350562833333333,0,0xFF,0x12
5.350581041666667,0,0xFF,0x10
5.352532625000000,0,0xB0,0x13
5.352550625000000,0,0x7F,0x1A
5.352568833333334,0,0xFF,0x18
5.354520416666666,0,0xB0,0x12
5.354538458333334,0,0xFF,0x02
5.354556666666666,0,0xFF,0x00
5.356519708333333,0,0x98,0x10
5.356537750000000,0,0xFF,0x12
5.356555958333334,0,0xFF,0x10
5.358512083333333,0,0xB0,0x12
5.358530125000000,0,0xFF,0x13
5.358548333333333,0,0xFF,0x10
5.360508416666667,0,0x90,0x12
5.360526458333333,0,0xFF,0x12
5.360544666666667,0,0xFF,0x10
5.362495666666667,0,0xF0,0x02
5.362513708333333,0,0xFF,0x13
5.362531916666667,0,0xFF,0x10
5.362556708333333,0,0x87,0x12
5.362574750000000,0,0xFF,0x00
5.362592958333333,0,0xFF,0xA8
5.362613500000000,0,0x07,0x12
5.362632333333333,0,0x80,0x12
5.362650416666667,0,0x00,0x12
5.363626875000000,0,0x07,0x01
5.363644916666667,0,0x00,0x00
5.363662958333333,0,0x0A,0x01
5.363683583333334,0,0x34,0x01
5.363701625000000,0,0x80,0x00
5.363719666666666,0,0x00,0x01
5.363739916666667,0,0x07,0x01
5.363757958333333,0,0xFF,0x00
5.363776166666667,0,0xFF,0x08
5.363797041666666,0,0x07,0x01
5.363815083333333,0,0x00,0x01
5.363833166666667,0,0x8F,0x00
5.365227583333334,0,0xB8,0x10
5.365245625000000,0,0xFF,0x02
5.365263833333334,0,0xFF,0x14
5.367215041666666,0,0xF0,0x12
5.367233041666666,0,0x7F,0x12
5.367251291666666,0,0xFF,0x14
5.369214416666667,0,0xB8,0x10
5.369232458333333,0,0xFF,0x12
5.369250666666667,0,0xFF,0x14
5.371210416666667,0,0x90,0x12
5.371228458333333,0,0xFF,0x12
5.371246666666667,0,0xFF,0x14
5.373199708333333,0,0xB0,0x12
5.373217708333334,0,0x7F,0x12
5.373235916666666,0,0xFF,0x14
5.375200000000000,0,0xB0,0x12
5.375218041666667,0,0xFF,0x12
5.375236250000000,0,0xFF,0x14
5.377195875000000,0,0xF0,0x02
5.377213875000000,0,0x7F,0x13
5.377232125000000,0,0xFF,0x14
5.379188666666667,0,0xB0,0x12
5.379206666666667,0,0xFF,0x1A
5.379224875000000,0,0xFF,0x1C
5.381183833333333,0,0x90,0x12
5.381201875000000,0,0xFF,0x10
5.381220083333333,0,0xFF,0x16
5.383177458333333,0,0x98,0x10
5.383195500000000,0,0xFF,0x02
5.383213708333333,0,0xFF,0x00
5.385164583333333,0,0xB0,0x12
5.385182625000000,0,0xFF,0x02
5.385200833333333,0,0xFF,0x14
5.387153166666667,0,0xB0,0x12
5.387171208333333,0,0xFF,0x12
5.387189416666667,0,0xFF,0x14
5.389143833333334,0,0xB0,0x12
5.389161875000000,0,0xFF,0x10
5.389180083333334,0,0xFF,0x16
5.391139500000000,0,0xF0,0x12
5.391157541666667,0,0xFF,0x12
5.391175750000000,0,0xFF,0x14
5.393139166666667,0,0x98,0x10
5.393157208333333,0,0xFF,0x12
5.393175416666667,0,0xFF,0x14
5.395136208333334,0,0x98,0x10
5.395154250000000,0,0xFF,0x12
5.395172458333334,0,0xFF,0x14
5.395197250000000,0,0x87,0x1A
5.395215291666666,0,0xFF,0x00
5.395233500000000,0,0xFF,0x8A
5.395254083333334,0,0x07,0x13
5.395272083333333,0,0x00,0x1A
5.395290166666666,0,0x32,0x12
5.395429708333333,0,0x03,0x00
5.395447708333333,0,0x80,0x01
5.395465791666667,0,0x30,0x01
5.395486416666667,0,0x34,0x01
5.395504416666666,0,0x80,0x01
5.395522500000000,0,0x80,0x01
5.395542750000000,0,0xC3,0x01
5.395560750000000,0,0xFF,0x80
5.395578958333333,0,0xFF,0x32
5.395599875000000,0,0x03,0x01
5.395617875000000,0,0x00,0x01
5.395635958333333,0,0xB0,0x01
5.397133333333334,0,0xB0,0x12
5.397151375000000,0,0xFF,0x12
5.397169583333334,0,0xFF,0x00
5.399123833333333,0,0xB0,0x12
5.399141875000000,0,0xFF,0x12
5.399160083333333,0,0xFF,0x00
5.401117708333333,0,0xB0,0x12
5.401135750000000,0,0xFF,0x12
5.401153958333333,0,0xFF,0x00
5.403106083333333,0,0xF0,0x12
5.403124125000000,0,0xFF,0x13
5.403142333333333,0,0xFF,0x04
5.405105041666666,0,0xF0,0x12
5.405123041666666,0,0x7F,0x12
5.405141250000000,0,0xFF,0x04
5.407097833333333,0,0xF0,0x02
5.407115833333333,0,0x7F,0x12
5.407134083333333,0,0xFF,0x04
5.409085750000000,0,0x90,0x12
5.409103791666666,0,0xFF,0x10
5.409122000000000,0,0xFF,0x06
5.411078916666667,0,0x90,0x12
5.411096958333333,0,0xFF,0x12
5.411115166666667,0,0xFF,0x06
5.413076041666667,0,0xB0,0x12
5.413094083333333,0,0xFF,0x10
5.413112291666667,0,0xFF,0x04
5.415071416666667,0,0xF0,0x12
5.415089458333333,0,0xFF,0x13
5.415107666666667,0,0xFF,0x04
5.417071208333334,0,0xB0,0x12
5.417089250000000,0,0xFF,0x12
5.417107458333334,0,0xFF,0x00
5.419065916666667,0,0xF0,0x02
5.419083916666667,0,0x7F,0x12
5.419102125000000,0,0xFF,0x04
5.421052750000000,0,0xF0,0x02
5.421070791666667,0,0xFF,0x13
5.421089000000000,0,0xFF,0x04
5.423044333333333,0,0xF0,0x12
5.423062375000000,0,0xFF,0x13
5.423080583333333,0,0xFF,0x04
5.425034958333334,0,0xF0,0x02
5.425052958333334,0,0x7F,0x12
5.425071208333334,0,0xFF,0x04
5.427023958333334,0,0xB0,0x13
5.427041958333334,0,0x7F,0x1A
5.427060166666666,0,0xFF,0x04
5.427085000000000,0,0x83,0x12
5.427103000000000,0,0xFF,0x00
5.427121208333333,0,0xFF,0xB2
5.427141791666667,0,0x07,0x02
5.427159833333334,0,0x00,0x13
5.427177875000000,0,0x14,0x12
5.427232583333334,0,0x07,0x01
5.427250625000000,0,0x00,0x01
5.427268708333333,0,0x14,0x01
5.427289291666667,0,0x14,0x01
5.427307333333333,0,0x80,0x01
5.427325416666666,0,0xC0,0x01
5.427345666666667,0,0x83,0x00
5.427363666666666,0,0xFF,0x00
5.427381875000000,0,0xFF,0x16
5.427402750000000,0,0x07,0x01
5.427420791666667,0,0x00,0x01
5.427438875000000,0,0x90,0x00
5.429013333333334,0,0xB0,0x13
5.429031333333334,0,0x7F,0x1A
5.429049541666667,0,0xFF,0x00
5.431010041666666,0,0xB0,0x12
5.431028083333334,0,0xFF,0x10
5.431046291666667,0,0xFF,0x08
5.432998125000000,0,0xB0,0x13
5.433016125000000,0,0x7F,0x1A
5.433034333333334,0,0xFF,0x00
5.434991791666667,0,0xB0,0x12
5.435009833333333,0,0xFF,0x12
5.435028041666667,0,0xFF,0x08
5.436990250000000,0,0xB8,0x10
5.437008291666666,0,0xFF,0x02
5.437026500000000,0,0xFF,0x08
5.438987625000000,0,0xB0,0x12
5.439005666666667,0,0xFF,0x10
5.439023875000000,0,0xFF,0x00
5.440983083333333,0,0xF0,0x12
5.441001083333333,0,0x7F,0x12
5.441019291666667,0,0xFF,0x08
5.442975166666667,0,0x98,0x10
5.442993208333333,0,0xFF,0x02
5.443011416666667,0,0xFF,0x08
5.444967208333333,0,0xF0,0x12
5.444985208333334,0,0x7F,0x12
5.445003416666666,0,0xFF,0x08
5.446957166666667,0,0xB0,0x13
5.446975166666666,0,0x7F,0x12
5.446993375000000,0,0xFF,0x08
5.448951666666667,0,0xF0,0x12
5.448969708333333,0,0xFF,0x13
5.448987916666667,0,0xFF,0x08
5.450946125000000,0,0xB0,0x12
5.450964166666667,0,0xFF,0x12
5.450982375000000,0,0xFF,0x0C
5.452944583333333,0,0xF0,0x02
5.452962583333333,0,0x7F,0x12
5.452980791666667,0,0xFF,0x08
5.454932666666667,0,0x90,0x12
5.454950708333334,0,0xFF,0x12
5.454968916666667,0,0xFF,0x08
5.456921750000000,0,0xF0,0x12
5.456939750000000,0,0x7F,0x12
5.456957958333334,0,0xFF,0x08
5.458914458333333,0,0x98,0x10
5.458932500000000,0,0xFF,0x12
5.458950708333333,0,0xFF,0x08
5.458975500000000,0,0x87,0x10
5.458993541666667,0,0xFF,0x00
5.459011750000000,0,0xFF,0xD4
5.459034416666666,0,0x87,0x12
5.459052458333334,0,0x00,0x12
5.459070541666667,0,0x3C,0x02
5.460028333333334,0,0x03,0x01
5.460046333333334,0,0x80,0x81
5.460064416666667,0,0x3E,0x01
5.460085041666667,0,0x34,0x01
5.460103041666667,0,0x80,0x01
5.460121125000000,0,0xC0,0x01
5.460141375000000,0,0x83,0x00
5.460159375000000,0,0xFF,0x00
5.460177583333333,0,0xFF,0x3C
5.460198458333333,0,0x07,0x01
5.460216458333333,0,0x80,0x81
5.460234541666667,0,0x9E,0x01
5.461654875000000,0,0xF0,0x02
5.461672875000000,0,0x7F,0x12
5.461691125000000,0,0xFF,0x18
5.463648000000000,0,0x98,0x1A
5.463666041666666,0,0xFF,0x12
5.463684250000000,0,0xFF,0x18
5.465638583333333,0,0xF0,0x02
5.465656583333334,0,0x7F,0x12
5.465674791666666,0,0xFF,0x18
5.467628875000000,0,0xF0,0x02
5.467646875000000,0,0x7F,0x12
5.467665083333333,0,0xFF,0x18
5.469618958333333,0,0xB0,0x13
5.469636958333333,0,0x7F,0x12
5.469655166666667,0,0xFF,0x18
5.471611541666666,0,0xB0,0x12
5.471629583333334,0,0xFF,0x02
5.471647791666666,0,0xFF,0x08
5.473606041666667,0,0xF0,0x02
5.473624041666667,0,0x7F,0x12
5.473642250000000,0,0xFF,0x18
5.475596666666666,0,0xF0,0x12
5.475614708333334,0,0xFF,0x12
5.475632916666667,0,0xFF,0x18
5.477593416666667,0,0xB0,0x12
5.477611458333334,0,0xFF,0x12
5.477629666666667,0,0xFF,0x18
5.479581625000000,0,0xF0,0x12
5.479599666666667,0,0xFF,0x12
5.479617833333333,0,0xFF,0x18
5.481577208333333,0,0xF0,0x02
5.481595208333333,0,0x7F,0x12
5.481613416666667,0,0xFF,0x18
5.483564916666666,0,0x98,0x10
5.483582958333334,0,0xFF,0x12
5.483601166666666,0,0xFF,0x18
5.485558416666667,0,0xF0,0x02
5.485576416666667,0,0x7F,0x12
5.485594625000000,0,0xFF,0x18
5.487547750000000,0,0xB0,0x12
5.487565791666666,0,0xFF,0x12
5.487584000000000,0,0xFF,0x18
5.489540666666667,0,0xF0,0x12
5.489558666666666,0,0x7F,0x12
5.489576875000000,0,0xFF,0x18
5.491536583333334,0,0xF0,0x02
5.491554583333333,0,0x7F,0x12
5.491572791666667,0,0xFF,0x18
5.491597625000000,0,0xC3,0x12
5.491615625000000,0,0xFF,0x00
5.491633833333333,0,0xFF,0x9C
5.491654416666667,0,0x03,0x12
5.491672416666667,0,0x80,0x12
5.491690500000000,0,0x1E,0x12
5.491828750000000,0,0x07,0x01
5.491846791666666,0,0x00,0x01
5.491864875000000,0,0x1F,0x00
5.491885458333333,0,0x36,0x01
5.491903500000000,0,0xC0,0x01
5.491921541666667,0,0x00,0x81
5.491941791666667,0,0x87,0x01
5.491959833333333,0,0xFF,0x00
5.491978041666667,0,0xFF,0x1E
5.491998916666667,0,0x03,0x00
5.492016916666667,0,0x80,0x01
5.492035000000000,0,0x9E,0x01
5.493532791666667,0,0xF0,0x12
5.493550791666666,0,0x7F,0x12
5.493569000000000,0,0xFF,0x1C
5.495524833333334,0,0xF0,0x12
5.495542833333333,0,0x7F,0x12
5.495561041666667,0,0xFF,0x1C
5.497518125000000,0,0xB0,0x12
5.497536166666666,0,0xFF,0x12
5.497554375000000,0,0xFF,0x1C
5.499508541666667,0,0x90,0x12
5.499526583333333,0,0xFF,0x12
5.499544791666667,0,0xFF,0x1C
5.501505250000000,0,0x98,0x10
5.501523291666667,0,0xFF,0x02
5.501541500000000,0,0xFF,0x0C
5.503498833333333,0,0xB0,0x13
5.503516833333333,0,0x7F,0x1A
5.503535041666667,0,0xFF,0x1E
5.505496500000000,0,0xB0,0x12
5.505514541666667,0,0xFF,0x13
5.505532750000000,0,0xFF,0x1C
5.507492291666667,0,0xF0,0x12
5.507510291666667,0,0x7F,0x12
5.507528500000000,0,0xFF,0x1C
5.509482875000000,0,0x98,0x1A
5.509500916666667,0,0xFF,0x12
5.509519125000000,0,0xFF,0x1C
5.511470166666666,0,0x98,0x10
5.511488208333334,0,0xFF,0x02
5.511506416666666,0,0xFF,0x0C
5.513460083333333,0,0xB0,0x12
5.513478125000000,0,0xFF,0x13
5.513496333333333,0,0xFF,0x1C
5.515453625000000,0,0xF0,0x12
5.515471625000000,0,0x7F,0x12
5.515489833333334,0,0xFF,0x1C
5.517445125000000,0,0xB0,0x12
5.517463125000000,0,0xFF,0x10
5.517481333333333,0,0xFF,0x1E
5.519441125000000,0,0xB0,0x12
5.519459125000000,0,0xFF,0x10
5.519477333333334,0,0xFF,0x1E
5.521435833333333,0,0xB0,0x12
5.521453833333333,0,0xFF,0x10
5.521472041666667,0,0xFF,0x1E
5.523428583333334,0,0x98,0x1A
5.523446625000000,0,0xFF,0x12
5.523464833333334,0,0xFF,0x1C
5.523489625000000,0,0x87,0x1A
5.523507666666666,0,0xFF,0x00
5.523525875000000,0,0xFF,0x9E
5.523546416666667,0,0x87,0x12
5.523564458333333,0,0x00,0x12
5.523582541666666,0,0x02,0x12
5.523627000000000,0,0x07,0x01
5.523645000000000,0,0x00,0x01
5.523663083333333,0,0x06,0x01
5.523683666666667,0,0x34,0x81
5.523701708333333,0,0x80,0x01
5.523719791666666,0,0xC0,0x01
5.523740041666667,0,0xC3,0x00
5.523758041666667,0,0xFF,0x00
5.523776250000000,0,0xFF,0x46
5.523797125000000,0,0x07,0x01
5.523815166666667,0,0x00,0x01
5.523833250000000,0,0xC3,0x00
5.525417416666667,0,0xF0,0x02
5.525435458333333,0,0xFF,0x12
5.525453666666666,0,0xFF,0x0C
5.527404583333333,0,0xB0,0x12
5.527422625000000,0,0xFF,0x12
5.527440833333333,0,0xFF,0x0C
5.529399041666666,0,0xB0,0x13
5.529417041666667,0,0xFF,0x1A
5.529435250000000,0,0xFF,0x04
5.531391375000000,0,0xB0,0x12
5.531409416666667,0,0xFF,0x13
5.531427625000000,0,0xFF,0x0C
5.533387791666667,0,0xF0,0x12
5.533405833333333,0,0xFF,0x12
5.533424041666667,0,0xFF,0x0C
5.535380791666666,0,0xB0,0x13
5.535398791666666,0,0xFF,0x1A
5.535417000000000,0,0xFF,0x04
5.537379666666666,0,0xB0,0x12
5.537397666666667,0,0xFF,0x10
5.537415875000000,0,0xFF,0x04
5.539367958333333,0,0xF0,0x02
5.539385958333333,0,0x7F,0x12
5.539404166666666,0,0xFF,0x0C
5.541361625000000,0,0xB0,0x13
5.541379625000000,0,0x7F,0x1A
5.541397833333333,0,0xFF,0x04
5.543356458333333,0,0xF0,0x02
5.543374458333333,0,0x7F,0x12
5.543392666666667,0,0xFF,0x0C
5.545343458333333,0,0xB0,0x12
5.545361458333334,0,0xFF,0x10
5.545379666666666,0,0xFF,0x0E
5.547331750000000,0,0xF0,0x12
5.547349791666667,0,0xFF,0x12
5.547368000000000,0,0xFF,0x0C
5.549326208333333,0,0xB0,0x12
5.549344250000000,0,0xFF,0x12
5.549362458333333,0,0xFF,0x0C
5.551317791666667,0,0xB0,0x12
5.551335833333333,0,0xFF,0x12
5.551354000000000,0,0xFF,0x0C
5.553310333333333,0,0xF0,0x12
5.553328333333333,0,0x7F,0x1A
5.553346541666667,0,0xFF,0x04
5.555301583333334,0,0x98,0x1A
5.555319625000000,0,0xFF,0x12
5.555337833333334,0,0xFF,0x0C
5.555362625000000,0,0x87,0x12
5.555380666666666,0,0xFF,0x00
5.555398875000000,0,0xFF,0xC6
5.555419458333334,0,0x03,0x13
5.555437291666666,0,0x00,0x12
5.555455375000000,0,0x00,0x12
5.556419833333333,0,0x07,0x01
5.556437833333334,0,0x00,0x01
5.556455916666667,0,0x00,0x01
5.556476500000000,0,0x1C,0x01
5.556494541666667,0,0xC0,0x01
5.556512625000000,0,0x80,0x00
5.556532833333334,0,0x07,0x81
5.556550875000000,0,0xFF,0x00
5.556569083333334,0,0xFF,0x00
5.556589958333333,0,0x07,0x01
5.556608000000000,0,0x00,0x01
5.556626041666667,0,0x00,0x81
5.558019708333333,0,0x30,0x92
5.558037750000000,0,0xFF,0x10
5.558055958333333,0,0xFF,0x00
5.560011208333333,0,0xF0,0x13
5.560029208333333,0,0x7F,0x1A
5.560047416666666,0,0xFF,0x00
5.562002750000000,0,0xF0,0x12
5.562020791666667,0,0xFF,0x12
5.562039000000000,0,0xFF,0x00
5.563992625000000,0,0xB0,0x12
5.564010666666666,0,0xFF,0x12
5.564028875000000,0,0xFF,0x00
5.565982666666667,0,0x98,0x1A
5.566000708333333,0,0xFF,0x12
5.566018916666667,0,0xFF,0x00
5.567970958333333,0,0xF0,0x12
5.567989000000000,0,0xFF,0x12
5.568007208333333,0,0xFF,0x00
5.569960916666667,0,0xB0,0x13
5.569978916666667,0,0x7F,0x12
5.569997125000000,0,0xFF,0x00
5.571960791666666,0,0xB0,0x12
5.571978833333334,0,0xFF,0x12
5.571997041666667,0,0xFF,0x00
5.573959625000000,0,0x98,0x10
5.573977666666667,0,0xFF,0x02
5.573995875000000,0,0xFF,0x00
5.575948958333333,0,0xB0,0x12
5.575967000000000,0,0xFF,0x13
5.575985208333333,0,0xFF,0x00
5.577945375000000,0,0x98,0x1A
5.577963416666667,0,0xFF,0x12
5.577981625000000,0,0xFF,0x00
5.579937000000000,0,0xB0,0x12
5.579955041666667,0,0xFF,0x10
5.579973250000000,0,0xFF,0x00
5.581936750000000,0,0x98,0x10
5.581954791666667,0,0xFF,0x02
5.581973000000000,0,0xFF,0x00
5.583926166666667,0,0xF0,0x12
5.583944208333333,0,0xFF,0x13
5.583962416666667,0,0xFF,0x00
5.585913375000000,0,0xF0,0x12
5.585931416666667,0,0xFF,0x13
5.585949625000000,0,0xFF,0x00
5.587904375000000,0,0x90,0x12
5.587922416666666,0,0xFF,0x12
5.587940625000000,0,0xFF,0x00
5.587965416666667,0,0x87,0x12
5.587983458333333,0,0xFF,0x00
5.588001666666667,0,0xFF,0x80
5.588022208333333,0,0x87,0x1A
5.588040250000000,0,0x00,0x12
5.588058333333334,0,0x3C,0x12
5.588220041666666,0,0x07,0x01
5.588238083333334,0,0x00,0x01
5.588256166666667,0,0x38,0x01
5.588276750000000,0,0x1C,0x01
5.588294791666667,0,0x80,0x01
5.588312875000000,0,0x80,0x00
5.588333083333334,0,0x07,0x81
5.588351125000000,0,0xFF,0x00
5.588369333333334,0,0xFF,0x28
5.588390208333333,0,0x07,0x01
5.588408250000000,0,0x00,0x01
5.588426291666667,0,0x28,0x81
5.589900416666667,0,0xB0,0x13
5.589918416666666,0,0x7F,0x10
5.589936625000000,0,0xFF,0x10
5.591893041666666,0,0xF0,0x12
5.591911083333334,0,0xFF,0x12
5.591929291666666,0,0xFF,0x10
5.593881250000000,0,0xB0,0x13
5.593899250000000,0,0x7F,0x1A
5.593917458333333,0,0xFF,0x18
5.595872791666666,0,0x98,0x10
5.595890833333334,0,0xFF,0x12
5.595909041666666,0,0xFF,0x10
5.597860250000000,0,0xF0,0x02
5.597878250000000,0,0x7F,0x12
5.597896458333333,0,0xFF,0x10
5.599847291666666,0,0xB0,0x12
5.599865333333334,0,0xFF,0x12
5.599883541666666,0,0xFF,0x10
5.601845250000000,0,0xF0,0x12
5.601863250000000,0,0x7F,0x12
5.601881458333334,0,0xFF,0x18
5.603836083333333,0,0xB0,0x12
5.603854125000000,0,0xFF,0x12
5.603872333333333,0,0xFF,0x10
5.605826208333333,0,0xB0,0x12
5.605844208333333,0,0xFF,0x10
5.605862416666667,0,0xFF,0x10
5.607817333333333,0,0xF0,0x12
5.607835375000000,0,0xFF,0x13
5.607853583333333,0,0xFF,0x10
5.609814083333333,0,0xB0,0x12
5.609832125000000,0,0xFF,0x02
5.609850333333333,0,0xFF,0x10
5.611809500000000,0,0xB0,0x12
5.611827541666667,0,0xFF,0x12
5.611845750000000,0,0xFF,0x10
5.613799083333333,0,0xF0,0x12
5.613817125000000,0,0xFF,0x12
5.613835333333333,0,0xFF,0x10
5.615791125000000,0,0x98,0x1A
5.615809166666667,0,0xFF,0x12
5.615827375000000,0,0xFF,0x10
5.617788708333333,0,0xF0,0x12
5.617806708333333,0,0x7F,0x12
5.617824916666667,0,0xFF,0x10
5.619782041666666,0,0xB0,0x13
5.619800041666666,0,0xFF,0x1A
5.619818250000000,0,0xFF,0x18
5.619843083333333,0,0x83,0x12
5.619861083333333,0,0xFF,0x00
5.619879291666667,0,0xFF,0xA8
5.619899875000000,0,0x07,0x02
5.619917916666667,0,0x00,0x12
5.619935958333333,0,0x0A,0x12
5.620018625000000,0,0x07,0x01
5.620036666666667,0,0x00,0x01
5.620054750000000,0,0x08,0x01
5.620075375000000,0,0x30,0x00
5.620093375000000,0,0x00,0x01
5.620111458333334,0,0x80,0x01
5.620131708333333,0,0x87,0x01
5.620149750000000,0,0xFF,0x00
5.620167958333333,0,0xFF,0x0A
5.620188833333334,0,0x03,0x01
5.620206833333333,0,0x80,0x81
5.620224916666666,0,0x80,0x01
5.621779458333333,0,0x18,0x10
5.621797500000000,0,0xFF,0x02
5.621815708333333,0,0xFF,0x00
5.623769458333333,0,0xB0,0x12
5.623787500000000,0,0xFF,0x12
5.623805666666667,0,0xFF,0x14
5.625764250000000,0,0x98,0x10
5.625782291666667,0,0xFF,0x12
5.625800500000000,0,0xFF,0x14
5.627757208333334,0,0xF0,0x02
5.627775208333333,0,0x7F,0x12
5.627793416666667,0,0xFF,0x1C
5.629750250000000,0,0xB0,0x12
5.629768291666666,0,0xFF,0x13
5.629786500000000,0,0xFF,0x14
5.631738333333334,0,0x98,0x10
5.631756375000000,0,0xFF,0x02
5.631774583333334,0,0xFF,0x00
5.633735541666667,0,0x98,0x10
5.633753583333333,0,0xFF,0x02
5.633771791666667,0,0xFF,0x00
5.635733875000000,0,0xF0,0x02
5.635751875000000,0,0x7F,0x12
5.635770083333333,0,0xFF,0x14
5.637721208333334,0,0x90,0x12
5.637739250000000,0,0xFF,0x12
5.637757458333334,0,0xFF,0x14
5.639712041666667,0,0xF0,0x02
5.639730041666667,0,0x7F,0x12
5.639748250000000,0,0xFF,0x14
5.641710833333334,0,0x98,0x10
5.641728875000000,0,0xFF,0x02
5.641747083333334,0,0xFF,0x04
5.643701791666667,0,0xB0,0x12
5.643719833333333,0,0xFF,0x12
5.643738041666666,0,0xFF,0x14
5.645688750000000,0,0xF0,0x02
5.645706750000000,0,0x7F,0x12
5.645724958333333,0,0xFF,0x14
5.647679708333333,0,0xF0,0x02
5.647697708333333,0,0x7F,0x12
5.647715916666667,0,0xFF,0x14
5.649671000000000,0,0xB0,0x12
5.649689041666667,0,0xFF,0x10
5.649707250000000,0,0xFF,0x16
5.651668791666666,0,0x98,0x1A
5.651686833333334,0,0xFF,0x12
5.651705041666666,0,0xFF,0x14
5.651729833333333,0,0x87,0x12
5.651747875000000,0,0xFF,0x00
5.651766083333333,0,0xFF,0x82
5.651786666666666,0,0x03,0x12
5.651804666666667,0,0x80,0x12
5.651823000000000,0,0x32,0x12
5.652811458333334,0,0x07,0x01
5.652829500000000,0,0x00,0x01
5.652847583333333,0,0x32,0x01
5.652868166666667,0,0x1C,0x01
5.652886208333333,0,0x80,0x01
5.652904291666666,0,0xC0,0x01
5.652924541666667,0,0x83,0x00
5.652942541666667,0,0xFF,0x00
5.652960750000000,0,0xFF,0x12
5.652981625000000,0,0x87,0x01
5.652999666666667,0,0x00,0x01
5.653017750000000,0,0xF2,0x01
5.654406125000000,0,0x18,0x1A
5.654424166666667,0,0xFF,0x12
5.654442375000000,0,0xFF,0x04
5.656393875000000,0,0xB0,0x13
5.656411875000000,0,0x7F,0x1A
5.656430083333333,0,0xFF,0x04
5.658388541666667,0,0xB0,0x13
5.658406541666666,0,0x7F,0x1A
5.658424750000000,0,0xFF,0x04
5.660377416666667,0,0x90,0x12
5.660395458333333,0,0xFF,0x12
5.660413666666667,0,0xFF,0x00
5.662376583333334,0,0xB0,0x12
5.662394625000000,0,0xFF,0x12
5.662412791666666,0,0xFF,0x04
5.664365291666667,0,0xB0,0x13
5.664383291666667,0,0xFF,0x1A
5.664401500000000,0,0xFF,0x04
5.666352416666666,0,0xB0,0x12
5.666370458333334,0,0xFF,0x13
5.666388666666666,0,0xFF,0x04
5.668342708333333,0,0xB0,0x12
5.668360750000000,0,0xFF,0x12
5.668378958333333,0,0xFF,0x04
5.670333458333333,0,0x98,0x10
5.670351500000000,0,0xFF,0x12
5.670369708333333,0,0xFF,0x04
5.672324500000000,0,0xF0,0x12
5.672342541666667,0,0xFF,0x13
5.672360750000000,0,0xFF,0x00
5.674319916666667,0,0xB0,0x12
5.674337958333333,0,0xFF,0x12
5.674356166666667,0,0xFF,0x04
5.676311791666667,0,0xB0,0x12
5.676329833333333,0,0xFF,0x12
5.676348041666667,0,0xFF,0x04
5.678307625000000,0,0xB0,0x13
5.678325625000000,0,0xFF,0x1A
5.678343833333333,0,0xFF,0x06
5.680307041666667,0,0x98,0x10
5.680325083333333,0,0xFF,0x02
5.680343291666667,0,0xFF,0x00
5.682295166666667,0,0xB0,0x12
5.682313208333333,0,0xFF,0x13
5.682331416666667,0,0xFF,0x04
5.684282583333333,0,0xB0,0x12
5.684300625000000,0,0xFF,0x12
5.684318833333333,0,0xFF,0x04
5.684343625000000,0,0x87,0x12
5.684361666666667,0,0xFF,0x00
5.684379875000000,0,0xFF,0xB2
5.684400416666667,0,0x07,0x12
5.684418458333333,0,0x00,0x12
5.684436500000000,0,0x1E,0x10
5.684609500000000,0,0x03,0x00
5.684627500000000,0,0x00,0x01
5.684645583333333,0,0x16,0x01
5.684666166666666,0,0x34,0x81
5.684684208333334,0,0x80,0x01
5.684702291666667,0,0xC0,0x01
5.684722541666667,0,0xC3,0x01
5.684740541666667,0,0xFF,0x00
5.684758750000000,0,0xFF,0x14
5.684779625000000,0,0x87,0x01
5.684797666666666,0,0x00,0x01
5.684815750000000,0,0xC0,0x00
5.686270791666667,0,0x90,0x12
5.686288833333333,0,0xFF,0x12
5.686307041666667,0,0xFF,0x08
5.688269416666667,0,0x90,0x12
5.688287458333333,0,0xFF,0x12
5.688305666666666,0,0xFF,0x08
5.690257666666667,0,0xB0,0x12
5.690275708333333,0,0xFF,0x12
5.690293916666667,0,0xFF,0x0C
5.692256583333333,0,0xB0,0x12
5.692274625000000,0,0xFF,0x13
5.692292833333333,0,0xFF,0x08
5.694248875000000,0,0xB0,0x12
5.694266916666667,0,0xFF,0x02
5.694285125000000,0,0xFF,0x08
5.696241666666666,0,0xB0,0x12
5.696259708333334,0,0xFF,0x12
5.696277916666666,0,0xFF,0x08
5.698229791666667,0,0xB0,0x12
5.698247833333333,0,0xFF,0x12
5.698266041666667,0,0xFF,0x08
5.700221750000000,0,0xB0,0x12
5.700239750000000,0,0xFF,0x10
5.700257958333333,0,0xFF,0x08
5.702209500000000,0,0xB0,0x12
5.702227541666667,0,0xFF,0x12
5.702245750000000,0,0xFF,0x08
5.704202791666667,0,0xB0,0x12
5.704220833333333,0,0xFF,0x12
5.704239041666667,0,0xFF,0x08
5.706196916666666,0,0xF0,0x02
5.706214916666666,0,0x7F,0x12
5.706233125000000,0,0xFF,0x08
5.708187375000000,0,0x98,0x1A
5.708205416666667,0,0xFF,0x12
5.708223625000000,0,0xFF,0x08
5.710184083333333,0,0x98,0x10
5.710202125000000,0,0xFF,0x02
5.710220333333333,0,0xFF,0x08
5.712183500000000,0,0x98,0x1A
5.712201541666666,0,0xFF,0x12
5.712219750000000,0,0xFF,0x08
5.714174583333334,0,0xF0,0x02
5.714192583333333,0,0x7F,0x12
5.714210791666667,0,0xFF,0x08
5.716165250000000,0,0x98,0x1A
5.716183291666667,0,0xFF,0x12
5.716201500000000,0,0xFF,0x08
5.716226291666667,0,0x87,0x1A
5.716244333333333,0,0xFF,0x00
5.716262541666667,0,0xFF,0x94
5.716283083333333,0,0x87,0x12
5.716301125000000,0,0x00,0x10
5.716319208333333,0,0x3E,0x12
5.716408708333334,0,0x03,0x01
5.716426708333334,0,0x80,0x01
5.716444791666667,0,0x3E,0x01
5.716465416666667,0,0x30,0x00
5.716483416666667,0,0x00,0x01
5.716501500000000,0,0x80,0x01
5.716521750000000,0,0xC7,0x01
5.716539791666666,0,0xFF,0x00
5.716558000000000,0,0xFF,0x3C
5.716578875000000,0,0x03,0x01
5.716596875000000,0,0x80,0x01
5.716614958333333,0,0x9E,0x01
5.718158375000000,0,0x30,0x92
5.718176416666667,0,0xFF,0x10
5.718194625000000,0,0xFF,0x18
5.720153458333334,0,0x98,0x10
5.720171500000000,0,0xFF,0x02
5.720189708333334,0,0xFF,0x0C
5.722153166666667,0,0xF0,0x12
5.722171208333333,0,0xFF,0x13
5.722189416666667,0,0xFF,0x18
5.724150000000000,0,0xB0,0x12
5.724168041666666,0,0xFF,0x12
5.724186250000000,0,0xFF,0x1C
5.726145125000000,0,0xB0,0x12
5.726163166666667,0,0xFF,0x12
5.726181375000000,0,0xFF,0x1C
5.728136333333333,0,0xF0,0x02
5.728154333333333,0,0x7F,0x12
5.728172583333333,0,0xFF,0x18
5.730125500000000,0,0x98,0x18
5.730143541666667,0,0xFF,0x12
5.730161750000000,0,0xFF,0x18
5.732115458333333,0,0xB0,0x12
5.732133458333333,0,0x7F,0x12
5.732151666666667,0,0xFF,0x18
5.734102916666667,0,0xB0,0x12
5.734120958333333,0,0xFF,0x13
5.734139166666667,0,0xFF,0x18
5.736096750000000,0,0x98,0x10
5.736114791666667,0,0xFF,0x02
5.736133000000000,0,0xFF,0x08
5.738093875000000,0,0xB0,0x12
5.738111916666667,0,0xFF,0x10
5.738130125000000,0,0xFF,0x18
5.740081916666667,0,0xB0,0x13
5.740099916666667,0,0x7F,0x1A
5.740118125000000,0,0xFF,0x18
5.742075458333334,0,0xF0,0x12
5.742093500000000,0,0xFF,0x13
5.742111708333334,0,0xFF,0x18
5.744064541666667,0,0xB0,0x12
5.744082583333333,0,0xFF,0x12
5.744100791666667,0,0xFF,0x18
5.746055583333334,0,0x90,0x12
5.746073625000000,0,0xFF,0x12
5.746091833333334,0,0xFF,0x18
5.748046166666667,0,0xF0,0x12
5.748064166666667,0,0x7F,0x12
5.748082375000000,0,0xFF,0x18
5.748107208333334,0,0x83,0x13
5.748125208333334,0,0xFF,0x00
5.748143416666666,0,0xFF,0x9C
5.748164000000000,0,0x03,0x12
5.748182000000000,0,0x80,0x12
5.748200083333334,0,0x1E,0x18
5.749202958333333,0,0x07,0x01
5.749221000000000,0,0x00,0x01
5.749239083333333,0,0x0E,0x01
5.749259666666667,0,0x1E,0x01
5.749277708333334,0,0xC0,0x01
5.749295791666666,0,0x80,0x01
5.749316000000000,0,0x07,0x01
5.749334041666667,0,0xFF,0x00
5.749352250000000,0,0xFF,0x1E
5.749373125000000,0,0x07,0x01
5.749391166666666,0,0x00,0x01
5.749409208333334,0,0x1E,0x01
5.750799250000000,0,0xF0,0x02
5.750817250000000,0,0x7F,0x12
5.750835458333333,0,0xFF,0x1C
5.752786666666666,0,0xB0,0x12
5.752804708333334,0,0xFF,0x10
5.752822916666666,0,0xFF,0x1E
5.754780500000000,0,0xF0,0x12
5.754798541666666,0,0xFF,0x13
5.754816750000000,0,0xFF,0x1C
5.756769958333333,0,0x98,0x10
5.756788000000000,0,0xFF,0x02
5.756806208333333,0,0xFF,0x0C
5.758767208333333,0,0x98,0x1A
5.758785250000000,0,0xFF,0x12
5.758803458333333,0,0xFF,0x1C
5.760756833333334,0,0xF0,0x02
5.760774833333334,0,0x7F,0x12
5.760793041666667,0,0xFF,0x1C
5.762756166666667,0,0xF0,0x12
5.762774166666667,0,0x7F,0x1A
5.762792375000000,0,0xFF,0x1E
5.764744458333333,0,0xF0,0x12
5.764762458333333,0,0x7F,0x12
5.764780666666667,0,0xFF,0x1C
5.766741541666667,0,0x90,0x12
5.766759583333333,0,0xFF,0x12
5.766777791666667,0,0xFF,0x1C
5.768730291666667,0,0x98,0x18
5.768748333333333,0,0xFF,0x12
5.768766541666666,0,0xFF,0x1C
5.770729750000000,0,0xB0,0x12
5.770747750000000,0,0xFF,0x10
5.770765958333334,0,0xFF,0x1E
5.772720000000000,0,0x90,0x12
5.772738041666667,0,0xFF,0x12
5.772756250000000,0,0xFF,0x1C
5.774707416666667,0,0xF0,0x02
5.774725458333333,0,0xFF,0x12
5.774743625000000,0,0xFF,0x1C
5.776695791666667,0,0xB0,0x12
5.776713791666666,0,0xFF,0x10
5.776732000000000,0,0xFF,0x1E
5.778693166666667,0,0xF0,0x02
5.778711208333333,0,0xFF,0x12
5.778729416666667,0,0xFF,0x1C
5.780684666666667,0,0xF0,0x12
5.780702708333333,0,0xFF,0x12
5.780720875000000,0,0xFF,0x1C
5.780745708333333,0,0xC3,0x02
5.780763708333334,0,0xFF,0x00
5.780781916666666,0,0xFF,0x1E
5.780802500000000,0,0x03,0x12
5.780820500000000,0,0x80,0x12
5.780838583333333,0,0x66,0x10
5.781002750000000,0,0x07,0x01
5.781020791666666,0,0x00,0x01
5.781038875000000,0,0x02,0x01
5.781059458333333,0,0x1E,0x01
5.781077500000000,0,0xC0,0x01
5.781095541666667,0,0x00,0x81
5.781115791666666,0,0x07,0x01
5.781133833333334,0,0xFF,0x00
5.781152041666667,0,0xFF,0x46
5.781172916666667,0,0x07,0x01
5.781190958333333,0,0x00,0x00
5.781209000000000,0,0x66,0x01
5.782681958333334,0,0xB0,0x12
5.782700000000000,0,0xFF,0x13
5.782718208333334,0,0xFF,0x0C
5.784676708333333,0,0xB0,0x12
5.784694750000000,0,0xFF,0x13
5.784712958333333,0,0xFF,0x0C
5.786665875000000,0,0xF0,0x02
5.786683875000000,0,0x7F,0x12
5.786702083333333,0,0xFF,0x0C
5.788656375000000,0,0xB0,0x13
5.788674375000000,0,0x7F,0x1A
5.788692583333333,0,0xFF,0x04
5.790650583333333,0,0x98,0x10
5.790668625000000,0,0xFF,0x02
5.790686833333333,0,0xFF,0x0C
5.792639625000000,0,0xF0,0x02
5.792657625000000,0,0x7F,0x12
5.792675833333333,0,0xFF,0x04
5.794632750000000,0,0xB0,0x13
5.794650750000000,0,0x7F,0x1A
5.794668958333333,0,0xFF,0x04
5.796625375000000,0,0x98,0x1A
5.796643416666667,0,0xFF,0x12
5.796661625000000,0,0xFF,0x0C
5.798622583333334,0,0xF0,0x12
5.798640625000000,0,0xFF,0x12
5.798658833333334,0,0xFF,0x0C
5.800622416666666,0,0x98,0x1A
5.800640458333334,0,0xFF,0x12
5.800658666666667,0,0xFF,0x0C
5.802616333333333,0,0x90,0x12
5.802634375000000,0,0xFF,0x12
5.802652583333333,0,0xFF,0x0C
5.804608083333333,0,0xB0,0x12
5.804626125000000,0,0xFF,0x12
5.804644333333333,0,0xFF,0x0C
5.806606791666667,0,0xB0,0x12
5.806624833333333,0,0xFF,0x12
5.806643041666667,0,0xFF,0x0C
5.808598791666666,0,0xF0,0x12
5.808616791666666,0,0x7F,0x12
5.808635000000000,0,0xFF,0x0C
5.810591750000000,0,0xB0,0x12
5.810609750000000,0,0xFF,0x10
5.810627958333333,0,0xFF,0x0C
5.812584958333334,0,0xB0,0x13
5.812602958333334,0,0x7F,0x1A
5.812621166666666,0,0xFF,0x0E
5.812645958333333,0,0x87,0x12
5.812664000000000,0,0xFF,0x00
5.812682208333333,0,0xFF,0xC6
5.812702750000000,0,0x87,0x12
5.812720791666667,0,0x00,0x12
5.812738875000000,0,0x00,0x13
5.812801333333334,0,0x03,0x01
5.812819333333334,0,0x80,0x81
5.812837416666667,0,0x00,0x01
5.812858041666667,0,0x34,0x01
5.812876041666667,0,0x80,0x01
5.812894125000000,0,0xC0,0x01
5.812914375000000,0,0x83,0x00
5.812932375000000,0,0xFF,0x00
5.812950583333333,0,0xFF,0x00
5.812971458333333,0,0x07,0x01
5.812989500000000,0,0x00,0x01
5.813007583333333,0,0x80,0x01
5.814580791666667,0,0xB0,0x12
5.814598791666667,0,0xFF,0x10
5.814617000000000,0,0xFF,0x00
5.816580000000000,0,0xB0,0x12
5.816598041666666,0,0xFF,0x13
5.816616250000000,0,0xFF,0x00
5.818568916666667,0,0xB0,0x12
5.818586958333333,0,0xFF,0x12
5.818605166666667,0,0xFF,0x00
5.820557708333333,0,0xF0,0x02
5.820575708333333,0,0x7F,0x12
5.820593916666667,0,0xFF,0x00
5.822554500000000,0,0xB0,0x12
5.822572541666666,0,0xFF,0x02
5.822590750000000,0,0xFF,0x00
5.824551208333333,0,0x98,0x1A
5.824569250000000,0,0xFF,0x12
5.824587458333333,0,0xFF,0x00
5.826544291666667,0,0xF0,0x12
5.826562291666667,0,0x7F,0x12
5.826580500000000,0,0xFF,0x00
5.828533750000000,0,0xB0,0x12
5.828551750000000,0,0xFF,0x18
5.828569958333333,0,0xFF,0x00
5.830530958333333,0,0xB0,0x12
5.830549000000000,0,0xFF,0x02
5.830567208333333,0,0xFF,0x00
5.832523375000000,0,0x90,0x12
5.832541416666666,0,0xFF,0x02
5.832559625000000,0,0xFF,0x00
5.834518000000000,0,0xB0,0x12
5.834536000000000,0,0xFF,0x10
5.834554208333333,0,0xFF,0x00
5.836507500000000,0,0xF0,0x12
5.836525541666667,0,0xFF,0x12
5.836543708333333,0,0xFF,0x00
5.838499750000000,0,0x98,0x10
5.838517791666667,0,0xFF,0x02
5.838536000000000,0,0xFF,0x00
5.840493916666667,0,0xF0,0x12
5.840511958333333,0,0xFF,0x13
5.840530166666666,0,0xFF,0x00
5.842491041666666,0,0xF0,0x02
5.842509041666666,0,0x7F,0x12
5.842527250000000,0,0xFF,0x00
5.844485208333333,0,0x98,0x10
5.844503250000000,0,0xFF,0x02
5.844521458333333,0,0xFF,0x00
5.844546250000000,0,0x87,0x12
5.844564291666667,0,0xFF,0x00
5.844582500000000,0,0xFF,0x80
5.844603208333333,0,0x87,0x12
5.844621250000000,0,0x00,0x12
5.844639333333333,0,0x38,0x02
5.845595208333333,0,0x07,0x01
5.845613250000000,0,0x00,0x01
5.845631333333333,0,0x3C,0x00
5.845651916666666,0,0x1E,0x01
5.845669958333334,0,0xC0,0x01
5.845688041666667,0,0x80,0x00
5.845708250000000,0,0x07,0x01
5.845726291666667,0,0xFF,0x00
5.845744500000000,0,0xFF,0x28
5.845765375000000,0,0x07,0x01
5.845783416666666,0,0x00,0x01
5.845801500000000,0,0xAC,0x00
5.847158375000000,0,0xF0,0x02
5.847176375000000,0,0x7F,0x12
5.847194583333334,0,0xFF,0x10
5.849149500000000,0,0xB0,0x12
5.849167541666667,0,0xFF,0x12
5.849185750000000,0,0xFF,0x10
5.851142083333333,0,0xB0,0x12
5.851160125000000,0,0xFF,0x13
5.851178333333333,0,0xFF,0x10
5.853137791666667,0,0x98,0x10
5.853155833333333,0,0xFF,0x02
5.853174041666667,0,0xFF,0x10
5.855124291666667,0,0x90,0x12
5.855142333333333,0,0xFF,0x12
5.855160541666667,0,0xFF,0x00
5.857112833333334,0,0x98,0x18
5.857130875000000,0,0xFF,0x12
5.857149083333334,0,0xFF,0x00
5.859109166666666,0,0xF0,0x02
5.859127166666667,0,0x7F,0x12
5.859145375000000,0,0xFF,0x10
5.861106625000000,0,0xF0,0x12
5.861124625000000,0,0x7F,0x12
5.861142833333333,0,0xFF,0x10
5.863103041666666,0,0xB0,0x12
5.863121041666667,0,0xFF,0x12
5.863139250000000,0,0xFF,0x10
5.865091500000000,0,0xF0,0x12
5.865109500000000,0,0x7F,0x12
5.865127708333334,0,0xFF,0x18
5.867080750000000,0,0xF0,0x12
5.867098750000000,0,0x7F,0x1A
5.867116958333333,0,0xFF,0x18
5.869079666666667,0,0xF0,0x12
5.869097708333333,0,0xFF,0x12
5.869115875000000,0,0xFF,0x10
5.871070166666667,0,0xB0,0x12
5.871088208333333,0,0xFF,0x13
5.871106416666667,0,0xFF,0x10
5.873058625000000,0,0xB0,0x12
5.873076625000000,0,0xFF,0x10
5.873094833333333,0,0xFF,0x10
5.875055083333334,0,0x98,0x18
5.875073125000000,0,0xFF,0x12
5.875091333333334,0,0xFF,0x00
5.877043333333333,0,0xB0,0x12
5.877061375000000,0,0xFF,0x12
5.877079541666666,0,0xFF,0x10
5.877104375000000,0,0xC3,0x13
5.877122375000000,0,0xFF,0x00
5.877140583333333,0,0xFF,0xA8
5.877161125000000,0,0x87,0x12
5.877179166666667,0,0x00,0x12
5.877197250000000,0,0x0E,0x02
5.877392083333334,0,0x03,0x00
5.877410083333333,0,0x80,0x01
5.877428166666666,0,0x08,0x01
5.877448750000000,0,0x34,0x81
5.877466791666667,0,0x80,0x01
5.877484875000000,0,0xC0,0x00
5.877505083333333,0,0x07,0x81
5.877523125000000,0,0xFF,0x00
5.877541333333333,0,0xFF,0x0A
5.877562208333333,0,0x07,0x01
5.877580250000000,0,0x00,0x00
5.877598291666667,0,0x02,0x01
5.879040291666667,0,0xF0,0x12
5.879058291666666,0,0x7F,0x12
5.879076500000000,0,0xFF,0x14
5.881040000000000,0,0xF0,0x13
5.881058000000000,0,0x7F,0x1A
5.881076208333333,0,0xFF,0x16
5.883027375000000,0,0xF0,0x02
5.883045375000000,0,0x7F,0x12
5.883063583333334,0,0xFF,0x14
5.885014541666667,0,0xF0,0x12
5.885032583333333,0,0xFF,0x13
5.885050791666667,0,0xFF,0x14
5.887003833333333,0,0xB0,0x12
5.887021833333334,0,0xFF,0x10
5.887040041666666,0,0xFF,0x14
5.888994791666667,0,0xB0,0x12
5.889012833333333,0,0xFF,0x13
5.889031041666667,0,0xFF,0x14
5.890992291666667,0,0x98,0x18
5.891010333333333,0,0xFF,0x12
5.891028541666667,0,0xFF,0x04
5.892981833333334,0,0x98,0x1A
5.892999875000000,0,0xFF,0x12
5.893018083333334,0,0xFF,0x14
5.894972416666667,0,0x98,0x1A
5.894990458333333,0,0xFF,0x12
5.895008666666667,0,0xFF,0x14
5.896967083333333,0,0x98,0x10
5.896985125000000,0,0xFF,0x12
5.897003333333333,0,0xFF,0x14
5.898967166666667,0,0xB0,0x13
5.898985166666667,0,0xFF,0x10
5.899003375000000,0,0xFF,0x16
5.900960375000000,0,0xF0,0x12
5.900978416666667,0,0xFF,0x12
5.900996583333334,0,0xFF,0x14
5.902951625000000,0,0xF0,0x12
5.902969625000000,0,0x7F,0x12
5.902987833333333,0,0xFF,0x14
5.904945208333333,0,0x98,0x1A
5.904963250000000,0,0xFF,0x12
5.904981458333333,0,0xFF,0x00
5.906940000000000,0,0xF0,0x12
5.906958041666667,0,0xFF,0x12
5.906976208333333,0,0xFF,0x14
5.908933625000000,0,0xB0,0x12
5.908951666666667,0,0xFF,0x12
5.908969875000000,0,0xFF,0x14
5.908994666666667,0,0x87,0x10
5.909012708333333,0,0xFF,0x00
5.909030916666667,0,0xFF,0x8B
5.909051458333333,0,0x07,0x12
5.909069500000000,0,0x00,0x12
5.909087541666667,0,0x18,0x10
5.909189375000000,0,0x07,0x01
5.909207416666667,0,0x00,0x01
5.909225458333333,0,0x33,0x81
5.909246083333334,0,0x34,0x01
5.909264125000000,0,0x80,0x01
5.909282166666666,0,0x00,0x01
5.909302416666667,0,0x87,0x01
5.909320458333333,0,0xFF,0x00
5.909338625000000,0,0xFF,0x32
5.909359500000000,0,0x87,0x01
5.909377541666666,0,0x00,0x01
5.909395625000000,0,0xB3,0x01
5.910921291666667,0,0xF0,0x12
5.910939291666667,0,0x7F,0x12
5.910957500000000,0,0xFF,0x04
5.912914583333333,0,0x98,0x1A
5.912932625000000,0,0xFF,0x12
5.912950833333333,0,0xFF,0x04
5.914914250000000,0,0xF0,0x02
5.914932250000000,0,0x7F,0x12
5.914950458333333,0,0xFF,0x04
5.916903708333333,0,0xF0,0x02
5.916921708333334,0,0x7F,0x12
5.916939916666666,0,0xFF,0x04
5.918894083333333,0,0xB0,0x12
5.918912125000000,0,0xFF,0x10
5.918930333333333,0,0xFF,0x04
5.920884791666666,0,0x98,0x1A
5.920902833333333,0,0xFF,0x12
5.920921041666666,0,0xFF,0x00
5.922883875000000,0,0xB0,0x12
5.922901875000000,0,0xFF,0x10
5.922920083333334,0,0xFF,0x04
5.924876625000000,0,0x98,0x10
5.924894666666667,0,0xFF,0x02
5.924912875000000,0,0xFF,0x00
5.926868666666667,0,0xF0,0x02
5.926886666666666,0,0x7F,0x12
5.926904875000000,0,0xFF,0x04
5.928856583333333,0,0xB0,0x12
5.928874625000000,0,0xFF,0x12
5.928892833333333,0,0xFF,0x04
5.930848416666667,0,0x98,0x10
5.930866458333333,0,0xFF,0x02
5.930884666666667,0,0xFF,0x00
5.932838791666667,0,0xB0,0x13
5.932856791666667,0,0x7F,0x1A
5.932875000000000,0,0xFF,0x04
5.934833291666667,0,0xF0,0x02
5.934851291666667,0,0x7F,0x12
5.934869500000000,0,0xFF,0x04
5.936826375000000,0,0xB0,0x12
5.936844416666666,0,0xFF,0x10
5.936862625000000,0,0xFF,0x04
5.938815833333333,0,0xB0,0x12
5.938833833333334,0,0xFF,0x10
5.938852041666666,0,0xFF,0x06
5.940810583333334,0,0xB0,0x12
5.940828583333333,0,0xFF,0x10
5.940846791666667,0,0xFF,0x06
5.940871583333333,0,0x87,0x12
5.940889625000000,0,0xFF,0x00
5.940907833333333,0,0xFF,0xF2
5.940928375000000,0,0x07,0x10
5.940946416666667,0,0x00,0x02
5.940964458333333,0,0x14,0x12
5.941979458333333,0,0x07,0x01
5.941997500000000,0,0x00,0x01
5.942015583333333,0,0x00,0x00
5.942036166666667,0,0x36,0x01
5.942054208333333,0,0xC0,0x01
5.942072250000000,0,0x00,0x81
5.942092500000000,0,0x07,0x01
5.942110541666667,0,0xFF,0x00
5.942128750000000,0,0xFF,0x10
5.942149625000000,0,0x03,0x01
5.942167625000000,0,0x80,0x01
5.942185708333334,0,0x9E,0x01
5.943607666666667,0,0x30,0x92
5.943625708333333,0,0xFF,0x12
5.943643916666667,0,0xFF,0x08
5.945598958333333,0,0xF0,0x13
5.945616958333333,0,0x7F,0x1A
5.945635166666666,0,0xFF,0x00
5.947594125000000,0,0xB0,0x12
5.947612166666667,0,0xFF,0x12
5.947630375000000,0,0xFF,0x08
5.949581958333333,0,0xB0,0x13
5.949599958333334,0,0x7F,0x1A
5.949618166666666,0,0xFF,0x00
5.951575500000000,0,0xB0,0x12
5.951593541666667,0,0xFF,0x10
5.951611750000000,0,0xFF,0x08
5.953566000000000,0,0xB0,0x12
5.953584041666667,0,0xFF,0x12
5.953602250000000,0,0xFF,0x08
5.955565750000000,0,0xF0,0x12
5.955583791666666,0,0xFF,0x12
5.955602000000000,0,0xFF,0x08
5.957555500000000,0,0xF0,0x02
5.957573500000000,0,0x7F,0x12
5.957591750000000,0,0xFF,0x08
5.959552375000000,0,0xB0,0x12
5.959570416666667,0,0xFF,0x13
5.959588625000000,0,0xFF,0x08
5.961544625000000,0,0x98,0x1A
5.961562666666667,0,0xFF,0x12
5.961580875000000,0,0xFF,0x08
5.963542833333333,0,0x98,0x1A
5.963560875000000,0,0xFF,0x12
5.963579083333333,0,0xFF,0x08
5.965534750000000,0,0x90,0x12
5.965552791666667,0,0xFF,0x12
5.965571000000000,0,0xFF,0x08
5.967521791666667,0,0xB0,0x12
5.967539833333333,0,0xFF,0x10
5.967558041666667,0,0xFF,0x08
5.969513833333333,0,0xB0,0x12
5.969531875000000,0,0xFF,0x13
5.969550083333333,0,0xFF,0x08
5.971503250000000,0,0x98,0x10
5.971521291666667,0,0xFF,0x02
5.971539500000000,0,0xFF,0x0C
5.973494541666667,0,0xB0,0x12
5.973512583333333,0,0xFF,0x12
5.973530791666667,0,0xFF,0x08
5.973555583333333,0,0x87,0x12
5.973573625000000,0,0xFF,0x00
5.973591833333334,0,0xFF,0x94
5.973612375000000,0,0x87,0x1A
5.973630416666666,0,0x00,0x02
5.973648500000000,0,0x3C,0x12
5.973777916666666,0,0x03,0x01
5.973795916666667,0,0x80,0x81
5.973814000000000,0,0x3E,0x01
5.973834625000000,0,0x34,0x01
5.973852625000000,0,0x80,0x01
5.973870708333333,0,0xC0,0x01
5.973890958333334,0,0x83,0x01
5.973908958333333,0,0xFF,0x00
5.973927166666667,0,0xFF,0x3E
5.973948041666667,0,0x07,0x01
5.973966083333333,0,0x00,0x01
5.973984125000000,0,0x3C,0x81
5.975482916666667,0,0x98,0x10
5.975500958333333,0,0xFF,0x02
5.975519166666666,0,0xFF,0x0C
5.977472958333333,0,0xB0,0x12
5.977491000000000,0,0xFF,0x12
5.977509208333333,0,0xFF,0x18
5.979463583333334,0,0x98,0x1A
5.979481625000000,0,0xFF,0x12
5.979499833333334,0,0xFF,0x0C
5.981458041666667,0,0xB0,0x12
5.981476083333333,0,0xFF,0x13
5.981494291666666,0,0xFF,0x18
5.983447208333334,0,0xB0,0x12
5.983465250000000,0,0xFF,0x12
5.983483458333334,0,0xFF,0x18
5.985439125000000,0,0xB0,0x12
5.985457125000000,0,0xFF,0x10
5.985475333333333,0,0xFF,0x18
5.987434875000000,0,0x98,0x10
5.987452916666666,0,0xFF,0x02
5.987471125000000,0,0xFF,0x1C
5.989426333333333,0,0xF0,0x02
5.989444333333333,0,0x7F,0x12
5.989462541666667,0,0xFF,0x18
5.991413708333333,0,0xB0,0x12
5.991431750000000,0,0xFF,0x13
5.991449958333333,0,0xFF,0x18
5.993403583333333,0,0x98,0x10
5.993421625000000,0,0xFF,0x02
5.993439833333333,0,0xFF,0x18
5.995392750000000,0,0xB0,0x12
5.995410791666667,0,0xFF,0x02
5.995429000000000,0,0xFF,0x0C
5.997383750000000,0,0xB0,0x13
5.997401750000000,0,0x7F,0x1A
5.997419958333333,0,0xFF,0x18
5.999383208333334,0,0xB0,0x12
5.999401250000000,0,0xFF,0x10
5.999419458333334,0,0xFF,0x18
6.001372833333333,0,0xB0,0x12
6.001390875000000,0,0xFF,0x12
6.001409083333333,0,0xFF,0x18
6.003360208333334,0,0xF0,0x12
6.003378208333333,0,0x7F,0x12
6.003396416666667,0,0xFF,0x18
6.005351958333334,0,0xB0,0x12
6.005370000000000,0,0xFF,0x13
6.005388208333334,0,0xFF,0x18
6.005413000000000,0,0x87,0x12
6.005431041666666,0,0xFF,0x00
6.005449250000000,0,0xFF,0xBC
6.005469791666667,0,0x07,0x12
6.005487833333333,0,0x00,0x12
6.005505875000000,0,0x1E,0x12
6.005575541666667,0,0x07,0x01
6.005593583333333,0,0x00,0x00
6.005611625000000,0,0x1E,0x01
6.005632250000000,0,0x34,0x01
6.005650250000000,0,0x00,0x81
6.005668333333333,0,0x00,0x01
6.005688583333334,0,0x87,0x01
6.005706625000000,0,0xFF,0x00
6.005724833333334,0,0xFF,0x1F
6.005745708333333,0,0x03,0x00
6.005763708333333,0,0x00,0x01
6.005781791666666,0,0x9E,0x01
6.007346208333334,0,0x90,0x12
6.007364250000000,0,0xFF,0x02
6.007382458333334,0,0xFF,0x0C
6.009340833333333,0,0xB0,0x12
6.009358875000000,0,0xFF,0x12
6.009377083333334,0,0xFF,0x0C
6.011336708333333,0,0xF0,0x02
6.011354708333333,0,0x7F,0x12
6.011372916666667,0,0xFF,0x1C
6.013329250000000,0,0xF0,0x12
6.013347291666666,0,0xFF,0x12
6.013365500000000,0,0xFF,0x1C
6.015324791666667,0,0xB0,0x12
6.015342833333333,0,0xFF,0x13
6.015361041666667,0,0xFF,0x1C
6.017315541666667,0,0x98,0x10
6.017333583333333,0,0xFF,0x02
6.017351791666667,0,0xFF,0x0C
6.019302750000000,0,0xB0,0x12
6.019320750000000,0,0xFF,0x10
6.019338958333333,0,0xFF,0x1C
6.021295333333334,0,0xB0,0x12
6.021313375000000,0,0xFF,0x13
6.021331583333334,0,0xFF,0x1C
6.023288875000000,0,0xB0,0x12
6.023306875000000,0,0xFF,0x12
6.023325083333333,0,0xFF,0x1C
6.025281541666667,0,0xB0,0x12
6.025299583333333,0,0xFF,0x12
6.025317791666667,0,0xFF,0x1C
6.027280666666667,0,0xB0,0x12
6.027298708333333,0,0xFF,0x12
6.027316916666667,0,0xFF,0x1C
6.029274625000000,0,0xF0,0x02
6.029292625000000,0,0x7F,0x12
6.029310833333334,0,0xFF,0x1C
6.031268375000000,0,0xB0,0x13
6.031286375000000,0,0xFF,0x10
6.031304583333333,0,0xFF,0x1E
6.033258000000000,0,0xB0,0x12
6.033276000000000,0,0xFF,0x12
6.033294208333333,0,0xFF,0x1C
6.035247875000000,0,0xB0,0x12
6.035265916666667,0,0xFF,0x10
6.035284125000000,0,0xFF,0x1E
6.037237833333333,0,0xF0,0x12
6.037255875000000,0,0xFF,0x13
6.037274083333333,0,0xFF,0x1C
6.037298875000000,0,0xC7,0x12
6.037316875000000,0,0xFF,0x00
6.037335083333334,0,0xFF,0x1E
6.037355666666667,0,0x03,0x02
6.037373875000000,0,0x00,0x02
6.037391916666667,0,0x46,0x12
6.038367375000000,0,0x07,0x01
6.038385416666666,0,0x00,0x01
6.038403500000000,0,0x43,0x00
6.038424083333333,0,0x1E,0x01
6.038442125000000,0,0xC0,0x01
6.038460208333333,0,0x80,0x00
6.038480416666666,0,0x07,0x81
6.038498458333334,0,0xFF,0x00
6.038516666666666,0,0xFF,0x46
6.038537541666667,0,0x07,0x01
6.038555583333333,0,0x00,0x01
6.038573625000000,0,0x47,0x81
6.039966791666667,0,0xF0,0x12
6.039984791666667,0,0x7F,0x12
6.040003000000000,0,0xFF,0x0C
6.041955541666667,0,0x98,0x10
6.041973583333333,0,0xFF,0x02
6.041991791666667,0,0xFF,0x0C
6.043953250000000,0,0xB0,0x13
6.043971250000000,0,0x7F,0x1A
6.043989458333333,0,0xFF,0x04
6.045953125000000,0,0x90,0x12
6.045971166666667,0,0xFF,0x12
6.045989375000000,0,0xFF,0x0C
6.047949250000000,0,0xB0,0x12
6.047967291666667,0,0xFF,0x13
6.047985500000000,0,0xFF,0x0C
6.049939708333333,0,0xF0,0x02
6.049957750000000,0,0xFF,0x12
6.049975958333333,0,0xFF,0x0C
6.051934875000000,0,0x98,0x1A
6.051952916666667,0,0xFF,0x12
6.051971125000000,0,0xFF,0x0C
6.053925125000000,0,0xB0,0x12
6.053943166666667,0,0xFF,0x13
6.053961375000000,0,0xFF,0x0C
6.055912958333334,0,0xF0,0x02
6.055930958333334,0,0x7F,0x12
6.055949166666666,0,0xFF,0x0C
6.057903750000000,0,0xB0,0x12
6.057921750000000,0,0x7F,0x12
6.057939958333334,0,0xFF,0x0C
6.059902625000000,0,0xB0,0x12
6.059920625000000,0,0xFF,0x10
6.059938833333334,0,0xFF,0x0E
6.061890125000000,0,0xB0,0x12
6.061908166666667,0,0xFF,0x12
6.061926375000000,0,0xFF,0x0C
6.063882791666667,0,0x98,0x1A
6.063900833333333,0,0xFF,0x12
6.063919041666667,0,0xFF,0x0C
6.065871166666667,0,0xB0,0x12
6.065889208333333,0,0xFF,0x12
6.065907416666667,0,0xFF,0x0C
6.067868916666667,0,0xF0,0x12
6.067886958333333,0,0xFF,0x13
6.067905166666667,0,0xFF,0x0C
6.069867500000000,0,0x98,0x18
6.069885541666666,0,0xFF,0x12
6.069903750000000,0,0xFF,0x0C
6.069928541666667,0,0x87,0x10
6.069946583333333,0,0xFF,0x00
6.069964791666667,0,0xFF,0xC6
6.069985333333333,0,0x07,0x10
6.070003375000000,0,0x00,0x02
6.070021458333334,0,0x00,0x12
6.070165666666667,0,0x07,0x01
6.070183666666667,0,0x00,0x01
6.070201750000000,0,0x00,0x01
6.070222333333334,0,0x1E,0x01
6.070240375000000,0,0xC0,0x01
6.070258458333333,0,0x80,0x01
6.070278666666667,0,0x07,0x01
6.070296708333333,0,0xFF,0x00
6.070314916666667,0,0xFF,0x00
6.070335791666666,0,0x07,0x01
6.070353791666666,0,0x80,0x81
6.070371875000000,0,0x00,0x01
6.071855250000000,0,0xB0,0x13
6.071873250000000,0,0x7F,0x1A
6.071891458333333,0,0xFF,0x00
6.073843583333334,0,0x98,0x10
6.073861625000000,0,0xFF,0x02
6.073879833333334,0,0xFF,0x00
6.075834166666667,0,0xB0,0x12
6.075852166666666,0,0x7F,0x1A
6.075870375000000,0,0xFF,0x00
6.077821750000000,0,0xF0,0x12
6.077839791666666,0,0xFF,0x13
6.077858000000000,0,0xFF,0x00
6.079810500000000,0,0xB0,0x12
6.079828541666667,0,0xFF,0x13
6.079846750000000,0,0xFF,0x00
6.081800208333333,0,0x98,0x1A
6.081818250000000,0,0xFF,0x12
6.081836458333333,0,0xFF,0x00
6.083798333333333,0,0xB0,0x13
6.083816333333333,0,0x7F,0x1A
6.083834541666667,0,0xFF,0x00
6.085790708333334,0,0xF0,0x02
6.085808708333333,0,0x7F,0x1A
6.085826916666667,0,0xFF,0x00
6.087789083333333,0,0xB0,0x12
6.087807125000000,0,0xFF,0x13
6.087825333333333,0,0xFF,0x00
6.089777416666666,0,0x98,0x10
6.089795458333334,0,0xFF,0x02
6.089813666666666,0,0xFF,0x00
6.091773666666667,0,0xF0,0x02
6.091791666666666,0,0x7F,0x12
6.091809875000000,0,0xFF,0x00
6.093764250000000,0,0xB0,0x12
6.093782291666667,0,0xFF,0x13
6.093800500000000,0,0xFF,0x00
6.095751000000000,0,0x98,0x10
6.095769041666666,0,0xFF,0x02
6.095787250000000,0,0xFF,0x00
6.097747291666667,0,0xF0,0x12
6.097765333333333,0,0xFF,0x12
6.097783500000000,0,0xFF,0x00
6.099745750000000,0,0xF0,0x13
6.099763750000000,0,0x7F,0x1A
6.099781958333334,0,0xFF,0x00
6.101739166666666,0,0xB0,0x13
6.101757166666666,0,0xFF,0x18
6.101775375000000,0,0xFF,0x00
6.101800208333334,0,0x87,0x12
6.101818208333333,0,0xFF,0x00
6.101836416666667,0,0xFF,0x80
6.101857000000000,0,0x03,0x12
6.101875000000000,0,0x00,0x18
6.101893083333334,0,0x28,0x12
6.101962791666667,0,0x07,0x01
6.101980791666667,0,0x00,0x01
6.101998875000000,0,0x3C,0x01
6.102019458333333,0,0x1E,0x01
6.102037500000000,0,0xC0,0x01
6.102055583333334,0,0x80,0x01
6.102075791666667,0,0x07,0x01
6.102093833333333,0,0xFF,0x00
6.102112041666667,0,0xFF,0x28
6.102132916666666,0,0x07,0x01
6.102150958333334,0,0x00,0x01
6.102169000000000,0,0x00,0x01
6.103734208333333,0,0x90,0x12
6.103752250000000,0,0xFF,0x12
6.103770458333333,0,0xFF,0x10
6.105726791666667,0,0xB0,0x12
6.105744833333334,0,0xFF,0x12
6.105763000000000,0,0xFF,0x10
6.107718958333333,0,0xB0,0x12
6.107737000000000,0,0xFF,0x12
6.107755208333334,0,0xFF,0x10
6.109706416666667,0,0x98,0x10
6.109724458333333,0,0xFF,0x12
6.109742666666667,0,0xFF,0x10
6.111701458333333,0,0xB0,0x12
6.111719500000000,0,0xFF,0x12
6.111737708333333,0,0xFF,0x10
6.113688958333333,0,0xB0,0x12
6.113707000000000,0,0xFF,0x13
6.113725208333333,0,0xFF,0x10
6.115682458333334,0,0xB0,0x12
6.115700500000000,0,0xFF,0x12
6.115718708333334,0,0xFF,0x10
6.117677291666666,0,0xF0,0x12
6.117695291666666,0,0x7F,0x1A
6.117713500000000,0,0xFF,0x18
6.119663958333334,0,0x98,0x1A
6.119682000000000,0,0xFF,0x12
6.119700208333334,0,0xFF,0x10
6.121656166666667,0,0x98,0x10
6.121674208333333,0,0xFF,0x02
6.121692416666667,0,0xFF,0x10
6.123652416666666,0,0x98,0x1A
6.123670458333334,0,0xFF,0x12
6.123688666666666,0,0xFF,0x00
6.125640708333333,0,0xB0,0x12
6.125658750000000,0,0xFF,0x13
6.125676958333333,0,0xFF,0x10
6.127627625000000,0,0xF0,0x12
6.127645666666667,0,0xFF,0x12
6.127663833333333,0,0xFF,0x10
6.129621250000000,0,0x90,0x12
6.129639291666667,0,0xFF,0x12
6.129657500000000,0,0xFF,0x00
6.131610083333333,0,0x98,0x1A
6.131628125000000,0,0xFF,0x12
6.131646333333333,0,0xFF,0x10
6.133600708333334,0,0xF0,0x02
6.133618708333334,0,0x7F,0x12
6.133636916666667,0,0xFF,0x10
6.133661750000000,0,0x83,0x13
6.133679750000000,0,0xFF,0x00
6.133697958333333,0,0xFF,0xA0
6.133718541666667,0,0x03,0x13
6.133736541666667,0,0x00,0x10
6.133754625000000,0,0x0A,0x12
6.134753666666667,0,0x07,0x01
6.134771708333333,0,0x00,0x00
6.134789750000000,0,0x0A,0x01
6.134810375000000,0,0x34,0x01
6.134828375000000,0,0x00,0x81
6.134846458333334,0,0x00,0x01
6.134866708333333,0,0x87,0x01
6.134884750000000,0,0xFF,0x00
6.134902958333333,0,0xFF,0x0E
6.134923833333334,0,0x03,0x01
6.134941833333333,0,0x80,0x81
6.134959916666666,0,0x00,0x01
6.136337083333333,0,0xB0,0x12
6.136355125000000,0,0xFF,0x12
6.136373333333333,0,0xFF,0x14
6.138325791666666,0,0xB0,0x12
6.138343791666666,0,0xFF,0x12
6.138362000000000,0,0xFF,0x14
6.140312500000000,0,0xB0,0x12
6.140330500000000,0,0xFF,0x10
6.140348708333334,0,0xFF,0x14
6.142302125000000,0,0xF0,0x02
6.142320125000000,0,0x7F,0x12
6.142338333333333,0,0xFF,0x1C
6.144291833333333,0,0xB0,0x12
6.144309833333334,0,0xFF,0x12
6.144328041666666,0,0xFF,0x14
6.146283708333334,0,0xB0,0x12
6.146301750000000,0,0xFF,0x12
6.146319958333334,0,0xFF,0x16
6.148283708333333,0,0xF0,0x02
6.148301708333333,0,0x7F,0x12
6.148319916666667,0,0xFF,0x14
6.150272875000000,0,0xB0,0x13
6.150290875000000,0,0x7F,0x1A
6.150309083333333,0,0xFF,0x14
6.152262958333333,0,0x98,0x10
6.152281000000000,0,0xFF,0x02
6.152299208333333,0,0xFF,0x04
6.154250791666667,0,0x98,0x1A
6.154268833333333,0,0xFF,0x12
6.154287041666667,0,0xFF,0x00
6.156239541666666,0,0xF0,0x02
6.156257541666666,0,0x7F,0x12
6.156275750000000,0,0xFF,0x14
6.158236208333333,0,0xB0,0x13
6.158254208333333,0,0xFF,0x18
6.158272416666667,0,0xFF,0x1E
6.160228875000000,0,0xB0,0x12
6.160246916666667,0,0xFF,0x13
6.160265125000000,0,0xFF,0x14
6.162221833333334,0,0xB0,0x12
6.162239833333333,0,0xFF,0x18
6.162258041666667,0,0xFF,0x16
6.164218375000000,0,0xB0,0x12
6.164236416666666,0,0xFF,0x12
6.164254625000000,0,0xFF,0x14
6.166209541666666,0,0xB0,0x12
6.166227583333334,0,0xFF,0x10
6.166245791666666,0,0xFF,0x1C
6.166270625000000,0,0x83,0x12
6.166288625000000,0,0xFF,0x00
6.166306833333334,0,0xFF,0x88
6.166327416666666,0,0x03,0x13
6.166345416666666,0,0x80,0x1A
6.166363500000000,0,0x30,0x12
6.166551458333333,0,0x07,0x01
6.166569458333333,0,0x00,0x01
6.166587541666667,0,0x32,0x01
6.166608125000000,0,0x1C,0x01
6.166626166666667,0,0x80,0x01
6.166644250000000,0,0x80,0x00
6.166664458333333,0,0x07,0x81
6.166682500000000,0,0xFF,0x00
6.166700708333333,0,0xFF,0x30
6.166721583333334,0,0x07,0x01
6.166739625000000,0,0x00,0x01
6.166757708333333,0,0xB3,0x01
6.168204166666666,0,0xB0,0x12
6.168222166666666,0,0xFF,0x10
6.168240375000000,0,0xFF,0x04
6.170193958333333,0,0x98,0x10
6.170212000000000,0,0xFF,0x02
6.170230208333333,0,0xFF,0x00
6.172182416666667,0,0xB0,0x13
6.172200416666667,0,0x7F,0x1A
6.172218625000000,0,0xFF,0x04
6.174174791666666,0,0xB0,0x12
6.174192833333334,0,0xFF,0x12
6.174211041666666,0,0xFF,0x04
6.176161875000000,0,0x98,0x1A
6.176179916666666,0,0xFF,0x12
6.176198125000000,0,0xFF,0x04
6.178149958333333,0,0xB0,0x12
6.178168000000000,0,0xFF,0x12
6.178186208333333,0,0xFF,0x04
6.180144250000000,0,0xB0,0x12
6.180162291666667,0,0xFF,0x12
6.180180500000000,0,0xFF,0x04
6.182135250000000,0,0xB0,0x12
6.182153291666666,0,0xFF,0x12
6.182171500000000,0,0xFF,0x04
6.184123750000000,0,0xB0,0x13
6.184141750000000,0,0xFF,0x10
6.184159958333334,0,0xFF,0x06
6.186113791666667,0,0x98,0x1A
6.186131833333333,0,0xFF,0x12
6.186150041666667,0,0xFF,0x04
6.188101791666667,0,0xB0,0x13
6.188119791666667,0,0x7F,0x1A
6.188138000000000,0,0xFF,0x04
6.190094625000000,0,0xF0,0x12
6.190112666666667,0,0xFF,0x13
6.190130875000000,0,0xFF,0x04
6.192082291666667,0,0x98,0x10
6.192100333333333,0,0xFF,0x02
6.192118541666667,0,0xFF,0x00
6.194076583333334,0,0xB0,0x12
6.194094625000000,0,0xFF,0x13
6.194112833333334,0,0xFF,0x04
6.196066416666667,0,0xB0,0x12
6.196084458333333,0,0xFF,0x13
6.196102666666667,0,0xFF,0x04
6.198060583333334,0,0xF0,0x02
6.198078583333333,0,0x7F,0x12
6.198096833333333,0,0xFF,0x04
6.198121625000000,0,0xC7,0x12
6.198139666666667,0,0xFF,0x00
6.198157875000000,0,0xFF,0xB3
6.198178416666667,0,0x07,0x12
6.198196458333333,0,0x00,0x12
6.198214500000000,0,0x14,0x12
6.198350000000000,0,0x07,0x01
6.198368000000000,0,0x00,0x01
6.198386083333333,0,0x14,0x01
6.198406666666667,0,0x34,0x81
6.198424708333333,0,0x80,0x01
6.198442791666666,0,0xC0,0x01
6.198463041666667,0,0xC7,0x01
6.198481083333333,0,0xFF,0x00
6.198499291666667,0,0xFF,0x14
6.198520166666666,0,0x07,0x01
6.198538166666666,0,0x00,0x01
6.198556250000000,0,0x96,0x01
6.200059083333334,0,0xB0,0x13
6.200077083333333,0,0x7F,0x1A
6.200095291666667,0,0xFF,0x08
6.202056125000000,0,0xF0,0x02
6.202074125000000,0,0x7F,0x12
6.202092333333334,0,0xFF,0x08
6.204050166666667,0,0xB0,0x12
6.204068208333333,0,0xFF,0x13
6.204086416666667,0,0xFF,0x08
6.206039041666667,0,0x90,0x12
6.206057083333334,0,0xFF,0x12
6.206075291666667,0,0xFF,0x08
6.208037708333333,0,0xF0,0x12
6.208055708333333,0,0x7F,0x12
6.208073916666667,0,0xFF,0x08
6.210030458333334,0,0xB0,0x12
6.210048500000000,0,0xFF,0x10
6.210066708333334,0,0xFF,0x08
6.212019041666666,0,0x90,0x12
6.212037083333334,0,0xFF,0x12
6.212055291666666,0,0xFF,0x08
6.214013333333333,0,0xB0,0x12
6.214031375000000,0,0xFF,0x12
6.214049583333333,0,0xFF,0x08
6.216000875000000,0,0x98,0x10
6.216018916666667,0,0xFF,0x12
6.216037125000000,0,0xFF,0x08
6.217989041666667,0,0x98,0x1A
6.218007083333333,0,0xFF,0x12
6.218025291666667,0,0xFF,0x08
6.219978625000000,0,0xB0,0x12
6.219996666666667,0,0xFF,0x12
6.220014875000000,0,0xFF,0x08
6.221966416666667,0,0xB0,0x12
6.221984458333333,0,0xFF,0x12
6.222002666666667,0,0xFF,0x0C
6.223960708333333,0,0xF0,0x12
6.223978750000000,0,0xFF,0x13
6.223996958333333,0,0xFF,0x08
6.225952000000000,0,0x98,0x1A
6.225970041666667,0,0xFF,0x12
6.225988250000000,0,0xFF,0x08
6.227942666666666,0,0x98,0x10
6.227960708333334,0,0xFF,0x02
6.227978916666666,0,0xFF,0x08
6.229935333333334,0,0x98,0x1A
6.229953375000000,0,0xFF,0x12
6.229971583333334,0,0xFF,0x08
6.229996375000000,0,0x87,0x1A
6.230014416666667,0,0xFF,0x00
6.230032625000000,0,0xFF,0x94
6.230053166666667,0,0x87,0x12
6.230071208333333,0,0x00,0x12
6.230089291666666,0,0x3C,0x02
6.230151041666667,0,0x07,0x01
6.230169083333333,0,0x00,0x00
6.230187125000000,0,0x1C,0x01
6.230207750000000,0,0x30,0x01
6.230225750000000,0,0x00,0x81
6.230243833333334,0,0x80,0x01
6.230264083333333,0,0x87,0x01
6.230282125000000,0,0xFF,0x00
6.230300333333333,0,0xFF,0x3C
6.230321208333334,0,0x03,0x00
6.230339208333334,0,0x80,0x01
6.230357291666667,0,0xBE,0x01
6.231929750000000,0,0xB0,0x13
6.231947750000000,0,0x7F,0x1A
6.231965958333333,0,0xFF,0x18
6.233917625000000,0,0xF0,0x12
6.233935666666667,0,0xFF,0x13
6.233953875000000,0,0xFF,0x18
6.235907416666667,0,0x98,0x10
6.235925458333333,0,0xFF,0x12
6.235943666666667,0,0xFF,0x18
6.237900958333333,0,0xB0,0x12
6.237919000000000,0,0xFF,0x02
6.237937208333333,0,0xFF,0x0C
6.239897166666666,0,0xB0,0x12
6.239915208333334,0,0xFF,0x12
6.239933416666666,0,0xFF,0x18
6.241888791666667,0,0xB0,0x12
6.241906791666667,0,0xFF,0x10
6.241925000000000,0,0xFF,0x18
6.243882458333333,0,0x90,0x12
6.243900500000000,0,0xFF,0x02
6.243918708333333,0,0xFF,0x0C
6.245880750000000,0,0xF0,0x02
6.245898750000000,0,0x7F,0x12
6.245916958333333,0,0xFF,0x18
6.247879791666667,0,0xF0,0x02
6.247897791666666,0,0x7F,0x12
6.247916000000000,0,0xFF,0x18
6.249873791666666,0,0x98,0x10
6.249891833333334,0,0xFF,0x12
6.249910041666666,0,0xFF,0x18
6.251863083333333,0,0xF0,0x02
6.251881083333333,0,0x7F,0x12
6.251899291666667,0,0xFF,0x18
6.253852708333334,0,0x98,0x10
6.253870750000000,0,0xFF,0x02
6.253888958333333,0,0xFF,0x18
6.255846750000000,0,0xB0,0x13
6.255864750000000,0,0x7F,0x1A
6.255882958333333,0,0xFF,0x18
6.257835666666667,0,0xF0,0x02
6.257853708333333,0,0xFF,0x12
6.257871916666667,0,0xFF,0x18
6.259825708333334,0,0xF0,0x02
6.259843708333333,0,0x7F,0x12
6.259861916666667,0,0xFF,0x18
6.261815291666666,0,0x98,0x10
6.261833333333334,0,0xFF,0x02
6.261851541666666,0,0xFF,0x18
6.261876333333333,0,0x87,0x10
6.261894375000000,0,0xFF,0x00
6.261912583333333,0,0xFF,0xBC
6.261933125000000,0,0x07,0x10
6.261951333333333,0,0x00,0x10
6.261969416666667,0,0x1E,0x12
6.262945875000000,0,0x07,0x01
6.262963916666667,0,0x00,0x01
6.262982000000000,0,0x1E,0x01
6.263002583333333,0,0x34,0x01
6.263020625000000,0,0x80,0x01
6.263038708333333,0,0xC0,0x01
6.263058958333334,0,0x83,0x01
6.263076958333333,0,0xFF,0x00
6.263095166666667,0,0xFF,0x1E
6.263116041666667,0,0x87,0x01
6.263134083333333,0,0x00,0x01
6.263152166666667,0,0xDE,0x01
6.264573500000000,0,0x18,0x1A
6.264591541666666,0,0xFF,0x12
6.264609750000000,0,0xFF,0x1C
6.266567541666666,0,0xF0,0x12
6.266585541666666,0,0x7F,0x12
6.266603750000000,0,0xFF,0x1C
6.268566625000000,0,0xB0,0x12
6.268584666666666,0,0xFF,0x12
6.268602875000000,0,0xFF,0x1C
6.270555833333334,0,0xB0,0x12
6.270573875000000,0,0xFF,0x12
6.270592083333334,0,0xFF,0x1C
6.272555541666667,0,0xF0,0x12
6.272573583333333,0,0xFF,0x13
6.272591791666667,0,0xFF,0x1C
6.274543125000000,0,0x98,0x10
6.274561166666667,0,0xFF,0x02
6.274579375000000,0,0xFF,0x0C
6.276531625000000,0,0x90,0x12
6.276549666666667,0,0xFF,0x12
6.276567875000000,0,0xFF,0x1C
6.278519250000000,0,0xB0,0x12
6.278537291666667,0,0xFF,0x12
6.278555500000000,0,0xFF,0x1C
6.280519125000000,0,0x98,0x1A
6.280537166666667,0,0xFF,0x12
6.280555375000000,0,0xFF,0x1C
6.282518791666667,0,0x90,0x12
6.282536833333333,0,0xFF,0x02
6.282555041666667,0,0xFF,0x0C
6.284507166666667,0,0x98,0x1A
6.284525208333333,0,0xFF,0x12
6.284543416666667,0,0xFF,0x1C
6.286498666666667,0,0xB0,0x12
6.286516708333333,0,0xFF,0x02
6.286534916666667,0,0xFF,0x1C
6.288488833333333,0,0xB0,0x12
6.288506875000000,0,0xFF,0x12
6.288525083333333,0,0xFF,0x1C
6.290488791666666,0,0x90,0x12
6.290506833333334,0,0xFF,0x02
6.290525041666666,0,0xFF,0x0C
6.292480166666667,0,0xB0,0x13
6.292498166666666,0,0x7F,0x12
6.292516375000000,0,0xFF,0x1C
6.294472333333333,0,0xB0,0x12
6.294490375000000,0,0xFF,0x12
6.294508583333333,0,0xFF,0x1C
6.294533375000000,0,0x87,0x12
6.294551416666667,0,0xFF,0x00
6.294569625000000,0,0xFF,0x8E
6.294590166666667,0,0x07,0x10
6.294608208333333,0,0x00,0x12
6.294626291666667,0,0x02,0x12
6.294746875000000,0,0x07,0x01
6.294764916666667,0,0x00,0x01
6.294783000000000,0,0x02,0x01
6.294803583333334,0,0x1C,0x01
6.294821625000000,0,0xC0,0x01
6.294839708333333,0,0x80,0x00
6.294859916666667,0,0x07,0x81
6.294877958333333,0,0xFF,0x00
6.294896166666667,0,0xFF,0x46
6.294917041666666,0,0x07,0x01
6.294935083333334,0,0x00,0x01
6.294953166666667,0,0xC2,0x01
6.296464208333333,0,0x98,0x10
6.296482250000000,0,0xFF,0x12
6.296500458333333,0,0xFF,0x0C
6.298454666666666,0,0xF0,0x02
6.298472666666667,0,0x7F,0x12
6.298490875000000,0,0xFF,0x0C
6.300447416666667,0,0xF0,0x12
6.300465458333333,0,0xFF,0x12
6.300483625000000,0,0xFF,0x0C
6.302435625000000,0,0x98,0x10
6.302453666666667,0,0xFF,0x02
6.302471875000000,0,0xFF,0x0C
6.304428750000000,0,0xF0,0x02
6.304446750000000,0,0x7F,0x12
6.304465000000000,0,0xFF,0x0C
6.306422875000000,0,0xB0,0x12
6.306440916666666,0,0xFF,0x10
6.306459125000000,0,0xFF,0x0E
6.308423250000000,0,0x98,0x1A
6.308441291666667,0,0xFF,0x12
6.308459500000000,0,0xFF,0x0E
6.310412416666667,0,0x98,0x1A
6.310430458333333,0,0xFF,0x12
6.310448666666667,0,0xFF,0x0C
6.312402458333334,0,0x98,0x1A
6.312420500000000,0,0xFF,0x12
6.312438708333334,0,0xFF,0x0C
6.314393083333333,0,0x98,0x1A
6.314411125000000,0,0xFF,0x12
6.314429333333333,0,0xFF,0x0C
6.316387041666666,0,0xB0,0x12
6.316405083333334,0,0xFF,0x18
6.316423291666666,0,0xFF,0x04
6.318383375000000,0,0xF0,0x12
6.318401416666667,0,0xFF,0x13
6.318419625000000,0,0xFF,0x0C
6.320377375000000,0,0xB0,0x12
6.320395416666667,0,0xFF,0x12
6.320413625000000,0,0xFF,0x0C
6.322370750000000,0,0xF0,0x12
6.322388791666667,0,0xFF,0x13
6.322407000000000,0,0xFF,0x0C
6.324362916666667,0,0x98,0x10
6.324380958333333,0,0xFF,0x12
6.324399166666667,0,0xFF,0x0C
6.326354458333333,0,0xB0,0x12
6.326372500000000,0,0xFF,0x12
6.326390708333333,0,0xFF,0x0C
6.326415500000000,0,0x87,0x10
6.326433541666667,0,0xFF,0x00
6.326451750000000,0,0xFF,0xC6
6.326472291666667,0,0x87,0x1A
6.326490333333333,0,0x00,0x12
6.326508416666667,0,0x00,0x12
6.326547916666667,0,0x07,0x01
6.326565958333333,0,0x00,0x01
6.326584041666667,0,0x00,0x01
6.326604625000000,0,0x14,0x01
6.326622666666666,0,0x80,0x01
6.326640750000000,0,0xC0,0x01
6.326661000000000,0,0x83,0x00
6.326679000000000,0,0xFF,0x00
6.326697208333333,0,0xFF,0x00
6.326718083333334,0,0x07,0x01
6.326736125000000,0,0x00,0x01
6.326754208333333,0,0x80,0x00
6.328341500000000,0,0xF0,0x02
6.328359500000000,0,0x7F,0x12
6.328377708333333,0,0xFF,0x00
6.330338208333333,0,0x98,0x1A
6.330356250000000,0,0xFF,0x12
6.330374458333333,0,0xFF,0x00
6.332326208333333,0,0xB0,0x12
6.332344250000000,0,0xFF,0x12
6.332362458333334,0,0xFF,0x00
6.334318208333333,0,0xB0,0x12
6.334336250000000,0,0xFF,0x02
6.334354458333333,0,0xFF,0x00
6.336307500000000,0,0x98,0x10
6.336325541666667,0,0xFF,0x12
6.336343750000000,0,0xFF,0x00
6.338295583333333,0,0xB0,0x12
6.338313583333333,0,0x7F,0x12
6.338331791666667,0,0xFF,0x00
6.340292916666667,0,0xB0,0x12
6.340310958333333,0,0xFF,0x12
6.340329166666667,0,0xFF,0x00
6.342285333333334,0,0x98,0x10
6.342303375000000,0,0xFF,0x02
6.342321583333334,0,0xFF,0x00
6.344279916666666,0,0xB0,0x12
6.344297958333334,0,0xFF,0x12
6.344316166666666,0,0xFF,0x00
6.346274583333333,0,0xB0,0x12
6.346292625000000,0,0xFF,0x12
6.346310833333333,0,0xFF,0x00
6.348265750000000,0,0xF0,0x02
6.348283750000000,0,0x7F,0x12
6.348301958333334,0,0xFF,0x00
6.350258000000000,0,0x98,0x10
6.350276041666667,0,0xFF,0x12
6.350294250000000,0,0xFF,0x00
6.352249791666667,0,0xB0,0x12
6.352267833333333,0,0xFF,0x12
6.352286041666667,0,0xFF,0x00
6.354240583333334,0,0xB0,0x13
6.354258583333333,0,0x7F,0x12
6.354276791666667,0,0xFF,0x00
6.356236750000000,0,0xF0,0x02
6.356254791666666,0,0xFF,0x12
6.356273000000000,0,0xFF,0x00
6.358229041666666,0,0x90,0x12
6.358247083333334,0,0xFF,0x12
6.358265291666667,0,0xFF,0x00
6.358290083333333,0,0x83,0x12
6.358308125000000,0,0xFF,0x00
6.358326333333333,0,0xFF,0x80
6.358349125000000,0,0x07,0x12
6.358367166666667,0,0x00,0x12
6.358385208333333,0,0x28,0x12
6.359341833333334,0,0x07,0x01
6.359359875000000,0,0x00,0x01
6.359377958333333,0,0x28,0x01
6.359398541666667,0,0x36,0x01
6.359416583333333,0,0x80,0x01
6.359434625000000,0,0x00,0x81
6.359454875000000,0,0x07,0x01
6.359472916666666,0,0xFF,0x00
6.359491125000000,0,0xFF,0x28
6.359512000000000,0,0x07,0x01
6.359530041666667,0,0x00,0x01
6.359548125000000,0,0xFC,0x01
6.360927833333333,0,0xB0,0x12
6.360945875000000,0,0xFF,0x13
6.360964083333333,0,0xFF,0x10
6.362916583333333,0,0xF0,0x12
6.362934583333334,0,0x7F,0x12
6.362952791666666,0,0xFF,0x10
6.364911750000000,0,0x98,0x1A
6.364929791666667,0,0xFF,0x12
6.364948000000000,0,0xFF,0x10
6.366903666666667,0,0xB0,0x13
6.366921666666666,0,0x7F,0x12
6.366939875000000,0,0xFF,0x18
6.368892583333333,0,0xB8,0x10
6.368910625000000,0,0xFF,0x02
6.368928833333333,0,0xFF,0x10
6.370886166666667,0,0xF0,0x02
6.370904166666667,0,0x7F,0x12
6.370922375000000,0,0xFF,0x10
6.372874500000000,0,0x98,0x10
6.372892541666666,0,0xFF,0x12
6.372910750000000,0,0xFF,0x10
6.374862750000000,0,0xB0,0x12
6.374880791666667,0,0xFF,0x12
6.374899000000000,0,0xFF,0x00
6.376852791666667,0,0xF0,0x12
6.376870791666667,0,0x7F,0x12
6.376889000000000,0,0xFF,0x10
6.378841083333334,0,0xB0,0x12
6.378859083333333,0,0x7F,0x12
6.378877291666667,0,0xFF,0x18
6.380839958333334,0,0x98,0x1A
6.380858000000000,0,0xFF,0x12
6.380876208333333,0,0xFF,0x10
6.382830333333334,0,0xB0,0x12
6.382848375000000,0,0xFF,0x12
6.382866583333334,0,0xFF,0x10
6.384820750000000,0,0x90,0x12
6.384838791666667,0,0xFF,0x12
6.384857000000000,0,0xFF,0x10
6.386812166666667,0,0xF0,0x12
6.386830208333333,0,0xFF,0x12
6.386848375000000,0,0xFF,0x10
6.388801958333334,0,0x98,0x10
6.388820000000000,0,0xFF,0x02
6.388838208333333,0,0xFF,0x00
6.390793541666667,0,0xB0,0x13
6.390811541666666,0,0xFF,0x10
6.390829750000000,0,0xFF,0x10
6.390854541666667,0,0x87,0x12
6.390872583333334,0,0xFF,0x00
6.390890791666667,0,0xFF,0xA8
6.390911333333333,0,0x87,0x12
6.390929375000000,0,0x00,0x12
6.390947458333334,0,0x0E,0x02
6.391141875000000,0,0x07,0x01
6.391159916666667,0,0x00,0x00
6.391177958333333,0,0x0A,0x01
6.391198583333333,0,0x34,0x01
6.391216625000000,0,0x80,0x00
6.391234666666667,0,0x00,0x01
6.391254916666667,0,0x87,0x01
6.391272958333333,0,0xFF,0x00
6.391291166666667,0,0xFF,0x0A
6.391312041666667,0,0x07,0x01
6.391330041666667,0,0x80,0x81
6.391348125000000,0,0x80,0x01
6.392782541666667,0,0xB0,0x12
6.392800583333333,0,0xFF,0x12
6.392818791666667,0,0xFF,0x10
6.394781791666666,0,0xB0,0x13
6.394799791666666,0,0xFF,0x1A
6.394818000000000,0,0xFF,0x1C
6.396780541666667,0,0x90,0x12
6.396798583333333,0,0xFF,0x12
6.396816791666667,0,0xFF,0x14
6.398768125000000,0,0xB0,0x12
6.398786166666667,0,0xFF,0x12
6.398804375000000,0,0xFF,0x16
6.400764375000000,0,0xB0,0x12
6.400782375000000,0,0x7F,0x12
6.400800583333333,0,0xFF,0x1C
6.402753875000000,0,0xB0,0x13
6.402771875000000,0,0x7F,0x1A
6.402790083333334,0,0xFF,0x1C
6.404746416666667,0,0xB0,0x12
6.404764458333333,0,0xFF,0x13
6.404782666666667,0,0xFF,0x14
6.406741083333333,0,0xB0,0x13
6.406759083333333,0,0x7F,0x1A
6.406777291666667,0,0xFF,0x1C
6.408731625000000,0,0x98,0x10
6.408749666666667,0,0xFF,0x02
6.408767875000000,0,0xFF,0x00
6.410727333333333,0,0xF0,0x12
6.410745375000000,0,0xFF,0x13
6.410763583333333,0,0xFF,0x14
6.412721083333333,0,0xF0,0x02
6.412739083333333,0,0x7F,0x12
6.412757291666667,0,0xFF,0x1C
6.414708916666667,0,0xB0,0x12
6.414726958333334,0,0xFF,0x12
6.414745166666667,0,0xFF,0x14
6.416700208333333,0,0x98,0x10
6.416718250000000,0,0xFF,0x02
6.416736458333333,0,0xFF,0x04
6.418696166666667,0,0xB0,0x13
6.418714166666667,0,0xFF,0x1A
6.418732375000000,0,0xFF,0x1C
6.420696000000000,0,0xB0,0x12
6.420714041666667,0,0xFF,0x13
6.420732250000000,0,0xFF,0x14
6.422691666666666,0,0x98,0x10
6.422709708333334,0,0xFF,0x12
6.422727916666667,0,0xFF,0x14
6.422752708333333,0,0x87,0x10
6.422770750000000,0,0xFF,0x00
6.422788958333333,0,0xFF,0x8E
6.422809500000000,0,0x07,0x12
6.422827541666667,0,0x00,0x02
6.422845583333333,0,0x33,0x12
6.422941416666666,0,0x07,0x01
6.422959458333334,0,0x00,0x01
6.422977500000000,0,0x1A,0x01
6.422998125000000,0,0x30,0x01
6.423016125000000,0,0x00,0x81
6.423034208333333,0,0x80,0x01
6.423054458333334,0,0x87,0x01
6.423072500000000,0,0xFF,0x00
6.423090708333334,0,0xFF,0x33
6.423111583333333,0,0x03,0x00
6.423129583333333,0,0x80,0x01
6.423147666666667,0,0xB0,0x01
6.424684708333333,0,0x98,0x10
6.424702750000000,0,0xFF,0x02
6.424720958333333,0,0xFF,0x04
6.426673166666666,0,0x98,0x1A
6.426691208333334,0,0xFF,0x12
6.426709416666666,0,0xFF,0x04
6.428672083333334,0,0xB0,0x12
6.428690125000000,0,0xFF,0x02
6.428708333333334,0,0xFF,0x00
6.430659250000000,0,0xB0,0x12
6.430677291666667,0,0xFF,0x12
6.430695500000000,0,0xFF,0x04
6.432650916666667,0,0xF0,0x12
6.432668958333333,0,0xFF,0x12
6.432687166666667,0,0xFF,0x04
6.434642583333333,0,0xF0,0x02
6.434660583333334,0,0x7F,0x12
6.434678791666666,0,0xFF,0x04
6.436633083333334,0,0x98,0x1A
6.436651125000000,0,0xFF,0x12
6.436669333333334,0,0xFF,0x04
6.438631875000000,0,0xB0,0x12
6.438649916666667,0,0xFF,0x10
6.438668125000000,0,0xFF,0x04
6.440631208333333,0,0xB0,0x13
6.440649208333333,0,0x7F,0x1A
6.440667416666667,0,0xFF,0x04
6.442619833333334,0,0xF0,0x02
6.442637833333333,0,0x7F,0x12
6.442656041666667,0,0xFF,0x04
6.444610875000000,0,0x98,0x10
6.444628916666667,0,0xFF,0x12
6.444647125000000,0,0xFF,0x04
6.446600666666667,0,0xF0,0x02
6.446618666666667,0,0x7F,0x12
6.446636916666667,0,0xFF,0x04
6.448590791666667,0,0x98,0x1A
6.448608833333333,0,0xFF,0x12
6.448627041666667,0,0xFF,0x04
6.450583541666667,0,0x98,0x10
6.450601583333333,0,0xFF,0x02
6.450619791666667,0,0xFF,0x04
6.452574250000000,0,0xB0,0x12
6.452592250000000,0,0xFF,0x10
6.452610458333333,0,0xFF,0x04
6.454564041666667,0,0x98,0x18
6.454582083333333,0,0xFF,0x02
6.454600291666667,0,0xFF,0x00
6.454625083333333,0,0x87,0x12
6.454643125000000,0,0xFF,0x00
6.454661333333333,0,0xFF,0xB2
6.454681875000000,0,0x07,0x12
6.454699916666667,0,0x00,0x12
6.454717958333333,0,0x1E,0x10
6.454741875000000,0,0x03,0x01
6.454759875000000,0,0x80,0x81
6.454777958333334,0,0x1E,0x01
6.454798583333333,0,0x30,0x00
6.454816583333334,0,0x00,0x01
6.454834666666667,0,0x80,0x01
6.454854916666667,0,0xC3,0x01
6.454872916666667,0,0xFF,0x80
6.454891125000000,0,0xFF,0x14
6.454912000000000,0,0x87,0x01
6.454930041666667,0,0x00,0x01
6.454948125000000,0,0x90,0x00
6.456562541666667,0,0x30,0x12
6.456580583333333,0,0xFF,0x12
6.456598791666667,0,0xFF,0x08
6.458550750000000,0,0xB0,0x12
6.458568791666667,0,0xFF,0x12
6.458587000000000,0,0xFF,0x08
6.460539083333333,0,0xF0,0x12
6.460557083333334,0,0x7F,0x12
6.460575291666666,0,0xFF,0x08
6.462534000000000,0,0x98,0x1A
6.462552041666667,0,0xFF,0x12
6.462570250000000,0,0xFF,0x08
6.464525166666666,0,0xF0,0x12
6.464543208333334,0,0xFF,0x12
6.464561416666666,0,0xFF,0x08
6.466516708333334,0,0x98,0x10
6.466534750000000,0,0xFF,0x02
6.466552958333334,0,0xFF,0x0C
6.468504958333333,0,0xF0,0x02
6.468522958333334,0,0x7F,0x12
6.468541208333333,0,0xFF,0x08
6.470497000000000,0,0xF0,0x02
6.470515000000000,0,0x7F,0x12
6.470533208333333,0,0xFF,0x08
6.472488250000000,0,0xB0,0x12
6.472506291666667,0,0xFF,0x13
6.472524500000000,0,0xFF,0x08
6.474480500000000,0,0xF0,0x12
6.474498500000000,0,0x7F,0x12
6.474516708333334,0,0xFF,0x00
6.476468208333333,0,0xB0,0x13
6.476486208333333,0,0x7F,0x1A
6.476504416666667,0,0xFF,0x00
6.478461958333333,0,0xB0,0x12
6.478480000000000,0,0xFF,0x13
6.478498208333333,0,0xFF,0x08
6.480455541666666,0,0xF0,0x02
6.480473541666667,0,0x7F,0x12
6.480491750000000,0,0xFF,0x08
6.482447625000000,0,0x98,0x10
6.482465666666666,0,0xFF,0x02
6.482483875000000,0,0xFF,0x0C
6.484444166666667,0,0x98,0x10
6.484462208333333,0,0xFF,0x12
6.484480416666667,0,0xFF,0x08
6.486437458333334,0,0xF0,0x12
6.486455458333333,0,0x7F,0x12
6.486473666666667,0,0xFF,0x08
6.486498500000000,0,0xC3,0x02
6.486516500000000,0,0xFF,0x00
6.486534708333333,0,0xFF,0x94
6.486555500000000,0,0x07,0x10
6.486573541666667,0,0x00,0x02
6.486591625000000,0,0x3C,0x12
6.487534833333333,0,0x07,0x01
6.487552875000000,0,0x00,0x01
6.487570958333333,0,0x3C,0x00
6.487591541666666,0,0x1E,0x01
6.487609583333334,0,0xC0,0x01
6.487627666666667,0,0x80,0x00
6.487647875000000,0,0x07,0x81
6.487665916666667,0,0xFF,0x00
6.487684125000000,0,0xFF,0x3E
6.487705000000000,0,0x07,0x01
6.487723041666666,0,0x00,0x01
6.487741125000000,0,0xBC,0x00
6.489121166666667,0,0xF0,0x02
6.489139166666667,0,0x7F,0x12
6.489157375000000,0,0xFF,0x18
6.491112916666666,0,0xF0,0x02
6.491130958333334,0,0xFF,0x12
6.491149166666666,0,0xFF,0x18
6.493104541666667,0,0xB0,0x13
6.493122541666667,0,0x7F,0x1A
6.493140750000000,0,0xFF,0x18
6.495095750000000,0,0xB0,0x13
6.495113750000000,0,0x7F,0x18
6.495131958333333,0,0xFF,0x18
6.497083125000000,0,0x98,0x10
6.497101166666667,0,0xFF,0x02
6.497119375000000,0,0xFF,0x1C
6.499072291666667,0,0x98,0x10
6.499090333333333,0,0xFF,0x12
6.499108541666667,0,0xFF,0x18
