Time [s],Packet ID,MOSI,MISO
0.165913583333333,0,0x00,0x01
0.165931625000000,0,0x3F,0x01
0.165949666666667,0,0xE0,0x81
0.165969333333333,0,0x01,0x01
0.165987375000000,0,0x16,0x01
0.166005458333333,0,0xC1,0x01
0.166025041666667,0,0x82,0x01
0.166043083333333,0,0x66,0x01
0.166061166666667,0,0x03,0x01
0.166080791666667,0,0x84,0x81
0.166098833333333,0,0x1C,0x01
0.166116916666667,0,0xC9,0x01
0.166136541666667,0,0x00,0x00
0.166154541666667,0,0x66,0x01
0.166172625000000,0,0x37,0x01
0.166192291666667,0,0x03,0x00
0.166210291666667,0,0x00,0x01
0.166228375000000,0,0x00,0x01
0.166247958333333,0,0x08,0x81
0.166266000000000,0,0x6E,0x01
0.166284083333333,0,0xC0,0x01
0.166303708333333,0,0x09,0x81
0.166321750000000,0,0x40,0x01
0.166339833333333,0,0x00,0x01
0.166359416666667,0,0x0B,0x81
0.166377458333333,0,0x7F,0x01
0.166395541666667,0,0xFD,0x01
0.166415208333333,0,0x0B,0x01
0.166433208333333,0,0x00,0x01
0.166451291666667,0,0x08,0x01
0.166470875000000,0,0x0C,0x81
0.166488916666667,0,0x00,0x01
0.166507000000000,0,0x00,0x01
0.166526625000000,0,0x0C,0x81
0.166544666666667,0,0x60,0x01
0.166562750000000,0,0xFD,0x01
0.166582333333333,0,0x96,0x01
0.166600375000000,0,0x00,0x01
0.166618458333333,0,0xFF,0x01
0.166638083333333,0,0x97,0x01
0.166656125000000,0,0x80,0x01
0.166674208333333,0,0x00,0x00
0.166693791666667,0,0x18,0x01
0.166711833333333,0,0x00,0x01
0.166729916666667,0,0x67,0x01
0.166749541666667,0,0x19,0x01
0.166767583333333,0,0x02,0x01
0.166785625000000,0,0x58,0x81
0.166805250000000,0,0x18,0x01
0.166823291666667,0,0x0D,0x01
0.166841333333333,0,0xE0,0x81
0.166861000000000,0,0x19,0x01
0.166879041666667,0,0x03,0x01
0.166897125000000,0,0x00,0x00
0.166916583333333,0,0x1E,0x01
0.166934625000000,0,0x0C,0x00
0.166952666666667,0,0x00,0x81
0.166972333333333,0,0x20,0x01
0.166990375000000,0,0x4C,0x00
0.167008416666667,0,0x00,0x01
0.167028041666667,0,0x21,0x01
0.167046083333333,0,0x3F,0x01
0.167064125000000,0,0xC7,0x81
0.167083791666667,0,0x00,0x01
0.167101833333333,0,0x30,0x01
0.167119916666667,0,0x00,0x00
0.167139500000000,0,0x01,0x01
0.167157541666667,0,0x03,0x01
0.167175625000000,0,0x00,0x00
0.167195250000000,0,0x04,0x01
0.167213291666667,0,0x22,0x01
0.167231375000000,0,0x00,0x00
0.167250958333333,0,0x07,0x01
0.167269000000000,0,0x06,0x01
0.167287083333333,0,0x8C,0x00
0.167306708333333,0,0x06,0x01
0.167324750000000,0,0x1A,0x01
0.167342833333333,0,0x4F,0x00
0.167362416666667,0,0x07,0x01
0.167380458333333,0,0x00,0x01
0.167398541666667,0,0x33,0x00
0.167418166666667,0,0xA8,0x01
0.167436208333333,0,0x46,0x01
0.167454291666667,0,0x01,0x01
0.167473875000000,0,0xA9,0x81
0.167491916666667,0,0xB0,0x01
0.167510000000000,0,0x00,0x01
0.167529625000000,0,0x2B,0x81
0.167547666666667,0,0xFF,0x01
0.167565750000000,0,0xF0,0x01
0.167585333333333,0,0x2B,0x01
0.167603375000000,0,0x00,0x01
0.167621458333333,0,0x0F,0x00
0.167641083333333,0,0x92,0x01
0.167659125000000,0,0x00,0x01
0.167677208333333,0,0x00,0x01
0.178831375000000,0,0xA0,0x01
0.178849416666667,0,0xFF,0x20
0.178867625000000,0,0xFF,0x00
0.178887583333333,0,0xE8,0x01
0.178905625000000,0,0xFF,0x44
0.178923791666667,0,0xFF,0x01
0.193740500000000,0,0x30,0x01
0.193758500000000,0,0x00,0x01
0.193776583333333,0,0x80,0x01
0.193796791666667,0,0xC3,0x01
0.193814791666667,0,0xFF,0x80
0.193833000000000,0,0xFF,0x00
0.193853875000000,0,0x87,0x01
0.193871916666667,0,0x00,0x01
0.193890000000000,0,0xFE,0x01
0.193924916666667,0,0xF0,0x03
0.193942916666667,0,0x7F,0x83
0.193961125000000,0,0xFF,0x94
0.196727416666667,0,0xF0,0x12
0.196745458333333,0,0xFF,0x13
0.196763666666667,0,0xFF,0x14
0.198715083333333,0,0xF0,0x02
0.198733083333333,0,0x7F,0x12
0.198751291666667,0,0xFF,0x14
0.200702791666667,0,0xB0,0x12
0.200720833333333,0,0xFF,0x12
0.200739041666667,0,0xFF,0x14
0.202690541666667,0,0xB0,0x12
0.202708583333333,0,0xFF,0x02
0.202726791666667,0,0xFF,0x04
0.204678375000000,0,0xF0,0x12
0.204696375000000,0,0x7F,0x12
0.204714583333333,0,0xFF,0x14
0.206666458333333,0,0xB0,0x12
0.206684500000000,0,0xFF,0x1A
0.206702708333333,0,0xFF,0x14
0.208654333333333,0,0xB0,0x12
0.208672375000000,0,0xFF,0x12
0.208690583333333,0,0xFF,0x14
0.210641708333333,0,0x98,0x10
0.210659750000000,0,0xFF,0x12
0.210677958333333,0,0xFF,0x14
0.212629750000000,0,0xB0,0x12
0.212647791666667,0,0xFF,0x10
0.212666000000000,0,0xFF,0x16
0.214617583333333,0,0x98,0x10
0.214635625000000,0,0xFF,0x02
0.214653833333333,0,0xFF,0x14
0.216605083333333,0,0xF0,0x02
0.216623083333333,0,0x7F,0x12
0.216641333333333,0,0xFF,0x14
0.218592833333333,0,0xB0,0x12
0.218610875000000,0,0xFF,0x10
0.218629083333333,0,0xFF,0x16
0.220580500000000,0,0xB0,0x12
0.220598541666667,0,0xFF,0x12
0.220616750000000,0,0xFF,0x10
0.222568125000000,0,0x90,0x12
0.222586166666667,0,0xFF,0x12
0.222604375000000,0,0xFF,0x14
0.224556041666667,0,0x98,0x10
0.224574083333333,0,0xFF,0x02
0.224592291666667,0,0xFF,0x00
0.224617083333333,0,0x87,0x12
0.224635125000000,0,0xFF,0x00
0.224653333333333,0,0xFF,0xBE
0.224673875000000,0,0x07,0x10
0.224691916666667,0,0x00,0x12
0.224710000000000,0,0x3C,0x12
0.225539791666667,0,0x03,0x01
0.225557791666667,0,0x80,0x81
0.225575875000000,0,0x00,0x01
0.225596500000000,0,0x30,0x01
0.225614500000000,0,0x00,0x01
0.225632583333333,0,0x80,0x01
0.225652833333333,0,0xC7,0x01
0.225670833333333,0,0xFF,0x80
0.225689041666667,0,0xFF,0x28
0.225709916666667,0,0x87,0x01
0.225727958333333,0,0x00,0x01
0.225746041666667,0,0xFC,0x01
0.226543416666667,0,0x98,0x10
0.226561458333333,0,0xFF,0x02
0.226579666666667,0,0xFF,0x10
0.228531416666667,0,0xF0,0x02
0.228549458333333,0,0xFF,0x13
0.228567666666667,0,0xFF,0x10
0.230519250000000,0,0xB0,0x12
0.230537291666667,0,0xFF,0x12
0.230555500000000,0,0xFF,0x00
0.232507083333333,0,0x98,0x10
0.232525125000000,0,0xFF,0x12
0.232543333333333,0,0xFF,0x10
0.234494791666667,0,0xB0,0x12
0.234512791666667,0,0x7F,0x12
0.234531000000000,0,0xFF,0x10
0.236482583333333,0,0xF0,0x02
0.236500583333333,0,0x7F,0x12
0.236518791666667,0,0xFF,0x10
0.238470583333333,0,0x98,0x1A
0.238488625000000,0,0xFF,0x12
0.238506833333333,0,0xFF,0x10
0.240458458333333,0,0xF0,0x12
0.240476458333333,0,0x7F,0x12
0.240494666666667,0,0xFF,0x10
0.242446625000000,0,0xF0,0x02
0.242464666666667,0,0xFF,0x13
0.242482875000000,0,0xFF,0x10
0.244434458333333,0,0x98,0x10
0.244452500000000,0,0xFF,0x12
0.244470708333333,0,0xFF,0x10
0.246422208333333,0,0xB0,0x12
0.246440250000000,0,0xFF,0x12
0.246458458333333,0,0xFF,0x10
0.248410208333333,0,0xF0,0x02
0.248428250000000,0,0xFF,0x12
0.248446458333333,0,0xFF,0x10
0.250397875000000,0,0x98,0x10
0.250415916666667,0,0xFF,0x02
0.250434125000000,0,0xFF,0x00
0.252385416666667,0,0xF0,0x02
0.252403416666667,0,0x7F,0x12
0.252421625000000,0,0xFF,0x10
0.254373041666667,0,0x98,0x10
0.254391083333333,0,0xFF,0x02
0.254409291666667,0,0xFF,0x00
0.256360625000000,0,0x98,0x1A
0.256378666666667,0,0xFF,0x12
0.256396875000000,0,0xFF,0x10
0.256421666666667,0,0x87,0x12
0.256439708333333,0,0xFF,0x00
0.256457916666667,0,0xFF,0xA8
0.256478458333333,0,0x87,0x12
0.256496500000000,0,0x00,0x10
0.256514583333333,0,0x0A,0x12
0.257344333333333,0,0x07,0x01
0.257362375000000,0,0x00,0x01
0.257380458333333,0,0x0E,0x01
0.257401041666667,0,0x1E,0x01
0.257419083333333,0,0xC0,0x01
0.257437166666667,0,0x80,0x01
0.257457375000000,0,0x07,0x01
0.257475416666667,0,0xFF,0x00
0.257493625000000,0,0xFF,0x0A
0.257514500000000,0,0x07,0x01
0.257532500000000,0,0x80,0x81
0.257550583333333,0,0x00,0x01
0.258348208333333,0,0x98,0x12
0.258366250000000,0,0xFF,0x02
0.258384458333333,0,0xFF,0x10
0.260335875000000,0,0x98,0x18
0.260353916666667,0,0xFF,0x02
0.260372125000000,0,0xFF,0x00
0.262323541666667,0,0xB0,0x12
0.262341583333333,0,0xFF,0x10
0.262359791666667,0,0xFF,0x16
0.264311208333333,0,0xB0,0x12
0.264329208333333,0,0xFF,0x1A
0.264347416666667,0,0xFF,0x1C
0.266298750000000,0,0xF0,0x12
0.266316791666667,0,0xFF,0x13
0.266335000000000,0,0xFF,0x14
0.268286333333333,0,0xF0,0x12
0.268304333333333,0,0x7F,0x12
0.268322541666667,0,0xFF,0x14
0.270274083333333,0,0xB0,0x12
0.270292083333333,0,0x7F,0x12
0.270310291666667,0,0xFF,0x14
0.272261875000000,0,0x98,0x1A
0.272279916666667,0,0xFF,0x12
0.272298125000000,0,0xFF,0x16
0.274249750000000,0,0xB0,0x12
0.274267750000000,0,0x7F,0x12
0.274285958333333,0,0xFF,0x14
0.276237625000000,0,0xB0,0x12
0.276255666666667,0,0xFF,0x02
0.276273875000000,0,0xFF,0x04
0.278225416666667,0,0x98,0x1A
0.278243458333333,0,0xFF,0x12
0.278261666666667,0,0xFF,0x14
0.280213208333333,0,0xB0,0x12
0.280231250000000,0,0xFF,0x13
0.280249458333333,0,0xFF,0x14
0.282201083333333,0,0xB0,0x12
0.282219125000000,0,0xFF,0x10
0.282237333333333,0,0xFF,0x14
0.284188791666667,0,0xF0,0x12
0.284206791666667,0,0x7F,0x12
0.284225000000000,0,0xFF,0x14
0.286176416666667,0,0xB8,0x10
0.286194458333333,0,0xFF,0x02
0.286212666666667,0,0xFF,0x04
0.288164083333333,0,0x98,0x10
0.288182125000000,0,0xFF,0x02
0.288200333333333,0,0xFF,0x14
0.288225125000000,0,0x87,0x1A
0.288243166666667,0,0xFF,0x00
0.288261375000000,0,0xFF,0x8A
0.288281916666667,0,0x87,0x12
0.288299958333333,0,0x00,0x10
0.288318041666667,0,0x32,0x12
0.289147666666667,0,0x07,0x01
0.289165708333333,0,0x00,0x01
0.289183791666667,0,0x32,0x01
0.289204375000000,0,0x1E,0x01
0.289222416666667,0,0xC0,0x01
0.289240458333333,0,0x00,0x81
0.289260708333333,0,0x07,0x01
0.289278750000000,0,0xFF,0x00
0.289296958333333,0,0xFF,0x32
0.289317833333333,0,0x07,0x01
0.289335833333333,0,0x80,0x81
0.289353916666667,0,0x18,0x01
0.290151625000000,0,0xF0,0x02
0.290169625000000,0,0x7F,0x12
0.290187875000000,0,0xFF,0x04
0.292139625000000,0,0xF0,0x02
0.292157625000000,0,0x7F,0x12
0.292175833333333,0,0xFF,0x04
0.294127458333333,0,0x98,0x1A
0.294145500000000,0,0xFF,0x12
0.294163708333333,0,0xFF,0x04
0.296115291666667,0,0xB0,0x12
0.296133333333333,0,0xFF,0x1A
0.296151541666667,0,0xFF,0x04
0.298103083333333,0,0x90,0x12
0.298121125000000,0,0xFF,0x12
0.298139333333333,0,0xFF,0x04
0.300090833333333,0,0xB8,0x10
0.300108875000000,0,0xFF,0x02
0.300127083333333,0,0xFF,0x04
0.302078583333333,0,0x98,0x1A
0.302096625000000,0,0xFF,0x12
0.302114833333333,0,0xFF,0x04
0.304066291666667,0,0xF0,0x02
0.304084291666667,0,0x7F,0x12
0.304102500000000,0,0xFF,0x04
0.306053833333333,0,0xB0,0x12
0.306071875000000,0,0xFF,0x13
0.306090083333333,0,0xFF,0x04
0.308041375000000,0,0xB0,0x12
0.308059416666667,0,0xFF,0x12
0.308077625000000,0,0xFF,0x00
0.310028875000000,0,0xB0,0x13
0.310046875000000,0,0xFF,0x1A
0.310065083333333,0,0xFF,0x04
0.312016541666667,0,0x98,0x10
0.312034583333333,0,0xFF,0x02
0.312052791666667,0,0xFF,0x00
0.314004000000000,0,0xF0,0x12
0.314022041666667,0,0xFF,0x13
0.314040250000000,0,0xFF,0x04
0.315991458333333,0,0xB0,0x12
0.316009500000000,0,0xFF,0x12
0.316027708333333,0,0xFF,0x04
0.317979041666667,0,0x98,0x10
0.317997083333333,0,0xFF,0x02
0.318015291666667,0,0xFF,0x04
0.319966791666667,0,0xB0,0x12
0.319984833333333,0,0xFF,0x10
0.320003041666667,0,0xFF,0x06
0.320027875000000,0,0x87,0x12
0.320045875000000,0,0xFF,0x00
0.320064083333333,0,0xFF,0xB0
0.320084666666667,0,0x03,0x12
0.320102666666667,0,0x80,0x12
0.320120750000000,0,0x1E,0x10
0.320950541666667,0,0x03,0x00
0.320968541666667,0,0x00,0x01
0.320986625000000,0,0x16,0x01
0.321007250000000,0,0x30,0x00
0.321025250000000,0,0x00,0x01
0.321043333333333,0,0x80,0x01
0.321063583333333,0,0xC3,0x01
0.321081583333333,0,0xFF,0x80
0.321099791666667,0,0xFF,0x14
0.321120666666667,0,0x87,0x01
0.321138708333333,0,0x00,0x01
0.321156791666667,0,0xC4,0x01
0.321954166666667,0,0xF0,0x02
0.321972166666667,0,0x7F,0x12
0.321990375000000,0,0xFF,0x08
0.323941583333333,0,0xB0,0x12
0.323959625000000,0,0xFF,0x10
0.323977833333333,0,0xFF,0x08
0.325929166666667,0,0xF0,0x12
0.325947208333333,0,0xFF,0x13
0.325965416666667,0,0xFF,0x08
0.327916708333333,0,0x98,0x10
0.327934750000000,0,0xFF,0x12
0.327952958333333,0,0xFF,0x08
0.329904291666667,0,0xB0,0x13
0.329922291666667,0,0xFF,0x1A
0.329940500000000,0,0xFF,0x00
0.331892041666667,0,0xB0,0x13
0.331910041666667,0,0x7F,0x1A
0.331928250000000,0,0xFF,0x08
0.333880000000000,0,0xF0,0x02
0.333898000000000,0,0x7F,0x12
0.333916250000000,0,0xFF,0x08
0.335867250000000,0,0xF0,0x02
0.335885291666667,0,0xFF,0x12
0.335903500000000,0,0xFF,0x08
0.337854750000000,0,0xF0,0x12
0.337872791666667,0,0xFF,0x13
0.337891000000000,0,0xFF,0x08
0.339842583333333,0,0xB0,0x12
0.339860625000000,0,0xFF,0x02
0.339878833333333,0,0xFF,0x0C
0.341830125000000,0,0x98,0x1A
0.341848166666667,0,0xFF,0x12
0.341866375000000,0,0xFF,0x08
0.343817666666667,0,0xB0,0x13
0.343835666666667,0,0x7F,0x1A
0.343853875000000,0,0xFF,0x00
0.345805083333333,0,0x98,0x1A
0.345823125000000,0,0xFF,0x12
0.345841333333333,0,0xFF,0x08
0.347792250000000,0,0xB0,0x12
0.347810291666667,0,0xFF,0x12
0.347828500000000,0,0xFF,0x08
0.349779875000000,0,0x98,0x10
0.349797916666667,0,0xFF,0x02
0.349816125000000,0,0xFF,0x0C
0.351767541666667,0,0xB0,0x12
0.351785541666667,0,0xFF,0x10
0.351803750000000,0,0xFF,0x08
0.351828583333333,0,0x83,0x13
0.351846583333333,0,0xFF,0x00
0.351864791666667,0,0xFF,0x9C
0.351885375000000,0,0x03,0x12
0.351903375000000,0,0x80,0x12
0.351921458333333,0,0x1E,0x10
0.352751291666667,0,0x03,0x00
0.352769291666667,0,0x00,0x01
0.352787375000000,0,0x3E,0x01
0.352808000000000,0,0x30,0x00
0.352826000000000,0,0x00,0x01
0.352844083333333,0,0x80,0x01
0.352864333333333,0,0x87,0x01
0.352882375000000,0,0xFF,0x00
0.352900583333333,0,0xFF,0x3C
0.352921458333333,0,0x07,0x01
0.352939500000000,0,0x00,0x00
0.352957541666667,0,0x1C,0x01
0.353755166666667,0,0x18,0x1A
0.353773208333333,0,0xFF,0x12
0.353791416666667,0,0xFF,0x18
0.355742666666667,0,0xB0,0x13
0.355760666666667,0,0x7F,0x1A
0.355778875000000,0,0xFF,0x18
0.357730208333333,0,0xF0,0x12
0.357748208333333,0,0x7F,0x12
0.357766416666667,0,0xFF,0x18
0.359717875000000,0,0xF0,0x02
0.359735875000000,0,0x7F,0x12
0.359754083333333,0,0xFF,0x18
0.361705500000000,0,0xB0,0x12
0.361723541666667,0,0xFF,0x12
0.361741750000000,0,0xFF,0x1C
0.363693333333333,0,0xF0,0x12
0.363711375000000,0,0xFF,0x12
0.363729541666667,0,0xFF,0x18
0.365680666666667,0,0xF0,0x12
0.365698708333333,0,0xFF,0x13
0.365716916666667,0,0xFF,0x18
0.367668208333333,0,0xB0,0x12
0.367686250000000,0,0xFF,0x12
0.367704458333333,0,0xFF,0x18
0.369655833333333,0,0xF0,0x02
0.369673833333333,0,0x7F,0x12
0.369692041666667,0,0xFF,0x18
0.371643458333333,0,0xF0,0x13
0.371661458333333,0,0x7F,0x1A
0.371679666666667,0,0xFF,0x18
0.373631041666667,0,0xB0,0x12
0.373649083333333,0,0xFF,0x12
0.373667291666667,0,0xFF,0x18
0.375618208333333,0,0xB0,0x12
0.375636250000000,0,0xFF,0x12
0.375654458333333,0,0xFF,0x18
0.377606000000000,0,0x98,0x1A
0.377624041666667,0,0xFF,0x12
0.377642250000000,0,0xFF,0x18
0.379593458333333,0,0x90,0x12
0.379611500000000,0,0xFF,0x12
0.379629708333333,0,0xFF,0x18
0.381581083333333,0,0xB0,0x12
0.381599125000000,0,0xFF,0x12
0.381617333333333,0,0xFF,0x0C
0.383568583333333,0,0xF0,0x02
0.383586583333333,0,0x7F,0x12
0.383604791666667,0,0xFF,0x18
0.383629625000000,0,0x83,0x12
0.383647625000000,0,0xFF,0x00
0.383665833333333,0,0xFF,0xBE
0.383686416666667,0,0x07,0x12
0.383704416666667,0,0x00,0x10
0.383722500000000,0,0x0E,0x02
0.384552041666667,0,0x03,0x01
0.384570041666667,0,0x80,0x01
0.384588125000000,0,0x1E,0x01
0.384608750000000,0,0x30,0x01
0.384626750000000,0,0x00,0x01
0.384644833333333,0,0x80,0x01
0.384665083333333,0,0xC3,0x01
0.384683083333333,0,0xFF,0x00
0.384701291666667,0,0xFF,0x1E
0.384722166666667,0,0x87,0x01
0.384740208333333,0,0x00,0x01
0.384758291666667,0,0xCE,0x01
0.385556083333333,0,0xB0,0x12
0.385574083333333,0,0xFF,0x10
0.385592291666667,0,0xFF,0x1C
0.387543458333333,0,0x98,0x10
0.387561500000000,0,0xFF,0x02
0.387579708333333,0,0xFF,0x1C
0.389530541666667,0,0xB0,0x12
0.389548583333333,0,0xFF,0x12
0.389566791666667,0,0xFF,0x1C
0.391518166666667,0,0xF0,0x02
0.391536208333333,0,0xFF,0x12
0.391554416666667,0,0xFF,0x1C
0.393505541666667,0,0xB0,0x12
0.393523583333333,0,0xFF,0x10
0.393541791666667,0,0xFF,0x1E
0.395493375000000,0,0xF0,0x12
0.395511375000000,0,0x7F,0x12
0.395529583333333,0,0xFF,0x1C
0.397480958333333,0,0x98,0x10
0.397499000000000,0,0xFF,0x12
0.397517208333333,0,0xFF,0x0C
0.399468500000000,0,0xB0,0x13
0.399486500000000,0,0xFF,0x1A
0.399504708333333,0,0xFF,0x1C
0.401455916666667,0,0x98,0x1A
0.401473958333333,0,0xFF,0x12
0.401492166666667,0,0xFF,0x1C
0.403444041666667,0,0xF0,0x12
0.403462083333333,0,0xFF,0x12
0.403480291666667,0,0xFF,0x1C
0.405431625000000,0,0xB0,0x12
0.405449666666667,0,0xFF,0x10
0.405467875000000,0,0xFF,0x1C
0.407419416666667,0,0xB0,0x13
0.407437416666667,0,0x7F,0x1A
0.407455625000000,0,0xFF,0x1C
0.409407041666667,0,0xB0,0x12
0.409425083333333,0,0xFF,0x12
0.409443291666667,0,0xFF,0x0C
0.411394583333333,0,0xB0,0x12
0.411412625000000,0,0xFF,0x12
0.411430833333333,0,0xFF,0x1C
0.413382250000000,0,0xB0,0x13
0.413400250000000,0,0xFF,0x10
0.413418458333333,0,0xFF,0x1E
0.415369833333333,0,0x98,0x1A
0.415387875000000,0,0xFF,0x12
0.415406083333333,0,0xFF,0x1C
0.415430875000000,0,0x87,0x1A
0.415448916666667,0,0xFF,0x00
0.415467125000000,0,0xFF,0x9E
0.415487666666667,0,0x87,0x12
0.415505708333333,0,0x00,0x10
0.415523791666667,0,0x06,0x12
0.416353458333333,0,0x03,0x00
0.416371458333333,0,0x80,0x01
0.416389541666667,0,0x46,0x01
0.416410166666667,0,0x30,0x00
0.416428166666667,0,0x00,0x01
0.416446250000000,0,0x80,0x01
0.416466500000000,0,0x87,0x01
0.416484541666667,0,0xFF,0x00
0.416502750000000,0,0xFF,0x42
0.416523625000000,0,0x07,0x01
0.416541666666667,0,0x00,0x00
0.416559708333333,0,0x46,0x01
0.417357416666667,0,0xF0,0x02
0.417375416666667,0,0x7F,0x12
0.417393625000000,0,0xFF,0x0C
0.419345291666667,0,0x98,0x10
0.419363333333333,0,0xFF,0x02
0.419381541666667,0,0xFF,0x0C
0.421333000000000,0,0xB0,0x12
0.421351041666667,0,0xFF,0x13
0.421369250000000,0,0xFF,0x0C
0.423320541666667,0,0xF0,0x02
0.423338541666667,0,0x7F,0x12
0.423356750000000,0,0xFF,0x0C
0.425308250000000,0,0x98,0x1A
0.425326291666667,0,0xFF,0x12
0.425344500000000,0,0xFF,0x0C
0.427295750000000,0,0xB0,0x12
0.427313791666667,0,0xFF,0x12
0.427332000000000,0,0xFF,0x0C
0.429283458333333,0,0x98,0x10
0.429301500000000,0,0xFF,0x02
0.429319708333333,0,0xFF,0x0C
0.431270916666667,0,0xF0,0x02
0.431288916666667,0,0x7F,0x12
0.431307125000000,0,0xFF,0x0C
0.433258541666667,0,0x98,0x1A
0.433276583333333,0,0xFF,0x12
0.433294791666667,0,0xFF,0x0C
0.435246041666667,0,0xB0,0x12
0.435264083333333,0,0xFF,0x13
0.435282291666667,0,0xFF,0x0C
0.437233750000000,0,0xB0,0x12
0.437251750000000,0,0xFF,0x1A
0.437269958333333,0,0xFF,0x04
0.439221291666667,0,0xB0,0x12
0.439239333333333,0,0xFF,0x13
0.439257541666667,0,0xFF,0x0C
0.441209000000000,0,0x98,0x1A
0.441227041666667,0,0xFF,0x12
0.441245250000000,0,0xFF,0x0C
0.443196541666667,0,0xF0,0x12
0.443214583333333,0,0xFF,0x13
0.443232791666667,0,0xFF,0x0C
0.445184291666667,0,0x98,0x10
0.445202333333333,0,0xFF,0x02
0.445220541666667,0,0xFF,0x0C
0.447171916666667,0,0xB0,0x12
0.447189958333333,0,0xFF,0x13
0.447208166666667,0,0xFF,0x0C
0.447232958333333,0,0x87,0x12
0.447251000000000,0,0xFF,0x00
0.447269208333333,0,0xFF,0xC7
0.447289750000000,0,0x07,0x12
0.447307791666667,0,0x00,0x13
0.447325833333333,0,0x00,0x12
0.448155416666667,0,0x07,0x01
0.448173458333333,0,0x00,0x01
0.448191541666667,0,0x00,0x01
0.448212125000000,0,0x36,0x01
0.448230166666667,0,0xC0,0x01
0.448248208333333,0,0x00,0x81
0.448268458333333,0,0x07,0x01
0.448286500000000,0,0xFF,0x00
0.448304708333333,0,0xFF,0x00
0.448325583333333,0,0x03,0x01
0.448343583333333,0,0x80,0x81
0.448361666666667,0,0x00,0x01
0.449159333333333,0,0xB0,0x13
0.449177333333333,0,0xFF,0x18
0.449195541666667,0,0xFF,0x00
0.451147000000000,0,0x98,0x1A
0.451165041666667,0,0xFF,0x12
0.451183250000000,0,0xFF,0x00
0.453134666666667,0,0x98,0x10
0.453152708333333,0,0xFF,0x02
0.453170916666667,0,0xFF,0x00
0.455122083333333,0,0xB0,0x12
0.455140125000000,0,0xFF,0x10
0.455158333333333,0,0xFF,0x00
0.457109708333333,0,0xB0,0x12
0.457127750000000,0,0xFF,0x12
0.457145958333333,0,0xFF,0x00
0.459097250000000,0,0x90,0x12
0.459115291666667,0,0xFF,0x12
0.459133500000000,0,0xFF,0x00
0.461084583333333,0,0xB0,0x12
0.461102625000000,0,0xFF,0x12
0.461120833333333,0,0xFF,0x00
0.463072250000000,0,0xF0,0x12
0.463090291666667,0,0xFF,0x12
0.463108458333333,0,0xFF,0x00
0.465060000000000,0,0xF0,0x02
0.465078041666667,0,0xFF,0x12
0.465096208333333,0,0xFF,0x00
0.467047625000000,0,0x98,0x10
0.467065666666667,0,0xFF,0x02
0.467083875000000,0,0xFF,0x00
0.469035166666667,0,0x90,0x12
0.469053208333333,0,0xFF,0x12
0.469071416666667,0,0xFF,0x00
0.471022750000000,0,0xB8,0x10
0.471040791666667,0,0xFF,0x02
0.471059000000000,0,0xFF,0x00
0.473010250000000,0,0x98,0x10
0.473028291666667,0,0xFF,0x02
0.473046500000000,0,0xFF,0x00
0.474997791666667,0,0xB0,0x12
0.475015833333333,0,0xFF,0x13
0.475034041666667,0,0xFF,0x00
0.476985583333333,0,0xF0,0x02
0.477003583333333,0,0x7F,0x12
0.477021833333333,0,0xFF,0x00
0.478973166666667,0,0x98,0x10
0.478991208333333,0,0xFF,0x02
0.479009416666667,0,0xFF,0x00
0.479034208333333,0,0x87,0x12
0.479052250000000,0,0xFF,0x00
0.479070458333333,0,0xFF,0x80
0.479091000000000,0,0x07,0x10
0.479109041666667,0,0x00,0x02
0.479127125000000,0,0x28,0x12
0.479956833333333,0,0x07,0x01
0.479974875000000,0,0x00,0x01
0.479992958333333,0,0x2C,0x00
0.480013541666667,0,0x36,0x01
0.480031583333333,0,0xC0,0x01
0.480049625000000,0,0x00,0x81
0.480069875000000,0,0x87,0x01
0.480087916666667,0,0xFF,0x00
0.480106125000000,0,0xFF,0x38
0.480127000000000,0,0x07,0x01
0.480145000000000,0,0x80,0x81
0.480163083333333,0,0x00,0x01
0.480960458333333,0,0x18,0x1A
0.480978500000000,0,0xFF,0x12
0.480996708333333,0,0xFF,0x00
0.482948250000000,0,0xF0,0x12
0.482966291666667,0,0xFF,0x12
0.482984500000000,0,0xFF,0x10
0.484936000000000,0,0xB0,0x13
0.484954000000000,0,0x7F,0x1A
0.484972208333333,0,0xFF,0x18
0.486923333333333,0,0xF0,0x12
0.486941333333333,0,0x7F,0x12
0.486959541666667,0,0xFF,0x10
0.488910958333333,0,0x98,0x10
0.488929000000000,0,0xFF,0x12
0.488947208333333,0,0xFF,0x10
0.490898708333333,0,0xF0,0x02
0.490916750000000,0,0xFF,0x13
0.490934958333333,0,0xFF,0x10
0.492886416666667,0,0xF0,0x02
0.492904416666667,0,0x7F,0x12
0.492922625000000,0,0xFF,0x10
0.494874125000000,0,0xF0,0x12
0.494892125000000,0,0x7F,0x12
0.494910333333333,0,0xFF,0x10
0.496862000000000,0,0x98,0x10
0.496880041666667,0,0xFF,0x12
0.496898250000000,0,0xFF,0x10
0.498849500000000,0,0xB0,0x12
0.498867500000000,0,0xFF,0x10
0.498885708333333,0,0xFF,0x10
0.500836750000000,0,0xB0,0x12
0.500854750000000,0,0xFF,0x12
0.500872958333333,0,0xFF,0x10
0.502824333333333,0,0xF0,0x12
0.502842333333333,0,0x7F,0x12
0.502860541666667,0,0xFF,0x10
0.504812000000000,0,0x98,0x10
0.504830041666667,0,0xFF,0x12
0.504848250000000,0,0xFF,0x10
0.506800083333333,0,0xF0,0x12
0.506818125000000,0,0xFF,0x12
0.506836333333333,0,0xFF,0x00
0.508787750000000,0,0x98,0x1A
0.508805791666667,0,0xFF,0x12
0.508824000000000,0,0xFF,0x10
0.510775666666667,0,0xF0,0x12
0.510793708333333,0,0xFF,0x13
0.510811916666667,0,0xFF,0x10
0.510836708333333,0,0x87,0x12
0.510854750000000,0,0xFF,0x00
0.510872958333333,0,0xFF,0xAC
0.510893500000000,0,0x07,0x10
0.510911541666667,0,0x00,0x02
0.510929625000000,0,0x0F,0x13
0.511759291666667,0,0x07,0x01
0.511777333333333,0,0x00,0x01
0.511795416666667,0,0x0A,0x01
0.511816000000000,0,0x34,0x81
0.511834041666667,0,0x80,0x01
0.511852125000000,0,0xC0,0x01
0.511872375000000,0,0x83,0x00
0.511890375000000,0,0xFF,0x00
0.511908583333333,0,0xFF,0x0A
0.511929458333333,0,0x87,0x01
0.511947500000000,0,0x00,0x01
0.511965583333333,0,0xCE,0x01
0.512763291666667,0,0x30,0x92
0.512781333333333,0,0xFF,0x10
0.512799541666667,0,0xFF,0x16
0.514751208333333,0,0xF0,0x12
0.514769250000000,0,0xFF,0x12
0.514787458333333,0,0xFF,0x00
0.516738916666667,0,0xB0,0x12
0.516756958333333,0,0xFF,0x10
0.516775166666667,0,0xFF,0x16
0.518726666666667,0,0xB0,0x13
0.518744666666667,0,0x7F,0x1A
0.518762875000000,0,0xFF,0x1C
0.520714583333333,0,0xB0,0x12
0.520732625000000,0,0xFF,0x12
0.520750833333333,0,0xFF,0x14
0.522701916666667,0,0xB0,0x12
0.522719916666667,0,0x7F,0x12
0.522738125000000,0,0xFF,0x14
0.524689500000000,0,0xB0,0x12
0.524707541666667,0,0xFF,0x12
0.524725750000000,0,0xFF,0x14
0.526677041666667,0,0xB0,0x12
0.526695083333333,0,0xFF,0x12
0.526713291666667,0,0xFF,0x14
0.528664833333333,0,0xB0,0x12
0.528682875000000,0,0xFF,0x02
0.528701083333333,0,0xFF,0x04
0.530652500000000,0,0xB0,0x12
0.530670541666667,0,0xFF,0x12
0.530688750000000,0,0xFF,0x16
0.532640000000000,0,0xB0,0x12
0.532658041666667,0,0xFF,0x12
0.532676250000000,0,0xFF,0x14
0.534627625000000,0,0xB0,0x12
0.534645666666667,0,0xFF,0x13
0.534663875000000,0,0xFF,0x14
0.536614875000000,0,0xB0,0x12
0.536632916666667,0,0xFF,0x10
0.536651125000000,0,0xFF,0x16
0.538602458333333,0,0x90,0x12
0.538620500000000,0,0xFF,0x12
0.538638708333333,0,0xFF,0x14
0.540590208333333,0,0xF0,0x02
0.540608250000000,0,0xFF,0x12
0.540626458333333,0,0xFF,0x14
0.542577583333333,0,0xB0,0x12
0.542595625000000,0,0xFF,0x13
0.542613833333333,0,0xFF,0x14
0.542638625000000,0,0x87,0x12
0.542656666666667,0,0xFF,0x00
0.542674875000000,0,0xFF,0x8B
0.542695416666667,0,0x07,0x12
0.542713458333333,0,0x00,0x12
0.542731500000000,0,0x33,0x12
0.543561250000000,0,0x07,0x01
0.543579291666667,0,0x00,0x00
0.543597333333333,0,0x1A,0x01
0.543617958333333,0,0x30,0x01
0.543635958333333,0,0x00,0x81
0.543654041666667,0,0x80,0x01
0.543674291666667,0,0x87,0x01
0.543692333333333,0,0xFF,0x00
0.543710541666667,0,0xFF,0x32
0.543731416666667,0,0x03,0x00
0.543749416666667,0,0x00,0x01
0.543767500000000,0,0xB2,0x01
0.544565083333333,0,0x30,0x92
0.544583125000000,0,0xFF,0x10
0.544601333333333,0,0xFF,0x06
0.546552708333333,0,0xB0,0x12
0.546570750000000,0,0xFF,0x13
0.546588958333333,0,0xFF,0x04
0.548540250000000,0,0xB0,0x12
0.548558291666667,0,0xFF,0x12
0.548576500000000,0,0xFF,0x04
0.550527750000000,0,0x90,0x12
0.550545791666667,0,0xFF,0x12
0.550564000000000,0,0xFF,0x04
0.552515333333333,0,0x98,0x10
0.552533375000000,0,0xFF,0x02
0.552551583333333,0,0xFF,0x04
0.554502958333333,0,0xF0,0x02
0.554520958333333,0,0x7F,0x12
0.554539166666667,0,0xFF,0x04
0.556490750000000,0,0xB0,0x13
0.556508750000000,0,0x7F,0x1A
0.556526958333333,0,0xFF,0x04
0.558478000000000,0,0xB0,0x13
0.558496000000000,0,0x7F,0x18
0.558514208333333,0,0xFF,0x06
0.560465750000000,0,0xB0,0x12
0.560483750000000,0,0xFF,0x18
0.560501958333333,0,0xFF,0x06
0.562453083333333,0,0xF0,0x12
0.562471125000000,0,0xFF,0x13
0.562489333333333,0,0xFF,0x04
0.564440833333333,0,0xB0,0x12
0.564458833333333,0,0x7F,0x12
0.564477041666667,0,0xFF,0x04
0.566428708333333,0,0x98,0x1A
0.566446750000000,0,0xFF,0x12
0.566464958333333,0,0xFF,0x04
0.568416208333333,0,0xF0,0x12
0.568434208333333,0,0x7F,0x12
0.568452416666667,0,0xFF,0x04
0.570404041666667,0,0xB0,0x12
0.570422041666667,0,0xFF,0x10
0.570440250000000,0,0xFF,0x06
0.572391500000000,0,0xB0,0x12
0.572409541666667,0,0xFF,0x12
0.572427750000000,0,0xFF,0x00
0.574379541666667,0,0xB0,0x12
0.574397583333333,0,0xFF,0x10
0.574415791666667,0,0xFF,0x04
0.574440625000000,0,0x83,0x12
0.574458625000000,0,0xFF,0x00
0.574476833333333,0,0xFF,0xB0
0.574497416666667,0,0x07,0x12
0.574515416666667,0,0x00,0x10
0.574533500000000,0,0x16,0x12
0.575363333333333,0,0x03,0x01
0.575381333333333,0,0x80,0x81
0.575399416666667,0,0x1C,0x01
0.575420041666667,0,0x34,0x01
0.575438083333333,0,0x80,0x00
0.575456125000000,0,0x00,0x01
0.575476375000000,0,0x87,0x01
0.575494416666667,0,0xFF,0x00
0.575512625000000,0,0xFF,0x04
0.575533500000000,0,0x03,0x01
0.575551500000000,0,0x80,0x81
0.575569583333333,0,0x1C,0x01
0.576367041666667,0,0xF0,0x02
0.576385041666667,0,0x7F,0x12
0.576403250000000,0,0xFF,0x08
0.578354750000000,0,0xB0,0x12
0.578372791666667,0,0xFF,0x12
0.578391000000000,0,0xFF,0x08
0.580342583333333,0,0xB0,0x12
0.580360625000000,0,0xFF,0x12
0.580378833333333,0,0xFF,0x0C
0.582330000000000,0,0xB0,0x12
0.582348041666667,0,0xFF,0x12
0.582366250000000,0,0xFF,0x08
0.584317708333333,0,0xF0,0x02
0.584335750000000,0,0xFF,0x13
0.584353958333333,0,0xFF,0x08
0.586305500000000,0,0x98,0x1A
0.586323541666667,0,0xFF,0x12
0.586341750000000,0,0xFF,0x08
0.588292875000000,0,0xB0,0x13
0.588310875000000,0,0x7F,0x1A
0.588329083333333,0,0xFF,0x00
0.590280708333333,0,0x98,0x12
0.590298750000000,0,0xFF,0x12
0.590316958333333,0,0xFF,0x08
0.592267958333333,0,0xB0,0x12
0.592286000000000,0,0xFF,0x12
0.592304208333333,0,0xFF,0x08
0.594255750000000,0,0xF0,0x02
0.594273750000000,0,0x7F,0x12
0.594291958333333,0,0xFF,0x08
0.596243291666667,0,0xB0,0x12
0.596261291666667,0,0xFF,0x10
0.596279500000000,0,0xFF,0x08
0.598230875000000,0,0xB0,0x12
0.598248916666667,0,0xFF,0x12
0.598267125000000,0,0xFF,0x08
0.600218291666667,0,0xF0,0x02
0.600236291666667,0,0x7F,0x12
0.600254500000000,0,0xFF,0x08
0.602205708333333,0,0xB0,0x12
0.602223750000000,0,0xFF,0x12
0.602241958333333,0,0xFF,0x08
0.604192958333333,0,0x98,0x1A
0.604211000000000,0,0xFF,0x12
0.604229208333333,0,0xFF,0x08
0.606180541666667,0,0xF0,0x12
0.606198541666667,0,0x7F,0x12
0.606216750000000,0,0xFF,0x00
0.606241583333333,0,0x83,0x13
0.606259583333333,0,0xFF,0x00
0.606277791666667,0,0xFF,0x96
0.606298375000000,0,0x03,0x12
0.606316375000000,0,0x00,0x10
0.606334458333333,0,0x3C,0x12
0.607164166666667,0,0x07,0x01
0.607182208333333,0,0x00,0x01
0.607200291666667,0,0x3C,0x01
0.607220875000000,0,0x1E,0x01
0.607238916666667,0,0xC0,0x01
0.607257000000000,0,0x80,0x01
0.607277208333333,0,0x07,0x01
0.607295250000000,0,0xFF,0x00
0.607313458333333,0,0xFF,0x3C
0.607334333333333,0,0x03,0x01
0.607352333333333,0,0x80,0x81
0.607370416666667,0,0xBE,0x01
0.608168000000000,0,0xF0,0x02
0.608186000000000,0,0x7F,0x12
0.608204208333333,0,0xFF,0x18
0.610155875000000,0,0xF0,0x12
0.610173916666667,0,0xFF,0x13
0.610192125000000,0,0xFF,0x18
0.612143500000000,0,0xB0,0x12
0.612161541666667,0,0xFF,0x12
0.612179750000000,0,0xFF,0x1C
0.614130791666667,0,0xF0,0x12
0.614148791666667,0,0x7F,0x12
0.614167000000000,0,0xFF,0x18
0.616118291666667,0,0xF0,0x12
0.616136333333333,0,0xFF,0x13
0.616154541666667,0,0xFF,0x18
0.618105791666667,0,0x98,0x1A
0.618123833333333,0,0xFF,0x12
0.618142041666667,0,0xFF,0x18
0.620093375000000,0,0xF0,0x12
0.620111416666667,0,0xFF,0x13
0.620129625000000,0,0xFF,0x18
0.622081000000000,0,0xB0,0x13
0.622099000000000,0,0x7F,0x1A
0.622117208333333,0,0xFF,0x18
0.624068500000000,0,0xB0,0x12
0.624086541666667,0,0xFF,0x10
0.624104750000000,0,0xFF,0x18
0.626056166666667,0,0x98,0x1A
0.626074208333333,0,0xFF,0x12
0.626092416666667,0,0xFF,0x18
0.628043958333333,0,0x90,0x12
0.628062000000000,0,0xFF,0x12
0.628080208333333,0,0xFF,0x18
0.630031291666667,0,0xB0,0x12
0.630049291666667,0,0xFF,0x10
0.630067500000000,0,0xFF,0x18
0.632019083333333,0,0x98,0x1A
0.632037125000000,0,0xFF,0x12
0.632055333333333,0,0xFF,0x18
0.634006791666667,0,0xB0,0x12
0.634024791666667,0,0xFF,0x10
0.634043000000000,0,0xFF,0x18
0.635994166666667,0,0x98,0x1A
0.636012208333333,0,0xFF,0x12
0.636030416666667,0,0xFF,0x18
0.637981625000000,0,0xF0,0x02
0.637999625000000,0,0x7F,0x12
0.638017875000000,0,0xFF,0x18
0.638042666666667,0,0x87,0x12
0.638060708333333,0,0xFF,0x00
0.638078916666667,0,0xFF,0xBC
0.638099458333333,0,0x07,0x1A
0.638117500000000,0,0x00,0x12
0.638135583333333,0,0x0E,0x02
0.638965458333333,0,0x03,0x01
0.638983458333333,0,0x00,0x01
0.639001541666667,0,0x1E,0x01
0.639022125000000,0,0x34,0x81
0.639040166666667,0,0x80,0x01
0.639058250000000,0,0xC0,0x01
0.639078500000000,0,0xC3,0x01
0.639096500000000,0,0xFF,0x00
0.639114708333333,0,0xFF,0x1E
0.639135583333333,0,0x87,0x01
0.639153625000000,0,0x00,0x01
0.639171708333333,0,0xCE,0x01
0.639969416666667,0,0xB0,0x13
0.639987416666667,0,0xFF,0x10
0.640005625000000,0,0xFF,0x1E
0.641957375000000,0,0xB0,0x12
0.641975375000000,0,0x7F,0x12
0.641993583333333,0,0xFF,0x1C
0.643945041666667,0,0xB0,0x13
0.643963041666667,0,0x7F,0x1A
0.643981250000000,0,0xFF,0x1C
0.645932291666667,0,0x98,0x10
0.645950333333333,0,0xFF,0x02
0.645968541666667,0,0xFF,0x0C
0.647919833333333,0,0xF0,0x12
0.647937833333333,0,0x7F,0x1A
0.647956041666667,0,0xFF,0x1C
0.649907250000000,0,0xB0,0x13
0.649925250000000,0,0xFF,0x18
0.649943458333333,0,0xFF,0x1E
0.651894666666667,0,0xF0,0x12
0.651912666666667,0,0x7F,0x12
0.651930875000000,0,0xFF,0x1C
0.653881958333333,0,0xF0,0x12
0.653899958333333,0,0x7F,0x1A
0.653918166666667,0,0xFF,0x1E
0.655869541666667,0,0xB0,0x12
0.655887583333333,0,0xFF,0x13
0.655905791666667,0,0xFF,0x1C
0.657856791666667,0,0xB0,0x12
0.657874833333333,0,0xFF,0x10
0.657893041666667,0,0xFF,0x1C
0.659844375000000,0,0x98,0x10
0.659862416666667,0,0xFF,0x02
0.659880625000000,0,0xFF,0x1C
0.661831833333333,0,0xF0,0x12
0.661849833333333,0,0x7F,0x12
0.661868041666667,0,0xFF,0x1C
0.663819375000000,0,0x98,0x10
0.663837416666667,0,0xFF,0x12
0.663855625000000,0,0xFF,0x1C
0.665806583333333,0,0xB0,0x12
0.665824625000000,0,0xFF,0x13
0.665842833333333,0,0xFF,0x1C
0.667793958333333,0,0x90,0x12
0.667812000000000,0,0xFF,0x12
0.667830208333333,0,0xFF,0x1C
0.669781375000000,0,0xB0,0x12
0.669799416666667,0,0xFF,0x13
0.669817625000000,0,0xFF,0x1C
0.669842416666667,0,0xC7,0x12
0.669860416666667,0,0xFF,0x00
0.669878625000000,0,0xFF,0x1E
0.669899208333333,0,0x03,0x12
0.669917208333333,0,0x80,0x1A
0.669935291666667,0,0x46,0x12
0.670765000000000,0,0x03,0x00
0.670783000000000,0,0x00,0x01
0.670801083333333,0,0x02,0x01
0.670821666666667,0,0x1E,0x01
0.670839708333333,0,0xC0,0x01
0.670857791666667,0,0x80,0x01
0.670878000000000,0,0x07,0x01
0.670896041666667,0,0xFF,0x00
0.670914250000000,0,0xFF,0x42
0.670935125000000,0,0x03,0x01
0.670953125000000,0,0x80,0x01
0.670971208333333,0,0xC6,0x01
0.671768750000000,0,0x18,0x10
0.671786791666667,0,0xFF,0x02
0.671805000000000,0,0xFF,0x0C
0.673756458333333,0,0xB0,0x12
0.673774500000000,0,0xFF,0x12
0.673792666666667,0,0xFF,0x0C
0.675743625000000,0,0xF0,0x02
0.675761625000000,0,0x7F,0x12
0.675779833333333,0,0xFF,0x0C
0.677731208333333,0,0x98,0x10
0.677749250000000,0,0xFF,0x02
0.677767458333333,0,0xFF,0x0C
0.679718833333333,0,0xF0,0x02
0.679736833333333,0,0x7F,0x12
0.679755041666667,0,0xFF,0x04
0.681706291666667,0,0xF0,0x12
0.681724333333333,0,0xFF,0x13
0.681742541666667,0,0xFF,0x0C
0.683693625000000,0,0x98,0x10
0.683711666666667,0,0xFF,0x02
0.683729875000000,0,0xFF,0x0C
0.685681125000000,0,0x98,0x10
0.685699166666667,0,0xFF,0x12
0.685717375000000,0,0xFF,0x0C
0.687668625000000,0,0xB0,0x12
0.687686666666667,0,0xFF,0x10
0.687704875000000,0,0xFF,0x0C
0.689656041666667,0,0xB0,0x12
0.689674083333333,0,0xFF,0x10
0.689692291666667,0,0xFF,0x0C
0.691643333333333,0,0xF0,0x12
0.691661333333333,0,0x7F,0x12
0.691679541666667,0,0xFF,0x04
0.693630708333333,0,0x98,0x1A
0.693648750000000,0,0xFF,0x12
0.693666958333333,0,0xFF,0x0C
0.695618291666667,0,0x98,0x1A
0.695636333333333,0,0xFF,0x12
0.695654541666667,0,0xFF,0x0C
0.697605458333333,0,0xB0,0x12
0.697623500000000,0,0xFF,0x12
0.697641708333333,0,0xFF,0x0C
0.699592833333333,0,0xB0,0x13
0.699610833333333,0,0x7F,0x10
0.699629041666667,0,0xFF,0x0C
0.701579875000000,0,0x98,0x10
0.701597916666667,0,0xFF,0x02
0.701616125000000,0,0xFF,0x0C
0.701640916666667,0,0x87,0x12
0.701658958333333,0,0xFF,0x00
0.701677166666667,0,0xFF,0xC6
0.701697708333333,0,0x07,0x12
0.701715750000000,0,0x00,0x12
0.701733791666667,0,0x00,0x10
0.702563500000000,0,0x07,0x01
0.702581541666667,0,0x00,0x00
0.702599583333333,0,0x00,0x01
0.702620208333333,0,0x30,0x01
0.702638208333333,0,0x00,0x01
0.702656291666667,0,0x80,0x01
0.702676541666667,0,0xC3,0x01
0.702694541666667,0,0xFF,0x00
0.702712750000000,0,0xFF,0x00
0.702733625000000,0,0x07,0x01
0.702751666666667,0,0x00,0x01
0.702769708333333,0,0x00,0x81
0.703567291666667,0,0x30,0x92
0.703585333333333,0,0xFF,0x12
0.703603541666667,0,0xFF,0x00
0.705554875000000,0,0xB0,0x12
0.705572916666667,0,0xFF,0x12
0.705591125000000,0,0xFF,0x00
0.707542250000000,0,0xB0,0x12
0.707560291666667,0,0xFF,0x13
0.707578500000000,0,0xFF,0x00
0.709529541666667,0,0xB0,0x12
0.709547583333333,0,0xFF,0x12
0.709565791666667,0,0xFF,0x00
0.711516625000000,0,0x98,0x10
0.711534666666667,0,0xFF,0x02
0.711552875000000,0,0xFF,0x00
0.713503916666667,0,0x98,0x10
0.713521958333333,0,0xFF,0x02
0.713540166666667,0,0xFF,0x00
0.715491541666667,0,0xB0,0x12
0.715509541666667,0,0xFF,0x10
0.715527750000000,0,0xFF,0x00
0.717478750000000,0,0xB0,0x12
0.717496750000000,0,0xFF,0x10
0.717514958333333,0,0xFF,0x00
0.719466291666667,0,0xB0,0x12
0.719484333333333,0,0xFF,0x02
0.719502541666667,0,0xFF,0x00
0.721453625000000,0,0xB0,0x12
0.721471625000000,0,0xFF,0x10
0.721489833333333,0,0xFF,0x00
0.723441041666667,0,0xB0,0x12
0.723459083333333,0,0xFF,0x12
0.723477291666667,0,0xFF,0x00
0.725428583333333,0,0xB0,0x12
0.725446625000000,0,0xFF,0x12
0.725464833333333,0,0xFF,0x00
0.727416041666667,0,0xB0,0x13
0.727434041666667,0,0x7F,0x1A
0.727452250000000,0,0xFF,0x00
0.729403375000000,0,0xF0,0x02
0.729421375000000,0,0x7F,0x12
0.729439583333333,0,0xFF,0x00
0.731390958333333,0,0xB0,0x12
0.731408958333333,0,0xFF,0x10
0.731427166666667,0,0xFF,0x00
0.733378125000000,0,0xB0,0x12
0.733396166666667,0,0xFF,0x12
0.733414375000000,0,0xFF,0x00
0.733439166666667,0,0x87,0x1A
0.733457208333333,0,0xFF,0x00
0.733475416666667,0,0xFF,0xC0
0.733495958333333,0,0x07,0x18
0.733514000000000,0,0x00,0x12
0.733532083333333,0,0x3C,0x13
0.734361625000000,0,0x03,0x00
0.734379625000000,0,0x80,0x01
0.734397708333333,0,0x28,0x01
0.734418291666667,0,0x34,0x81
0.734436333333333,0,0x80,0x01
0.734454416666667,0,0xC0,0x01
0.734474666666667,0,0xC3,0x01
0.734492666666667,0,0xFF,0x80
0.734510875000000,0,0xFF,0x28
0.734531750000000,0,0x87,0x01
0.734549791666667,0,0x00,0x01
0.734567875000000,0,0xAC,0x00
0.735365416666667,0,0x30,0x92
0.735383458333333,0,0xFF,0x12
0.735401666666667,0,0xFF,0x10
0.737353166666667,0,0xB0,0x12
0.737371208333333,0,0xFF,0x12
0.737389416666667,0,0xFF,0x10
0.739340666666667,0,0xB0,0x12
0.739358708333333,0,0xFF,0x13
0.739376916666667,0,0xFF,0x10
0.741328083333333,0,0xB0,0x12
0.741346125000000,0,0xFF,0x12
0.741364333333333,0,0xFF,0x10
0.743315541666667,0,0xB0,0x12
0.743333541666667,0,0xFF,0x10
0.743351750000000,0,0xFF,0x10
0.745302916666667,0,0xB0,0x12
0.745320916666667,0,0xFF,0x10
0.745339125000000,0,0xFF,0x10
0.747290250000000,0,0x98,0x1A
0.747308291666667,0,0xFF,0x12
0.747326500000000,0,0xFF,0x10
0.749277625000000,0,0xB0,0x13
0.749295625000000,0,0xFF,0x10
0.749313833333333,0,0xFF,0x10
0.751264750000000,0,0x98,0x12
0.751282791666667,0,0xFF,0x12
0.751301000000000,0,0xFF,0x10
0.753252125000000,0,0xB0,0x12
0.753270166666667,0,0xFF,0x12
0.753288375000000,0,0xFF,0x10
0.755239666666667,0,0xB0,0x12
0.755257666666667,0,0xFF,0x12
0.755275875000000,0,0xFF,0x10
0.757226958333333,0,0x98,0x1A
0.757245000000000,0,0xFF,0x12
0.757263208333333,0,0xFF,0x00
0.759214375000000,0,0xF0,0x12
0.759232375000000,0,0x7F,0x12
0.759250583333333,0,0xFF,0x18
0.761201833333333,0,0x90,0x12
0.761219875000000,0,0xFF,0x12
0.761238083333333,0,0xFF,0x10
0.763189166666667,0,0xB0,0x12
0.763207208333333,0,0xFF,0x13
0.763225416666667,0,0xFF,0x10
0.765176875000000,0,0xB0,0x12
0.765194916666667,0,0xFF,0x12
0.765213125000000,0,0xFF,0x10
0.765237916666667,0,0x87,0x12
0.765255958333333,0,0xFF,0x00
0.765274166666667,0,0xFF,0xA8
0.765294708333333,0,0x07,0x12
0.765312750000000,0,0x00,0x02
0.765330833333333,0,0x0B,0x12
0.766160416666667,0,0x03,0x01
0.766178416666667,0,0x80,0x01
0.766196500000000,0,0x00,0x01
0.766217125000000,0,0x30,0x00
0.766235125000000,0,0x00,0x01
0.766253208333333,0,0x80,0x01
0.766273458333333,0,0xC7,0x01
0.766291458333333,0,0xFF,0x80
0.766309666666667,0,0xFF,0x0A
0.766330541666667,0,0x87,0x01
0.766348583333333,0,0x00,0x01
0.766366666666667,0,0xCA,0x01
0.767164291666667,0,0x10,0x12
0.767182333333333,0,0xFF,0x12
0.767200541666667,0,0xFF,0x14
0.769152000000000,0,0x98,0x1A
0.769170041666667,0,0xFF,0x12
0.769188250000000,0,0xFF,0x14
0.771139291666667,0,0xB0,0x12
0.771157333333333,0,0xFF,0x10
0.771175541666667,0,0xFF,0x16
0.773126875000000,0,0x90,0x12
0.773144916666667,0,0xFF,0x12
0.773163125000000,0,0xFF,0x14
0.775114291666667,0,0xF0,0x13
0.775132291666667,0,0x7F,0x1A
0.775150500000000,0,0xFF,0x16
0.777101708333333,0,0xF0,0x02
0.777119708333333,0,0x7F,0x12
0.777137916666667,0,0xFF,0x14
0.779089041666667,0,0x98,0x10
0.779107083333333,0,0xFF,0x02
0.779125291666667,0,0xFF,0x10
0.781076791666667,0,0xB0,0x12
0.781094833333333,0,0xFF,0x13
0.781113041666667,0,0xFF,0x14
0.783064166666667,0,0xB0,0x13
0.783082166666667,0,0xFF,0x10
0.783100375000000,0,0xFF,0x16
0.785051625000000,0,0x90,0x12
0.785069666666667,0,0xFF,0x12
0.785087875000000,0,0xFF,0x14
0.787039083333333,0,0xF0,0x12
0.787057125000000,0,0xFF,0x12
0.787075291666667,0,0xFF,0x14
0.789026541666667,0,0xF0,0x12
0.789044541666667,0,0x7F,0x1A
0.789062750000000,0,0xFF,0x1C
0.791013708333333,0,0xB0,0x12
0.791031750000000,0,0xFF,0x12
0.791049958333333,0,0xFF,0x14
0.793001375000000,0,0xB0,0x12
0.793019375000000,0,0xFF,0x10
0.793037583333333,0,0xFF,0x16
0.794988666666667,0,0x98,0x12
0.795006708333333,0,0xFF,0x13
0.795024916666667,0,0xFF,0x14
0.796975791666667,0,0xB0,0x12
0.796993833333333,0,0xFF,0x12
0.797012041666667,0,0xFF,0x14
0.797036833333333,0,0x87,0x10
0.797054875000000,0,0xFF,0x00
0.797073083333333,0,0xFF,0x8A
0.797093625000000,0,0x07,0x12
0.797111666666667,0,0x00,0x13
0.797129708333333,0,0x1A,0x1A
0.797959208333333,0,0x03,0x00
0.797977208333333,0,0x80,0x01
0.797995291666667,0,0x32,0x01
0.798015875000000,0,0x34,0x81
0.798033916666667,0,0x80,0x01
0.798052000000000,0,0xC0,0x01
0.798072208333333,0,0x07,0x81
0.798090250000000,0,0xFF,0x00
0.798108458333333,0,0xFF,0x32
0.798129333333333,0,0x03,0x01
0.798147333333333,0,0x80,0x01
0.798165416666667,0,0xB2,0x01
0.798962916666667,0,0x18,0x10
0.798980958333333,0,0xFF,0x12
0.798999166666667,0,0xFF,0x04
0.800950333333333,0,0xB0,0x12
0.800968375000000,0,0xFF,0x13
0.800986583333333,0,0xFF,0x04
0.802937666666667,0,0xF0,0x12
0.802955708333333,0,0xFF,0x12
0.802973875000000,0,0xFF,0x04
0.804925000000000,0,0xF0,0x12
0.804943000000000,0,0x7F,0x1A
0.804961208333333,0,0xFF,0x06
0.806912166666667,0,0xB0,0x12
0.806930208333333,0,0xFF,0x12
0.806948375000000,0,0xFF,0x04
0.808899125000000,0,0x98,0x10
0.808917166666667,0,0xFF,0x12
0.808935375000000,0,0xFF,0x04
0.810886458333333,0,0xB0,0x12
0.810904500000000,0,0xFF,0x13
0.810922708333333,0,0xFF,0x04
0.812873541666667,0,0x98,0x18
0.812891583333333,0,0xFF,0x02
0.812909791666667,0,0xFF,0x04
0.814860791666667,0,0xF0,0x12
0.814878833333333,0,0xFF,0x12
0.814897041666667,0,0xFF,0x04
0.816848125000000,0,0xB0,0x12
0.816866166666667,0,0xFF,0x12
0.816884333333333,0,0xFF,0x04
0.818835375000000,0,0xB0,0x12
0.818853416666667,0,0xFF,0x13
0.818871625000000,0,0xFF,0x04
0.820822791666667,0,0xF0,0x02
0.820840791666667,0,0x7F,0x12
0.820859000000000,0,0xFF,0x06
0.822810125000000,0,0xF0,0x02
0.822828125000000,0,0x7F,0x12
0.822846333333333,0,0xFF,0x04
0.824797416666667,0,0xB0,0x13
0.824815416666667,0,0x7F,0x1A
0.824833625000000,0,0xFF,0x06
0.826784750000000,0,0xB0,0x12
0.826802791666667,0,0xFF,0x12
0.826821000000000,0,0xFF,0x04
0.828772291666667,0,0xB0,0x13
0.828790291666667,0,0xFF,0x10
0.828808500000000,0,0xFF,0x06
0.828833291666667,0,0x87,0x12
0.828851333333333,0,0xFF,0x00
0.828869541666667,0,0xFF,0xB2
0.828890083333333,0,0x87,0x12
0.828908125000000,0,0x00,0x10
0.828926208333333,0,0x04,0x02
0.829755708333333,0,0x07,0x01
0.829773750000000,0,0x00,0x01
0.829791791666667,0,0x1E,0x01
0.829812416666667,0,0x30,0x01
0.829830416666667,0,0x00,0x01
0.829848500000000,0,0x80,0x01
0.829868750000000,0,0xC7,0x01
0.829886791666667,0,0xFF,0x00
0.829904958333333,0,0xFF,0x14
0.829925833333333,0,0x87,0x01
0.829943875000000,0,0x00,0x01
0.829961958333333,0,0xC0,0x01
0.830759541666667,0,0xB0,0x12
0.830777583333333,0,0xFF,0x02
0.830795791666667,0,0xFF,0x0C
0.832747083333333,0,0xB0,0x12
0.832765125000000,0,0xFF,0x12
0.832783333333333,0,0xFF,0x08
0.834734458333333,0,0xB0,0x12
0.834752500000000,0,0xFF,0x10
0.834770708333333,0,0xFF,0x08
0.836721875000000,0,0xB0,0x12
0.836739916666667,0,0xFF,0x12
0.836758125000000,0,0xFF,0x08
0.838709333333333,0,0x90,0x12
0.838727375000000,0,0xFF,0x12
0.838745583333333,0,0xFF,0x08
0.840696750000000,0,0xB0,0x12
0.840714791666667,0,0xFF,0x12
0.840732958333333,0,0xFF,0x08
0.842684208333333,0,0xF0,0x02
0.842702208333333,0,0x7F,0x12
0.842720416666667,0,0xFF,0x08
0.844671583333333,0,0xB0,0x12
0.844689625000000,0,0xFF,0x13
0.844707833333333,0,0xFF,0x08
0.846659083333333,0,0xB0,0x13
0.846677083333333,0,0x7F,0x1A
0.846695291666667,0,0xFF,0x00
0.848646583333333,0,0xB0,0x13
0.848664583333333,0,0x7F,0x1A
0.848682791666667,0,0xFF,0x00
0.850633958333333,0,0xB0,0x12
0.850652000000000,0,0xFF,0x12
0.850670208333333,0,0xFF,0x08
0.852621583333333,0,0xB0,0x12
0.852639625000000,0,0xFF,0x12
0.852657833333333,0,0xFF,0x08
0.854608916666667,0,0x98,0x1A
0.854626958333333,0,0xFF,0x12
0.854645166666667,0,0xFF,0x0C
0.856596375000000,0,0xF0,0x12
0.856614375000000,0,0x7F,0x12
0.856632583333333,0,0xFF,0x08
0.858583458333333,0,0x98,0x10
0.858601500000000,0,0xFF,0x02
0.858619708333333,0,0xFF,0x0C
0.860570958333333,0,0xB0,0x12
0.860588958333333,0,0xFF,0x10
0.860607166666667,0,0xFF,0x08
0.860631958333333,0,0x87,0x1A
0.860650000000000,0,0xFF,0x00
0.860668208333333,0,0xFF,0xC4
0.860688750000000,0,0x07,0x10
0.860706791666667,0,0x00,0x02
0.860724833333333,0,0x3C,0x12
0.861554375000000,0,0x07,0x01
0.861572375000000,0,0x00,0x01
0.861590458333333,0,0x3C,0x01
0.861611041666667,0,0x1C,0x01
0.861629083333333,0,0x80,0x01
0.861647166666667,0,0x80,0x00
0.861667375000000,0,0x07,0x81
0.861685416666667,0,0xFF,0x00
0.861703625000000,0,0xFF,0x3C
0.861724500000000,0,0x07,0x01
0.861742541666667,0,0x00,0x00
0.861760583333333,0,0x1C,0x01
0.862558125000000,0,0xB0,0x12
0.862576166666667,0,0xFF,0x12
0.862594375000000,0,0xFF,0x18
0.864545750000000,0,0xB0,0x12
0.864563750000000,0,0xFF,0x10
0.864581958333333,0,0xFF,0x18
0.866533125000000,0,0xF0,0x12
0.866551125000000,0,0x7F,0x12
0.866569333333333,0,0xFF,0x18
0.868520458333333,0,0xB0,0x12
0.868538500000000,0,0xFF,0x13
0.868556708333333,0,0xFF,0x18
0.870507875000000,0,0xB0,0x12
0.870525916666667,0,0xFF,0x13
0.870544125000000,0,0xFF,0x18
0.872495291666667,0,0x98,0x1A
0.872513333333333,0,0xFF,0x12
0.872531541666667,0,0xFF,0x18
0.874482708333333,0,0xF0,0x02
0.874500708333333,0,0x7F,0x12
0.874518916666667,0,0xFF,0x18
0.876469958333333,0,0x98,0x1A
0.876488000000000,0,0xFF,0x12
0.876506208333333,0,0xFF,0x18
0.878457208333333,0,0xF0,0x12
0.878475250000000,0,0xFF,0x12
0.878493416666667,0,0xFF,0x18
0.880444500000000,0,0xB0,0x12
0.880462500000000,0,0xFF,0x12
0.880480708333333,0,0xFF,0x18
0.882431666666667,0,0x98,0x10
0.882449708333333,0,0xFF,0x02
0.882467916666667,0,0xFF,0x18
0.884418875000000,0,0xB0,0x12
0.884436916666667,0,0xFF,0x13
0.884455125000000,0,0xFF,0x18
0.886406208333333,0,0xB0,0x12
0.886424208333333,0,0xFF,0x12
0.886442416666667,0,0xFF,0x18
0.888393416666667,0,0xB0,0x12
0.888411458333333,0,0xFF,0x12
0.888429625000000,0,0xFF,0x18
0.890380708333333,0,0x98,0x1A
0.890398750000000,0,0xFF,0x12
0.890416958333333,0,0xFF,0x08
0.892368125000000,0,0x98,0x10
0.892386166666667,0,0xFF,0x12
0.892404375000000,0,0xFF,0x18
0.892429166666667,0,0x87,0x18
0.892447208333333,0,0xFF,0x00
0.892465416666667,0,0xFF,0xBC
0.892485958333333,0,0x07,0x10
0.892504000000000,0,0x00,0x02
0.892522083333333,0,0x1F,0x12
0.893351583333333,0,0x07,0x01
0.893369625000000,0,0x00,0x01
0.893387708333333,0,0x0E,0x01
0.893408291666667,0,0x1E,0x01
0.893426333333333,0,0xC0,0x01
0.893444416666667,0,0x80,0x01
0.893464625000000,0,0x07,0x01
0.893482666666667,0,0xFF,0x00
0.893500875000000,0,0xFF,0x1E
0.893521750000000,0,0x07,0x01
0.893539750000000,0,0x80,0x81
0.893557833333333,0,0x9E,0x01
0.894355416666667,0,0x30,0x92
0.894373458333333,0,0xFF,0x10
0.894391666666667,0,0xFF,0x1E
0.896343166666667,0,0x98,0x10
0.896361208333333,0,0xFF,0x02
0.896379416666667,0,0xFF,0x0C
0.898330541666667,0,0xB0,0x12
0.898348583333333,0,0xFF,0x13
0.898366791666667,0,0xFF,0x1C
0.900318000000000,0,0xF0,0x12
0.900336041666667,0,0xFF,0x12
0.900354250000000,0,0xFF,0x1C
0.902305541666667,0,0x90,0x12
0.902323583333333,0,0xFF,0x02
0.902341791666667,0,0xFF,0x0C
0.904293041666667,0,0x98,0x18
0.904311083333333,0,0xFF,0x02
0.904329291666667,0,0xFF,0x0C
0.906280583333333,0,0xF0,0x12
0.906298625000000,0,0xFF,0x13
0.906316833333333,0,0xFF,0x1C
0.908268041666667,0,0x98,0x1A
0.908286083333333,0,0xFF,0x12
0.908304291666667,0,0xFF,0x1C
0.910255750000000,0,0xB0,0x12
0.910273791666667,0,0xFF,0x1A
0.910292000000000,0,0xFF,0x1C
0.912243416666667,0,0xB0,0x12
0.912261458333333,0,0xFF,0x12
0.912279666666667,0,0xFF,0x1C
0.914231041666667,0,0xF0,0x12
0.914249041666667,0,0x7F,0x1A
0.914267250000000,0,0xFF,0x1C
0.916218500000000,0,0xB0,0x12
0.916236541666667,0,0xFF,0x12
0.916254750000000,0,0xFF,0x1C
0.918206000000000,0,0xB0,0x13
0.918224000000000,0,0x7F,0x18
0.918242208333333,0,0xFF,0x1E
0.920193375000000,0,0xB0,0x12
0.920211416666667,0,0xFF,0x13
0.920229625000000,0,0xFF,0x1C
0.922180875000000,0,0xF0,0x12
0.922198916666667,0,0xFF,0x13
0.922217125000000,0,0xFF,0x1C
0.924168375000000,0,0xB0,0x12
0.924186416666667,0,0xFF,0x12
0.924204625000000,0,0xFF,0x1C
0.924229416666667,0,0x87,0x12
0.924247458333333,0,0xFF,0x00
0.924265666666667,0,0xFF,0x9E
0.924286208333333,0,0x87,0x12
0.924304250000000,0,0x00,0x12
0.924322333333333,0,0x06,0x02
0.925151958333333,0,0x03,0x01
0.925169958333333,0,0x80,0x81
0.925188041666667,0,0x66,0x01
0.925208666666667,0,0x34,0x01
0.925226666666667,0,0x00,0x81
0.925244750000000,0,0x00,0x01
0.925265000000000,0,0x87,0x01
0.925283041666667,0,0xFF,0x00
0.925301250000000,0,0xFF,0x06
0.925322125000000,0,0x07,0x01
0.925340166666667,0,0x00,0x01
0.925358208333333,0,0x47,0x81
0.926155875000000,0,0xB0,0x12
0.926173916666667,0,0xFF,0x13
0.926192125000000,0,0xFF,0x0C
0.928143541666667,0,0xF0,0x02
0.928161541666667,0,0x7F,0x12
0.928179750000000,0,0xFF,0x0C
0.930130958333333,0,0xB0,0x13
0.930148958333333,0,0xFF,0x1A
0.930167166666667,0,0xFF,0x0E
0.932118541666667,0,0xF0,0x02
0.932136541666667,0,0x7F,0x12
0.932154750000000,0,0xFF,0x0C
0.934106125000000,0,0xF0,0x12
0.934124125000000,0,0x7F,0x12
0.934142333333333,0,0xFF,0x0C
0.936093875000000,0,0x98,0x10
0.936111916666667,0,0xFF,0x02
0.936130125000000,0,0xFF,0x0C
0.938081416666667,0,0xF0,0x12
0.938099458333333,0,0xFF,0x12
0.938117666666667,0,0xFF,0x0C
0.940068958333333,0,0xB0,0x13
0.940086958333333,0,0xFF,0x18
0.940105166666667,0,0xFF,0x0E
0.942056416666667,0,0xB0,0x12
0.942074458333333,0,0xFF,0x12
0.942092666666667,0,0xFF,0x0C
0.944044083333333,0,0xB0,0x12
0.944062083333333,0,0xFF,0x10
0.944080291666667,0,0xFF,0x06
0.946031541666667,0,0xB0,0x12
0.946049583333333,0,0xFF,0x13
0.946067791666667,0,0xFF,0x0C
0.948018958333333,0,0xB0,0x12
0.948037000000000,0,0xFF,0x12
0.948055208333333,0,0xFF,0x0C
0.950006166666667,0,0xB8,0x12
0.950024208333333,0,0xFF,0x02
0.950042416666667,0,0xFF,0x0C
0.951993500000000,0,0x98,0x10
0.952011541666667,0,0xFF,0x12
0.952029750000000,0,0xFF,0x0C
0.953980958333333,0,0xF0,0x02
0.953998958333333,0,0x7F,0x12
0.954017166666667,0,0xFF,0x0C
0.955968708333333,0,0xF0,0x12
0.955986750000000,0,0xFF,0x13
0.956004958333333,0,0xFF,0x0C
0.956029750000000,0,0x87,0x12
0.956047791666667,0,0xFF,0x00
0.956066000000000,0,0xFF,0xC7
0.956086541666667,0,0x07,0x12
0.956104583333333,0,0x00,0x12
0.956122625000000,0,0x00,0x12
0.956952250000000,0,0x07,0x01
0.956970291666667,0,0x00,0x00
0.956988333333333,0,0x00,0x01
0.957008958333333,0,0x30,0x01
0.957026958333333,0,0x00,0x81
0.957045041666667,0,0x80,0x01
0.957065291666667,0,0x87,0x01
0.957083333333333,0,0xFF,0x00
0.957101541666667,0,0xFF,0x00
0.957122416666667,0,0x03,0x00
0.957140416666667,0,0x00,0x01
0.957158500000000,0,0x80,0x01
0.957956083333333,0,0xF0,0x12
0.957974083333333,0,0x7F,0x12
0.957992291666667,0,0xFF,0x00
0.959943833333333,0,0xF0,0x12
0.959961833333333,0,0x7F,0x12
0.959980041666667,0,0xFF,0x00
0.961931333333333,0,0xF0,0x02
0.961949333333333,0,0x7F,0x12
0.961967541666667,0,0xFF,0x00
0.963918875000000,0,0xB0,0x12
0.963936875000000,0,0xFF,0x10
0.963955083333333,0,0xFF,0x00
0.965906333333333,0,0xB0,0x12
0.965924375000000,0,0xFF,0x12
0.965942583333333,0,0xFF,0x00
0.967893875000000,0,0x98,0x1A
0.967911916666667,0,0xFF,0x12
0.967930125000000,0,0xFF,0x00
0.969881333333333,0,0x98,0x10
0.969899375000000,0,0xFF,0x02
0.969917583333333,0,0xFF,0x00
0.971868916666667,0,0xB0,0x12
0.971886958333333,0,0xFF,0x12
0.971905166666667,0,0xFF,0x00
0.973856500000000,0,0xF0,0x02
0.973874500000000,0,0x7F,0x12
0.973892708333333,0,0xFF,0x00
0.975843833333333,0,0xB0,0x12
0.975861875000000,0,0xFF,0x02
0.975880083333333,0,0xFF,0x00
0.977831166666667,0,0xB0,0x12
0.977849208333333,0,0xFF,0x12
0.977867375000000,0,0xFF,0x00
0.979818583333333,0,0x98,0x10
0.979836625000000,0,0xFF,0x02
0.979854833333333,0,0xFF,0x00
0.981806166666667,0,0xB0,0x12
0.981824208333333,0,0xFF,0x12
0.981842416666667,0,0xFF,0x00
0.983793708333333,0,0x98,0x1A
0.983811750000000,0,0xFF,0x12
0.983829958333333,0,0xFF,0x00
0.985781166666667,0,0x98,0x1A
0.985799208333333,0,0xFF,0x12
0.985817416666667,0,0xFF,0x00
0.987768625000000,0,0x98,0x10
0.987786666666667,0,0xFF,0x02
0.987804875000000,0,0xFF,0x00
0.987829666666667,0,0x87,0x12
0.987847708333333,0,0xFF,0x00
0.987865916666667,0,0xFF,0x80
0.987886458333333,0,0x07,0x12
0.987904500000000,0,0x00,0x12
0.987922541666667,0,0x00,0x1A
0.988752083333333,0,0x07,0x01
0.988770125000000,0,0x00,0x00
0.988788166666667,0,0x00,0x01
0.988808791666667,0,0x30,0x01
0.988826791666667,0,0x00,0x01
0.988844875000000,0,0x80,0x01
0.988865125000000,0,0xC7,0x01
0.988883166666667,0,0xFF,0x00
0.988901375000000,0,0xFF,0x28
0.988922250000000,0,0x07,0x01
0.988940250000000,0,0x00,0x01
0.988958333333333,0,0xE8,0x01
0.989755958333333,0,0xB0,0x12
0.989773958333333,0,0xFF,0x10
0.989792166666667,0,0xFF,0x10
0.991743708333333,0,0xF0,0x13
0.991761708333333,0,0x7F,0x1A
0.991779916666667,0,0xFF,0x18
0.993731166666667,0,0x98,0x1A
0.993749208333333,0,0xFF,0x12
0.993767416666667,0,0xFF,0x10
0.995718791666667,0,0xF0,0x12
0.995736833333333,0,0xFF,0x13
0.995755041666667,0,0xFF,0x10
0.997706375000000,0,0xB0,0x12
0.997724416666667,0,0xFF,0x12
0.997742625000000,0,0xFF,0x10
0.999693916666667,0,0x90,0x12
0.999711958333333,0,0xFF,0x12
0.999730166666667,0,0xFF,0x10
1.001681458333333,0,0xB0,0x12
1.001699500000000,0,0xFF,0x12
1.001717708333333,0,0xFF,0x10
1.003669083333333,0,0xB0,0x13
1.003687083333333,0,0x7F,0x18
1.003705291666667,0,0xFF,0x10
1.005656625000000,0,0xF0,0x12
1.005674625000000,0,0x7F,0x1A
1.005692833333333,0,0xFF,0x10
1.007644250000000,0,0xB0,0x13
1.007662250000000,0,0xFF,0x10
1.007680458333333,0,0xFF,0x10
1.009631666666667,0,0xB0,0x12
1.009649708333333,0,0xFF,0x12
1.009667916666667,0,0xFF,0x10
1.011619125000000,0,0x98,0x10
1.011637166666667,0,0xFF,0x02
1.011655375000000,0,0xFF,0x00
1.013606750000000,0,0xB0,0x12
1.013624791666667,0,0xFF,0x12
1.013643000000000,0,0xFF,0x10
1.015593958333333,0,0xB0,0x12
1.015612000000000,0,0xFF,0x12
1.015630208333333,0,0xFF,0x10
1.017581458333333,0,0xF0,0x02
1.017599500000000,0,0xFF,0x12
1.017617708333333,0,0xFF,0x10
1.019569166666667,0,0xF0,0x12
1.019587208333333,0,0xFF,0x12
1.019605375000000,0,0xFF,0x10
1.019630208333333,0,0xC3,0x13
1.019648208333333,0,0xFF,0x00
1.019666416666667,0,0xFF,0xA8
1.019687000000000,0,0x03,0x13
1.019705000000000,0,0x80,0x1A
1.019723083333333,0,0x0A,0x12
1.020552750000000,0,0x07,0x01
1.020570791666667,0,0x00,0x01
1.020588875000000,0,0x0E,0x01
1.020609458333333,0,0x1E,0x01
1.020627500000000,0,0xC0,0x01
1.020645541666667,0,0x00,0x81
1.020665791666667,0,0x07,0x01
1.020683833333333,0,0xFF,0x00
1.020702041666667,0,0xFF,0x0E
1.020722916666667,0,0x03,0x00
1.020740916666667,0,0x80,0x01
1.020759000000000,0,0x88,0x01
1.021556250000000,0,0xB0,0x12
1.021574291666667,0,0xFF,0x12
1.021592458333333,0,0xFF,0x14
1.023543791666667,0,0x98,0x10
1.023561833333333,0,0xFF,0x02
1.023580041666667,0,0xFF,0x10
1.025530875000000,0,0x98,0x1A
1.025548916666667,0,0xFF,0x12
1.025567125000000,0,0xFF,0x14
1.027518208333333,0,0xB0,0x12
1.027536250000000,0,0xFF,0x12
1.027554458333333,0,0xFF,0x14
1.029505541666667,0,0x98,0x1A
1.029523583333333,0,0xFF,0x12
1.029541791666667,0,0xFF,0x04
1.031492875000000,0,0x98,0x10
1.031510916666667,0,0xFF,0x02
1.031529125000000,0,0xFF,0x10
1.033480166666667,0,0x98,0x10
1.033498208333333,0,0xFF,0x02
1.033516416666667,0,0xFF,0x14
1.035467541666667,0,0xF0,0x02
1.035485541666667,0,0x7F,0x12
1.035503750000000,0,0xFF,0x14
1.037455000000000,0,0xF0,0x12
1.037473041666667,0,0xFF,0x12
1.037491250000000,0,0xFF,0x14
1.039442500000000,0,0xB0,0x12
1.039460541666667,0,0xFF,0x12
1.039478750000000,0,0xFF,0x14
1.041429833333333,0,0xB0,0x12
1.041447875000000,0,0xFF,0x12
1.041466083333333,0,0xFF,0x14
1.043417041666667,0,0xF0,0x13
1.043435041666667,0,0x7F,0x1A
1.043453250000000,0,0xFF,0x16
1.045404250000000,0,0xB0,0x12
1.045422291666667,0,0xFF,0x12
1.045440500000000,0,0xFF,0x14
1.047391416666667,0,0xB0,0x12
1.047409458333333,0,0xFF,0x12
1.047427666666667,0,0xFF,0x14
1.049378583333333,0,0xF0,0x02
1.049396583333333,0,0x7F,0x12
1.049414791666667,0,0xFF,0x1C
1.051365833333333,0,0xB0,0x12
1.051383875000000,0,0xFF,0x12
1.051402083333333,0,0xFF,0x14
1.051426875000000,0,0x87,0x1A
1.051444916666667,0,0xFF,0x00
1.051463125000000,0,0xFF,0xCA
1.051483666666667,0,0x87,0x1A
1.051501708333333,0,0x00,0x02
1.051519791666667,0,0x33,0x12
1.052349416666667,0,0x07,0x01
1.052367458333333,0,0x00,0x01
1.052385500000000,0,0x33,0x81
1.052406125000000,0,0x34,0x01
1.052424166666667,0,0x80,0x00
1.052442208333333,0,0x00,0x01
1.052462458333333,0,0x87,0x01
1.052480500000000,0,0xFF,0x00
1.052498708333333,0,0xFF,0x33
1.052519583333333,0,0x03,0x00
1.052537583333333,0,0x00,0x01
1.052555666666667,0,0xB0,0x01
1.053353250000000,0,0xF0,0x12
1.053371291666667,0,0xFF,0x12
1.053389458333333,0,0xFF,0x04
1.055340541666667,0,0xB0,0x12
1.055358583333333,0,0xFF,0x13
1.055376791666667,0,0xFF,0x04
1.057327916666667,0,0xF0,0x02
1.057345916666667,0,0x7F,0x12
1.057364125000000,0,0xFF,0x04
1.059315250000000,0,0xF0,0x12
1.059333291666667,0,0xFF,0x12
1.059351458333333,0,0xFF,0x04
1.061302583333333,0,0x98,0x10
1.061320625000000,0,0xFF,0x02
1.061338833333333,0,0xFF,0x04
1.063289916666667,0,0xF0,0x02
1.063307916666667,0,0x7F,0x12
1.063326125000000,0,0xFF,0x04
1.065277250000000,0,0xB0,0x12
1.065295291666667,0,0xFF,0x12
1.065313500000000,0,0xFF,0x04
1.067264708333333,0,0xF0,0x13
1.067282708333333,0,0x7F,0x1A
1.067300916666667,0,0xFF,0x06
1.069252000000000,0,0xF0,0x02
1.069270000000000,0,0x7F,0x12
1.069288208333333,0,0xFF,0x04
1.071239333333333,0,0x98,0x1A
1.071257375000000,0,0xFF,0x12
1.071275583333333,0,0xFF,0x04
1.073226791666667,0,0xF0,0x12
1.073244791666667,0,0x7F,0x12
1.073263000000000,0,0xFF,0x04
1.075214291666667,0,0x98,0x1A
1.075232333333333,0,0xFF,0x12
1.075250541666667,0,0xFF,0x04
1.077201750000000,0,0x98,0x1A
1.077219791666667,0,0xFF,0x12
1.077238000000000,0,0xFF,0x04
1.079189250000000,0,0x98,0x1A
1.079207291666667,0,0xFF,0x12
1.079225500000000,0,0xFF,0x04
1.081176750000000,0,0xB0,0x12
1.081194750000000,0,0xFF,0x10
1.081212958333333,0,0xFF,0x06
1.083164333333333,0,0xB0,0x12
1.083182375000000,0,0xFF,0x02
1.083200583333333,0,0xFF,0x00
1.083225375000000,0,0x87,0x12
1.083243416666667,0,0xFF,0x00
1.083261625000000,0,0xFF,0xB3
1.083282166666667,0,0x07,0x12
1.083300208333333,0,0x00,0x02
1.083318250000000,0,0x14,0x12
1.084148041666667,0,0x07,0x01
1.084166083333333,0,0x00,0x01
1.084184166666667,0,0x00,0x01
1.084204750000000,0,0x1C,0x01
1.084222791666667,0,0x80,0x01
1.084240875000000,0,0xC0,0x01
1.084261083333333,0,0x07,0x81
1.084279125000000,0,0xFF,0x00
1.084297333333333,0,0xFF,0x16
1.084318208333333,0,0x07,0x01
1.084336250000000,0,0x00,0x01
1.084354333333333,0,0xC0,0x01
1.085152250000000,0,0x10,0x12
1.085170291666667,0,0xFF,0x12
1.085188500000000,0,0xFF,0x08
1.087139541666667,0,0xF0,0x02
1.087157541666667,0,0x7F,0x12
1.087175750000000,0,0xFF,0x08
1.089126916666667,0,0xF0,0x02
1.089144916666667,0,0x7F,0x12
1.089163125000000,0,0xFF,0x08
1.091114333333333,0,0x98,0x12
1.091132375000000,0,0xFF,0x02
1.091150583333333,0,0xFF,0x0C
1.093101916666667,0,0x98,0x10
1.093119958333333,0,0xFF,0x12
1.093138166666667,0,0xFF,0x08
1.095089458333333,0,0x98,0x12
1.095107500000000,0,0xFF,0x02
1.095125708333333,0,0xFF,0x0C
1.097076916666667,0,0xB0,0x12
1.097094958333333,0,0xFF,0x12
1.097113166666667,0,0xFF,0x08
1.099064250000000,0,0xB0,0x12
1.099082291666667,0,0xFF,0x12
1.099100500000000,0,0xFF,0x08
1.101051666666667,0,0xF0,0x13
1.101069666666667,0,0x7F,0x1A
1.101087875000000,0,0xFF,0x00
1.103039250000000,0,0x98,0x1A
1.103057291666667,0,0xFF,0x12
1.103075500000000,0,0xFF,0x08
1.105026958333333,0,0xF0,0x02
1.105045000000000,0,0xFF,0x12
1.105063208333333,0,0xFF,0x08
1.107014666666667,0,0xF0,0x02
1.107032666666667,0,0x7F,0x12
1.107050875000000,0,0xFF,0x08
1.109002291666667,0,0xB0,0x12
1.109020333333333,0,0xFF,0x12
1.109038541666667,0,0xFF,0x08
1.110989916666667,0,0xB0,0x12
1.111007958333333,0,0xFF,0x12
1.111026166666667,0,0xFF,0x0C
1.112977541666667,0,0xB0,0x13
1.112995541666667,0,0x7F,0x12
1.113013750000000,0,0xFF,0x08
1.114965291666667,0,0x98,0x1A
1.114983333333333,0,0xFF,0x12
1.115001541666667,0,0xFF,0x08
1.115026333333333,0,0x87,0x1A
1.115044375000000,0,0xFF,0x00
1.115062583333333,0,0xFF,0xD4
1.115083125000000,0,0x87,0x1A
1.115101166666667,0,0x00,0x12
1.115119250000000,0,0x3C,0x12
1.115949000000000,0,0x03,0x01
1.115967000000000,0,0x80,0x01
1.115985083333333,0,0x3E,0x01
1.116005666666667,0,0x34,0x81
1.116023708333333,0,0x80,0x01
1.116041791666667,0,0xC0,0x01
1.116062041666667,0,0x83,0x00
1.116080041666667,0,0xFF,0x00
1.116098250000000,0,0xFF,0x3C
1.116119125000000,0,0x87,0x01
1.116137166666667,0,0x00,0x01
1.116155250000000,0,0xBC,0x00
1.116953125000000,0,0xB0,0x12
1.116971166666667,0,0xFF,0x12
1.116989375000000,0,0xFF,0x18
1.118940291666667,0,0x98,0x18
1.118958333333333,0,0xFF,0x12
1.118976541666667,0,0xFF,0x08
1.120927583333333,0,0xB0,0x12
1.120945583333333,0,0xFF,0x12
1.120963791666667,0,0xFF,0x18
1.122914833333333,0,0xF0,0x12
1.122932833333333,0,0x7F,0x1A
1.122951041666667,0,0xFF,0x18
1.124902083333333,0,0xF0,0x12
1.124920125000000,0,0xFF,0x13
1.124938333333333,0,0xFF,0x18
1.126889416666667,0,0xF0,0x12
1.126907416666667,0,0x7F,0x12
1.126925625000000,0,0xFF,0x18
1.128876666666667,0,0xB0,0x12
1.128894708333333,0,0xFF,0x12
1.128912875000000,0,0xFF,0x18
1.130863916666667,0,0xB0,0x12
1.130881958333333,0,0xFF,0x12
1.130900166666667,0,0xFF,0x18
1.132851333333333,0,0x90,0x12
1.132869375000000,0,0xFF,0x12
1.132887583333333,0,0xFF,0x18
1.134838708333333,0,0x90,0x12
1.134856750000000,0,0xFF,0x12
1.134874958333333,0,0xFF,0x18
1.136826166666667,0,0xB0,0x13
1.136844166666667,0,0x7F,0x18
1.136862375000000,0,0xFF,0x18
1.138813583333333,0,0xF0,0x12
1.138831583333333,0,0x7F,0x12
1.138849791666667,0,0xFF,0x18
1.140801000000000,0,0xF0,0x12
1.140819041666667,0,0xFF,0x12
1.140837250000000,0,0xFF,0x18
1.142788625000000,0,0xB0,0x12
1.142806625000000,0,0xFF,0x1A
1.142824833333333,0,0xFF,0x18
1.144776083333333,0,0xF0,0x12
1.144794083333333,0,0x7F,0x12
1.144812291666667,0,0xFF,0x18
1.146763416666667,0,0xB0,0x13
1.146781416666667,0,0xFF,0x10
1.146799625000000,0,0xFF,0x18
1.146824416666667,0,0x87,0x12
1.146842458333333,0,0xFF,0x00
1.146860666666667,0,0xFF,0xFC
1.146881208333333,0,0x07,0x10
1.146899250000000,0,0x00,0x02
1.146917291666667,0,0x1E,0x12
1.147747041666667,0,0x07,0x01
1.147765083333333,0,0x00,0x01
1.147783166666667,0,0x1F,0x01
1.147803750000000,0,0x34,0x01
1.147821791666667,0,0x80,0x01
1.147839833333333,0,0x00,0x01
1.147860083333333,0,0x87,0x01
1.147878125000000,0,0xFF,0x00
1.147896333333333,0,0xFF,0x1F
1.147917208333333,0,0x03,0x00
1.147935208333333,0,0x00,0x01
1.147953291666667,0,0x9E,0x01
1.148750916666667,0,0x18,0x1A
1.148768958333333,0,0xFF,0x12
1.148787166666667,0,0xFF,0x1C
1.150738333333333,0,0xB0,0x12
1.150756375000000,0,0xFF,0x12
1.150774583333333,0,0xFF,0x1C
1.152725708333333,0,0x98,0x10
1.152743750000000,0,0xFF,0x02
1.152761958333333,0,0xFF,0x1C
1.154713166666667,0,0x98,0x18
1.154731208333333,0,0xFF,0x12
1.154749416666667,0,0xFF,0x1C
1.156700583333333,0,0x98,0x1A
1.156718625000000,0,0xFF,0x12
1.156736833333333,0,0xFF,0x0C
1.158688000000000,0,0xB0,0x12
1.158706000000000,0,0xFF,0x10
1.158724208333333,0,0xFF,0x1C
1.160675458333333,0,0xB0,0x12
1.160693458333333,0,0xFF,0x12
1.160711666666667,0,0xFF,0x1C
1.162662791666667,0,0xF0,0x02
1.162680791666667,0,0x7F,0x12
1.162699000000000,0,0xFF,0x1C
1.164650166666667,0,0xB0,0x12
1.164668208333333,0,0xFF,0x13
1.164686416666667,0,0xFF,0x1C
1.166637500000000,0,0x98,0x12
1.166655541666667,0,0xFF,0x12
1.166673750000000,0,0xFF,0x1C
1.168624958333333,0,0xF0,0x13
1.168642958333333,0,0x7F,0x1A
1.168661166666667,0,0xFF,0x1E
1.170612458333333,0,0x98,0x10
1.170630500000000,0,0xFF,0x02
1.170648708333333,0,0xFF,0x0C
1.172599833333333,0,0xB0,0x12
1.172617875000000,0,0xFF,0x13
1.172636083333333,0,0xFF,0x1C
1.174587250000000,0,0xF0,0x12
1.174605291666667,0,0xFF,0x12
1.174623458333333,0,0xFF,0x1C
1.176574625000000,0,0xF0,0x12
1.176592666666667,0,0xFF,0x12
1.176610875000000,0,0xFF,0x1C
1.178562166666667,0,0x98,0x10
1.178580208333333,0,0xFF,0x02
1.178598416666667,0,0xFF,0x0C
1.178623208333333,0,0x87,0x10
1.178641250000000,0,0xFF,0x00
1.178659458333333,0,0xFF,0x8E
1.178680000000000,0,0x07,0x10
1.178698041666667,0,0x00,0x02
1.178716125000000,0,0x47,0x12
1.179545791666667,0,0x03,0x01
1.179563791666667,0,0x80,0x01
1.179581875000000,0,0x46,0x01
1.179602458333333,0,0x34,0x81
1.179620500000000,0,0x80,0x01
1.179638583333333,0,0xC0,0x01
1.179658833333333,0,0xC3,0x01
1.179676833333333,0,0xFF,0x00
1.179695041666667,0,0xFF,0x66
1.179715916666667,0,0x87,0x01
1.179733958333333,0,0x00,0x01
1.179752041666667,0,0xC2,0x01
1.180549916666667,0,0xB0,0x12
1.180567916666667,0,0xFF,0x10
1.180586125000000,0,0xFF,0x0E
1.182537125000000,0,0xF0,0x02
1.182555125000000,0,0x7F,0x12
1.182573333333333,0,0xFF,0x0C
1.184524416666667,0,0x98,0x10
1.184542458333333,0,0xFF,0x02
1.184560666666667,0,0xFF,0x0C
1.186511916666667,0,0x98,0x10
1.186529958333333,0,0xFF,0x02
1.186548166666667,0,0xFF,0x0C
1.188499458333333,0,0x98,0x10
1.188517500000000,0,0xFF,0x02
1.188535708333333,0,0xFF,0x0C
1.190486958333333,0,0xB0,0x12
1.190505000000000,0,0xFF,0x12
1.190523208333333,0,0xFF,0x0C
1.192474458333333,0,0xB0,0x12
1.192492500000000,0,0xFF,0x13
1.192510708333333,0,0xFF,0x0C
1.194461875000000,0,0xF0,0x12
1.194479875000000,0,0x7F,0x12
1.194498083333333,0,0xFF,0x04
1.196449375000000,0,0x90,0x12
1.196467416666667,0,0xFF,0x12
1.196485625000000,0,0xFF,0x0C
1.198436875000000,0,0xB0,0x12
1.198454916666667,0,0xFF,0x12
1.198473125000000,0,0xFF,0x0C
1.200424333333333,0,0x98,0x18
1.200442375000000,0,0xFF,0x12
1.200460583333333,0,0xFF,0x0C
1.202411750000000,0,0x98,0x1A
1.202429791666667,0,0xFF,0x12
1.202448000000000,0,0xFF,0x0C
1.204399041666667,0,0x90,0x12
1.204417083333333,0,0xFF,0x12
1.204435291666667,0,0xFF,0x0C
1.206386416666667,0,0xF0,0x12
1.206404458333333,0,0xFF,0x12
1.206422625000000,0,0xFF,0x0C
1.208373666666667,0,0x98,0x10
1.208391708333333,0,0xFF,0x02
1.208409916666667,0,0xFF,0x0C
1.210361083333333,0,0x98,0x1A
1.210379125000000,0,0xFF,0x12
1.210397333333333,0,0xFF,0x0C
1.210422125000000,0,0x87,0x10
1.210440166666667,0,0xFF,0x00
1.210458375000000,0,0xFF,0xC2
1.210478916666667,0,0x07,0x12
1.210496958333333,0,0x00,0x13
1.210515000000000,0,0x00,0x12
1.211344666666667,0,0x07,0x01
1.211362708333333,0,0x00,0x01
1.211380791666667,0,0x00,0x01
1.211401375000000,0,0x34,0x01
1.211419416666667,0,0x80,0x01
1.211437458333333,0,0x00,0x01
1.211457708333333,0,0x87,0x01
1.211475750000000,0,0xFF,0x00
1.211493958333333,0,0xFF,0x00
1.211514833333333,0,0x07,0x01
1.211532833333333,0,0x00,0x01
1.211550916666667,0,0xC0,0x01
1.212348708333333,0,0x98,0x10
1.212366750000000,0,0xFF,0x12
1.212384958333333,0,0xFF,0x00
1.214335791666667,0,0xB0,0x12
1.214353833333333,0,0xFF,0x12
1.214372041666667,0,0xFF,0x00
1.216323250000000,0,0xB0,0x12
1.216341250000000,0,0xFF,0x10
1.216359458333333,0,0xFF,0x00
1.218310666666667,0,0x98,0x10
1.218328708333333,0,0xFF,0x02
1.218346916666667,0,0xFF,0x00
1.220298083333333,0,0xB0,0x13
1.220316083333333,0,0x7F,0x10
1.220334291666667,0,0xFF,0x00
1.222285500000000,0,0xB0,0x12
1.222303500000000,0,0xFF,0x10
1.222321708333333,0,0xFF,0x00
1.224272958333333,0,0x98,0x10
1.224291000000000,0,0xFF,0x02
1.224309208333333,0,0xFF,0x00
1.226260458333333,0,0xF0,0x12
1.226278458333333,0,0x7F,0x12
1.226296666666667,0,0xFF,0x00
1.228248041666667,0,0xB0,0x12
1.228266083333333,0,0xFF,0x12
1.228284291666667,0,0xFF,0x00
1.230235583333333,0,0xB0,0x13
1.230253583333333,0,0x7F,0x1A
1.230271791666667,0,0xFF,0x00
1.232222875000000,0,0x98,0x1A
1.232240916666667,0,0xFF,0x12
1.232259125000000,0,0xFF,0x00
1.234210208333333,0,0xB8,0x12
1.234228250000000,0,0xFF,0x12
1.234246458333333,0,0xFF,0x00
1.236197500000000,0,0x90,0x12
1.236215541666667,0,0xFF,0x12
1.236233750000000,0,0xFF,0x00
1.238184791666667,0,0x98,0x18
1.238202833333333,0,0xFF,0x02
1.238221041666667,0,0xFF,0x00
1.240172125000000,0,0x98,0x18
1.240190166666667,0,0xFF,0x12
1.240208375000000,0,0xFF,0x00
1.242159541666667,0,0xF0,0x12
1.242177541666667,0,0x7F,0x12
1.242195750000000,0,0xFF,0x00
1.242220583333333,0,0x83,0x13
1.242238583333333,0,0xFF,0x00
1.242256791666667,0,0xFF,0x80
1.242277375000000,0,0x07,0x12
1.242295375000000,0,0x00,0x10
1.242313458333333,0,0x38,0x02
1.243143166666667,0,0x03,0x01
1.243161166666667,0,0x80,0x01
1.243179250000000,0,0x28,0x01
1.243199875000000,0,0x34,0x01
1.243217875000000,0,0x80,0x01
1.243235958333333,0,0xC0,0x01
1.243256208333333,0,0x83,0x00
1.243274208333333,0,0xFF,0x00
1.243292416666667,0,0xFF,0x00
1.243313291666667,0,0x07,0x01
1.243331333333333,0,0x00,0x01
1.243349416666667,0,0xA8,0x01
1.244147291666667,0,0xF0,0x02
1.244165291666667,0,0x7F,0x12
1.244183500000000,0,0xFF,0x18
1.246134500000000,0,0xB0,0x12
1.246152541666667,0,0xFF,0x13
1.246170750000000,0,0xFF,0x10
1.248122041666667,0,0xB0,0x12
1.248140083333333,0,0xFF,0x12
1.248158291666667,0,0xFF,0x10
1.250109458333333,0,0xF0,0x12
1.250127458333333,0,0x7F,0x1A
1.250145666666667,0,0xFF,0x18
1.252096833333333,0,0xB0,0x12
1.252114875000000,0,0xFF,0x13
1.252133083333333,0,0xFF,0x10
1.254084291666667,0,0xF0,0x02
1.254102291666667,0,0x7F,0x12
1.254120500000000,0,0xFF,0x10
1.256071750000000,0,0xB8,0x12
1.256089791666667,0,0xFF,0x12
1.256108000000000,0,0xFF,0x10
1.258059291666667,0,0xB0,0x12
1.258077291666667,0,0xFF,0x10
1.258095500000000,0,0xFF,0x10
1.260046666666667,0,0xB0,0x12
1.260064708333333,0,0xFF,0x12
1.260082916666667,0,0xFF,0x10
1.262034166666667,0,0xB0,0x12
1.262052208333333,0,0xFF,0x12
1.262070416666667,0,0xFF,0x10
1.264021750000000,0,0xB0,0x12
1.264039791666667,0,0xFF,0x13
1.264058000000000,0,0xFF,0x10
1.266009208333333,0,0x90,0x12
1.266027250000000,0,0xFF,0x12
1.266045458333333,0,0xFF,0x10
1.267996791666667,0,0xB0,0x12
1.268014833333333,0,0xFF,0x10
1.268033041666667,0,0xFF,0x10
1.269984416666667,0,0xB0,0x12
1.270002458333333,0,0xFF,0x12
1.270020666666667,0,0xFF,0x10
1.271972125000000,0,0xB0,0x12
1.271990125000000,0,0xFF,0x10
1.272008333333333,0,0xFF,0x18
1.273959750000000,0,0xB0,0x13
1.273977750000000,0,0x7F,0x1A
1.273995958333333,0,0xFF,0x18
1.274020791666667,0,0x83,0x12
1.274038791666667,0,0xFF,0x00
1.274057000000000,0,0xFF,0xA8
1.274077583333333,0,0x07,0x12
1.274095625000000,0,0x00,0x13
1.274113666666667,0,0x0A,0x12
1.274943416666667,0,0x07,0x01
1.274961458333333,0,0x00,0x00
1.274979500000000,0,0x0A,0x01
1.275000125000000,0,0x34,0x01
1.275018125000000,0,0x00,0x81
1.275036208333333,0,0x80,0x01
1.275056458333333,0,0xC7,0x01
1.275074500000000,0,0xFF,0x00
1.275092666666667,0,0xFF,0x0A
1.275113541666667,0,0x87,0x01
1.275131583333333,0,0x00,0x01
1.275149666666667,0,0xCE,0x01
1.275947541666667,0,0x10,0x12
1.275965583333333,0,0xFF,0x12
1.275983791666667,0,0xFF,0x14
1.277934750000000,0,0xB0,0x12
1.277952791666667,0,0xFF,0x12
1.277971000000000,0,0xFF,0x14
1.279922083333333,0,0xB0,0x12
1.279940125000000,0,0xFF,0x12
1.279958333333333,0,0xFF,0x14
1.281909416666667,0,0x98,0x10
1.281927458333333,0,0xFF,0x02
1.281945666666667,0,0xFF,0x14
1.283896750000000,0,0x98,0x12
1.283914791666667,0,0xFF,0x13
1.283933000000000,0,0xFF,0x14
1.285884125000000,0,0xF0,0x13
1.285902125000000,0,0x7F,0x1A
1.285920333333333,0,0xFF,0x14
1.287871625000000,0,0x98,0x10
1.287889666666667,0,0xFF,0x02
1.287907875000000,0,0xFF,0x10
1.289859083333333,0,0x98,0x10
1.289877125000000,0,0xFF,0x02
1.289895333333333,0,0xFF,0x10
1.291846583333333,0,0xF0,0x12
1.291864625000000,0,0xFF,0x12
1.291882791666667,0,0xFF,0x14
1.293834125000000,0,0xF0,0x12
1.293852166666667,0,0xFF,0x13
1.293870375000000,0,0xFF,0x14
1.295821541666667,0,0xB0,0x12
1.295839583333333,0,0xFF,0x12
1.295857791666667,0,0xFF,0x14
1.297809125000000,0,0xB0,0x12
1.297827166666667,0,0xFF,0x12
1.297845375000000,0,0xFF,0x10
1.299796541666667,0,0xB0,0x12
1.299814583333333,0,0xFF,0x13
1.299832791666667,0,0xFF,0x14
1.301784083333333,0,0xF0,0x02
1.301802125000000,0,0xFF,0x12
1.301820333333333,0,0xFF,0x14
1.303771625000000,0,0x90,0x12
1.303789666666667,0,0xFF,0x12
1.303807875000000,0,0xFF,0x14
1.305759083333333,0,0xF0,0x12
1.305777125000000,0,0xFF,0x12
1.305795291666667,0,0xFF,0x14
1.305820125000000,0,0xC3,0x13
1.305838125000000,0,0xFF,0x00
1.305856333333333,0,0xFF,0x80
1.305876916666667,0,0x07,0x12
1.305894916666667,0,0x00,0x10
1.305913000000000,0,0x32,0x02
1.306742625000000,0,0x07,0x01
1.306760666666667,0,0x00,0x01
1.306778750000000,0,0x33,0x00
1.306799333333333,0,0x3E,0x01
1.306817375000000,0,0xC0,0x00
1.306835416666667,0,0x00,0x01
1.306855666666667,0,0x87,0x01
1.306873708333333,0,0xFF,0x00
1.306891916666667,0,0xFF,0x33
1.306912791666667,0,0x03,0x00
1.306930791666667,0,0x00,0x01
1.306948875000000,0,0xB2,0x01
1.307746708333333,0,0xF0,0x02
1.307764708333333,0,0x7F,0x12
1.307782916666667,0,0xFF,0x04
1.309733875000000,0,0xB0,0x12
1.309751916666667,0,0xFF,0x12
1.309770083333333,0,0xFF,0x04
1.311721333333333,0,0xF0,0x02
1.311739333333333,0,0x7F,0x12
1.311757541666667,0,0xFF,0x04
1.313708583333333,0,0xB0,0x12
1.313726625000000,0,0xFF,0x12
1.313744833333333,0,0xFF,0x04
1.315695750000000,0,0xF0,0x13
1.315713750000000,0,0x7F,0x10
1.315731958333333,0,0xFF,0x04
1.317683041666667,0,0xF0,0x02
1.317701041666667,0,0x7F,0x12
1.317719250000000,0,0xFF,0x04
1.319670375000000,0,0x98,0x10
1.319688416666667,0,0xFF,0x02
1.319706625000000,0,0xFF,0x00
1.321657708333333,0,0xB0,0x12
1.321675708333333,0,0xFF,0x12
1.321693916666667,0,0xFF,0x04
1.323645041666667,0,0xB0,0x12
1.323663083333333,0,0xFF,0x12
1.323681291666667,0,0xFF,0x04
1.325632333333333,0,0xF0,0x02
1.325650333333333,0,0x7F,0x12
1.325668541666667,0,0xFF,0x04
1.327619583333333,0,0xB0,0x12
1.327637625000000,0,0xFF,0x12
1.327655833333333,0,0xFF,0x04
1.329606875000000,0,0xF0,0x02
1.329624875000000,0,0x7F,0x12
1.329643083333333,0,0xFF,0x04
1.331594125000000,0,0x98,0x1A
1.331612166666667,0,0xFF,0x12
1.331630375000000,0,0xFF,0x04
1.333581416666667,0,0xF0,0x02
1.333599416666667,0,0x7F,0x12
1.333617625000000,0,0xFF,0x04
1.335568708333333,0,0xB0,0x12
1.335586750000000,0,0xFF,0x12
1.335604958333333,0,0xFF,0x04
1.337556208333333,0,0xB0,0x12
1.337574250000000,0,0xFF,0x12
1.337592458333333,0,0xFF,0x04
1.337617250000000,0,0xC7,0x12
1.337635291666667,0,0xFF,0x00
1.337653500000000,0,0xFF,0xB2
1.337674041666667,0,0x07,0x12
1.337692041666667,0,0x80,0x12
1.337710125000000,0,0x1E,0x10
1.338539791666667,0,0x07,0x01
1.338557833333333,0,0x00,0x01
1.338575916666667,0,0x10,0x01
1.338596500000000,0,0x36,0x01
1.338614541666667,0,0xC0,0x00
1.338632583333333,0,0x00,0x01
1.338652833333333,0,0x87,0x01
1.338670875000000,0,0xFF,0x00
1.338689083333333,0,0xFF,0x00
1.338709958333333,0,0x03,0x01
1.338727958333333,0,0x80,0x81
1.338746041666667,0,0x9E,0x01
1.339543916666667,0,0xF0,0x02
1.339561916666667,0,0x7F,0x12
1.339580125000000,0,0xFF,0x08
1.341531000000000,0,0xB0,0x12
1.341549041666667,0,0xFF,0x13
1.341567250000000,0,0xFF,0x08
1.343518333333333,0,0xB0,0x12
1.343536375000000,0,0xFF,0x12
1.343554541666667,0,0xFF,0x08
1.345505666666667,0,0x98,0x18
1.345523708333333,0,0xFF,0x02
1.345541916666667,0,0xFF,0x08
1.347493041666667,0,0xB0,0x12
1.347511041666667,0,0xFF,0x12
1.347529250000000,0,0xFF,0x08
1.349480208333333,0,0x98,0x10
1.349498250000000,0,0xFF,0x12
1.349516458333333,0,0xFF,0x08
1.351467500000000,0,0xB0,0x12
1.351485541666667,0,0xFF,0x13
1.351503750000000,0,0xFF,0x08
1.353454791666667,0,0xF0,0x13
1.353472791666667,0,0x7F,0x1A
1.353491000000000,0,0xFF,0x08
1.355442125000000,0,0xB0,0x12
1.355460125000000,0,0xFF,0x12
1.355478333333333,0,0xFF,0x08
1.357429500000000,0,0x98,0x10
1.357447541666667,0,0xFF,0x02
1.357465750000000,0,0xFF,0x08
1.359416875000000,0,0xB0,0x12
1.359434916666667,0,0xFF,0x12
1.359453125000000,0,0xFF,0x08
1.361404250000000,0,0x98,0x10
1.361422291666667,0,0xFF,0x12
1.361440500000000,0,0xFF,0x08
1.363391583333333,0,0xB0,0x12
1.363409625000000,0,0xFF,0x12
1.363427833333333,0,0xFF,0x08
1.365378916666667,0,0x98,0x10
1.365396958333333,0,0xFF,0x02
1.365415166666667,0,0xFF,0x0C
1.367366250000000,0,0xB0,0x12
1.367384291666667,0,0xFF,0x12
1.367402458333333,0,0xFF,0x08
1.369353625000000,0,0xB0,0x13
1.369371625000000,0,0xFF,0x10
1.369389833333333,0,0xFF,0x08
1.369414625000000,0,0x87,0x1A
1.369432666666667,0,0xFF,0x00
1.369450875000000,0,0xFF,0xD4
1.369471416666667,0,0x07,0x10
1.369489458333333,0,0x00,0x02
1.369507541666667,0,0x3C,0x12
1.370337250000000,0,0x07,0x01
1.370355291666667,0,0x00,0x01
1.370373375000000,0,0x3C,0x01
1.370393958333333,0,0x34,0x81
1.370412000000000,0,0x80,0x01
1.370430083333333,0,0xC0,0x01
1.370450333333333,0,0xC3,0x01
1.370468333333333,0,0xFF,0x00
1.370486541666667,0,0xFF,0x3C
1.370507416666667,0,0x87,0x01
1.370525458333333,0,0x00,0x01
1.370543541666667,0,0xFC,0x01
1.371341416666667,0,0xF0,0x12
1.371359458333333,0,0xFF,0x12
1.371377666666667,0,0xFF,0x18
1.373328708333333,0,0xF0,0x02
1.373346708333333,0,0x7F,0x12
1.373364916666667,0,0xFF,0x18
1.375316166666667,0,0xB0,0x12
1.375334208333333,0,0xFF,0x12
1.375352416666667,0,0xFF,0x0C
1.377303750000000,0,0x98,0x1A
1.377321791666667,0,0xFF,0x12
1.377340000000000,0,0xFF,0x18
1.379291250000000,0,0xB0,0x12
1.379309291666667,0,0xFF,0x12
1.379327458333333,0,0xFF,0x18
1.381278625000000,0,0x98,0x10
1.381296666666667,0,0xFF,0x02
1.381314875000000,0,0xFF,0x18
1.383266000000000,0,0x98,0x10
1.383284041666667,0,0xFF,0x02
1.383302250000000,0,0xFF,0x1C
1.385253458333333,0,0xF0,0x12
1.385271458333333,0,0x7F,0x1A
1.385289666666667,0,0xFF,0x18
1.387241041666667,0,0xB0,0x12
1.387259083333333,0,0xFF,0x12
1.387277291666667,0,0xFF,0x18
1.389228500000000,0,0xF0,0x02
1.389246500000000,0,0x7F,0x12
1.389264708333333,0,0xFF,0x18
1.391215791666667,0,0xB0,0x12
1.391233833333333,0,0xFF,0x12
1.391252041666667,0,0xFF,0x18
1.393203333333333,0,0xF0,0x02
1.393221333333333,0,0x7F,0x12
1.393239541666667,0,0xFF,0x18
1.395190875000000,0,0xB0,0x12
1.395208916666667,0,0xFF,0x12
1.395227125000000,0,0xFF,0x18
1.397178416666667,0,0xB0,0x12
1.397196458333333,0,0xFF,0x12
1.397214666666667,0,0xFF,0x18
1.399166125000000,0,0xB0,0x12
1.399184166666667,0,0xFF,0x12
1.399202375000000,0,0xFF,0x1C
1.401153708333333,0,0xB0,0x12
1.401171750000000,0,0xFF,0x10
1.401189958333333,0,0xFF,0x18
1.401214791666667,0,0x83,0x12
1.401232791666667,0,0xFF,0x00
1.401251000000000,0,0xFF,0xBC
1.401271583333333,0,0x03,0x13
1.401289583333333,0,0x80,0x12
1.401307666666667,0,0x1E,0x12
1.402137416666667,0,0x07,0x01
1.402155458333333,0,0x00,0x01
1.402173541666667,0,0x1F,0x00
1.402194125000000,0,0x36,0x01
1.402212166666667,0,0x80,0x00
1.402230208333333,0,0x00,0x01
1.402250458333333,0,0x87,0x01
1.402268500000000,0,0xFF,0x00
1.402286708333333,0,0xFF,0x1E
1.402307583333333,0,0x03,0x00
1.402325583333333,0,0x80,0x01
1.402343666666667,0,0x9E,0x01
1.403141625000000,0,0xB0,0x13
1.403159625000000,0,0xFF,0x1A
1.403177833333333,0,0xFF,0x1C
1.405128916666667,0,0xB0,0x12
1.405146958333333,0,0xFF,0x13
1.405165166666667,0,0xFF,0x1C
1.407116458333333,0,0xB0,0x13
1.407134458333333,0,0xFF,0x1A
1.407152666666667,0,0xFF,0x1E
1.409104000000000,0,0x98,0x1A
1.409122041666667,0,0xFF,0x12
1.409140250000000,0,0xFF,0x1C
1.411091500000000,0,0x98,0x1A
1.411109541666667,0,0xFF,0x12
1.411127750000000,0,0xFF,0x1C
1.413079083333333,0,0x90,0x12
1.413097125000000,0,0xFF,0x12
1.413115333333333,0,0xFF,0x1C
1.415066541666667,0,0x98,0x1A
1.415084583333333,0,0xFF,0x12
1.415102791666667,0,0xFF,0x1C
1.417054041666667,0,0xF0,0x12
1.417072083333333,0,0xFF,0x12
1.417090291666667,0,0xFF,0x1C
1.419041416666667,0,0xB0,0x12
1.419059458333333,0,0xFF,0x12
1.419077666666667,0,0xFF,0x1C
1.421028875000000,0,0xB0,0x12
1.421046916666667,0,0xFF,0x12
1.421065125000000,0,0xFF,0x1C
1.423016416666667,0,0xF0,0x02
1.423034416666667,0,0x7F,0x12
1.423052625000000,0,0xFF,0x1C
1.425004000000000,0,0xB0,0x12
1.425022041666667,0,0xFF,0x13
1.425040250000000,0,0xFF,0x1C
1.426991583333333,0,0x98,0x1A
1.427009625000000,0,0xFF,0x12
1.427027833333333,0,0xFF,0x1C
1.428979208333333,0,0xF0,0x02
1.428997208333333,0,0x7F,0x12
1.429015416666667,0,0xFF,0x1C
1.430966708333333,0,0xB0,0x12
1.430984750000000,0,0xFF,0x13
1.431002958333333,0,0xFF,0x1C
1.432954125000000,0,0xF0,0x12
1.432972166666667,0,0xFF,0x12
1.432990375000000,0,0xFF,0x1C
1.433015166666667,0,0xC3,0x02
1.433033166666667,0,0xFF,0x00
1.433051375000000,0,0xFF,0x9E
1.433071958333333,0,0x03,0x13
1.433089958333333,0,0x80,0x1A
1.433108041666667,0,0x46,0x12
1.433937750000000,0,0x07,0x01
1.433955791666667,0,0x00,0x01
1.433973833333333,0,0x47,0x81
1.433994458333333,0,0x34,0x01
1.434012500000000,0,0x80,0x01
1.434030541666667,0,0x00,0x01
1.434050791666667,0,0x87,0x01
1.434068833333333,0,0xFF,0x00
1.434087041666667,0,0xFF,0x46
1.434107875000000,0,0x87,0x01
1.434125916666667,0,0x00,0x01
1.434144000000000,0,0xC2,0x01
1.434941875000000,0,0xB0,0x12
1.434959875000000,0,0xFF,0x10
1.434978083333333,0,0xFF,0x0E
1.436929083333333,0,0xF0,0x12
1.436947125000000,0,0xFF,0x13
1.436965333333333,0,0xFF,0x0C
1.438916583333333,0,0xF0,0x12
1.438934625000000,0,0xFF,0x12
1.438952833333333,0,0xFF,0x0C
1.440904125000000,0,0xF0,0x12
1.440922166666667,0,0xFF,0x12
1.440940375000000,0,0xFF,0x0C
1.442891583333333,0,0x90,0x12
1.442909625000000,0,0xFF,0x12
1.442927833333333,0,0xFF,0x0C
1.444879083333333,0,0xB0,0x12
1.444897125000000,0,0xFF,0x13
1.444915333333333,0,0xFF,0x0C
1.446866750000000,0,0x98,0x10
1.446884791666667,0,0xFF,0x02
1.446903000000000,0,0xFF,0x0C
1.448854333333333,0,0xB0,0x12
1.448872375000000,0,0xFF,0x12
1.448890583333333,0,0xFF,0x0C
1.450841875000000,0,0x98,0x1A
1.450859916666667,0,0xFF,0x12
1.450878125000000,0,0xFF,0x0C
1.452829416666667,0,0xB0,0x12
1.452847458333333,0,0xFF,0x12
1.452865666666667,0,0xFF,0x0C
1.454817000000000,0,0xF0,0x02
1.454835041666667,0,0xFF,0x13
1.454853250000000,0,0xFF,0x0C
1.456804416666667,0,0x90,0x12
1.456822458333333,0,0xFF,0x12
1.456840666666667,0,0xFF,0x0C
1.458791875000000,0,0xF0,0x02
1.458809875000000,0,0x7F,0x12
1.458828083333333,0,0xFF,0x0C
1.460779291666667,0,0x90,0x12
1.460797333333333,0,0xFF,0x12
1.460815541666667,0,0xFF,0x0C
1.462766791666667,0,0x98,0x10
1.462784833333333,0,0xFF,0x02
1.462803041666667,0,0xFF,0x0C
1.464754250000000,0,0xF0,0x12
1.464772250000000,0,0x7F,0x1A
1.464790458333333,0,0xFF,0x04
1.464815291666667,0,0x83,0x13
1.464833291666667,0,0xFF,0x00
1.464851500000000,0,0xFF,0xC6
1.464872083333333,0,0x03,0x13
1.464890083333333,0,0x80,0x1A
1.464908166666667,0,0x00,0x12
1.465737875000000,0,0x07,0x01
1.465755875000000,0,0x80,0x81
1.465773958333333,0,0x00,0x01
1.465794583333333,0,0x30,0x01
1.465812583333333,0,0x00,0x01
1.465830666666667,0,0x80,0x01
1.465850916666667,0,0xC7,0x01
1.465868916666667,0,0xFF,0x80
1.465887125000000,0,0xFF,0x00
1.465908000000000,0,0x87,0x01
1.465926041666667,0,0x00,0x01
1.465944125000000,0,0x80,0x00
1.466741958333333,0,0xB0,0x12
1.466759958333333,0,0xFF,0x12
1.466778166666667,0,0xFF,0x00
1.468729166666667,0,0xF0,0x12
1.468747166666667,0,0x7F,0x12
1.468765375000000,0,0xFF,0x00
1.470716500000000,0,0x98,0x10
1.470734541666667,0,0xFF,0x02
1.470752750000000,0,0xFF,0x00
1.472703958333333,0,0xF0,0x02
1.472722000000000,0,0xFF,0x12
1.472740208333333,0,0xFF,0x00
1.474691541666667,0,0x98,0x10
1.474709583333333,0,0xFF,0x02
1.474727791666667,0,0xFF,0x00
1.476678958333333,0,0xB0,0x12
1.476696958333333,0,0xFF,0x10
1.476715166666667,0,0xFF,0x00
1.478666250000000,0,0x98,0x18
1.478684291666667,0,0xFF,0x02
1.478702500000000,0,0xFF,0x00
1.480653708333333,0,0xB0,0x12
1.480671708333333,0,0xFF,0x10
1.480689916666667,0,0xFF,0x00
1.482641333333333,0,0xB0,0x12
1.482659375000000,0,0xFF,0x12
1.482677583333333,0,0xFF,0x00
1.484628625000000,0,0xB0,0x12
1.484646666666667,0,0xFF,0x12
1.484664875000000,0,0xFF,0x00
1.486615791666667,0,0x98,0x1A
1.486633833333333,0,0xFF,0x12
1.486652041666667,0,0xFF,0x00
1.488603083333333,0,0x98,0x1A
1.488621125000000,0,0xFF,0x12
1.488639333333333,0,0xFF,0x00
1.490590291666667,0,0x98,0x18
1.490608333333333,0,0xFF,0x02
1.490626541666667,0,0xFF,0x00
1.492577625000000,0,0xB0,0x12
1.492595666666667,0,0xFF,0x12
1.492613875000000,0,0xFF,0x00
1.494564958333333,0,0xB0,0x12
1.494583000000000,0,0xFF,0x13
1.494601208333333,0,0xFF,0x00
1.496552375000000,0,0xF0,0x13
1.496570375000000,0,0x7F,0x1A
1.496588583333333,0,0xFF,0x00
1.496613416666667,0,0x87,0x12
1.496631416666667,0,0xFF,0x00
1.496649625000000,0,0xFF,0x80
1.496670166666667,0,0x87,0x12
1.496688208333333,0,0x00,0x12
1.496706291666667,0,0x3C,0x02
1.497535958333333,0,0x07,0x01
1.497554000000000,0,0x00,0x01
1.497572041666667,0,0x00,0x01
1.497592666666667,0,0x30,0x01
1.497610666666667,0,0x00,0x81
1.497628750000000,0,0x80,0x01
1.497649000000000,0,0x87,0x01
1.497667041666667,0,0xFF,0x00
1.497685250000000,0,0xFF,0x28
1.497706125000000,0,0x07,0x01
1.497724125000000,0,0x00,0x01
1.497742208333333,0,0xFC,0x01
1.498540041666667,0,0xB0,0x12
1.498558083333333,0,0xFF,0x12
1.498576250000000,0,0xFF,0x10
1.500527166666667,0,0x98,0x10
1.500545208333333,0,0xFF,0x02
1.500563416666667,0,0xFF,0x00
1.502514666666667,0,0x98,0x10
1.502532708333333,0,0xFF,0x02
1.502550916666667,0,0xFF,0x10
1.504502208333333,0,0xB0,0x13
1.504520208333333,0,0xFF,0x10
1.504538416666667,0,0xFF,0x10
1.506489541666667,0,0xB0,0x12
1.506507583333333,0,0xFF,0x12
1.506525791666667,0,0xFF,0x10
1.508476916666667,0,0xB0,0x12
1.508494958333333,0,0xFF,0x12
1.508513166666667,0,0xFF,0x10
1.510464291666667,0,0x98,0x1A
1.510482333333333,0,0xFF,0x12
1.510500541666667,0,0xFF,0x00
1.512451666666667,0,0xB0,0x12
1.512469666666667,0,0xFF,0x10
1.512487875000000,0,0xFF,0x10
1.514439166666667,0,0x98,0x1A
1.514457208333333,0,0xFF,0x12
1.514475416666667,0,0xFF,0x10
1.516426625000000,0,0xB0,0x13
1.516444625000000,0,0x7F,0x1A
1.516462833333333,0,0xFF,0x18
1.518414000000000,0,0xF0,0x02
1.518432000000000,0,0x7F,0x12
1.518450208333333,0,0xFF,0x10
1.520401333333333,0,0x90,0x12
1.520419375000000,0,0xFF,0x12
1.520437583333333,0,0xFF,0x10
1.522388750000000,0,0xB0,0x13
1.522406750000000,0,0xFF,0x1A
1.522424958333333,0,0xFF,0x10
1.524376083333333,0,0x98,0x10
1.524394125000000,0,0xFF,0x02
1.524412333333333,0,0xFF,0x00
1.526363416666667,0,0xF0,0x02
1.526381416666667,0,0x7F,0x12
1.526399625000000,0,0xFF,0x10
1.528350791666667,0,0xF0,0x02
1.528368791666667,0,0x7F,0x12
1.528387000000000,0,0xFF,0x10
1.528411833333333,0,0x83,0x13
1.528429833333333,0,0xFF,0x00
1.528448041666667,0,0xFF,0xA0
1.528468625000000,0,0x03,0x12
1.528486625000000,0,0x00,0x10
1.528504708333333,0,0x0A,0x12
1.529334416666667,0,0x03,0x01
1.529352416666667,0,0x80,0x81
1.529370500000000,0,0x00,0x01
1.529391125000000,0,0x30,0x01
1.529409125000000,0,0x00,0x01
1.529427208333333,0,0xC0,0x01
1.529447458333333,0,0x83,0x00
1.529465458333333,0,0xFF,0x00
1.529483666666667,0,0xFF,0x02
1.529504541666667,0,0x07,0x01
1.529522583333333,0,0x00,0x01
1.529540666666667,0,0x8B,0x01
1.530338500000000,0,0xF0,0x02
1.530356500000000,0,0x7F,0x12
1.530374708333333,0,0xFF,0x1C
1.532325583333333,0,0x98,0x1A
1.532343625000000,0,0xFF,0x12
1.532361833333333,0,0xFF,0x14
1.534313125000000,0,0xB0,0x12
1.534331125000000,0,0xFF,0x10
1.534349333333333,0,0xFF,0x14
1.536300541666667,0,0xF0,0x12
1.536318583333333,0,0xFF,0x12
1.536336750000000,0,0xFF,0x14
1.538287958333333,0,0xF0,0x13
1.538305958333333,0,0x7F,0x1A
1.538324166666667,0,0xFF,0x16
1.540275333333333,0,0xF0,0x02
1.540293333333333,0,0x7F,0x12
1.540311541666667,0,0xFF,0x14
1.542262750000000,0,0xB0,0x13
1.542280750000000,0,0xFF,0x10
1.542298958333333,0,0xFF,0x14
1.544250125000000,0,0xB0,0x12
1.544268125000000,0,0xFF,0x12
1.544286333333333,0,0xFF,0x14
1.546237666666667,0,0xF0,0x12
1.546255666666667,0,0x7F,0x12
1.546273875000000,0,0xFF,0x14
1.548225125000000,0,0x98,0x10
1.548243166666667,0,0xFF,0x02
1.548261375000000,0,0xFF,0x10
1.550212458333333,0,0xF0,0x12
1.550230458333333,0,0x7F,0x1A
1.550248666666667,0,0xFF,0x1C
1.552199833333333,0,0x98,0x10
1.552217875000000,0,0xFF,0x02
1.552236083333333,0,0xFF,0x00
1.554187208333333,0,0xB0,0x12
1.554205250000000,0,0xFF,0x10
1.554223458333333,0,0xFF,0x16
1.556174916666667,0,0x98,0x1A
1.556192958333333,0,0xFF,0x12
1.556211166666667,0,0xFF,0x14
1.558162458333333,0,0xB0,0x12
1.558180458333333,0,0xFF,0x10
1.558198666666667,0,0xFF,0x14
1.560149708333333,0,0xB0,0x13
1.560167708333333,0,0x7F,0x12
1.560185916666667,0,0xFF,0x1C
1.560210750000000,0,0x83,0x12
1.560228750000000,0,0xFF,0x00
1.560246958333333,0,0xFF,0x88
1.560267541666667,0,0x07,0x12
1.560285541666667,0,0x00,0x12
1.560303625000000,0,0x32,0x02
1.561133333333333,0,0x07,0x01
1.561151375000000,0,0x00,0x01
1.561169416666667,0,0x1A,0x01
1.561190041666667,0,0x30,0x01
1.561208041666667,0,0x00,0x81
1.561226125000000,0,0x80,0x01
1.561246375000000,0,0x87,0x01
1.561264416666667,0,0xFF,0x00
1.561282625000000,0,0xFF,0x33
1.561303500000000,0,0x03,0x00
1.561321500000000,0,0x00,0x01
1.561339583333333,0,0xF2,0x01
1.562137458333333,0,0x18,0x1A
1.562155500000000,0,0xFF,0x12
1.562173708333333,0,0xFF,0x04
1.564124708333333,0,0xB0,0x12
1.564142750000000,0,0xFF,0x12
1.564160958333333,0,0xFF,0x04
1.566112083333333,0,0xF0,0x02
1.566130083333333,0,0x7F,0x12
1.566148291666667,0,0xFF,0x04
1.568099500000000,0,0xB0,0x12
1.568117541666667,0,0xFF,0x12
1.568135750000000,0,0xFF,0x04
1.570086791666667,0,0xF0,0x02
1.570104791666667,0,0x7F,0x12
1.570123000000000,0,0xFF,0x04
1.572074041666667,0,0xF0,0x13
1.572092041666667,0,0x7F,0x1A
1.572110250000000,0,0xFF,0x06
1.574061333333333,0,0xB0,0x13
1.574079333333333,0,0x7F,0x1A
1.574097541666667,0,0xFF,0x06
1.576048666666667,0,0xB0,0x12
1.576066708333333,0,0xFF,0x10
1.576084916666667,0,0xFF,0x04
1.578036041666667,0,0xB0,0x12
1.578054083333333,0,0xFF,0x12
1.578072291666667,0,0xFF,0x04
1.580023333333333,0,0xB0,0x12
1.580041375000000,0,0xFF,0x02
1.580059583333333,0,0xFF,0x00
1.582010708333333,0,0xF0,0x02
1.582028708333333,0,0x7F,0x12
1.582046916666667,0,0xFF,0x04
1.583998000000000,0,0xB0,0x12
1.584016041666667,0,0xFF,0x13
1.584034250000000,0,0xFF,0x04
1.585985416666667,0,0xB0,0x13
1.586003416666667,0,0x7F,0x18
1.586021625000000,0,0xFF,0x04
1.587972916666667,0,0xB0,0x12
1.587990958333333,0,0xFF,0x12
1.588009166666667,0,0xFF,0x04
1.589960041666667,0,0xB0,0x12
1.589978083333333,0,0xFF,0x13
1.589996291666667,0,0xFF,0x04
1.591947416666667,0,0xF0,0x02
1.591965416666667,0,0x7F,0x12
1.591983625000000,0,0xFF,0x04
1.592008458333333,0,0x83,0x12
1.592026458333333,0,0xFF,0x00
1.592044666666667,0,0xFF,0xB0
1.592065250000000,0,0x03,0x13
1.592083250000000,0,0x00,0x18
1.592101333333333,0,0x14,0x12
1.592931041666667,0,0x03,0x01
1.592949041666667,0,0x80,0x01
1.592967125000000,0,0x16,0x01
1.592987750000000,0,0x34,0x01
1.593005750000000,0,0x80,0x01
1.593023833333333,0,0xC0,0x01
1.593044083333333,0,0x83,0x01
1.593062083333333,0,0xFF,0x00
1.593080291666667,0,0xFF,0x14
1.593101166666667,0,0x87,0x01
1.593119208333333,0,0x00,0x01
1.593137291666667,0,0xC0,0x01
1.593934833333333,0,0xB0,0x12
1.593952875000000,0,0xFF,0x13
1.593971083333333,0,0xFF,0x08
1.595922333333333,0,0xB0,0x12
1.595940375000000,0,0xFF,0x13
1.595958583333333,0,0xFF,0x08
1.597909916666667,0,0xF0,0x12
1.597927958333333,0,0xFF,0x12
1.597946166666667,0,0xFF,0x08
1.599897458333333,0,0x98,0x1A
1.599915500000000,0,0xFF,0x12
1.599933708333333,0,0xFF,0x08
1.601885041666667,0,0xB0,0x12
1.601903083333333,0,0xFF,0x12
1.601921291666667,0,0xFF,0x0C
1.603872583333333,0,0xB0,0x12
1.603890583333333,0,0xFF,0x10
1.603908791666667,0,0xFF,0x08
1.605859875000000,0,0xB0,0x12
1.605877916666667,0,0xFF,0x12
1.605896125000000,0,0xFF,0x08
1.607847250000000,0,0xB0,0x12
1.607865291666667,0,0xFF,0x12
1.607883500000000,0,0xFF,0x08
1.609834541666667,0,0xB0,0x12
1.609852583333333,0,0xFF,0x12
1.609870791666667,0,0xFF,0x08
1.611821833333333,0,0xF0,0x13
1.611839833333333,0,0x7F,0x1A
1.611858041666667,0,0xFF,0x00
1.613809125000000,0,0xB0,0x12
1.613827166666667,0,0xFF,0x13
1.613845375000000,0,0xFF,0x08
1.615796458333333,0,0x98,0x18
1.615814500000000,0,0xFF,0x02
1.615832708333333,0,0xFF,0x0C
1.617783875000000,0,0xB0,0x12
1.617801916666667,0,0xFF,0x12
1.617820125000000,0,0xFF,0x08
1.619771375000000,0,0xF0,0x12
1.619789416666667,0,0xFF,0x12
1.619807583333333,0,0xFF,0x08
1.621758708333333,0,0xF0,0x02
1.621776708333333,0,0x7F,0x12
1.621794916666667,0,0xFF,0x08
1.623746041666667,0,0xB0,0x12
1.623764041666667,0,0xFF,0x12
1.623782250000000,0,0xFF,0x08
1.623807041666667,0,0x87,0x12
1.623825083333333,0,0xFF,0x00
1.623843291666667,0,0xFF,0x94
1.623863833333333,0,0x07,0x12
1.623881833333333,0,0x80,0x12
1.623899916666667,0,0x1E,0x10
1.624729541666667,0,0x07,0x01
1.624747583333333,0,0x00,0x01
1.624765666666667,0,0x3C,0x01
1.624786250000000,0,0x36,0x01
1.624804291666667,0,0x80,0x00
1.624822333333333,0,0x00,0x01
1.624842583333333,0,0x87,0x01
1.624860625000000,0,0xFF,0x00
1.624878833333333,0,0xFF,0x3C
1.624899666666667,0,0x87,0x01
1.624917708333333,0,0x00,0x01
1.624935791666667,0,0xFC,0x00
1.625733291666667,0,0x18,0x1A
1.625751333333333,0,0xFF,0x12
1.625769541666667,0,0xFF,0x08
1.627720708333333,0,0x98,0x10
1.627738750000000,0,0xFF,0x12
1.627756958333333,0,0xFF,0x08
1.629708250000000,0,0xF0,0x12
1.629726291666667,0,0xFF,0x13
1.629744500000000,0,0xFF,0x18
1.631695750000000,0,0xB0,0x12
1.631713750000000,0,0xFF,0x10
1.631731958333333,0,0xFF,0x18
1.633683291666667,0,0x98,0x1A
1.633701333333333,0,0xFF,0x12
1.633719541666667,0,0xFF,0x18
1.635670500000000,0,0xB0,0x12
1.635688541666667,0,0xFF,0x13
1.635706750000000,0,0xFF,0x18
1.637657791666667,0,0xB0,0x12
1.637675791666667,0,0xFF,0x10
1.637694000000000,0,0xFF,0x18
1.639645125000000,0,0x98,0x1A
1.639663166666667,0,0xFF,0x02
1.639681375000000,0,0xFF,0x0C
1.641632541666667,0,0xB0,0x12
1.641650583333333,0,0xFF,0x13
1.641668791666667,0,0xFF,0x18
1.643619875000000,0,0xB0,0x12
1.643637916666667,0,0xFF,0x12
1.643656125000000,0,0xFF,0x08
1.645607166666667,0,0xB0,0x12
1.645625166666667,0,0xFF,0x10
1.645643375000000,0,0xFF,0x18
1.647594375000000,0,0x90,0x12
1.647612416666667,0,0xFF,0x12
1.647630625000000,0,0xFF,0x18
1.649581708333333,0,0x98,0x10
1.649599750000000,0,0xFF,0x12
1.649617958333333,0,0xFF,0x08
1.651569041666667,0,0xF0,0x12
1.651587041666667,0,0x7F,0x12
1.651605250000000,0,0xFF,0x18
1.653556375000000,0,0xF0,0x02
1.653574375000000,0,0x7F,0x1A
1.653592583333333,0,0xFF,0x18
1.655543750000000,0,0xB0,0x12
1.655561791666667,0,0xFF,0x13
1.655580000000000,0,0xFF,0x18
1.655604791666667,0,0xC7,0x12
1.655622833333333,0,0xFF,0x00
1.655641041666667,0,0xFF,0xBC
1.655661583333333,0,0x07,0x12
1.655679625000000,0,0x00,0x13
1.655697666666667,0,0x1E,0x1A
1.656527333333333,0,0x07,0x01
1.656545375000000,0,0x00,0x00
1.656563416666667,0,0x1E,0x01
1.656584041666667,0,0x30,0x00
1.656602041666667,0,0x00,0x01
1.656620125000000,0,0x80,0x01
1.656640375000000,0,0xC3,0x01
1.656658375000000,0,0xFF,0x00
1.656676583333333,0,0xFF,0x1E
1.656697458333333,0,0x07,0x01
1.656715500000000,0,0x00,0x01
1.656733541666667,0,0x1F,0x81
1.657531375000000,0,0xF0,0x12
1.657549375000000,0,0x7F,0x12
1.657567583333333,0,0xFF,0x1C
1.659518375000000,0,0xF0,0x02
1.659536375000000,0,0x7F,0x12
1.659554583333333,0,0xFF,0x1C
1.661505666666667,0,0xB0,0x12
1.661523708333333,0,0xFF,0x12
1.661541916666667,0,0xFF,0x1C
1.663493000000000,0,0x98,0x10
1.663511041666667,0,0xFF,0x02
1.663529250000000,0,0xFF,0x0C
1.665480291666667,0,0xB0,0x12
1.665498291666667,0,0xFF,0x10
1.665516500000000,0,0xFF,0x1E
1.667467500000000,0,0xB0,0x12
1.667485541666667,0,0xFF,0x12
1.667503750000000,0,0xFF,0x1C
1.669454833333333,0,0xB8,0x12
1.669472875000000,0,0xFF,0x12
1.669491083333333,0,0xFF,0x1C
1.671442083333333,0,0xB0,0x12
1.671460083333333,0,0xFF,0x12
1.671478291666667,0,0xFF,0x1C
1.673429375000000,0,0xB0,0x12
1.673447416666667,0,0xFF,0x12
1.673465625000000,0,0xFF,0x1C
1.675416916666667,0,0xB0,0x12
1.675434916666667,0,0xFF,0x10
1.675453125000000,0,0xFF,0x1C
1.677404000000000,0,0xB0,0x12
1.677422000000000,0,0xFF,0x12
1.677440208333333,0,0xFF,0x1C
1.679391208333333,0,0xB0,0x12
1.679409250000000,0,0xFF,0x12
1.679427458333333,0,0xFF,0x1C
1.681378666666667,0,0xB0,0x12
1.681396666666667,0,0xFF,0x10
1.681414875000000,0,0xFF,0x1E
1.683365791666667,0,0xB0,0x12
1.683383833333333,0,0xFF,0x12
1.683402000000000,0,0xFF,0x1C
1.685353125000000,0,0xB0,0x12
1.685371166666667,0,0xFF,0x10
1.685389375000000,0,0xFF,0x1C
1.687340458333333,0,0x98,0x1A
1.687358500000000,0,0xFF,0x12
1.687376708333333,0,0xFF,0x1C
1.687401500000000,0,0x87,0x10
1.687419541666667,0,0xFF,0x00
1.687437750000000,0,0xFF,0xDE
1.687458291666667,0,0x87,0x1A
1.687476333333333,0,0x00,0x12
1.687494416666667,0,0x43,0x13
1.688324083333333,0,0x07,0x01
1.688342125000000,0,0x00,0x01
1.688360208333333,0,0x02,0x01
1.688380791666667,0,0x1E,0x01
1.688398833333333,0,0xC0,0x01
1.688416875000000,0,0x00,0x81
1.688437125000000,0,0x87,0x01
1.688455166666667,0,0xFF,0x00
1.688473375000000,0,0xFF,0x06
1.688494250000000,0,0x07,0x01
1.688512250000000,0,0x80,0x81
1.688530333333333,0,0xE6,0x01
1.689327916666667,0,0xB0,0x13
1.689345916666667,0,0xFF,0x10
1.689364125000000,0,0xFF,0x0C
1.691315500000000,0,0x98,0x10
1.691333541666667,0,0xFF,0x02
1.691351750000000,0,0xFF,0x0C
1.693302625000000,0,0xF0,0x02
1.693320625000000,0,0x7F,0x12
1.693338833333333,0,0xFF,0x0C
1.695290208333333,0,0xB0,0x12
1.695308208333333,0,0xFF,0x10
1.695326416666667,0,0xFF,0x0C
1.697277708333333,0,0xB0,0x13
1.697295708333333,0,0x7F,0x1A
1.697313916666667,0,0xFF,0x04
1.699265166666667,0,0x98,0x1A
1.699283208333333,0,0xFF,0x12
1.699301416666667,0,0xFF,0x0C
1.701252458333333,0,0xF0,0x02
1.701270458333333,0,0x7F,0x12
1.701288666666667,0,0xFF,0x0C
1.703239833333333,0,0xB0,0x12
1.703257875000000,0,0xFF,0x12
1.703276041666667,0,0xFF,0x0C
1.705226958333333,0,0xB0,0x12
1.705245000000000,0,0xFF,0x13
1.705263208333333,0,0xFF,0x0C
1.707214000000000,0,0xB0,0x12
1.707232041666667,0,0xFF,0x12
1.707250208333333,0,0xFF,0x0C
1.709201250000000,0,0xF0,0x12
1.709219250000000,0,0x7F,0x12
1.709237458333333,0,0xFF,0x0C
1.711188750000000,0,0xB0,0x12
1.711206791666667,0,0xFF,0x12
1.711225000000000,0,0xFF,0x0C
1.713175916666667,0,0xB0,0x12
1.713193958333333,0,0xFF,0x13
1.713212166666667,0,0xFF,0x0C
1.715163250000000,0,0xB0,0x13
1.715181250000000,0,0x7F,0x18
1.715199458333333,0,0xFF,0x0C
1.717150458333333,0,0x98,0x12
1.717168500000000,0,0xFF,0x12
1.717186708333333,0,0xFF,0x0C
1.719137916666667,0,0x98,0x12
1.719155958333333,0,0xFF,0x02
1.719174166666667,0,0xFF,0x0C
1.719198958333333,0,0x87,0x12
1.719217000000000,0,0xFF,0x00
1.719235166666667,0,0xFF,0x46
1.719255750000000,0,0x03,0x02
1.719273750000000,0,0x80,0x12
1.719291833333333,0,0x00,0x12
1.720121375000000,0,0x07,0x01
1.720139375000000,0,0x80,0x81
1.720157458333333,0,0x00,0x01
1.720178083333333,0,0x34,0x01
1.720196083333333,0,0x80,0x01
1.720214166666667,0,0xC0,0x01
1.720234375000000,0,0x07,0x81
1.720252416666667,0,0xFF,0x00
1.720270625000000,0,0xFF,0x00
1.720291500000000,0,0x07,0x01
1.720309500000000,0,0x80,0x81
1.720327583333333,0,0x80,0x01
1.721125416666667,0,0xF0,0x12
1.721143458333333,0,0xFF,0x12
1.721161625000000,0,0xFF,0x00
1.723112666666667,0,0xF0,0x02
1.723130666666667,0,0x7F,0x12
1.723148875000000,0,0xFF,0x00
1.725099916666667,0,0xF0,0x12
1.725117916666667,0,0x7F,0x12
1.725136125000000,0,0xFF,0x00
1.727087416666667,0,0x98,0x10
1.727105458333333,0,0xFF,0x02
1.727123666666667,0,0xFF,0x00
1.729074916666667,0,0xB0,0x13
1.729092916666667,0,0xFF,0x10
1.729111125000000,0,0xFF,0x00
1.731062500000000,0,0xB0,0x12
1.731080541666667,0,0xFF,0x12
1.731098750000000,0,0xFF,0x00
1.733049833333333,0,0xB0,0x12
1.733067875000000,0,0xFF,0x12
1.733086083333333,0,0xFF,0x00
1.735037166666667,0,0xB0,0x12
1.735055208333333,0,0xFF,0x13
1.735073416666667,0,0xFF,0x00
1.737024333333333,0,0x98,0x1A
1.737042375000000,0,0xFF,0x12
1.737060583333333,0,0xFF,0x00
1.739011958333333,0,0xB0,0x12
1.739030000000000,0,0xFF,0x10
1.739048208333333,0,0xFF,0x00
1.740999333333333,0,0xF0,0x02
1.741017333333333,0,0x7F,0x12
1.741035541666667,0,0xFF,0x00
1.742986500000000,0,0x98,0x1A
1.743004541666667,0,0xFF,0x12
1.743022750000000,0,0xFF,0x00
1.744974000000000,0,0xF0,0x12
1.744992000000000,0,0x7F,0x12
1.745010208333333,0,0xFF,0x00
1.746961625000000,0,0x90,0x12
1.746979666666667,0,0xFF,0x12
1.746997875000000,0,0xFF,0x00
1.748949083333333,0,0xB0,0x12
1.748967125000000,0,0xFF,0x02
1.748985333333333,0,0xFF,0x00
1.750936416666667,0,0xB0,0x12
1.750954416666667,0,0x7F,0x12
1.750972625000000,0,0xFF,0x00
1.750997458333333,0,0xC3,0x12
1.751015458333333,0,0xFF,0x00
1.751033666666667,0,0xFF,0x00
1.751054250000000,0,0x07,0x12
1.751072291666667,0,0x00,0x12
1.751090333333333,0,0x00,0x1A
1.751920083333333,0,0x07,0x01
1.751938125000000,0,0x00,0x00
1.751956166666667,0,0x00,0x01
1.751976791666667,0,0x30,0x01
1.751994791666667,0,0x00,0x01
1.752012875000000,0,0x80,0x01
1.752033125000000,0,0xC7,0x01
1.752051166666667,0,0xFF,0x00
1.752069333333333,0,0xFF,0x28
1.752090208333333,0,0x87,0x01
1.752108250000000,0,0x00,0x01
1.752126333333333,0,0xF8,0x01
1.752923875000000,0,0x30,0x92
1.752941916666667,0,0xFF,0x12
1.752960125000000,0,0xFF,0x10
1.754911333333333,0,0xB0,0x12
1.754929375000000,0,0xFF,0x12
1.754947583333333,0,0xFF,0x10
1.756898750000000,0,0xF0,0x13
1.756916750000000,0,0x7F,0x1A
1.756934958333333,0,0xFF,0x18
1.758886083333333,0,0x90,0x12
1.758904125000000,0,0xFF,0x12
1.758922333333333,0,0xFF,0x10
1.760873583333333,0,0xB0,0x12
1.760891625000000,0,0xFF,0x12
1.760909833333333,0,0xFF,0x10
1.762860833333333,0,0x98,0x12
1.762878875000000,0,0xFF,0x12
1.762897083333333,0,0xFF,0x10
1.764847916666667,0,0xB0,0x12
1.764865916666667,0,0xFF,0x12
1.764884125000000,0,0xFF,0x10
1.766835083333333,0,0xB0,0x13
1.766853083333333,0,0xFF,0x10
1.766871291666667,0,0xFF,0x10
1.768822291666667,0,0x98,0x1A
1.768840333333333,0,0xFF,0x12
1.768858541666667,0,0xFF,0x00
1.770809541666667,0,0xF0,0x02
1.770827541666667,0,0x7F,0x12
1.770845750000000,0,0xFF,0x10
1.772796750000000,0,0xB0,0x12
1.772814791666667,0,0xFF,0x12
1.772833000000000,0,0xFF,0x10
1.774784000000000,0,0xB0,0x12
1.774802041666667,0,0xFF,0x12
1.774820208333333,0,0xFF,0x10
1.776771416666667,0,0xF0,0x13
1.776789416666667,0,0x7F,0x18
1.776807625000000,0,0xFF,0x10
1.778758416666667,0,0xB0,0x12
1.778776458333333,0,0xFF,0x12
1.778794666666667,0,0xFF,0x10
1.780745666666667,0,0x98,0x10
1.780763708333333,0,0xFF,0x12
1.780781916666667,0,0xFF,0x10
1.782732958333333,0,0xB0,0x12
1.782751000000000,0,0xFF,0x12
1.782769208333333,0,0xFF,0x10
1.782794000000000,0,0x87,0x10
1.782812041666667,0,0xFF,0x00
1.782830250000000,0,0xFF,0xA8
1.782850791666667,0,0x07,0x12
1.782868833333333,0,0x00,0x12
1.782886875000000,0,0x00,0x10
1.783716458333333,0,0x07,0x01
1.783734500000000,0,0x00,0x01
1.783752583333333,0,0x0F,0x00
1.783773166666667,0,0x34,0x01
1.783791208333333,0,0x80,0x01
1.783809250000000,0,0x00,0x01
1.783829500000000,0,0x87,0x01
1.783847541666667,0,0xFF,0x00
1.783865708333333,0,0xFF,0x0A
1.783886583333333,0,0x07,0x01
1.783904625000000,0,0x00,0x00
1.783922666666667,0,0x0A,0x81
1.784720458333333,0,0x98,0x12
1.784738500000000,0,0xFF,0x12
1.784756708333333,0,0xFF,0x14
1.786707500000000,0,0xB0,0x13
1.786725500000000,0,0x7F,0x18
1.786743708333333,0,0xFF,0x16
1.788695000000000,0,0x98,0x1A
1.788713041666667,0,0xFF,0x12
1.788731250000000,0,0xFF,0x14
1.790682375000000,0,0x90,0x12
1.790700416666667,0,0xFF,0x12
1.790718625000000,0,0xFF,0x14
1.792669750000000,0,0xF0,0x12
1.792687791666667,0,0xFF,0x12
1.792706000000000,0,0xFF,0x14
1.794657041666667,0,0xF0,0x12
1.794675041666667,0,0x7F,0x12
1.794693250000000,0,0xFF,0x1C
1.796644416666667,0,0xF0,0x12
1.796662458333333,0,0xFF,0x12
1.796680625000000,0,0xFF,0x14
1.798631750000000,0,0xB0,0x12
1.798649791666667,0,0xFF,0x12
1.798668000000000,0,0xFF,0x14
1.800618958333333,0,0xB0,0x12
1.800636958333333,0,0xFF,0x10
1.800655166666667,0,0xFF,0x14
1.802606041666667,0,0x98,0x1A
1.802624083333333,0,0xFF,0x12
1.802642291666667,0,0xFF,0x00
1.804593208333333,0,0x98,0x10
1.804611250000000,0,0xFF,0x02
1.804629458333333,0,0xFF,0x04
1.806580291666667,0,0xB0,0x12
1.806598333333333,0,0xFF,0x12
1.806616500000000,0,0xFF,0x14
1.808567500000000,0,0xF0,0x02
1.808585500000000,0,0x7F,0x1A
1.808603708333333,0,0xFF,0x16
1.810554708333333,0,0x98,0x10
1.810572750000000,0,0xFF,0x02
1.810590958333333,0,0xFF,0x00
1.812541958333333,0,0x98,0x18
1.812560000000000,0,0xFF,0x12
1.812578208333333,0,0xFF,0x04
1.814529208333333,0,0xF0,0x02
1.814547208333333,0,0x7F,0x12
1.814565416666667,0,0xFF,0x14
1.814590250000000,0,0xC3,0x13
1.814608250000000,0,0xFF,0x00
1.814626458333333,0,0xFF,0x80
1.814647041666667,0,0x07,0x12
1.814665041666667,0,0x00,0x12
1.814683125000000,0,0x32,0x02
1.815512750000000,0,0x07,0x01
1.815530791666667,0,0x00,0x01
1.815548833333333,0,0x32,0x81
1.815569458333333,0,0x34,0x01
1.815587458333333,0,0x00,0x81
1.815605541666667,0,0x80,0x01
1.815625791666667,0,0xC7,0x01
1.815643833333333,0,0xFF,0x00
1.815662000000000,0,0xFF,0x32
1.815682875000000,0,0x87,0x01
1.815700916666667,0,0x00,0x01
1.815719000000000,0,0xF2,0x01
1.816516750000000,0,0xB0,0x12
1.816534750000000,0,0xFF,0x12
1.816552958333333,0,0xFF,0x04
1.818503708333333,0,0x98,0x10
1.818521750000000,0,0xFF,0x02
1.818539958333333,0,0xFF,0x04
1.820491041666667,0,0xF0,0x12
1.820509083333333,0,0xFF,0x12
1.820527250000000,0,0xFF,0x04
1.822478375000000,0,0xB0,0x12
1.822496416666667,0,0xFF,0x12
1.822514625000000,0,0xFF,0x04
1.824465750000000,0,0xF0,0x02
1.824483750000000,0,0x7F,0x12
1.824501958333333,0,0xFF,0x04
1.826453041666667,0,0xB0,0x12
1.826471083333333,0,0xFF,0x12
1.826489291666667,0,0xFF,0x04
1.828440333333333,0,0x98,0x10
1.828458375000000,0,0xFF,0x02
1.828476583333333,0,0xFF,0x00
1.830427666666667,0,0xB0,0x12
1.830445708333333,0,0xFF,0x12
1.830463916666667,0,0xFF,0x04
1.832415125000000,0,0xB0,0x12
1.832433125000000,0,0xFF,0x12
1.832451333333333,0,0xFF,0x04
1.834402416666667,0,0x98,0x1A
1.834420458333333,0,0xFF,0x02
1.834438666666667,0,0xFF,0x00
1.836389708333333,0,0xB0,0x12
1.836407750000000,0,0xFF,0x12
1.836425916666667,0,0xFF,0x04
1.838377000000000,0,0x98,0x10
1.838395041666667,0,0xFF,0x02
1.838413250000000,0,0xFF,0x04
1.840364291666667,0,0x98,0x1A
1.840382333333333,0,0xFF,0x12
1.840400541666667,0,0xFF,0x04
1.842351583333333,0,0xB0,0x13
1.842369583333333,0,0x7F,0x10
1.842387791666667,0,0xFF,0x06
1.844338875000000,0,0xB0,0x12
1.844356916666667,0,0xFF,0x13
1.844375125000000,0,0xFF,0x04
1.846326208333333,0,0xB0,0x12
1.846344250000000,0,0xFF,0x13
1.846362458333333,0,0xFF,0x04
1.846387250000000,0,0xC3,0x02
1.846405250000000,0,0xFF,0x00
1.846423458333333,0,0xFF,0x9A
1.846444041666667,0,0x03,0x12
1.846462041666667,0,0x80,0x1A
1.846480125000000,0,0x16,0x12
1.847309791666667,0,0x07,0x01
1.847327833333333,0,0x00,0x01
1.847345916666667,0,0x14,0x01
1.847366500000000,0,0x36,0x01
1.847384541666667,0,0x80,0x00
1.847402583333333,0,0x00,0x01
1.847422833333333,0,0x87,0x01
1.847440875000000,0,0xFF,0x00
1.847459083333333,0,0xFF,0x14
1.847479958333333,0,0x07,0x01
1.847497958333333,0,0x00,0x01
1.847516041666667,0,0xC4,0x01
1.848313916666667,0,0xB0,0x12
1.848331916666667,0,0xFF,0x10
1.848350125000000,0,0xFF,0x08
1.850301000000000,0,0xB0,0x12
1.850319000000000,0,0xFF,0x10
1.850337208333333,0,0xFF,0x08
1.852288666666667,0,0xB0,0x12
1.852306708333333,0,0xFF,0x12
1.852324916666667,0,0xFF,0x08
1.854275708333333,0,0xB0,0x12
1.854293750000000,0,0xFF,0x12
1.854311958333333,0,0xFF,0x08
1.856263125000000,0,0xB0,0x12
1.856281125000000,0,0xFF,0x12
1.856299333333333,0,0xFF,0x08
1.858250708333333,0,0xB0,0x12
1.858268750000000,0,0xFF,0x12
1.858286958333333,0,0xFF,0x08
1.860237791666667,0,0xB0,0x12
1.860255833333333,0,0xFF,0x12
1.860274041666667,0,0xFF,0x08
1.862225541666667,0,0xB0,0x12
1.862243583333333,0,0xFF,0x12
1.862261791666667,0,0xFF,0x0C
1.864212750000000,0,0xF0,0x02
1.864230750000000,0,0x7F,0x12
1.864248958333333,0,0xFF,0x08
1.866200000000000,0,0x98,0x1A
1.866218041666667,0,0xFF,0x12
1.866236250000000,0,0xFF,0x08
1.868187500000000,0,0xB0,0x12
1.868205541666667,0,0xFF,0x13
1.868223750000000,0,0xFF,0x08
1.870175083333333,0,0xF0,0x12
1.870193125000000,0,0xFF,0x13
1.870211333333333,0,0xFF,0x08
1.872162875000000,0,0x90,0x12
1.872180916666667,0,0xFF,0x12
1.872199125000000,0,0xFF,0x08
1.874150416666667,0,0xF0,0x12
1.874168458333333,0,0xFF,0x12
1.874186625000000,0,0xFF,0x08
1.876137958333333,0,0xB0,0x13
1.876155958333333,0,0x7F,0x12
1.876174166666667,0,0xFF,0x08
1.878125666666667,0,0xB0,0x12
1.878143666666667,0,0xFF,0x10
1.878161875000000,0,0xFF,0x08
1.878186666666667,0,0x87,0x12
1.878204708333333,0,0xFF,0x00
1.878222916666667,0,0xFF,0x94
1.878243458333333,0,0x87,0x12
1.878261500000000,0,0x00,0x10
1.878279583333333,0,0x3C,0x12
1.879109333333333,0,0x07,0x01
1.879127375000000,0,0x00,0x01
1.879145458333333,0,0x3C,0x01
1.879166041666667,0,0x1E,0x01
1.879184083333333,0,0xC0,0x01
1.879202166666667,0,0x80,0x00
1.879222375000000,0,0x07,0x81
1.879240416666667,0,0xFF,0x00
1.879258625000000,0,0xFF,0x3E
1.879279500000000,0,0x07,0x01
1.879297541666667,0,0x00,0x01
1.879315625000000,0,0xBC,0x00
1.880113250000000,0,0xB0,0x13
1.880131250000000,0,0x7F,0x1A
1.880149458333333,0,0xFF,0x18
1.882100500000000,0,0xF0,0x02
1.882118541666667,0,0xFF,0x12
1.882136750000000,0,0xFF,0x18
1.884087916666667,0,0xB0,0x12
1.884105958333333,0,0xFF,0x13
1.884124166666667,0,0xFF,0x18
1.886075500000000,0,0xB0,0x12
1.886093541666667,0,0xFF,0x12
1.886111750000000,0,0xFF,0x1C
1.888062958333333,0,0xB0,0x12
1.888080958333333,0,0xFF,0x10
1.888099166666667,0,0xFF,0x18
1.890050416666667,0,0xB0,0x13
1.890068416666667,0,0x7F,0x1A
1.890086625000000,0,0xFF,0x18
1.892037791666667,0,0xB0,0x12
1.892055833333333,0,0xFF,0x12
1.892074041666667,0,0xFF,0x18
1.894025250000000,0,0xB0,0x12
1.894043291666667,0,0xFF,0x12
1.894061500000000,0,0xFF,0x18
1.896012708333333,0,0xF0,0x02
1.896030708333333,0,0x7F,0x12
1.896048916666667,0,0xFF,0x18
1.898000000000000,0,0x98,0x10
1.898018041666667,0,0xFF,0x12
1.898036250000000,0,0xFF,0x18
1.899987291666667,0,0xF0,0x13
1.900005291666667,0,0x7F,0x1A
1.900023500000000,0,0xFF,0x18
1.901974666666667,0,0xB0,0x12
1.901992708333333,0,0xFF,0x12
1.902010916666667,0,0xFF,0x18
1.903961958333333,0,0x90,0x12
1.903980000000000,0,0xFF,0x12
1.903998208333333,0,0xFF,0x18
1.905949625000000,0,0x98,0x10
1.905967666666667,0,0xFF,0x02
1.905985875000000,0,0xFF,0x0C
1.907937083333333,0,0xB0,0x12
1.907955125000000,0,0xFF,0x12
1.907973333333333,0,0xFF,0x18
1.909924416666667,0,0xF0,0x02
1.909942416666667,0,0x7F,0x12
1.909960625000000,0,0xFF,0x18
1.909985458333333,0,0x83,0x13
1.910003458333333,0,0xFF,0x00
1.910021666666667,0,0xFF,0xBE
1.910042208333333,0,0x87,0x12
1.910060250000000,0,0x00,0x12
1.910078333333333,0,0x0E,0x02
1.910907875000000,0,0x07,0x01
1.910925875000000,0,0x80,0x81
1.910943958333333,0,0x1E,0x01
1.910964583333333,0,0x30,0x00
1.910982583333333,0,0x00,0x01
1.911000666666667,0,0x80,0x01
1.911020916666667,0,0xC3,0x01
1.911038916666667,0,0xFF,0x00
1.911057125000000,0,0xFF,0x1E
1.911078000000000,0,0x07,0x01
1.911096041666667,0,0x00,0x01
1.911114083333333,0,0x1E,0x81
1.911911625000000,0,0xF0,0x12
1.911929666666667,0,0xFF,0x12
1.911947833333333,0,0xFF,0x1C
1.913899125000000,0,0x98,0x10
1.913917166666667,0,0xFF,0x02
1.913935375000000,0,0xFF,0x0C
1.915886625000000,0,0xB0,0x12
1.915904625000000,0,0xFF,0x12
1.915922833333333,0,0xFF,0x1C
1.917873958333333,0,0x98,0x10
1.917892000000000,0,0xFF,0x12
1.917910208333333,0,0xFF,0x1C
1.919861333333333,0,0x98,0x1A
1.919879375000000,0,0xFF,0x12
1.919897583333333,0,0xFF,0x0C
1.921848750000000,0,0xB0,0x12
1.921866791666667,0,0xFF,0x12
1.921885000000000,0,0xFF,0x1C
1.923836083333333,0,0xB0,0x12
1.923854125000000,0,0xFF,0x13
1.923872333333333,0,0xFF,0x1C
1.925823333333333,0,0xF0,0x02
1.925841333333333,0,0x7F,0x1A
1.925859541666667,0,0xFF,0x1C
1.927810458333333,0,0x90,0x12
1.927828500000000,0,0xFF,0x13
1.927846708333333,0,0xFF,0x1C
1.929797541666667,0,0xB0,0x12
1.929815583333333,0,0xFF,0x13
1.929833791666667,0,0xFF,0x1C
1.931784666666667,0,0x98,0x1A
1.931802708333333,0,0xFF,0x02
1.931820916666667,0,0xFF,0x1C
1.933771750000000,0,0xB0,0x12
1.933789791666667,0,0xFF,0x13
1.933808000000000,0,0xFF,0x1C
1.935759000000000,0,0xF0,0x02
1.935777000000000,0,0x7F,0x12
1.935795208333333,0,0xFF,0x1E
1.937746000000000,0,0xB0,0x12
1.937764041666667,0,0xFF,0x13
1.937782250000000,0,0xFF,0x1C
1.939733458333333,0,0xB0,0x12
1.939751458333333,0,0xFF,0x12
1.939769666666667,0,0xFF,0x1C
1.941720666666667,0,0xB0,0x12
1.941738708333333,0,0xFF,0x12
1.941756916666667,0,0xFF,0x1C
1.941781708333333,0,0x87,0x12
1.941799750000000,0,0xFF,0x00
1.941817958333333,0,0xFF,0x9E
1.941838500000000,0,0x07,0x12
1.941856541666667,0,0x00,0x12
1.941874583333333,0,0x66,0x10
1.942704041666667,0,0x07,0x01
1.942722083333333,0,0x00,0x01
1.942740166666667,0,0x03,0x00
1.942760750000000,0,0x36,0x01
1.942778791666667,0,0x80,0x00
1.942796833333333,0,0x00,0x01
1.942817083333333,0,0x87,0x01
1.942835125000000,0,0xFF,0x00
1.942853291666667,0,0xFF,0x66
1.942874166666667,0,0x87,0x01
1.942892208333333,0,0x00,0x01
1.942910291666667,0,0xC7,0x01
1.943707791666667,0,0xF0,0x02
1.943725791666667,0,0x7F,0x12
1.943744000000000,0,0xFF,0x0C
1.945695291666667,0,0xB0,0x12
1.945713333333333,0,0xFF,0x12
1.945731541666667,0,0xFF,0x0C
1.947682625000000,0,0xB0,0x12
1.947700625000000,0,0xFF,0x12
1.947718833333333,0,0xFF,0x0C
1.949669833333333,0,0xB0,0x12
1.949687875000000,0,0xFF,0x12
1.949706083333333,0,0xFF,0x0C
1.951657083333333,0,0xB0,0x13
1.951675083333333,0,0xFF,0x10
1.951693291666667,0,0xFF,0x0C
1.953644291666667,0,0x98,0x1A
1.953662333333333,0,0xFF,0x12
1.953680541666667,0,0xFF,0x0C
1.955631625000000,0,0xF0,0x12
1.955649625000000,0,0x7F,0x1A
1.955667833333333,0,0xFF,0x06
1.957618750000000,0,0xB0,0x12
1.957636791666667,0,0xFF,0x13
1.957655000000000,0,0xFF,0x0C
1.959605916666667,0,0x98,0x18
1.959623958333333,0,0xFF,0x12
1.959642166666667,0,0xFF,0x0C
1.961593125000000,0,0x98,0x1A
1.961611166666667,0,0xFF,0x12
1.961629375000000,0,0xFF,0x0C
1.963580416666667,0,0xB0,0x12
1.963598416666667,0,0xFF,0x12
1.963616625000000,0,0xFF,0x0C
1.965567750000000,0,0xF0,0x02
1.965585750000000,0,0x7F,0x12
1.965603958333333,0,0xFF,0x0C
1.967555125000000,0,0xB0,0x12
1.967573166666667,0,0xFF,0x13
1.967591375000000,0,0xFF,0x0C
1.969542666666667,0,0xF0,0x02
1.969560666666667,0,0x7F,0x12
1.969578875000000,0,0xFF,0x0C
1.971529958333333,0,0xF0,0x02
1.971547958333333,0,0x7F,0x12
1.971566166666667,0,0xFF,0x0C
1.973517125000000,0,0xB0,0x13
1.973535125000000,0,0xFF,0x10
1.973553333333333,0,0xFF,0x0C
1.973578125000000,0,0x87,0x18
1.973596166666667,0,0xFF,0x00
1.973614375000000,0,0xFF,0xC7
1.973634916666667,0,0x07,0x12
1.973652958333333,0,0x00,0x12
1.973671000000000,0,0x00,0x18
1.974500416666667,0,0x07,0x01
1.974518458333333,0,0x00,0x01
1.974536541666667,0,0x00,0x00
1.974557125000000,0,0x36,0x01
1.974575166666667,0,0x80,0x00
1.974593208333333,0,0x00,0x01
1.974613458333333,0,0x87,0x01
1.974631500000000,0,0xFF,0x00
1.974649708333333,0,0xFF,0x00
1.974670541666667,0,0x87,0x01
1.974688583333333,0,0x00,0x01
1.974706666666667,0,0xC0,0x01
1.975504166666667,0,0xF0,0x02
1.975522166666667,0,0x7F,0x12
1.975540375000000,0,0xFF,0x00
1.977491666666667,0,0xF0,0x02
1.977509666666667,0,0x7F,0x12
1.977527875000000,0,0xFF,0x00
1.979479041666667,0,0xF0,0x02
1.979497041666667,0,0x7F,0x12
1.979515250000000,0,0xFF,0x00
1.981466208333333,0,0x98,0x1A
1.981484250000000,0,0xFF,0x02
1.981502458333333,0,0xFF,0x00
1.983453083333333,0,0xB0,0x12
1.983471125000000,0,0xFF,0x12
1.983489291666667,0,0xFF,0x00
1.985440333333333,0,0xF0,0x12
1.985458333333333,0,0x7F,0x1A
1.985476541666667,0,0xFF,0x00
1.987427666666667,0,0xB0,0x12
1.987445708333333,0,0xFF,0x13
1.987463916666667,0,0xFF,0x00
1.989414625000000,0,0x98,0x10
1.989432666666667,0,0xFF,0x13
1.989450875000000,0,0xFF,0x00
1.991401750000000,0,0xB0,0x12
1.991419750000000,0,0xFF,0x12
1.991437958333333,0,0xFF,0x00
1.993388791666667,0,0xB0,0x12
1.993406833333333,0,0xFF,0x12
1.993425041666667,0,0xFF,0x00
1.995375875000000,0,0xB0,0x13
1.995393875000000,0,0xFF,0x10
1.995412083333333,0,0xFF,0x00
1.997362833333333,0,0xB0,0x12
1.997380875000000,0,0xFF,0x12
1.997399041666667,0,0xFF,0x00
1.999349875000000,0,0x98,0x10
1.999367916666667,0,0xFF,0x02
1.999386125000000,0,0xFF,0x00
2.001337000000000,0,0x90,0x12
2.001355041666667,0,0xFF,0x13
2.001373250000000,0,0xFF,0x00
2.003323875000000,0,0xF0,0x02
2.003341875000000,0,0x7F,0x12
2.003360083333333,0,0xFF,0x00
2.005311125000000,0,0xF0,0x02
2.005329125000000,0,0x7F,0x1A
2.005347333333333,0,0xFF,0x00
2.005372125000000,0,0x87,0x12
2.005390166666666,0,0xFF,0x00
2.005408375000000,0,0xFF,0xC0
2.005428916666667,0,0x07,0x10
2.005446958333333,0,0x00,0x02
2.005465000000000,0,0x28,0x12
2.006294458333334,0,0x07,0x01
2.006312458333333,0,0x80,0x81
2.006330541666667,0,0x28,0x01
2.006351125000000,0,0x34,0x81
2.006369166666667,0,0x80,0x01
2.006387250000000,0,0xC0,0x01
2.006407458333333,0,0x07,0x81
2.006425500000000,0,0xFF,0x00
2.006443708333333,0,0xFF,0x28
2.006464583333333,0,0x07,0x01
2.006482625000000,0,0x00,0x01
2.006500666666667,0,0x80,0x01
2.007298166666667,0,0xB0,0x12
2.007316166666667,0,0xFF,0x10
2.007334375000000,0,0xFF,0x10
2.009285458333333,0,0xB0,0x12
2.009303458333333,0,0xFF,0x12
2.009321666666667,0,0xFF,0x10
2.011272458333333,0,0x98,0x10
2.011290500000000,0,0xFF,0x02
2.011308708333333,0,0xFF,0x10
2.013259416666667,0,0xB0,0x12
2.013277458333333,0,0xFF,0x12
2.013295625000000,0,0xFF,0x10
2.015246458333333,0,0x90,0x12
2.015264500000000,0,0xFF,0x13
2.015282708333333,0,0xFF,0x10
2.017233625000000,0,0xF0,0x13
2.017251625000000,0,0xFF,0x10
2.017269833333333,0,0xFF,0x10
2.019220833333333,0,0x98,0x10
2.019238875000000,0,0xFF,0x02
2.019257083333333,0,0xFF,0x10
2.021208041666667,0,0xF0,0x02
2.021226041666667,0,0x7F,0x12
2.021244250000000,0,0xFF,0x18
2.023195208333334,0,0xF0,0x02
2.023213208333333,0,0x7F,0x1A
2.023231416666667,0,0xFF,0x18
2.025182458333334,0,0xB0,0x12
2.025200500000000,0,0xFF,0x12
2.025218708333334,0,0xFF,0x10
2.027169750000000,0,0xB0,0x12
2.027187791666667,0,0xFF,0x12
2.027206000000000,0,0xFF,0x10
2.029157125000000,0,0xF0,0x13
2.029175125000000,0,0x7F,0x1A
2.029193333333333,0,0xFF,0x10
2.031144333333333,0,0xB0,0x12
2.031162375000000,0,0xFF,0x13
2.031180583333333,0,0xFF,0x10
2.033131708333333,0,0xB0,0x12
2.033149708333333,0,0xFF,0x12
2.033167916666667,0,0xFF,0x10
2.035119041666666,0,0xB0,0x12
2.035137041666667,0,0xFF,0x10
2.035155250000000,0,0xFF,0x10
2.037106458333333,0,0xF0,0x12
2.037124458333333,0,0x7F,0x12
2.037142666666667,0,0xFF,0x10
2.037167500000000,0,0xC3,0x13
2.037185500000000,0,0xFF,0x00
2.037203708333333,0,0xFF,0xA8
2.037224250000000,0,0x87,0x12
2.037242291666667,0,0x00,0x12
2.037260375000000,0,0x0F,0x13
2.038089833333333,0,0x03,0x01
2.038107833333333,0,0x80,0x01
2.038125916666667,0,0x08,0x01
2.038146500000000,0,0x34,0x81
2.038164541666667,0,0x80,0x01
2.038182625000000,0,0x80,0x00
2.038202833333334,0,0x07,0x01
2.038220875000000,0,0xFF,0x00
2.038239083333333,0,0xFF,0x0A
2.038259958333333,0,0x07,0x01
2.038278000000000,0,0x00,0x01
2.038296041666666,0,0x00,0x01
2.039093541666666,0,0xF0,0x13
2.039111541666667,0,0x7F,0x1A
2.039129750000000,0,0xFF,0x16
2.041080875000000,0,0x98,0x18
2.041098916666667,0,0xFF,0x02
2.041117125000000,0,0xFF,0x00
2.043067958333333,0,0x98,0x1A
2.043086000000000,0,0xFF,0x02
2.043104208333333,0,0xFF,0x10
2.045055250000000,0,0xF0,0x13
2.045073250000000,0,0x7F,0x18
2.045091458333333,0,0xFF,0x16
2.047042541666667,0,0xF0,0x12
2.047060583333333,0,0xFF,0x12
2.047078791666667,0,0xFF,0x14
2.049030041666667,0,0x98,0x1A
2.049048083333334,0,0xFF,0x02
2.049066291666667,0,0xFF,0x00
2.051017250000000,0,0xB0,0x13
2.051035250000000,0,0xFF,0x10
2.051053458333334,0,0xFF,0x14
2.053004458333333,0,0xB0,0x12
2.053022458333333,0,0xFF,0x12
2.053040666666667,0,0xFF,0x14
2.054991791666667,0,0x98,0x1A
2.055009833333334,0,0xFF,0x02
2.055028041666667,0,0xFF,0x10
2.056978875000000,0,0xF0,0x02
2.056996875000000,0,0x7F,0x12
2.057015083333333,0,0xFF,0x16
2.058966000000000,0,0xF0,0x12
2.058984000000000,0,0x7F,0x12
2.059002208333333,0,0xFF,0x14
2.060953125000000,0,0xB0,0x12
2.060971125000000,0,0x7F,0x12
2.060989333333333,0,0xFF,0x1C
2.062940166666666,0,0xB0,0x12
2.062958208333333,0,0xFF,0x12
2.062976416666667,0,0xFF,0x00
2.064927208333333,0,0x98,0x1A
2.064945250000000,0,0xFF,0x02
2.064963458333333,0,0xFF,0x14
2.066914250000000,0,0xB0,0x12
2.066932291666667,0,0xFF,0x12
2.066950458333333,0,0xFF,0x1C
2.068901416666667,0,0xB0,0x12
2.068919458333333,0,0xFF,0x12
2.068937625000000,0,0xFF,0x1C
2.068962416666666,0,0x87,0x12
2.068980458333333,0,0xFF,0x00
2.068998666666667,0,0xFF,0x8E
2.069019208333333,0,0x07,0x12
2.069037250000000,0,0x00,0x12
2.069055291666666,0,0x30,0x12
2.069884708333333,0,0x03,0x01
2.069902708333333,0,0x80,0x01
2.069920791666667,0,0x30,0x01
2.069941375000000,0,0x34,0x81
2.069959416666667,0,0x80,0x01
2.069977500000000,0,0xC0,0x01
2.069997750000000,0,0x83,0x00
2.070015750000000,0,0xFF,0x00
2.070033958333333,0,0xFF,0x32
2.070054833333333,0,0x07,0x01
2.070072875000000,0,0x00,0x00
2.070090916666667,0,0x1A,0x01
2.070888375000000,0,0xF0,0x13
2.070906375000000,0,0x7F,0x1A
2.070924583333333,0,0xFF,0x04
2.072875625000000,0,0xF0,0x12
2.072893625000000,0,0x7F,0x12
2.072911833333333,0,0xFF,0x06
2.074862625000000,0,0xF0,0x02
2.074880625000000,0,0x7F,0x12
2.074898833333333,0,0xFF,0x04
2.076849708333333,0,0xB0,0x13
2.076867708333333,0,0xFF,0x10
2.076885916666667,0,0xFF,0x04
2.078836791666667,0,0x98,0x1A
2.078854833333333,0,0xFF,0x02
2.078873041666667,0,0xFF,0x00
2.080823958333333,0,0xF0,0x13
2.080841958333334,0,0x7F,0x18
2.080860166666667,0,0xFF,0x04
2.082810958333333,0,0xB0,0x12
2.082829000000000,0,0xFF,0x12
2.082847208333333,0,0xFF,0x04
2.084798125000000,0,0xB0,0x12
2.084816166666667,0,0xFF,0x12
2.084834375000000,0,0xFF,0x04
2.086785500000000,0,0xB0,0x12
2.086803541666667,0,0xFF,0x12
2.086821708333333,0,0xFF,0x04
2.088772208333333,0,0x98,0x10
2.088790250000000,0,0xFF,0x13
2.088808458333333,0,0xFF,0x04
2.090759291666667,0,0xB0,0x12
2.090777291666666,0,0xFF,0x12
2.090795500000000,0,0xFF,0x04
2.092746250000000,0,0xF0,0x13
2.092764250000000,0,0x7F,0x18
2.092782458333333,0,0xFF,0x04
2.094733166666667,0,0xB0,0x12
2.094751208333333,0,0xFF,0x12
2.094769375000000,0,0xFF,0x04
2.096720250000000,0,0xB0,0x12
2.096738291666667,0,0xFF,0x12
2.096756500000000,0,0xFF,0x00
2.098707250000000,0,0xB0,0x12
2.098725291666667,0,0xFF,0x12
2.098743458333333,0,0xFF,0x04
2.100694291666667,0,0xB0,0x12
2.100712333333334,0,0xFF,0x12
2.100730500000000,0,0xFF,0x04
2.100755291666667,0,0x87,0x12
2.100773333333333,0,0xFF,0x00
2.100791541666667,0,0xFF,0xF2
2.100812083333333,0,0x07,0x12
2.100830125000000,0,0x00,0x13
2.100848166666667,0,0x1E,0x18
2.101677583333333,0,0x07,0x01
2.101695625000000,0,0x00,0x01
2.101713666666666,0,0x14,0x81
2.101734291666667,0,0x30,0x01
2.101752291666667,0,0x00,0x01
2.101770375000000,0,0x80,0x01
2.101790625000000,0,0xC3,0x00
2.101808625000000,0,0xFF,0x00
2.101826833333333,0,0xFF,0x16
2.101847708333333,0,0x07,0x01
2.101865750000000,0,0x00,0x00
2.101883791666667,0,0x14,0x01
2.102681291666667,0,0xF0,0x13
2.102699291666667,0,0x7F,0x1A
2.102717500000000,0,0xFF,0x08
2.104668625000000,0,0xB0,0x12
2.104686625000000,0,0xFF,0x12
2.104704833333333,0,0xFF,0x08
2.106655875000000,0,0xB0,0x12
2.106673916666667,0,0xFF,0x12
2.106692125000000,0,0xFF,0x08
2.108643083333333,0,0xF0,0x02
2.108661083333333,0,0x7F,0x12
2.108679291666667,0,0xFF,0x00
2.110630291666667,0,0xB0,0x12
2.110648333333333,0,0xFF,0x12
2.110666541666667,0,0xFF,0x08
2.112617625000000,0,0xF0,0x12
2.112635666666667,0,0xFF,0x12
2.112653833333333,0,0xFF,0x08
2.114604916666667,0,0xB0,0x13
2.114622916666667,0,0x7F,0x18
2.114641125000000,0,0xFF,0x08
2.116592083333333,0,0xF0,0x02
2.116610083333333,0,0x7F,0x12
2.116628291666667,0,0xFF,0x00
2.118579208333333,0,0x98,0x18
2.118597250000000,0,0xFF,0x02
2.118615458333333,0,0xFF,0x0C
2.120566416666667,0,0xB0,0x12
2.120584458333334,0,0xFF,0x12
2.120602625000000,0,0xFF,0x08
2.122553541666667,0,0x90,0x12
2.122571583333333,0,0xFF,0x12
2.122589791666667,0,0xFF,0x08
2.124540708333333,0,0xB0,0x12
2.124558750000000,0,0xFF,0x12
2.124576958333333,0,0xFF,0x08
2.126527875000000,0,0xB0,0x12
2.126545916666667,0,0xFF,0x12
2.126564125000000,0,0xFF,0x0C
2.128514958333333,0,0xF0,0x13
2.128532958333333,0,0x7F,0x10
2.128551166666667,0,0xFF,0x08
2.130501958333333,0,0xB0,0x12
2.130519958333333,0,0x7F,0x12
2.130538166666667,0,0xFF,0x00
2.132489000000000,0,0xF0,0x12
2.132507000000000,0,0x7F,0x1A
2.132525208333333,0,0xFF,0x00
2.132550000000000,0,0x87,0x12
2.132568041666667,0,0xFF,0x00
2.132586250000000,0,0xFF,0xD4
2.132606791666666,0,0x07,0x12
2.132624833333333,0,0x00,0x12
2.132642875000000,0,0x1E,0x10
2.133472250000000,0,0x07,0x01
2.133490291666666,0,0x00,0x00
2.133508333333333,0,0x1C,0x01
2.133528958333333,0,0x30,0x00
2.133546958333334,0,0x00,0x01
2.133565041666666,0,0xC0,0x01
2.133585291666667,0,0x87,0x01
2.133603291666667,0,0xFF,0x00
2.133621500000000,0,0xFF,0x3C
2.133642375000000,0,0x03,0x00
2.133660375000000,0,0x00,0x01
2.133678458333333,0,0xFC,0x01
2.134475875000000,0,0xB0,0x12
2.134493875000000,0,0xFF,0x12
2.134512083333334,0,0xFF,0x18
2.136463125000000,0,0xB0,0x12
2.136481166666667,0,0xFF,0x12
2.136499333333334,0,0xFF,0x18
2.138450291666667,0,0xB0,0x12
2.138468333333333,0,0xFF,0x13
2.138486541666667,0,0xFF,0x18
2.140437416666667,0,0x98,0x12
2.140455458333333,0,0xFF,0x13
2.140473666666667,0,0xFF,0x18
2.142424458333333,0,0x90,0x12
2.142442500000000,0,0xFF,0x13
2.142460708333333,0,0xFF,0x18
2.144411416666667,0,0xB0,0x12
2.144429416666667,0,0x7F,0x12
2.144447625000000,0,0xFF,0x18
2.146398666666667,0,0xF0,0x12
2.146416666666667,0,0x7F,0x1A
2.146434875000000,0,0xFF,0x18
2.148385916666667,0,0xB0,0x12
2.148403958333333,0,0xFF,0x12
2.148422125000000,0,0xFF,0x18
2.150373208333333,0,0xF0,0x12
2.150391208333333,0,0x7F,0x12
2.150409416666667,0,0xFF,0x18
2.152360458333333,0,0xB0,0x13
2.152378458333333,0,0x7F,0x18
2.152396666666667,0,0xFF,0x18
2.154347625000000,0,0x98,0x1A
2.154365666666667,0,0xFF,0x12
2.154383875000000,0,0xFF,0x0C
2.156334791666667,0,0xB0,0x12
2.156352833333333,0,0xFF,0x12
2.156371041666667,0,0xFF,0x18
2.158322083333333,0,0xB0,0x12
2.158340125000000,0,0xFF,0x12
2.158358333333333,0,0xFF,0x18
2.160309333333333,0,0x90,0x12
2.160327375000000,0,0xFF,0x13
2.160345583333333,0,0xFF,0x18
2.162296416666666,0,0xB0,0x12
2.162314458333333,0,0xFF,0x13
2.162332666666666,0,0xFF,0x18
2.164283708333334,0,0xF0,0x13
2.164301708333333,0,0x7F,0x10
2.164319916666666,0,0xFF,0x18
2.164344708333333,0,0x87,0x12
2.164362750000000,0,0xFF,0x00
2.164380958333334,0,0xFF,0xFC
2.164401500000000,0,0x07,0x10
2.164419541666667,0,0x00,0x02
2.164437625000000,0,0x1F,0x13
2.165267291666667,0,0x07,0x01
2.165285333333333,0,0x00,0x00
2.165303375000000,0,0x1E,0x01
2.165324000000000,0,0x30,0x01
2.165342000000000,0,0x00,0x81
2.165360083333333,0,0x80,0x01
2.165380333333333,0,0xC3,0x01
2.165398333333334,0,0xFF,0x80
2.165416541666667,0,0xFF,0x1E
2.165437416666667,0,0x87,0x01
2.165455458333333,0,0x00,0x01
2.165473541666667,0,0x8F,0x00
2.166271041666667,0,0x18,0x18
2.166289083333333,0,0xFF,0x12
2.166307291666667,0,0xFF,0x0C
2.168258625000000,0,0xB0,0x12
2.168276666666667,0,0xFF,0x02
2.168294875000000,0,0xFF,0x0C
2.170245916666667,0,0xB0,0x13
2.170263916666667,0,0xFF,0x10
2.170282125000000,0,0xFF,0x1C
2.172233083333333,0,0xB0,0x12
2.172251083333333,0,0xFF,0x12
2.172269291666667,0,0xFF,0x1C
2.174220333333333,0,0xB0,0x12
2.174238333333333,0,0xFF,0x12
2.174256541666667,0,0xFF,0x1C
2.176207583333333,0,0x98,0x10
2.176225625000000,0,0xFF,0x02
2.176243833333333,0,0xFF,0x1C
2.178194916666667,0,0xB0,0x13
2.178212916666667,0,0x7F,0x1A
2.178231125000000,0,0xFF,0x1E
2.180182291666667,0,0xB0,0x12
2.180200333333334,0,0xFF,0x13
2.180218541666667,0,0xFF,0x1C
2.182169666666667,0,0xB0,0x12
2.182187708333333,0,0xFF,0x12
2.182205875000000,0,0xFF,0x1C
2.184157000000000,0,0xB0,0x12
2.184175041666667,0,0xFF,0x12
2.184193250000000,0,0xFF,0x1C
2.186144416666667,0,0xB0,0x12
2.186162458333333,0,0xFF,0x12
2.186180666666667,0,0xFF,0x1C
2.188131791666667,0,0xB0,0x12
2.188149791666667,0,0xFF,0x10
2.188168000000000,0,0xFF,0x1C
2.190119041666667,0,0xB0,0x12
2.190137083333333,0,0xFF,0x12
2.190155291666667,0,0xFF,0x1C
2.192106291666667,0,0xB0,0x12
2.192124333333333,0,0xFF,0x12
2.192142500000000,0,0xFF,0x1C
2.194093583333333,0,0xF0,0x02
2.194111583333333,0,0x7F,0x12
2.194129791666667,0,0xFF,0x1C
2.196080833333333,0,0x98,0x1A
2.196098875000000,0,0xFF,0x12
2.196117083333333,0,0xFF,0x1C
2.196141875000000,0,0x87,0x10
2.196159916666667,0,0xFF,0x00
2.196178125000000,0,0xFF,0x9F
2.196198666666667,0,0x07,0x12
2.196216708333333,0,0x00,0x12
2.196234750000000,0,0x66,0x1A
2.197064250000000,0,0x07,0x01
2.197082291666667,0,0x00,0x01
2.197100375000000,0,0x43,0x01
2.197120958333334,0,0x34,0x01
2.197139000000000,0,0x80,0x01
2.197157041666667,0,0x00,0x01
2.197177291666667,0,0x87,0x01
2.197195333333333,0,0xFF,0x00
2.197213500000000,0,0xFF,0x46
2.197234375000000,0,0x87,0x01
2.197252416666667,0,0x00,0x01
2.197270500000000,0,0xC2,0x01
2.198068041666667,0,0xF0,0x13
2.198086041666667,0,0x7F,0x1A
2.198104250000000,0,0xFF,0x0E
2.200055541666667,0,0xF0,0x12
2.200073541666667,0,0x7F,0x12
2.200091750000000,0,0xFF,0x04
2.202042708333333,0,0xB0,0x12
2.202060750000000,0,0xFF,0x13
2.202078958333333,0,0xFF,0x0C
2.204030166666667,0,0xB0,0x12
2.204048166666666,0,0xFF,0x10
2.204066375000000,0,0xFF,0x0C
2.206017541666667,0,0xF0,0x12
2.206035541666667,0,0x7F,0x12
2.206053750000000,0,0xFF,0x0C
2.208005083333333,0,0xB0,0x12
2.208023083333333,0,0xFF,0x10
2.208041291666667,0,0xFF,0x0C
2.209992291666667,0,0x98,0x1A
2.210010333333333,0,0xFF,0x12
2.210028541666667,0,0xFF,0x0C
2.211979708333333,0,0x98,0x18
2.211997750000000,0,0xFF,0x12
2.212015958333333,0,0xFF,0x0C
2.213967333333333,0,0xB0,0x13
2.213985333333333,0,0x7F,0x1A
2.214003541666667,0,0xFF,0x04
2.215954791666667,0,0xF0,0x02
2.215972791666667,0,0x7F,0x12
2.215991000000000,0,0xFF,0x0C
2.217942208333334,0,0xB0,0x12
2.217960250000000,0,0xFF,0x12
2.217978458333334,0,0xFF,0x0C
2.219929625000000,0,0xF0,0x02
2.219947625000000,0,0x7F,0x12
2.219965833333333,0,0xFF,0x04
2.221917083333333,0,0xF0,0x12
2.221935083333333,0,0x7F,0x12
2.221953291666667,0,0xFF,0x0C
2.223904458333333,0,0xB0,0x12
2.223922500000000,0,0xFF,0x12
2.223940708333333,0,0xFF,0x0C
2.225891833333333,0,0x90,0x12
2.225909875000000,0,0xFF,0x12
2.225928083333333,0,0xFF,0x0C
2.227879166666667,0,0x98,0x1A
2.227897208333333,0,0xFF,0x12
2.227915416666667,0,0xFF,0x0C
2.227940208333334,0,0x87,0x12
2.227958250000000,0,0xFF,0x00
2.227976458333333,0,0xFF,0xC6
2.227997000000000,0,0x07,0x12
2.228015041666667,0,0x00,0x02
2.228033083333333,0,0x00,0x12
2.228862625000000,0,0x07,0x01
2.228880666666667,0,0x00,0x01
2.228898708333333,0,0x00,0x81
2.228919333333333,0,0x34,0x01
2.228937375000000,0,0x80,0x01
2.228955416666667,0,0x00,0x01
2.228975666666666,0,0x87,0x01
2.228993708333333,0,0xFF,0x00
2.229011916666667,0,0xFF,0x00
2.229032791666667,0,0x03,0x00
2.229050791666667,0,0x00,0x01
2.229068875000000,0,0xC0,0x01
2.229866416666667,0,0x18,0x1A
2.229884458333333,0,0xFF,0x02
2.229902666666667,0,0xFF,0x00
2.231853958333333,0,0xB0,0x12
2.231872000000000,0,0xFF,0x12
2.231890208333333,0,0xFF,0x00
2.233841250000000,0,0xB0,0x12
2.233859291666667,0,0xFF,0x13
2.233877500000000,0,0xFF,0x00
2.235828583333333,0,0x98,0x10
2.235846625000000,0,0xFF,0x12
2.235864833333333,0,0xFF,0x00
2.237815875000000,0,0xF0,0x12
2.237833875000000,0,0x7F,0x12
2.237852083333333,0,0xFF,0x00
2.239803208333333,0,0xB0,0x12
2.239821208333333,0,0xFF,0x10
2.239839416666667,0,0xFF,0x00
2.241790541666667,0,0xF0,0x12
2.241808541666667,0,0x7F,0x1A
2.241826750000000,0,0xFF,0x00
2.243777791666667,0,0xF0,0x13
2.243795791666667,0,0x7F,0x1A
2.243814000000000,0,0xFF,0x00
2.245765000000000,0,0x98,0x1A
2.245783041666667,0,0xFF,0x12
2.245801250000000,0,0xFF,0x00
2.247752291666667,0,0x98,0x1A
2.247770333333333,0,0xFF,0x12
2.247788541666667,0,0xFF,0x00
2.249739625000000,0,0x90,0x12
2.249757666666667,0,0xFF,0x12
2.249775875000000,0,0xFF,0x00
2.251726875000000,0,0x98,0x10
2.251744916666667,0,0xFF,0x02
2.251763125000000,0,0xFF,0x00
2.253714125000000,0,0xF0,0x13
2.253732125000000,0,0x7F,0x18
2.253750333333334,0,0xFF,0x00
2.255701208333333,0,0x90,0x12
2.255719250000000,0,0xFF,0x12
2.255737458333333,0,0xFF,0x00
2.257688500000000,0,0xB0,0x12
2.257706541666667,0,0xFF,0x13
2.257724750000000,0,0xFF,0x00
2.259675791666667,0,0xB0,0x12
2.259693833333333,0,0xFF,0x12
2.259712041666667,0,0xFF,0x00
2.259736833333333,0,0x87,0x10
2.259754875000000,0,0xFF,0x00
2.259773083333333,0,0xFF,0x80
2.259793625000000,0,0x07,0x12
2.259811666666667,0,0x00,0x13
2.259829708333333,0,0x00,0x1A
2.260659208333333,0,0x07,0x01
2.260677250000000,0,0x00,0x01
2.260695291666666,0,0x28,0x81
2.260715916666667,0,0x34,0x01
2.260733958333333,0,0x80,0x01
2.260752000000000,0,0x00,0x01
2.260772250000000,0,0x87,0x01
2.260790291666666,0,0xFF,0x00
2.260808500000000,0,0xFF,0x28
2.260829375000000,0,0x03,0x00
2.260847375000000,0,0x00,0x01
2.260865458333333,0,0xE8,0x01
2.261662958333333,0,0x18,0x1A
2.261681000000000,0,0xFF,0x12
2.261699208333333,0,0xFF,0x00
2.263650458333333,0,0x98,0x1A
2.263668500000000,0,0xFF,0x02
2.263686708333333,0,0xFF,0x00
2.265637791666667,0,0x98,0x12
2.265655833333333,0,0xFF,0x13
2.265674041666667,0,0xFF,0x10
2.267625041666667,0,0xB0,0x12
2.267643083333333,0,0xFF,0x12
2.267661250000000,0,0xFF,0x10
2.269612375000000,0,0x98,0x10
2.269630416666667,0,0xFF,0x02
2.269648625000000,0,0xFF,0x10
2.271599666666666,0,0xF0,0x02
2.271617666666667,0,0x7F,0x12
2.271635875000000,0,0xFF,0x10
2.273586916666666,0,0x90,0x12
2.273604958333333,0,0xFF,0x12
2.273623166666667,0,0xFF,0x10
2.275574291666667,0,0xB0,0x12
2.275592333333333,0,0xFF,0x12
2.275610541666667,0,0xFF,0x10
2.277561666666667,0,0xB0,0x12
2.277579666666667,0,0xFF,0x12
2.277597875000000,0,0xFF,0x10
2.279548875000000,0,0xB0,0x12
2.279566875000000,0,0xFF,0x12
2.279585083333334,0,0xFF,0x10
2.281535958333333,0,0xB0,0x12
2.281554000000000,0,0xFF,0x13
2.281572208333333,0,0xFF,0x10
2.283523333333333,0,0xF0,0x02
2.283541333333333,0,0x7F,0x12
2.283559541666667,0,0xFF,0x10
2.285510833333333,0,0x90,0x12
2.285528875000000,0,0xFF,0x12
2.285547083333333,0,0xFF,0x10
2.287498208333334,0,0xB0,0x12
2.287516250000000,0,0xFF,0x12
2.287534458333333,0,0xFF,0x10
2.289485541666667,0,0x98,0x18
2.289503583333333,0,0xFF,0x12
2.289521791666667,0,0xFF,0x00
2.291472833333333,0,0xB0,0x12
2.291490875000000,0,0xFF,0x13
2.291509083333333,0,0xFF,0x10
2.291533875000000,0,0xC7,0x02
2.291551875000000,0,0xFF,0x00
2.291570083333333,0,0xFF,0x88
2.291590666666667,0,0x03,0x13
2.291608666666667,0,0x00,0x10
2.291626750000000,0,0x0A,0x12
2.292456208333333,0,0x07,0x01
2.292474250000000,0,0x00,0x00
2.292492291666667,0,0x02,0x01
2.292512916666666,0,0x30,0x00
2.292530916666667,0,0x00,0x01
2.292549000000000,0,0x80,0x01
2.292569250000000,0,0xC3,0x00
2.292587250000000,0,0xFF,0x00
2.292605458333334,0,0xFF,0x08
2.292626333333333,0,0x07,0x01
2.292644375000000,0,0x00,0x00
2.292662416666666,0,0x0A,0x81
2.293459916666666,0,0xB0,0x12
2.293477916666667,0,0xFF,0x12
2.293496125000000,0,0xFF,0x14
2.295447208333333,0,0xB0,0x12
2.295465250000000,0,0xFF,0x12
2.295483458333333,0,0xFF,0x14
2.297434500000000,0,0x98,0x10
2.297452541666666,0,0xFF,0x12
2.297470750000000,0,0xFF,0x14
2.299421708333333,0,0xB0,0x12
2.299439750000000,0,0xFF,0x12
2.299457958333333,0,0xFF,0x14
2.301409125000000,0,0xB0,0x12
2.301427166666667,0,0xFF,0x13
2.301445375000000,0,0xFF,0x14
2.303396416666667,0,0xF0,0x12
2.303414458333333,0,0xFF,0x12
2.303432625000000,0,0xFF,0x14
2.305383583333333,0,0xF0,0x02
2.305401583333333,0,0x7F,0x12
2.305419791666667,0,0xFF,0x14
2.307370791666667,0,0xB0,0x12
2.307388833333333,0,0xFF,0x12
2.307407000000000,0,0xFF,0x14
2.309358041666667,0,0xB0,0x12
2.309376083333333,0,0xFF,0x12
2.309394291666667,0,0xFF,0x10
2.311345375000000,0,0xB0,0x13
2.311363375000000,0,0xFF,0x10
2.311381583333334,0,0xFF,0x16
2.313332666666667,0,0x98,0x10
2.313350708333333,0,0xFF,0x02
2.313368916666667,0,0xFF,0x00
2.315320166666667,0,0xB0,0x12
2.315338208333333,0,0xFF,0x12
2.315356416666666,0,0xFF,0x14
2.317307541666667,0,0x98,0x10
2.317325583333333,0,0xFF,0x02
2.317343791666667,0,0xFF,0x14
2.319294875000000,0,0xB0,0x13
2.319312875000000,0,0xFF,0x18
2.319331083333333,0,0xFF,0x16
2.321281875000000,0,0xF0,0x13
2.321299875000000,0,0x7F,0x1A
2.321318083333333,0,0xFF,0x16
2.323269208333334,0,0xB0,0x12
2.323287250000000,0,0xFF,0x12
2.323305458333333,0,0xFF,0x14
2.323330250000000,0,0x87,0x10
2.323348291666667,0,0xFF,0x00
2.323366500000000,0,0xFF,0x8E
2.323387041666667,0,0x07,0x12
2.323405083333333,0,0x00,0x12
2.323423125000000,0,0x32,0x12
2.324252791666667,0,0x07,0x01
2.324270833333333,0,0x00,0x01
2.324288916666667,0,0x33,0x00
2.324309500000000,0,0x1E,0x01
2.324327541666667,0,0xC0,0x01
2.324345583333333,0,0x00,0x81
2.324365833333333,0,0x07,0x01
2.324383875000000,0,0xFF,0x00
2.324402083333333,0,0xFF,0x32
2.324422958333333,0,0x07,0x01
2.324440958333333,0,0x80,0x81
2.324459041666667,0,0x98,0x01
2.325256583333333,0,0x98,0x10
2.325274625000000,0,0xFF,0x02
2.325292833333333,0,0xFF,0x00
2.327244166666667,0,0xF0,0x12
2.327262208333333,0,0xFF,0x12
2.327280375000000,0,0xFF,0x04
2.329231541666667,0,0xB0,0x12
2.329249583333334,0,0xFF,0x12
2.329267791666667,0,0xFF,0x04
2.331218958333333,0,0xB0,0x12
2.331236958333333,0,0xFF,0x10
2.331255166666667,0,0xFF,0x04
2.333206291666666,0,0xF0,0x02
2.333224291666667,0,0x7F,0x12
2.333242500000000,0,0xFF,0x04
2.335193750000000,0,0x98,0x1A
2.335211791666667,0,0xFF,0x02
2.335230000000000,0,0xFF,0x00
2.337181166666667,0,0xB0,0x12
2.337199208333333,0,0xFF,0x13
2.337217416666667,0,0xFF,0x04
2.339168333333333,0,0x98,0x18
2.339186375000000,0,0xFF,0x02
2.339204583333333,0,0xFF,0x00
2.341155500000000,0,0xB0,0x12
2.341173541666667,0,0xFF,0x13
2.341191750000000,0,0xFF,0x04
2.343142708333333,0,0x98,0x1A
2.343160750000000,0,0xFF,0x02
2.343178958333333,0,0xFF,0x00
2.345130166666667,0,0xB0,0x12
2.345148208333333,0,0xFF,0x12
2.345166416666667,0,0xFF,0x04
2.347117625000000,0,0xB0,0x13
2.347135625000000,0,0x7F,0x1A
2.347153833333333,0,0xFF,0x06
2.349105000000000,0,0xB0,0x12
2.349123041666667,0,0xFF,0x13
2.349141250000000,0,0xFF,0x04
2.351092333333333,0,0xF0,0x12
2.351110375000000,0,0xFF,0x12
2.351128583333333,0,0xFF,0x04
2.353079750000000,0,0x98,0x1A
2.353097791666667,0,0xFF,0x12
2.353116000000000,0,0xFF,0x04
2.355067083333333,0,0xB0,0x12
2.355085125000000,0,0xFF,0x12
2.355103333333334,0,0xFF,0x04
2.355128125000000,0,0x87,0x18
2.355146166666667,0,0xFF,0x00
2.355164375000000,0,0xFF,0xB2
2.355184916666667,0,0x07,0x12
2.355202958333333,0,0x00,0x13
2.355221000000000,0,0x1C,0x1A
2.356050416666667,0,0x07,0x01
2.356068458333333,0,0x00,0x01
2.356086500000000,0,0x14,0x81
2.356107125000000,0,0x34,0x01
2.356125125000000,0,0x00,0x81
2.356143208333333,0,0x80,0x01
2.356163458333334,0,0xC3,0x01
2.356181458333333,0,0xFF,0x00
2.356199666666666,0,0xFF,0x1E
2.356220541666667,0,0x07,0x01
2.356238583333333,0,0x00,0x00
2.356256625000000,0,0x1C,0x01
2.357054125000000,0,0xF0,0x12
2.357072125000000,0,0x7F,0x12
2.357090333333333,0,0xFF,0x08
2.359041375000000,0,0x98,0x10
2.359059416666667,0,0xFF,0x02
2.359077625000000,0,0xFF,0x08
2.361028375000000,0,0xB0,0x12
2.361046416666666,0,0xFF,0x12
2.361064583333333,0,0xFF,0x08
2.363015833333333,0,0xF0,0x12
2.363033875000000,0,0xFF,0x12
2.363052041666667,0,0xFF,0x08
2.365003125000000,0,0xB0,0x13
2.365021125000000,0,0x7F,0x1A
2.365039333333333,0,0xFF,0x00
2.366990333333333,0,0x90,0x12
2.367008375000000,0,0xFF,0x12
2.367026583333333,0,0xFF,0x0C
2.368977458333333,0,0xB0,0x12
2.368995500000000,0,0xFF,0x12
2.369013708333333,0,0xFF,0x08
2.370964666666667,0,0xF0,0x02
2.370982666666666,0,0x7F,0x12
2.371000875000000,0,0xFF,0x08
2.372951791666666,0,0xF0,0x13
2.372969791666667,0,0x7F,0x18
2.372988000000000,0,0xFF,0x08
2.374938958333333,0,0x98,0x1A
2.374957000000000,0,0xFF,0x12
2.374975208333333,0,0xFF,0x0C
2.376926208333333,0,0xB0,0x12
2.376944208333333,0,0xFF,0x12
2.376962416666667,0,0xFF,0x08
2.378913500000000,0,0xB0,0x12
2.378931541666667,0,0xFF,0x13
2.378949750000000,0,0xFF,0x08
2.380900833333333,0,0x98,0x1A
2.380918875000000,0,0xFF,0x12
2.380937083333333,0,0xFF,0x0C
2.382888041666666,0,0xB0,0x12
2.382906083333333,0,0xFF,0x13
2.382924291666667,0,0xFF,0x08
2.384875291666666,0,0xF0,0x02
2.384893291666667,0,0x7F,0x12
2.384911500000000,0,0xFF,0x08
2.386862625000000,0,0xB0,0x12
2.386880625000000,0,0xFF,0x12
2.386898833333333,0,0xFF,0x08
2.386923625000000,0,0x87,0x1A
2.386941666666667,0,0xFF,0x00
2.386959875000000,0,0xFF,0x80
2.386980416666667,0,0x07,0x12
2.386998458333333,0,0x00,0x13
2.387016500000000,0,0x1C,0x12
2.387845958333333,0,0x07,0x01
2.387864000000000,0,0x00,0x01
2.387882041666667,0,0x3C,0x81
2.387902666666667,0,0x34,0x01
2.387920666666667,0,0x00,0x81
2.387938750000000,0,0x80,0x01
2.387959000000000,0,0xC3,0x01
2.387977000000000,0,0xFF,0x00
2.387995208333333,0,0xFF,0x1C
2.388016083333333,0,0x07,0x01
2.388034125000000,0,0x00,0x00
2.388052166666667,0,0x3C,0x01
2.388849666666667,0,0x30,0x92
2.388867708333333,0,0xFF,0x12
2.388885916666667,0,0xFF,0x08
2.390837041666667,0,0xB0,0x12
2.390855041666667,0,0xFF,0x12
2.390873250000000,0,0xFF,0x18
2.392824166666667,0,0xB0,0x12
2.392842208333333,0,0xFF,0x12
2.392860416666667,0,0xFF,0x08
2.394811250000000,0,0xF0,0x12
2.394829250000000,0,0x7F,0x12
2.394847458333333,0,0xFF,0x18
2.396798458333333,0,0xB0,0x12
2.396816458333333,0,0xFF,0x10
2.396834666666666,0,0xFF,0x18
2.398785708333333,0,0x90,0x12
2.398803750000000,0,0xFF,0x12
2.398821958333333,0,0xFF,0x18
2.400772875000000,0,0xB0,0x12
2.400790916666667,0,0xFF,0x13
2.400809125000000,0,0xFF,0x18
2.402760041666667,0,0x98,0x1A
2.402778083333333,0,0xFF,0x02
2.402796291666667,0,0xFF,0x18
2.404747291666667,0,0xB0,0x12
2.404765291666667,0,0xFF,0x12
2.404783500000000,0,0xFF,0x18
2.406734458333333,0,0x98,0x10
2.406752500000000,0,0xFF,0x02
2.406770708333333,0,0xFF,0x1C
2.408721666666667,0,0xB0,0x12
2.408739708333334,0,0xFF,0x13
2.408757916666667,0,0xFF,0x18
2.410708916666667,0,0x98,0x10
2.410726958333334,0,0xFF,0x12
2.410745166666667,0,0xFF,0x18
2.412696208333333,0,0xB0,0x12
2.412714250000000,0,0xFF,0x12
2.412732458333333,0,0xFF,0x18
2.414683500000000,0,0xF0,0x02
2.414701500000000,0,0x7F,0x12
2.414719708333333,0,0xFF,0x18
2.416670708333333,0,0xB0,0x13
2.416688708333333,0,0xFF,0x10
2.416706916666667,0,0xFF,0x18
2.418657875000000,0,0xB0,0x12
2.418675875000000,0,0xFF,0x12
2.418694083333333,0,0xFF,0x18
2.418718875000000,0,0x87,0x12
2.418736916666667,0,0xFF,0x00
2.418755125000000,0,0xFF,0xBC
2.418775666666667,0,0x07,0x12
2.418793708333333,0,0x00,0x12
2.418811750000000,0,0x1E,0x12
2.419641166666667,0,0x03,0x01
2.419659166666666,0,0x80,0x81
2.419677250000000,0,0x1E,0x01
2.419697875000000,0,0x34,0x01
2.419715875000000,0,0x80,0x01
2.419733958333333,0,0x80,0x00
2.419754166666667,0,0x07,0x01
2.419772208333333,0,0xFF,0x00
2.419790416666667,0,0xFF,0x1F
2.419811291666667,0,0x03,0x01
2.419829291666667,0,0x00,0x01
2.419847375000000,0,0xCE,0x01
2.420644833333333,0,0xF0,0x13
2.420662833333334,0,0x7F,0x18
2.420681041666667,0,0xFF,0x1C
2.422632125000000,0,0xF0,0x13
2.422650125000000,0,0x7F,0x1A
2.422668333333333,0,0xFF,0x1E
2.424619166666667,0,0xF0,0x12
2.424637166666667,0,0x7F,0x1A
2.424655375000000,0,0xFF,0x1C
2.426606375000000,0,0xF0,0x02
2.426624375000000,0,0x7F,0x12
2.426642583333333,0,0xFF,0x1E
2.428593541666667,0,0xB0,0x12
2.428611583333333,0,0xFF,0x12
2.428629791666667,0,0xFF,0x1C
2.430580625000000,0,0xF0,0x02
2.430598625000000,0,0x7F,0x1A
2.430616833333333,0,0xFF,0x1E
2.432567500000000,0,0x98,0x10
2.432585541666667,0,0xFF,0x13
2.432603750000000,0,0xFF,0x1C
2.434554625000000,0,0xB0,0x12
2.434572625000000,0,0xFF,0x12
2.434590833333333,0,0xFF,0x1C
2.436541791666667,0,0x98,0x10
2.436559833333333,0,0xFF,0x02
2.436578041666666,0,0xFF,0x0C
2.438528916666667,0,0xB0,0x12
2.438546958333333,0,0xFF,0x12
2.438565125000000,0,0xFF,0x1C
2.440516208333333,0,0xB0,0x13
2.440534208333333,0,0xFF,0x10
2.440552416666667,0,0xFF,0x1E
2.442503458333333,0,0x98,0x10
2.442521500000000,0,0xFF,0x02
2.442539708333333,0,0xFF,0x1C
2.444490791666666,0,0xF0,0x12
2.444508791666667,0,0x7F,0x12
2.444527000000000,0,0xFF,0x1C
2.446478083333333,0,0xF0,0x12
2.446496083333333,0,0x7F,0x1A
2.446514291666666,0,0xFF,0x1E
2.448465166666667,0,0xB0,0x12
2.448483208333333,0,0xFF,0x12
2.448501416666667,0,0xFF,0x1C
2.450452416666667,0,0xF0,0x02
2.450470416666667,0,0x7F,0x12
2.450488625000000,0,0xFF,0x1C
2.450513458333333,0,0x83,0x12
2.450531458333333,0,0xFF,0x00
2.450549666666667,0,0xFF,0x9E
2.450570208333333,0,0x87,0x12
2.450588250000000,0,0x00,0x12
2.450606333333333,0,0x43,0x13
2.451435708333333,0,0x07,0x01
2.451453750000000,0,0x00,0x00
2.451471791666667,0,0x66,0x01
2.451492416666667,0,0x30,0x01
2.451510416666667,0,0x00,0x81
2.451528500000000,0,0x80,0x01
2.451548750000000,0,0xC3,0x01
2.451566750000000,0,0xFF,0x80
2.451584958333333,0,0xFF,0x66
2.451605833333333,0,0x07,0x01
2.451623875000000,0,0x00,0x01
2.451641916666667,0,0x46,0x81
2.452439375000000,0,0xB0,0x12
2.452457416666667,0,0xFF,0x12
2.452475583333333,0,0xFF,0x0C
2.454426708333334,0,0xB0,0x12
2.454444750000000,0,0xFF,0x12
2.454462958333333,0,0xFF,0x0C
2.456413916666667,0,0xB0,0x12
2.456431916666667,0,0xFF,0x12
2.456450125000000,0,0xFF,0x0C
2.458401125000000,0,0x90,0x12
2.458419166666667,0,0xFF,0x12
2.458437375000000,0,0xFF,0x0C
2.460388291666667,0,0xF0,0x02
2.460406291666667,0,0x7F,0x12
2.460424500000000,0,0xFF,0x0C
2.462375708333334,0,0xF0,0x02
2.462393708333333,0,0x7F,0x12
2.462411916666666,0,0xFF,0x04
2.464362916666667,0,0xB0,0x12
2.464380916666667,0,0xFF,0x12
2.464399125000000,0,0xFF,0x0C
2.466350000000000,0,0xB0,0x13
2.466368000000000,0,0xFF,0x10
2.466386208333333,0,0xFF,0x0C
2.468337166666667,0,0x98,0x18
2.468355208333334,0,0xFF,0x02
2.468373416666667,0,0xFF,0x0C
2.470324500000000,0,0xF0,0x02
2.470342500000000,0,0x7F,0x12
2.470360708333333,0,0xFF,0x06
2.472311833333333,0,0xF0,0x12
2.472329833333333,0,0x7F,0x12
2.472348041666667,0,0xFF,0x0C
2.474299041666667,0,0x98,0x10
2.474317083333333,0,0xFF,0x02
2.474335291666667,0,0xFF,0x0C
2.476286291666667,0,0x98,0x1A
2.476304333333333,0,0xFF,0x02
2.476322541666667,0,0xFF,0x0C
2.478273541666667,0,0x98,0x1A
2.478291583333333,0,0xFF,0x12
2.478309791666667,0,0xFF,0x0C
2.480260625000000,0,0xB0,0x12
2.480278666666667,0,0xFF,0x13
2.480296875000000,0,0xFF,0x0C
2.482247916666667,0,0xF0,0x02
2.482265916666667,0,0x7F,0x12
2.482284125000000,0,0xFF,0x0C
2.482308958333333,0,0x83,0x13
2.482326958333333,0,0xFF,0x00
2.482345166666667,0,0xFF,0xC6
2.482365708333333,0,0x87,0x12
2.482383750000000,0,0x00,0x12
2.482401833333333,0,0x00,0x13
2.483231250000000,0,0x07,0x01
2.483249291666667,0,0x00,0x01
2.483267333333333,0,0x00,0x01
2.483287958333333,0,0x30,0x00
2.483305958333333,0,0x00,0x01
2.483324041666667,0,0xC0,0x01
2.483344291666667,0,0x83,0x00
2.483362291666667,0,0xFF,0x00
2.483380500000000,0,0xFF,0x00
2.483401375000000,0,0x07,0x01
2.483419416666667,0,0x00,0x00
2.483437458333333,0,0x00,0x01
2.484235000000000,0,0xB0,0x12
2.484253041666667,0,0xFF,0x13
2.484271250000000,0,0xFF,0x00
2.486222541666667,0,0x98,0x1A
2.486240583333333,0,0xFF,0x12
2.486258791666667,0,0xFF,0x00
2.488209750000000,0,0x98,0x18
2.488227791666667,0,0xFF,0x02
2.488246000000000,0,0xFF,0x00
2.490196958333333,0,0xF0,0x02
2.490214958333334,0,0x7F,0x12
2.490233166666667,0,0xFF,0x00
2.492184166666667,0,0x98,0x12
2.492202208333334,0,0xFF,0x13
2.492220416666667,0,0xFF,0x00
2.494171375000000,0,0xB0,0x12
2.494189375000000,0,0xFF,0x12
2.494207583333333,0,0xFF,0x00
2.496158583333334,0,0xB0,0x12
2.496176625000000,0,0xFF,0x12
2.496194833333333,0,0xFF,0x00
2.498145750000000,0,0xB8,0x10
2.498163791666667,0,0xFF,0x02
2.498182000000000,0,0xFF,0x00
2.500133083333334,0,0xB0,0x12
2.500151125000000,0,0xFF,0x12
2.500169333333333,0,0xFF,0x00
2.502120375000000,0,0xB0,0x12
2.502138416666666,0,0xFF,0x12
2.502156625000000,0,0xFF,0x00
2.504107750000000,0,0x98,0x18
2.504125791666667,0,0xFF,0x12
2.504144000000000,0,0xFF,0x00
2.506095208333333,0,0x98,0x12
2.506113250000000,0,0xFF,0x02
2.506131458333333,0,0xFF,0x00
2.508082583333333,0,0x98,0x1A
2.508100625000000,0,0xFF,0x02
2.508118833333334,0,0xFF,0x00
2.510069916666667,0,0xF0,0x12
2.510087916666667,0,0x7F,0x12
2.510106125000000,0,0xFF,0x00
2.512057083333334,0,0x98,0x12
2.512075125000000,0,0xFF,0x13
2.512093333333334,0,0xFF,0x00
2.514044333333334,0,0xF0,0x12
2.514062375000000,0,0xFF,0x12
2.514080541666667,0,0xFF,0x00
2.514105375000000,0,0xC3,0x13
2.514123375000000,0,0xFF,0x00
2.514141583333333,0,0xFF,0x80
2.514162166666666,0,0x03,0x12
2.514180166666667,0,0x00,0x18
2.514198250000000,0,0x28,0x12
2.515027708333333,0,0x03,0x01
2.515045708333334,0,0x00,0x01
2.515063791666666,0,0x3C,0x01
2.515084375000000,0,0x1E,0x01
2.515102416666667,0,0xC0,0x01
2.515120458333334,0,0x00,0x81
2.515140708333333,0,0x07,0x01
2.515158750000000,0,0xFF,0x00
2.515176958333333,0,0xFF,0x3C
2.515197833333333,0,0x03,0x00
2.515215833333333,0,0x80,0x01
2.515233916666667,0,0xA8,0x01
2.516031375000000,0,0xB0,0x13
2.516049375000000,0,0xFF,0x10
2.516067583333333,0,0xFF,0x10
2.518018875000000,0,0xB0,0x12
2.518036916666667,0,0xFF,0x12
2.518055125000000,0,0xFF,0x10
2.520006041666667,0,0xB0,0x12
2.520024083333333,0,0xFF,0x13
2.520042291666666,0,0xFF,0x10
2.521993333333334,0,0xF0,0x12
2.522011333333333,0,0x7F,0x1A
2.522029541666666,0,0xFF,0x10
2.523980458333333,0,0x90,0x12
2.523998500000000,0,0xFF,0x13
2.524016708333333,0,0xFF,0x10
2.525967750000000,0,0xB0,0x12
2.525985791666667,0,0xFF,0x12
2.526004000000000,0,0xFF,0x10
2.527954916666667,0,0xF0,0x02
2.527972916666667,0,0x7F,0x12
2.527991125000000,0,0xFF,0x18
2.529942083333333,0,0x98,0x10
2.529960125000000,0,0xFF,0x02
2.529978333333333,0,0xFF,0x10
2.531929125000000,0,0x98,0x10
2.531947166666667,0,0xFF,0x13
2.531965375000000,0,0xFF,0x10
2.533916208333333,0,0xB0,0x12
2.533934250000000,0,0xFF,0x12
2.533952416666667,0,0xFF,0x10
2.535903416666667,0,0x98,0x10
2.535921458333333,0,0xFF,0x02
2.535939666666667,0,0xFF,0x00
2.537890750000000,0,0x98,0x18
2.537908791666667,0,0xFF,0x02
2.537927000000000,0,0xFF,0x00
2.539877958333333,0,0xF0,0x02
2.539895958333333,0,0x7F,0x1A
2.539914166666667,0,0xFF,0x10
2.541865000000000,0,0xB0,0x12
2.541883000000000,0,0xFF,0x12
2.541901208333333,0,0xFF,0x10
2.543852083333333,0,0xF0,0x02
2.543870083333333,0,0x7F,0x12
2.543888291666667,0,0xFF,0x10
2.545839250000000,0,0xB0,0x12
2.545857291666667,0,0xFF,0x12
2.545875500000000,0,0xFF,0x00
2.545900291666667,0,0x87,0x12
2.545918333333333,0,0xFF,0x00
2.545936500000000,0,0xFF,0x28
2.545957083333333,0,0x03,0x12
2.545975083333333,0,0x00,0x12
2.545993166666667,0,0x0E,0x12
2.546822541666667,0,0x07,0x01
2.546840583333333,0,0x00,0x01
2.546858666666667,0,0x0F,0x01
2.546879250000000,0,0x34,0x01
2.546897291666667,0,0x80,0x01
2.546915333333333,0,0x80,0x01
2.546935583333333,0,0xC3,0x01
2.546953583333333,0,0xFF,0x80
2.546971791666667,0,0xFF,0x02
2.546992666666667,0,0x07,0x01
2.547010708333334,0,0x00,0x00
2.547028750000000,0,0x0A,0x01
2.547826250000000,0,0xB0,0x12
2.547844250000000,0,0xFF,0x12
2.547862458333333,0,0xFF,0x14
2.549813541666667,0,0xB0,0x12
2.549831583333333,0,0xFF,0x13
2.549849791666666,0,0xFF,0x14
2.551800666666667,0,0x98,0x12
2.551818708333333,0,0xFF,0x13
2.551836916666667,0,0xFF,0x14
2.553787875000000,0,0xF0,0x02
2.553805875000000,0,0x7F,0x12
2.553824083333333,0,0xFF,0x14
2.555775041666667,0,0xF0,0x13
2.555793041666667,0,0x7F,0x1A
2.555811250000000,0,0xFF,0x1E
2.557762416666667,0,0xB0,0x12
2.557780458333333,0,0xFF,0x13
2.557798666666667,0,0xFF,0x14
2.559749750000000,0,0xB0,0x12
2.559767750000000,0,0xFF,0x12
2.559785958333333,0,0xFF,0x14
2.561737083333333,0,0xF0,0x12
2.561755125000000,0,0xFF,0x12
2.561773291666666,0,0xFF,0x14
2.563724333333333,0,0xB0,0x12
2.563742333333333,0,0xFF,0x12
2.563760541666666,0,0xFF,0x14
2.565711583333333,0,0xF0,0x12
2.565729583333333,0,0x7F,0x1A
2.565747791666667,0,0xFF,0x1C
2.567698875000000,0,0xB0,0x12
2.567716916666666,0,0xFF,0x12
2.567735083333333,0,0xFF,0x14
2.569686208333333,0,0xF0,0x02
2.569704208333333,0,0x7F,0x12
2.569722416666667,0,0xFF,0x1C
2.571673375000000,0,0xB0,0x12
2.571691416666666,0,0xFF,0x13
2.571709625000000,0,0xFF,0x14
2.573660541666666,0,0xB0,0x12
2.573678541666667,0,0xFF,0x10
2.573696750000000,0,0xFF,0x16
2.575647708333333,0,0x98,0x1A
2.575665750000000,0,0xFF,0x12
2.575683958333333,0,0xFF,0x04
2.577634833333333,0,0xB0,0x12
2.577652875000000,0,0xFF,0x12
2.577671083333333,0,0xFF,0x14
2.577695875000000,0,0x87,0x12
2.577713916666667,0,0xFF,0x00
2.577732125000000,0,0xFF,0x8A
2.577752666666667,0,0x03,0x02
2.577770666666667,0,0x80,0x12
2.577788750000000,0,0x30,0x12
2.578618166666667,0,0x07,0x01
2.578636208333333,0,0x00,0x01
2.578654291666667,0,0x33,0x00
2.578674875000000,0,0x36,0x01
2.578692916666667,0,0x80,0x00
2.578710958333333,0,0x00,0x01
2.578731208333333,0,0x87,0x01
2.578749250000000,0,0xFF,0x00
2.578767458333334,0,0xFF,0x33
2.578788333333333,0,0x03,0x00
2.578806333333334,0,0x00,0x01
2.578824416666667,0,0xB2,0x01
2.579621916666667,0,0x30,0x92
2.579639958333333,0,0xFF,0x12
2.579658166666666,0,0xFF,0x04
2.581609333333333,0,0xF0,0x12
2.581627375000000,0,0xFF,0x12
2.581645541666667,0,0xFF,0x04
2.583596625000000,0,0xF0,0x02
2.583614625000000,0,0x7F,0x12
2.583632833333333,0,0xFF,0x04
2.585583833333333,0,0xB0,0x12
2.585601833333333,0,0xFF,0x12
2.585620041666667,0,0xFF,0x04
2.587571000000000,0,0x90,0x12
2.587589041666666,0,0xFF,0x12
2.587607250000000,0,0xFF,0x04
2.589558250000000,0,0xF0,0x12
2.589576250000000,0,0x7F,0x1A
2.589594458333333,0,0xFF,0x04
2.591545500000000,0,0x98,0x1A
2.591563541666666,0,0xFF,0x12
2.591581750000000,0,0xFF,0x04
2.593532791666667,0,0xB0,0x12
2.593550833333333,0,0xFF,0x12
2.593569000000000,0,0xFF,0x04
2.595520000000000,0,0xB0,0x12
2.595538041666666,0,0xFF,0x12
2.595556208333333,0,0xFF,0x04
2.597507291666667,0,0x98,0x1A
2.597525333333333,0,0xFF,0x12
2.597543541666667,0,0xFF,0x00
2.599494208333333,0,0xB0,0x12
2.599512250000000,0,0xFF,0x12
2.599530416666667,0,0xFF,0x04
2.601481291666667,0,0xF0,0x13
2.601499291666667,0,0x7F,0x1A
2.601517500000000,0,0xFF,0x06
2.603468500000000,0,0xB0,0x12
2.603486541666667,0,0xFF,0x12
2.603504708333333,0,0xFF,0x04
2.605455541666667,0,0xF0,0x12
2.605473541666667,0,0x7F,0x12
2.605491750000000,0,0xFF,0x04
2.607442708333333,0,0xB0,0x12
2.607460750000000,0,0xFF,0x13
2.607478958333334,0,0xFF,0x04
2.609429833333333,0,0xB0,0x12
2.609447875000000,0,0xFF,0x12
2.609466083333333,0,0xFF,0x00
2.609490875000000,0,0x87,0x12
2.609508916666667,0,0xFF,0x00
2.609527083333333,0,0xFF,0x32
2.609547666666667,0,0x03,0x13
2.609565666666667,0,0x00,0x10
2.609583750000000,0,0x00,0x02
2.610413125000000,0,0x07,0x01
2.610431125000000,0,0x80,0x81
2.610449208333333,0,0x16,0x01
2.610469791666667,0,0x34,0x81
2.610487833333333,0,0x80,0x01
2.610505916666667,0,0x80,0x01
2.610526125000000,0,0x07,0x01
2.610544166666667,0,0xFF,0x00
2.610562375000000,0,0xFF,0x14
2.610583208333333,0,0x87,0x01
2.610601250000000,0,0x00,0x01
2.610619333333333,0,0x94,0x01
2.611416750000000,0,0xB0,0x12
2.611434750000000,0,0xFF,0x12
2.611452958333333,0,0xFF,0x08
2.613404125000000,0,0xF0,0x12
2.613422125000000,0,0x7F,0x1A
2.613440333333333,0,0xFF,0x08
2.615391250000000,0,0xF0,0x02
2.615409250000000,0,0x7F,0x12
2.615427458333333,0,0xFF,0x00
2.617378375000000,0,0x98,0x1A
2.617396416666667,0,0xFF,0x12
2.617414625000000,0,0xFF,0x08
2.619365625000000,0,0xB0,0x12
2.619383625000000,0,0xFF,0x10
2.619401833333333,0,0xFF,0x08
2.621352875000000,0,0xF0,0x02
2.621370875000000,0,0x7F,0x12
2.621389083333333,0,0xFF,0x08
2.623340166666666,0,0xB0,0x12
2.623358208333333,0,0xFF,0x12
2.623376416666667,0,0xFF,0x08
2.625327416666666,0,0xF0,0x02
2.625345416666667,0,0x7F,0x1A
2.625363625000000,0,0xFF,0x08
2.627314500000000,0,0x98,0x10
2.627332541666667,0,0xFF,0x02
2.627350750000000,0,0xFF,0x0C
2.629301750000000,0,0xF0,0x02
2.629319750000000,0,0x7F,0x12
2.629337958333333,0,0xFF,0x00
2.631289041666667,0,0xF0,0x12
2.631307041666667,0,0x7F,0x12
2.631325250000000,0,0xFF,0x08
2.633276250000000,0,0xB0,0x12
2.633294291666667,0,0xFF,0x12
2.633312500000000,0,0xFF,0x08
2.635263458333333,0,0x90,0x12
2.635281500000000,0,0xFF,0x13
2.635299708333333,0,0xFF,0x08
2.637250708333333,0,0xB0,0x12
2.637268708333333,0,0xFF,0x10
2.637286916666667,0,0xFF,0x08
2.639237833333334,0,0x98,0x18
2.639255875000000,0,0xFF,0x02
2.639274083333333,0,0xFF,0x08
2.641224916666667,0,0xF0,0x02
2.641242916666667,0,0x7F,0x12
2.641261125000000,0,0xFF,0x08
2.641285916666666,0,0x87,0x12
2.641303958333333,0,0xFF,0x00
2.641322166666667,0,0xFF,0xC0
2.641342708333333,0,0x07,0x12
2.641360750000000,0,0x00,0x12
2.641378791666666,0,0x1E,0x10
2.642208208333333,0,0x07,0x01
2.642226208333333,0,0x80,0x81
2.642244291666667,0,0x1E,0x01
2.642264916666667,0,0x34,0x01
2.642282916666667,0,0x80,0x01
2.642301000000000,0,0xC0,0x00
2.642321208333333,0,0x07,0x81
2.642339250000000,0,0xFF,0x00
2.642357458333333,0,0xFF,0x3C
2.642378333333333,0,0x03,0x01
2.642396333333333,0,0x80,0x01
2.642414416666667,0,0xBC,0x01
2.643211875000000,0,0xB0,0x12
2.643229916666667,0,0xFF,0x13
2.643248125000000,0,0xFF,0x18
2.645199250000000,0,0xB0,0x12
2.645217291666667,0,0xFF,0x12
2.645235458333334,0,0xFF,0x18
2.647186500000000,0,0xB0,0x12
2.647204500000000,0,0xFF,0x10
2.647222708333334,0,0xFF,0x18
2.649173666666667,0,0xB0,0x12
2.649191708333333,0,0xFF,0x12
2.649209916666666,0,0xFF,0x08
2.651160875000000,0,0x98,0x10
2.651178916666667,0,0xFF,0x02
2.651197125000000,0,0xFF,0x0C
2.653148208333334,0,0xB0,0x12
2.653166250000000,0,0xFF,0x13
2.653184458333333,0,0xFF,0x18
2.655135500000000,0,0xB0,0x12
2.655153541666667,0,0xFF,0x13
2.655171750000000,0,0xFF,0x18
2.657122666666667,0,0x98,0x1A
2.657140708333333,0,0xFF,0x12
2.657158916666666,0,0xFF,0x0C
2.659109750000000,0,0xB0,0x12
2.659127750000000,0,0xFF,0x12
2.659145958333333,0,0xFF,0x18
2.661097083333333,0,0xF0,0x13
2.661115083333333,0,0x7F,0x1A
2.661133291666667,0,0xFF,0x18
2.663084416666667,0,0xB0,0x13
2.663102416666667,0,0xFF,0x10
2.663120625000000,0,0xFF,0x18
2.665071750000000,0,0xB0,0x12
2.665089791666666,0,0xFF,0x13
2.665108000000000,0,0xFF,0x18
2.667059166666667,0,0xB0,0x12
2.667077208333333,0,0xFF,0x12
2.667095375000000,0,0xFF,0x18
2.669046458333333,0,0xF0,0x12
2.669064500000000,0,0xFF,0x12
2.669082666666667,0,0xFF,0x18
2.671033708333333,0,0x98,0x10
2.671051750000000,0,0xFF,0x02
2.671069958333333,0,0xFF,0x18
2.673021041666667,0,0xB0,0x12
2.673039083333333,0,0xFF,0x13
2.673057291666667,0,0xFF,0x18
2.673082083333334,0,0xC3,0x12
2.673100083333333,0,0xFF,0x00
2.673118291666666,0,0xFF,0xBE
2.673138875000000,0,0x07,0x12
2.673156875000000,0,0x00,0x12
2.673174958333334,0,0x0E,0x12
2.674004375000000,0,0x07,0x01
2.674022416666667,0,0x00,0x01
2.674040500000000,0,0x1F,0x01
2.674061083333333,0,0x34,0x01
2.674079125000000,0,0x80,0x01
2.674097166666667,0,0x00,0x01
2.674117416666667,0,0x87,0x01
2.674135458333333,0,0xFF,0x00
2.674153666666667,0,0xFF,0x1E
2.674174500000000,0,0x87,0x01
2.674192541666667,0,0x00,0x01
2.674210625000000,0,0xCE,0x01
2.675008125000000,0,0xB0,0x12
2.675026166666667,0,0xFF,0x13
2.675044375000000,0,0xFF,0x1C
2.676995458333333,0,0xF0,0x12
2.677013458333333,0,0x7F,0x12
2.677031666666667,0,0xFF,0x1C
2.678982541666667,0,0x98,0x1A
2.679000583333333,0,0xFF,0x12
2.679018791666667,0,0xFF,0x1C
2.680970208333334,0,0xB0,0x12
2.680988250000000,0,0xFF,0x13
2.681006458333334,0,0xFF,0x1C
2.682957333333333,0,0x98,0x1A
2.682975375000000,0,0xFF,0x12
2.682993583333333,0,0xFF,0x0C
2.684944500000000,0,0xB0,0x12
2.684962541666667,0,0xFF,0x13
2.684980750000000,0,0xFF,0x1C
2.686931625000000,0,0xB0,0x12
2.686949666666667,0,0xFF,0x12
2.686967875000000,0,0xFF,0x1C
2.688918833333333,0,0xB0,0x12
2.688936833333333,0,0xFF,0x12
2.688955041666667,0,0xFF,0x1C
2.690906000000000,0,0xF0,0x13
2.690924000000000,0,0x7F,0x1A
2.690942208333333,0,0xFF,0x1E
2.692893208333333,0,0xB0,0x13
2.692911208333333,0,0x7F,0x18
2.692929416666667,0,0xFF,0x1C
2.694880666666667,0,0x90,0x12
2.694898708333333,0,0xFF,0x12
2.694916916666667,0,0xFF,0x1C
2.696868000000000,0,0xF0,0x12
2.696886041666667,0,0xFF,0x12
2.696904208333333,0,0xFF,0x1C
2.698855083333333,0,0x98,0x10
2.698873125000000,0,0xFF,0x02
2.698891333333334,0,0xFF,0x1C
2.700842375000000,0,0xF0,0x02
2.700860375000000,0,0x7F,0x12
2.700878583333334,0,0xFF,0x1C
2.702829541666667,0,0xB0,0x12
2.702847583333333,0,0xFF,0x13
2.702865791666667,0,0xFF,0x1C
2.704816833333333,0,0xF0,0x02
2.704834833333333,0,0x7F,0x12
2.704853041666667,0,0xFF,0x1C
2.704877875000000,0,0x83,0x13
2.704895875000000,0,0xFF,0x00
2.704914083333333,0,0xFF,0x9E
2.704934625000000,0,0x87,0x12
2.704952666666667,0,0x00,0x12
2.704970750000000,0,0x02,0x12
2.705800166666667,0,0x07,0x01
2.705818208333334,0,0x00,0x01
2.705836250000000,0,0x66,0x01
2.705856875000000,0,0x30,0x01
2.705874875000000,0,0x00,0x01
2.705892958333334,0,0x80,0x01
2.705913208333333,0,0xC3,0x00
2.705931208333333,0,0xFF,0x00
2.705949416666667,0,0xFF,0x46
2.705970291666667,0,0x07,0x01
2.705988333333333,0,0x00,0x00
2.706006375000000,0,0x46,0x01
2.706803833333333,0,0x18,0x10
2.706821875000000,0,0xFF,0x02
2.706840083333333,0,0xFF,0x0C
2.708791125000000,0,0xF0,0x13
2.708809125000000,0,0xFF,0x10
2.708827333333333,0,0xFF,0x0C
2.710778125000000,0,0x98,0x10
2.710796166666666,0,0xFF,0x02
2.710814375000000,0,0xFF,0x0C
2.712765250000000,0,0x98,0x10
2.712783291666667,0,0xFF,0x02
2.712801500000000,0,0xFF,0x0C
2.714752375000000,0,0xB0,0x13
2.714770375000000,0,0x7F,0x18
2.714788583333333,0,0xFF,0x0C
2.716739541666667,0,0xB0,0x12
2.716757583333334,0,0xFF,0x12
2.716775791666667,0,0xFF,0x0C
2.718726750000000,0,0xF0,0x12
2.718744791666666,0,0xFF,0x12
2.718762958333333,0,0xFF,0x0C
2.720713958333334,0,0x98,0x10
2.720732000000000,0,0xFF,0x02
2.720750208333333,0,0xFF,0x0C
2.722701166666667,0,0xB0,0x13
2.722719166666667,0,0x7F,0x10
2.722737375000000,0,0xFF,0x0C
2.724688416666667,0,0xB0,0x12
2.724706458333333,0,0xFF,0x12
2.724724625000000,0,0xFF,0x0C
2.726675750000000,0,0xF0,0x02
2.726693750000000,0,0x7F,0x1A
2.726711958333333,0,0xFF,0x0E
2.728663041666667,0,0xB0,0x12
2.728681083333333,0,0xFF,0x12
2.728699291666667,0,0xFF,0x0C
2.730650416666667,0,0xB0,0x12
2.730668458333333,0,0xFF,0x12
2.730686666666667,0,0xFF,0x0C
2.732637875000000,0,0xF0,0x12
2.732655875000000,0,0x7F,0x12
2.732674083333333,0,0xFF,0x0C
2.734625166666667,0,0xB0,0x13
2.734643166666667,0,0xFF,0x10
2.734661375000000,0,0xFF,0x0C
2.736612375000000,0,0xB0,0x12
2.736630375000000,0,0xFF,0x12
2.736648583333333,0,0xFF,0x0C
2.736673375000000,0,0x87,0x12
2.736691416666666,0,0xFF,0x00
2.736709583333333,0,0xFF,0x46
2.736730166666667,0,0x03,0x13
2.736748166666667,0,0x80,0x18
2.736766250000000,0,0x00,0x12
2.737595791666667,0,0x07,0x01
2.737613791666667,0,0x80,0x81
2.737631875000000,0,0x00,0x01
2.737652458333333,0,0x34,0x81
2.737670500000000,0,0x80,0x01
2.737688583333334,0,0xC0,0x01
2.737708833333333,0,0x87,0x01
2.737726833333333,0,0xFF,0x00
2.737745041666667,0,0xFF,0x00
2.737765916666667,0,0x07,0x01
2.737783916666667,0,0x80,0x81
2.737802000000000,0,0x80,0x01
2.738599458333333,0,0xB0,0x12
2.738617500000000,0,0xFF,0x12
2.738635666666667,0,0xFF,0x00
2.740586583333333,0,0x98,0x12
2.740604625000000,0,0xFF,0x12
2.740622833333333,0,0xFF,0x00
2.742573875000000,0,0x98,0x1A
2.742591916666667,0,0xFF,0x02
2.742610125000000,0,0xFF,0x00
2.744561125000000,0,0x98,0x1A
2.744579166666667,0,0xFF,0x02
2.744597375000000,0,0xFF,0x00
2.746548250000000,0,0x98,0x1A
2.746566291666667,0,0xFF,0x02
2.746584500000000,0,0xFF,0x00
2.748535458333333,0,0xB0,0x12
2.748553458333333,0,0x7F,0x12
2.748571666666667,0,0xFF,0x00
2.750522500000000,0,0xB0,0x12
2.750540541666667,0,0xFF,0x12
2.750558708333333,0,0xFF,0x00
2.752509458333333,0,0xB0,0x12
2.752527500000000,0,0xFF,0x12
2.752545666666667,0,0xFF,0x00
2.754496500000000,0,0x98,0x10
2.754514541666667,0,0xFF,0x02
2.754532750000000,0,0xFF,0x00
2.756483708333333,0,0xB0,0x12
2.756501750000000,0,0xFF,0x12
2.756519958333334,0,0xFF,0x00
2.758470958333333,0,0xB0,0x13
2.758488958333333,0,0x7F,0x1A
2.758507166666667,0,0xFF,0x00
2.760458000000000,0,0x98,0x12
2.760476041666667,0,0xFF,0x13
2.760494250000000,0,0xFF,0x00
2.762444958333333,0,0xF0,0x13
2.762462958333333,0,0x7F,0x10
2.762481166666667,0,0xFF,0x00
2.764431916666667,0,0x98,0x12
2.764449958333334,0,0xFF,0x13
2.764468166666667,0,0xFF,0x00
2.766419041666667,0,0x98,0x12
2.766437083333333,0,0xFF,0x13
2.766455291666666,0,0xFF,0x00
2.768406083333333,0,0xF0,0x02
2.768424083333333,0,0x7F,0x12
2.768442291666667,0,0xFF,0x00
2.768467083333333,0,0x87,0x12
2.768485125000000,0,0xFF,0x00
2.768503333333333,0,0xFF,0x80
2.768523875000000,0,0x07,0x12
2.768541875000000,0,0x80,0x12
2.768559958333333,0,0x28,0x12
2.769389458333333,0,0x03,0x01
2.769407458333333,0,0x80,0x01
2.769425541666667,0,0x38,0x01
2.769446125000000,0,0x1E,0x01
2.769464166666667,0,0xC0,0x00
2.769482208333333,0,0x00,0x01
2.769502458333333,0,0x87,0x01
2.769520458333333,0,0xFF,0x80
2.769538666666667,0,0xFF,0x00
2.769559541666667,0,0x07,0x01
2.769577583333333,0,0x00,0x00
2.769595625000000,0,0x00,0x01
2.770393333333333,0,0xF0,0x02
2.770411333333333,0,0x7F,0x1A
2.770429541666667,0,0xFF,0x10
2.772380208333333,0,0xF0,0x13
2.772398208333333,0,0x7F,0x18
2.772416416666667,0,0xFF,0x10
2.774367291666667,0,0xB0,0x12
2.774385333333333,0,0xFF,0x12
2.774403500000000,0,0xFF,0x10
2.776354375000000,0,0x98,0x1A
2.776372416666667,0,0xFF,0x02
2.776390625000000,0,0xFF,0x10
2.778341416666667,0,0xB0,0x12
2.778359458333334,0,0xFF,0x12
2.778377666666667,0,0xFF,0x10
2.780328416666667,0,0x98,0x1A
2.780346458333333,0,0xFF,0x02
2.780364666666667,0,0xFF,0x00
2.782315375000000,0,0x98,0x1A
2.782333416666666,0,0xFF,0x12
2.782351625000000,0,0xFF,0x00
2.784302375000000,0,0x98,0x10
2.784320416666667,0,0xFF,0x02
2.784338625000000,0,0xFF,0x10
2.786289333333333,0,0xB0,0x12
2.786307375000000,0,0xFF,0x12
2.786325583333333,0,0xFF,0x00
2.788276375000000,0,0xB0,0x12
2.788294416666667,0,0xFF,0x12
2.788312583333334,0,0xFF,0x10
2.790263583333333,0,0xF0,0x02
2.790281583333333,0,0x7F,0x12
2.790299791666667,0,0xFF,0x18
2.792250833333333,0,0xB0,0x13
2.792268833333333,0,0xFF,0x10
2.792287041666667,0,0xFF,0x10
2.794238041666667,0,0xB0,0x12
2.794256083333333,0,0xFF,0x13
2.794274291666667,0,0xFF,0x10
2.796225208333333,0,0xB0,0x12
2.796243250000000,0,0xFF,0x12
2.796261458333333,0,0xFF,0x10
2.798212416666667,0,0xF0,0x12
2.798230416666667,0,0x7F,0x1A
2.798248625000000,0,0xFF,0x10
2.800199541666667,0,0x98,0x1A
2.800217583333333,0,0xFF,0x12
2.800235791666667,0,0xFF,0x00
2.800260583333333,0,0x87,0x12
2.800278625000000,0,0xFF,0x00
2.800296791666667,0,0xFF,0x28
2.800317375000000,0,0x03,0x12
2.800335375000000,0,0x80,0x1A
2.800353458333333,0,0x0A,0x12
2.801183041666667,0,0x03,0x00
2.801201041666667,0,0x00,0x01
2.801219125000000,0,0x0A,0x01
2.801239708333333,0,0x1C,0x01
2.801257750000000,0,0xC0,0x01
2.801275833333333,0,0x80,0x01
2.801296041666667,0,0x07,0x01
2.801314083333333,0,0xFF,0x00
2.801332291666667,0,0xFF,0x0B
2.801353166666666,0,0x03,0x00
2.801371166666667,0,0x00,0x01
2.801389250000000,0,0xCA,0x01
2.802187000000000,0,0xB0,0x12
2.802205041666667,0,0xFF,0x12
2.802223250000000,0,0xFF,0x14
2.804173958333333,0,0xB0,0x13
2.804191958333333,0,0x7F,0x1A
2.804210166666667,0,0xFF,0x16
2.806161125000000,0,0xB0,0x12
2.806179166666666,0,0xFF,0x12
2.806197375000000,0,0xFF,0x14
2.808148291666666,0,0xB0,0x12
2.808166333333333,0,0xFF,0x12
2.808184500000000,0,0xFF,0x14
2.810135583333333,0,0x98,0x12
2.810153625000000,0,0xFF,0x13
2.810171833333333,0,0xFF,0x14
2.812122833333333,0,0xF0,0x12
2.812140875000000,0,0xFF,0x12
2.812159041666667,0,0xFF,0x14
2.814110000000000,0,0xB0,0x12
2.814128000000000,0,0xFF,0x10
2.814146208333333,0,0xFF,0x14
2.816097166666667,0,0x98,0x1A
2.816115208333333,0,0xFF,0x02
2.816133416666667,0,0xFF,0x14
2.818084333333333,0,0xB0,0x12
2.818102375000000,0,0xFF,0x12
2.818120541666667,0,0xFF,0x14
2.820071541666667,0,0x98,0x10
2.820089583333333,0,0xFF,0x02
2.820107791666667,0,0xFF,0x04
2.822058833333333,0,0x98,0x1A
2.822076875000000,0,0xFF,0x02
2.822095083333333,0,0xFF,0x00
2.824046166666667,0,0xB0,0x12
2.824064166666667,0,0xFF,0x10
2.824082375000000,0,0xFF,0x14
2.826033375000000,0,0xF0,0x12
2.826051375000000,0,0x7F,0x1A
2.826069583333333,0,0xFF,0x16
2.828020541666667,0,0xB0,0x12
2.828038583333333,0,0xFF,0x13
2.828056791666667,0,0xFF,0x14
2.830007708333333,0,0xB0,0x12
2.830025750000000,0,0xFF,0x13
2.830043958333333,0,0xFF,0x14
2.831994916666666,0,0xF0,0x02
2.832012916666667,0,0x7F,0x12
2.832031125000000,0,0xFF,0x1E
2.832055916666667,0,0x87,0x12
2.832073958333333,0,0xFF,0x00
2.832092166666667,0,0xFF,0x8A
2.832112708333333,0,0x87,0x1A
2.832130750000000,0,0x00,0x02
2.832148791666667,0,0x32,0x12
2.832978416666667,0,0x07,0x01
2.832996416666667,0,0x80,0x81
2.833014500000000,0,0x38,0x01
2.833035125000000,0,0x34,0x01
2.833053125000000,0,0x80,0x01
2.833071208333333,0,0xC0,0x01
2.833091458333334,0,0x87,0x01
2.833109458333333,0,0xFF,0x00
2.833127666666666,0,0xFF,0x32
2.833148541666667,0,0x07,0x01
2.833166583333333,0,0x00,0x01
2.833184625000000,0,0x18,0x01
2.833982041666667,0,0xF0,0x02
2.834000041666667,0,0x7F,0x1A
2.834018250000000,0,0xFF,0x06
2.835969125000000,0,0xB0,0x13
2.835987125000000,0,0xFF,0x10
2.836005333333333,0,0xFF,0x04
2.837956250000000,0,0xB0,0x12
2.837974291666667,0,0xFF,0x12
2.837992500000000,0,0xFF,0x04
2.839943458333333,0,0x90,0x12
2.839961500000000,0,0xFF,0x12
2.839979708333333,0,0xFF,0x00
2.841930583333333,0,0xB0,0x12
2.841948583333333,0,0xFF,0x12
2.841966791666667,0,0xFF,0x04
2.843917708333333,0,0x90,0x12
2.843935750000000,0,0xFF,0x13
2.843953958333334,0,0xFF,0x04
2.845904916666667,0,0xB0,0x13
2.845922916666667,0,0x7F,0x1A
2.845941125000000,0,0xFF,0x04
2.847892000000000,0,0xB0,0x12
2.847910041666667,0,0xFF,0x13
2.847928250000000,0,0xFF,0x04
2.849879166666667,0,0xF0,0x02
2.849897166666667,0,0x7F,0x1A
2.849915375000000,0,0xFF,0x06
2.851866416666667,0,0xB0,0x12
2.851884458333333,0,0xFF,0x12
2.851902666666667,0,0xFF,0x04
2.853853833333333,0,0x90,0x12
2.853871875000000,0,0xFF,0x12
2.853890083333333,0,0xFF,0x04
2.855841208333334,0,0xB0,0x13
2.855859208333333,0,0xFF,0x10
2.855877416666667,0,0xFF,0x04
2.857828458333334,0,0xB0,0x13
2.857846458333333,0,0x7F,0x18
2.857864666666666,0,0xFF,0x06
2.859815625000000,0,0xF0,0x12
2.859833625000000,0,0x7F,0x12
2.859851833333333,0,0xFF,0x04
2.861802750000000,0,0x98,0x10
2.861820791666667,0,0xFF,0x13
2.861839000000000,0,0xFF,0x04
2.863790041666667,0,0xB0,0x12
2.863808083333333,0,0xFF,0x13
2.863826291666667,0,0xFF,0x04
2.863851083333333,0,0xC7,0x12
2.863869125000000,0,0xFF,0x00
2.863887333333333,0,0xFF,0xB2
2.863907875000000,0,0x07,0x12
2.863925916666667,0,0x00,0x12
2.863943958333333,0,0x1C,0x1A
2.864773666666667,0,0x03,0x00
2.864791666666667,0,0x00,0x01
2.864809750000000,0,0x14,0x01
2.864830333333333,0,0x14,0x01
2.864848375000000,0,0x80,0x01
2.864866458333333,0,0xC0,0x00
2.864886666666667,0,0x07,0x81
2.864904708333333,0,0xFF,0x00
2.864922916666667,0,0xFF,0x14
2.864943791666667,0,0x07,0x01
2.864961833333334,0,0x00,0x01
2.864979875000000,0,0x1E,0x01
2.865777708333333,0,0xB0,0x12
2.865795750000000,0,0xFF,0x12
2.865813958333333,0,0xFF,0x08
2.867764833333333,0,0xF0,0x02
2.867782833333334,0,0x7F,0x12
2.867801041666667,0,0xFF,0x08
2.869752083333333,0,0xB0,0x12
2.869770125000000,0,0xFF,0x12
2.869788333333333,0,0xFF,0x08
2.871739458333333,0,0xB0,0x12
2.871757500000000,0,0xFF,0x12
2.871775708333333,0,0xFF,0x08
2.873726791666666,0,0xF0,0x12
2.873744791666667,0,0x7F,0x12
2.873763000000000,0,0xFF,0x08
2.875714166666667,0,0xB0,0x12
2.875732208333333,0,0xFF,0x12
2.875750416666667,0,0xFF,0x08
2.877701541666667,0,0x98,0x1A
2.877719583333334,0,0xFF,0x12
2.877737791666667,0,0xFF,0x08
2.879688875000000,0,0xB0,0x12
2.879706916666667,0,0xFF,0x13
2.879725125000000,0,0xFF,0x08
2.881676125000000,0,0xB0,0x12
2.881694166666667,0,0xFF,0x12
2.881712375000000,0,0xFF,0x08
2.883663416666667,0,0xF0,0x12
2.883681416666667,0,0x7F,0x12
2.883699625000000,0,0xFF,0x00
2.885650708333333,0,0xB0,0x12
2.885668708333333,0,0xFF,0x10
2.885686916666667,0,0xFF,0x08
2.887637958333333,0,0x98,0x1A
2.887656000000000,0,0xFF,0x12
2.887674208333333,0,0xFF,0x0C
2.889625166666667,0,0xB0,0x12
2.889643208333333,0,0xFF,0x12
2.889661416666667,0,0xFF,0x08
2.891612375000000,0,0xF0,0x13
2.891630375000000,0,0xFF,0x18
2.891648583333333,0,0xFF,0x08
2.893599666666667,0,0xB0,0x12
2.893617708333333,0,0xFF,0x12
2.893635916666667,0,0xFF,0x08
2.895587041666666,0,0xF0,0x02
2.895605041666667,0,0x7F,0x12
2.895623250000000,0,0xFF,0x00
2.895648083333333,0,0x83,0x13
2.895666083333333,0,0xFF,0x00
2.895684291666667,0,0xFF,0x96
2.895704875000000,0,0x07,0x12
2.895722875000000,0,0x00,0x10
2.895740958333333,0,0x3C,0x12
2.896570666666667,0,0x07,0x01
2.896588708333333,0,0x00,0x00
2.896606750000000,0,0x1C,0x01
2.896627375000000,0,0x30,0x01
2.896645375000000,0,0x00,0x01
2.896663458333333,0,0x80,0x01
2.896683708333333,0,0xC7,0x01
2.896701750000000,0,0xFF,0x00
2.896719916666667,0,0xFF,0x3C
2.896740791666667,0,0x87,0x01
2.896758833333333,0,0x00,0x01
2.896776916666667,0,0xFC,0x01
2.897574750000000,0,0x30,0x92
2.897592791666667,0,0xFF,0x12
2.897611000000000,0,0xFF,0x18
2.899561875000000,0,0xB0,0x12
2.899579916666667,0,0xFF,0x12
2.899598125000000,0,0xFF,0x18
2.901549333333334,0,0xF0,0x12
2.901567333333333,0,0x7F,0x12
2.901585541666666,0,0xFF,0x18
2.903536625000000,0,0xB0,0x12
2.903554666666667,0,0xFF,0x13
2.903572875000000,0,0xFF,0x18
2.905524041666667,0,0xF0,0x12
2.905542041666667,0,0x7F,0x1A
2.905560250000000,0,0xFF,0x18
2.907511250000000,0,0xB0,0x12
2.907529291666667,0,0xFF,0x12
2.907547458333333,0,0xFF,0x18
2.909498416666667,0,0xF0,0x02
2.909516416666666,0,0x7F,0x1A
2.909534625000000,0,0xFF,0x18
2.911485541666667,0,0xF0,0x02
2.911503541666667,0,0x7F,0x1A
2.911521750000000,0,0xFF,0x18
2.913472541666667,0,0x90,0x12
2.913490583333334,0,0xFF,0x12
2.913508791666667,0,0xFF,0x0C
2.915459666666667,0,0x98,0x18
2.915477708333333,0,0xFF,0x02
2.915495916666667,0,0xFF,0x0C
2.917446916666667,0,0x98,0x18
2.917464958333333,0,0xFF,0x02
2.917483166666667,0,0xFF,0x0C
2.919434041666667,0,0x98,0x1A
2.919452083333333,0,0xFF,0x12
2.919470291666667,0,0xFF,0x0C
2.921421208333333,0,0xB0,0x12
2.921439250000000,0,0xFF,0x12
2.921457416666667,0,0xFF,0x18
2.923408375000000,0,0xB0,0x12
2.923426416666667,0,0xFF,0x13
2.923444625000000,0,0xFF,0x18
2.925395583333333,0,0xF0,0x02
2.925413583333333,0,0x7F,0x1A
2.925431791666667,0,0xFF,0x18
2.927382750000000,0,0xB0,0x12
2.927400791666666,0,0xFF,0x12
2.927418958333333,0,0xFF,0x18
2.927443791666667,0,0xC3,0x13
2.927461791666667,0,0xFF,0x00
2.927480000000000,0,0xFF,0xBE
2.927500541666667,0,0x87,0x12
2.927518583333333,0,0x00,0x12
2.927536666666667,0,0x0F,0x13
2.928366291666667,0,0x07,0x01
2.928384291666667,0,0x80,0x81
2.928402375000000,0,0x1E,0x01
2.928422958333333,0,0x34,0x81
2.928441000000000,0,0x80,0x01
2.928459083333333,0,0xC0,0x01
2.928479333333333,0,0x87,0x01
2.928497333333334,0,0xFF,0x00
2.928515541666667,0,0xFF,0x1E
2.928536416666667,0,0x07,0x01
2.928554458333333,0,0x00,0x01
2.928572500000000,0,0x9E,0x01
2.929370250000000,0,0xB0,0x12
2.929388291666667,0,0xFF,0x13
2.929406500000000,0,0xFF,0x1C
2.931357125000000,0,0xF0,0x13
2.931375125000000,0,0x7F,0x18
2.931393333333333,0,0xFF,0x1E
2.933344166666667,0,0xF0,0x03
2.933362166666666,0,0x7F,0x1A
2.933380375000000,0,0xFF,0x1E
2.935331250000000,0,0xF0,0x12
2.935349250000000,0,0x7F,0x12
2.935367458333333,0,0xFF,0x1C
2.937318458333333,0,0x98,0x10
2.937336500000000,0,0xFF,0x02
2.937354708333333,0,0xFF,0x1C
2.939305791666667,0,0x98,0x10
2.939323833333333,0,0xFF,0x02
2.939342041666666,0,0xFF,0x1C
2.941293125000000,0,0xB0,0x12
2.941311166666666,0,0xFF,0x13
2.941329375000000,0,0xFF,0x1C
2.943280416666667,0,0xB0,0x12
2.943298458333333,0,0xFF,0x12
2.943316625000000,0,0xFF,0x1C
2.945267666666667,0,0xB0,0x12
2.945285708333333,0,0xFF,0x12
2.945303916666667,0,0xFF,0x1C
2.947254916666667,0,0xB0,0x13
2.947272916666666,0,0xFF,0x10
2.947291125000000,0,0xFF,0x1C
2.949242041666666,0,0xF0,0x12
2.949260083333333,0,0xFF,0x12
2.949278250000000,0,0xFF,0x1C
2.951229250000000,0,0xB0,0x12
2.951247250000000,0,0xFF,0x12
2.951265458333333,0,0xFF,0x1C
2.953216333333333,0,0xB0,0x12
2.953234333333334,0,0xFF,0x12
2.953252541666667,0,0xFF,0x1C
2.955203541666667,0,0xF0,0x12
2.955221541666667,0,0x7F,0x12
2.955239750000000,0,0xFF,0x1C
2.957190875000000,0,0xF0,0x13
2.957208875000000,0,0xFF,0x10
2.957227083333333,0,0xFF,0x1C
2.959178083333333,0,0xF0,0x02
2.959196083333334,0,0x7F,0x1A
2.959214291666667,0,0xFF,0x1E
2.959239083333333,0,0x87,0x12
2.959257125000000,0,0xFF,0x00
2.959275333333333,0,0xFF,0xCE
2.959295875000000,0,0x07,0x10
2.959313916666667,0,0x00,0x02
2.959331958333333,0,0x46,0x12
2.960161583333333,0,0x07,0x01
2.960179625000000,0,0x00,0x00
2.960197666666667,0,0x66,0x01
2.960218291666667,0,0x30,0x01
2.960236291666666,0,0x00,0x01
2.960254375000000,0,0x80,0x01
2.960274625000000,0,0x83,0x00
2.960292625000000,0,0xFF,0x00
2.960310833333333,0,0xFF,0x46
2.960331708333333,0,0x07,0x01
2.960349750000000,0,0x00,0x01
2.960367791666667,0,0xE6,0x01
2.961165541666666,0,0xF0,0x12
2.961183541666667,0,0x7F,0x12
2.961201750000000,0,0xFF,0x0C
2.963152458333334,0,0xB0,0x12
2.963170500000000,0,0xFF,0x12
2.963188708333333,0,0xFF,0x0C
2.965139583333333,0,0xB0,0x12
2.965157625000000,0,0xFF,0x12
2.965175833333333,0,0xFF,0x0C
2.967126708333333,0,0xF0,0x02
2.967144708333334,0,0x7F,0x12
2.967162916666667,0,0xFF,0x06
2.969113750000000,0,0xB0,0x12
2.969131791666667,0,0xFF,0x12
2.969150000000000,0,0xFF,0x0C
2.971100833333333,0,0xF0,0x12
2.971118833333333,0,0x7F,0x12
2.971137041666667,0,0xFF,0x04
2.973087958333333,0,0x98,0x18
2.973106000000000,0,0xFF,0x02
2.973124208333333,0,0xFF,0x0C
2.975075083333333,0,0xB0,0x12
2.975093125000000,0,0xFF,0x12
2.975111291666667,0,0xFF,0x0C
2.977062125000000,0,0x98,0x12
2.977080166666667,0,0xFF,0x12
2.977098375000000,0,0xFF,0x0C
2.979049250000000,0,0xF0,0x02
2.979067250000000,0,0x7F,0x12
2.979085458333333,0,0xFF,0x04
2.981036250000000,0,0x98,0x12
2.981054291666667,0,0xFF,0x13
2.981072500000000,0,0xFF,0x0C
2.983023291666667,0,0xB0,0x12
2.983041333333333,0,0xFF,0x12
2.983059500000000,0,0xFF,0x0C
2.985010333333333,0,0xB0,0x12
2.985028375000000,0,0xFF,0x13
2.985046583333333,0,0xFF,0x0C
2.986997375000000,0,0xF0,0x13
2.987015375000000,0,0x7F,0x18
2.987033583333333,0,0xFF,0x0C
2.988984583333334,0,0xF0,0x12
2.989002583333333,0,0x7F,0x1A
2.989020791666666,0,0xFF,0x0E
2.990971541666667,0,0xB0,0x12
2.990989583333334,0,0xFF,0x12
2.991007791666667,0,0xFF,0x0C
2.991032583333333,0,0xC7,0x12
2.991050583333333,0,0xFF,0x00
2.991068791666667,0,0xFF,0xE6
2.991089375000000,0,0x03,0x12
2.991107375000000,0,0x00,0x10
2.991125458333333,0,0x00,0x02
2.991955041666666,0,0x07,0x01
2.991973083333333,0,0x00,0x01
2.991991125000000,0,0x00,0x81
2.992011750000000,0,0x34,0x01
2.992029750000000,0,0x00,0x81
2.992047833333333,0,0x80,0x01
2.992068083333333,0,0xC3,0x01
2.992086083333333,0,0xFF,0x80
2.992104291666667,0,0xFF,0x00
2.992125166666667,0,0x07,0x01
2.992143208333333,0,0x00,0x00
2.992161250000000,0,0x00,0x01
2.992959000000000,0,0xF0,0x02
2.992977000000000,0,0x7F,0x1A
2.992995208333333,0,0xFF,0x00
2.994945708333333,0,0x98,0x1A
2.994963750000000,0,0xFF,0x02
2.994981958333333,0,0xFF,0x00
2.996932750000000,0,0xB0,0x12
2.996950750000000,0,0xFF,0x12
2.996968958333333,0,0xFF,0x00
2.998919708333333,0,0xB0,0x12
2.998937750000000,0,0xFF,0x12
2.998955958333333,0,0xFF,0x00
3.000906833333334,0,0xB0,0x12
3.000924833333333,0,0xFF,0x12
3.000943041666666,0,0xFF,0x00
3.002893875000000,0,0xB0,0x12
3.002911916666667,0,0xFF,0x12
3.002930125000000,0,0xFF,0x00
3.004881000000000,0,0xB0,0x13
3.004899000000000,0,0xFF,0x12
3.004917208333334,0,0xFF,0x00
3.006868083333333,0,0xB0,0x12
3.006886125000000,0,0xFF,0x13
3.006904333333333,0,0xFF,0x00
3.008855125000000,0,0xF0,0x02
3.008873125000000,0,0x7F,0x12
3.008891333333333,0,0xFF,0x00
3.010842250000000,0,0xB0,0x12
3.010860291666666,0,0xFF,0x12
3.010878458333333,0,0xFF,0x00
3.012829333333333,0,0xB0,0x12
3.012847375000000,0,0xFF,0x12
3.012865583333333,0,0xFF,0x00
3.014816541666667,0,0x98,0x10
3.014834583333333,0,0xFF,0x02
3.014852791666667,0,0xFF,0x00
3.016803708333333,0,0xB0,0x12
3.016821708333334,0,0xFF,0x10
3.016839916666667,0,0xFF,0x00
3.018790958333333,0,0x90,0x12
3.018809000000000,0,0xFF,0x12
3.018827208333333,0,0xFF,0x00
3.020778208333333,0,0xF0,0x12
3.020796208333334,0,0x7F,0x12
3.020814416666667,0,0xFF,0x00
3.022765541666667,0,0xB0,0x12
3.022783583333333,0,0xFF,0x12
3.022801791666667,0,0xFF,0x00
3.022826583333333,0,0x87,0x10
3.022844625000000,0,0xFF,0x00
3.022862833333333,0,0xFF,0x80
3.022883375000000,0,0x07,0x12
3.022901416666667,0,0x00,0x12
3.022919458333333,0,0x00,0x1A
3.023749041666667,0,0x07,0x01
3.023767083333333,0,0x00,0x01
3.023785166666667,0,0x28,0x01
3.023805750000000,0,0x34,0x01
3.023823750000000,0,0x00,0x81
3.023841833333333,0,0x80,0x01
3.023862083333333,0,0xC3,0x01
3.023880083333333,0,0xFF,0x00
3.023898291666667,0,0xFF,0x28
3.023919166666666,0,0x07,0x01
3.023937208333333,0,0x00,0x01
3.023955250000000,0,0x00,0x01
3.024753000000000,0,0xB0,0x12
3.024771000000000,0,0xFF,0x12
3.024789208333333,0,0xFF,0x10
3.026739958333333,0,0xB0,0x12
3.026758000000000,0,0xFF,0x13
3.026776208333333,0,0xFF,0x10
3.028727208333333,0,0xB0,0x12
3.028745208333333,0,0xFF,0x10
3.028763416666667,0,0xFF,0x10
3.030714375000000,0,0xF0,0x13
3.030732375000000,0,0x7F,0x1A
3.030750583333333,0,0xFF,0x10
3.032701666666667,0,0xF0,0x02
3.032719666666666,0,0x7F,0x12
3.032737875000000,0,0xFF,0x18
3.034688875000000,0,0xB0,0x12
3.034706916666666,0,0xFF,0x12
3.034725125000000,0,0xFF,0x10
3.036676041666666,0,0xB0,0x12
3.036694083333333,0,0xFF,0x12
3.036712250000000,0,0xFF,0x10
3.038663166666667,0,0xB0,0x12
3.038681166666667,0,0xFF,0x12
3.038699375000000,0,0xFF,0x10
3.040650250000000,0,0xB0,0x12
3.040668291666667,0,0xFF,0x13
3.040686500000000,0,0xFF,0x10
3.042637416666667,0,0x98,0x10
3.042655458333333,0,0xFF,0x02
3.042673666666666,0,0xFF,0x00
3.044624500000000,0,0xF0,0x13
3.044642500000000,0,0xFF,0x10
3.044660708333333,0,0xFF,0x10
3.046611500000000,0,0xB0,0x12
3.046629500000000,0,0xFF,0x12
3.046647708333333,0,0xFF,0x10
3.048598541666667,0,0xB0,0x12
3.048616583333333,0,0xFF,0x12
3.048634750000000,0,0xFF,0x10
3.050585625000000,0,0xB0,0x12
3.050603666666666,0,0xFF,0x12
3.050621875000000,0,0xFF,0x10
3.052572750000000,0,0xB0,0x12
3.052590791666667,0,0xFF,0x12
3.052609000000000,0,0xFF,0x00
3.054559750000000,0,0xF0,0x02
3.054577750000000,0,0x7F,0x12
3.054595958333334,0,0xFF,0x18
3.054620791666667,0,0x87,0x12
3.054638791666667,0,0xFF,0x00
3.054657000000000,0,0xFF,0xA8
3.054677541666666,0,0x87,0x12
3.054695583333333,0,0x00,0x12
3.054713666666667,0,0x0F,0x13
3.055543250000000,0,0x07,0x01
3.055561250000000,0,0x00,0x01
3.055579333333333,0,0x0E,0x01
3.055599916666667,0,0x1E,0x01
3.055617958333333,0,0xC0,0x01
3.055636000000000,0,0x00,0x01
3.055656250000000,0,0x87,0x01
3.055674291666667,0,0xFF,0x00
3.055692458333333,0,0xFF,0x0A
3.055713333333333,0,0x87,0x01
3.055731375000000,0,0x00,0x01
3.055749416666667,0,0x0A,0x81
3.056547125000000,0,0x98,0x10
3.056565166666667,0,0xFF,0x12
3.056583375000000,0,0xFF,0x14
3.058533916666667,0,0x98,0x10
3.058551958333333,0,0xFF,0x02
3.058570166666667,0,0xFF,0x14
3.060521166666667,0,0xF0,0x02
3.060539166666667,0,0x7F,0x12
3.060557375000000,0,0xFF,0x1C
3.062508375000000,0,0xB0,0x12
3.062526375000000,0,0xFF,0x12
3.062544583333333,0,0xFF,0x14
3.064495333333333,0,0xB0,0x12
3.064513375000000,0,0xFF,0x12
3.064531583333333,0,0xFF,0x14
3.066482375000000,0,0xB0,0x12
3.066500375000000,0,0xFF,0x12
3.066518583333333,0,0xFF,0x00
3.068469375000000,0,0xB0,0x12
3.068487375000000,0,0xFF,0x12
3.068505583333333,0,0xFF,0x14
3.070456375000000,0,0x98,0x12
3.070474416666667,0,0xFF,0x02
3.070492625000000,0,0xFF,0x14
3.072443333333333,0,0xB0,0x12
3.072461375000000,0,0xFF,0x12
3.072479583333333,0,0xFF,0x14
3.074430458333334,0,0xB0,0x12
3.074448500000000,0,0xFF,0x13
3.074466708333333,0,0xFF,0x14
3.076417541666667,0,0x98,0x1A
3.076435583333333,0,0xFF,0x12
3.076453791666667,0,0xFF,0x00
3.078404625000000,0,0xF0,0x12
3.078422625000000,0,0x7F,0x12
3.078440833333334,0,0xFF,0x1C
3.080391791666667,0,0xB0,0x12
3.080409833333333,0,0xFF,0x13
3.080428041666667,0,0xFF,0x14
3.082378916666667,0,0xF0,0x12
3.082396916666667,0,0x7F,0x12
3.082415125000000,0,0xFF,0x1E
3.084365875000000,0,0xF0,0x02
3.084383875000000,0,0x7F,0x1A
3.084402083333333,0,0xFF,0x16
3.086352833333333,0,0x98,0x12
3.086370875000000,0,0xFF,0x12
3.086389083333333,0,0xFF,0x14
3.086413875000000,0,0x83,0x12
3.086431875000000,0,0xFF,0x00
3.086450083333333,0,0xFF,0x8A
3.086470625000000,0,0x87,0x18
3.086488666666667,0,0x00,0x02
3.086506708333333,0,0x32,0x12
3.087336250000000,0,0x07,0x01
3.087354291666667,0,0x00,0x00
3.087372333333333,0,0x1A,0x01
3.087392958333333,0,0x30,0x00
3.087410958333333,0,0x80,0x01
3.087429041666667,0,0xC0,0x00
3.087449250000000,0,0x07,0x81
3.087467291666667,0,0xFF,0x00
3.087485500000000,0,0xFF,0x33
3.087506375000000,0,0x07,0x01
3.087524375000000,0,0x00,0x01
3.087542458333334,0,0xF3,0x00
3.088340083333333,0,0x98,0x10
3.088358125000000,0,0xFF,0x13
3.088376333333333,0,0xFF,0x04
3.090326875000000,0,0x98,0x1A
3.090344916666667,0,0xFF,0x12
3.090363125000000,0,0xFF,0x00
3.092314083333333,0,0xB0,0x12
3.092332125000000,0,0xFF,0x12
3.092350291666667,0,0xFF,0x04
3.094301250000000,0,0xB0,0x12
3.094319291666667,0,0xFF,0x12
3.094337500000000,0,0xFF,0x04
3.096288500000000,0,0xF0,0x12
3.096306500000000,0,0x7F,0x12
3.096324708333333,0,0xFF,0x06
3.098275583333333,0,0xB0,0x13
3.098293583333333,0,0xFF,0x10
3.098311791666667,0,0xFF,0x04
3.100262666666667,0,0xB0,0x12
3.100280666666666,0,0xFF,0x12
3.100298875000000,0,0xFF,0x04
3.102249750000000,0,0xF0,0x12
3.102267750000000,0,0x7F,0x12
3.102285958333333,0,0xFF,0x04
3.104236875000000,0,0xB0,0x13
3.104254875000000,0,0xFF,0x10
3.104273083333333,0,0xFF,0x04
3.106224041666667,0,0xB0,0x12
3.106242083333334,0,0xFF,0x12
3.106260291666667,0,0xFF,0x04
3.108211291666667,0,0xB0,0x12
3.108229333333334,0,0xFF,0x13
3.108247541666667,0,0xFF,0x04
3.110198416666667,0,0xB0,0x12
3.110216458333333,0,0xFF,0x12
3.110234666666666,0,0xFF,0x04
3.112185458333333,0,0xB0,0x12
3.112203500000000,0,0xFF,0x12
3.112221666666667,0,0xFF,0x04
3.114172541666667,0,0xB0,0x12
3.114190583333333,0,0xFF,0x12
3.114208791666667,0,0xFF,0x04
3.116159666666667,0,0x98,0x10
3.116177708333333,0,0xFF,0x02
3.116195916666667,0,0xFF,0x04
3.118146833333333,0,0xB0,0x12
3.118164875000000,0,0xFF,0x12
3.118183041666667,0,0xFF,0x04
3.118207875000000,0,0xC3,0x13
3.118225875000000,0,0xFF,0x00
3.118244083333333,0,0xFF,0xBA
3.118264666666667,0,0x03,0x12
3.118282666666667,0,0x00,0x10
3.118300750000000,0,0x04,0x02
3.119130375000000,0,0x07,0x01
3.119148416666667,0,0x00,0x01
3.119166458333333,0,0x14,0x81
3.119187083333333,0,0x34,0x01
3.119205083333333,0,0x00,0x81
3.119223166666667,0,0x80,0x01
3.119243416666666,0,0x87,0x01
3.119261458333333,0,0xFF,0x00
3.119279666666666,0,0xFF,0x14
3.119300541666667,0,0x03,0x00
3.119318541666667,0,0x00,0x01
3.119336625000000,0,0x96,0x01
3.120134166666667,0,0x98,0x10
3.120152208333333,0,0xFF,0x02
3.120170416666667,0,0xFF,0x08
3.122121458333333,0,0xB0,0x12
3.122139500000000,0,0xFF,0x12
3.122157708333333,0,0xFF,0x08
3.124108666666667,0,0x98,0x10
3.124126708333333,0,0xFF,0x02
3.124144916666667,0,0xFF,0x0C
3.126095875000000,0,0xB0,0x12
3.126113916666667,0,0xFF,0x12
3.126132125000000,0,0xFF,0x08
3.128083125000000,0,0xF0,0x12
3.128101125000000,0,0x7F,0x1A
3.128119333333333,0,0xFF,0x08
3.130070250000000,0,0xB0,0x12
3.130088291666667,0,0xFF,0x13
3.130106500000000,0,0xFF,0x08
3.132057333333333,0,0xB0,0x12
3.132075375000000,0,0xFF,0x13
3.132093583333333,0,0xFF,0x08
3.134044416666667,0,0x98,0x12
3.134062458333333,0,0xFF,0x13
3.134080666666667,0,0xFF,0x08
3.136031416666667,0,0xB0,0x12
3.136049458333333,0,0xFF,0x12
3.136067666666666,0,0xFF,0x0C
3.138018500000000,0,0xF0,0x02
3.138036500000000,0,0x7F,0x12
3.138054708333333,0,0xFF,0x00
3.140005625000000,0,0xF0,0x13
3.140023625000000,0,0xFF,0x10
3.140041833333334,0,0xFF,0x08
3.141992708333333,0,0xB0,0x12
3.142010750000000,0,0xFF,0x12
3.142028916666667,0,0xFF,0x08
3.143979875000000,0,0xB0,0x12
3.143997916666667,0,0xFF,0x12
3.144016083333333,0,0xFF,0x08
3.145966958333333,0,0x98,0x12
3.145985000000000,0,0xFF,0x13
3.146003208333333,0,0xFF,0x08
3.147954083333333,0,0xF0,0x12
3.147972125000000,0,0xFF,0x12
3.147990291666667,0,0xFF,0x08
3.149941250000000,0,0x98,0x1A
3.149959291666667,0,0xFF,0x12
3.149977500000000,0,0xFF,0x08
3.150002291666667,0,0x87,0x10
3.150020333333333,0,0xFF,0x00
3.150038541666667,0,0xFF,0x94
3.150059083333333,0,0x07,0x12
3.150077125000000,0,0x00,0x12
3.150095166666667,0,0x1C,0x1A
3.150924750000000,0,0x07,0x01
3.150942791666667,0,0x00,0x00
3.150960833333333,0,0x1E,0x01
3.150981458333333,0,0x30,0x00
3.150999458333333,0,0x00,0x01
3.151017541666667,0,0xC0,0x01
3.151037791666667,0,0x87,0x01
3.151055791666667,0,0xFF,0x00
3.151074000000000,0,0xFF,0x3C
3.151094875000000,0,0x07,0x01
3.151112875000000,0,0x80,0x81
3.151130958333333,0,0x9E,0x01
3.151928375000000,0,0xF0,0x02
3.151946375000000,0,0x7F,0x12
3.151964583333333,0,0xFF,0x18
3.153915375000000,0,0xB0,0x12
3.153933375000000,0,0xFF,0x12
3.153951583333333,0,0xFF,0x18
3.155902500000000,0,0xF0,0x12
3.155920500000000,0,0x7F,0x12
3.155938708333333,0,0xFF,0x18
3.157889708333333,0,0xB0,0x12
3.157907708333333,0,0xFF,0x12
3.157925916666667,0,0xFF,0x18
3.159876875000000,0,0x98,0x10
3.159894916666667,0,0xFF,0x02
3.159913125000000,0,0xFF,0x18
3.161864041666667,0,0xF0,0x13
3.161882041666667,0,0x7F,0x1A
3.161900250000000,0,0xFF,0x18
3.163851041666667,0,0xF0,0x02
3.163869041666667,0,0x7F,0x12
3.163887250000000,0,0xFF,0x18
3.165838166666667,0,0x98,0x1A
3.165856208333333,0,0xFF,0x12
3.165874416666667,0,0xFF,0x0C
3.167825458333333,0,0xB0,0x12
3.167843500000000,0,0xFF,0x12
3.167861666666667,0,0xFF,0x18
3.169812708333333,0,0xF0,0x02
3.169830708333333,0,0x7F,0x1A
3.169848916666667,0,0xFF,0x18
3.171800000000000,0,0xF0,0x12
3.171818000000000,0,0x7F,0x12
3.171836208333333,0,0xFF,0x18
3.173787166666667,0,0xF0,0x13
3.173805166666666,0,0x7F,0x18
3.173823375000000,0,0xFF,0x18
3.175774250000000,0,0xB0,0x12
3.175792291666667,0,0xFF,0x12
3.175810458333333,0,0xFF,0x18
3.177761291666667,0,0xB0,0x12
3.177779291666667,0,0xFF,0x12
3.177797500000000,0,0xFF,0x18
3.179748375000000,0,0xB0,0x12
3.179766416666667,0,0xFF,0x12
3.179784625000000,0,0xFF,0x18
3.181735625000000,0,0x98,0x1A
3.181753666666667,0,0xFF,0x12
3.181771875000000,0,0xFF,0x18
3.181796666666667,0,0x87,0x12
3.181814708333333,0,0xFF,0x00
3.181832916666667,0,0xFF,0xBC
3.181853458333333,0,0x07,0x12
3.181871458333333,0,0x80,0x12
3.181889541666667,0,0x1E,0x10
3.182719166666667,0,0x07,0x01
3.182737208333333,0,0x00,0x01
3.182755291666667,0,0x1F,0x01
3.182775875000000,0,0x34,0x01
3.182793916666667,0,0x80,0x01
3.182811958333333,0,0x00,0x01
3.182832208333333,0,0x87,0x01
3.182850250000000,0,0xFF,0x00
3.182868458333334,0,0xFF,0x1F
3.182889333333333,0,0x07,0x01
3.182907333333334,0,0x00,0x01
3.182925416666667,0,0xDE,0x01
3.183722958333334,0,0xB0,0x12
3.183740958333333,0,0xFF,0x10
3.183759166666666,0,0xFF,0x1C
3.185710250000000,0,0xF0,0x02
3.185728250000000,0,0x7F,0x12
3.185746458333333,0,0xFF,0x1C
3.187697500000000,0,0xB0,0x12
3.187715500000000,0,0xFF,0x12
3.187733708333333,0,0xFF,0x1C
3.189684625000000,0,0xB0,0x12
3.189702666666667,0,0xFF,0x12
3.189720875000000,0,0xFF,0x0C
3.191671791666667,0,0xB0,0x12
3.191689833333333,0,0xFF,0x13
3.191708041666667,0,0xFF,0x1C
3.193659166666666,0,0xB0,0x12
3.193677208333333,0,0xFF,0x12
3.193695416666666,0,0xFF,0x1C
3.195646625000000,0,0xB0,0x12
3.195664666666667,0,0xFF,0x12
3.195682875000000,0,0xFF,0x1C
3.197634083333333,0,0xF0,0x12
3.197652125000000,0,0xFF,0x12
3.197670333333333,0,0xFF,0x1C
3.199621291666667,0,0x98,0x10
3.199639333333333,0,0xFF,0x02
3.199657541666667,0,0xFF,0x1C
3.201608500000000,0,0x98,0x1A
3.201626541666667,0,0xFF,0x02
3.201644750000000,0,0xFF,0x1C
3.203595708333333,0,0xF0,0x02
3.203613708333333,0,0x7F,0x12
3.203631916666667,0,0xFF,0x1E
3.205583000000000,0,0xF0,0x12
3.205601041666667,0,0xFF,0x12
3.205619208333333,0,0xFF,0x1C
3.207570250000000,0,0xF0,0x02
3.207588250000000,0,0x7F,0x12
3.207606458333333,0,0xFF,0x1C
3.209557583333333,0,0xB0,0x13
3.209575583333333,0,0xFF,0x10
3.209593791666667,0,0xFF,0x1E
3.211544875000000,0,0xB0,0x12
3.211562916666667,0,0xFF,0x12
3.211581125000000,0,0xFF,0x0C
3.213532000000000,0,0xF0,0x12
3.213550000000000,0,0x7F,0x12
3.213568208333333,0,0xFF,0x1C
3.213593041666666,0,0x87,0x12
3.213611041666667,0,0xFF,0x00
3.213629250000000,0,0xFF,0x9E
3.213649791666667,0,0x87,0x1A
3.213667833333334,0,0x00,0x12
3.213685916666666,0,0x47,0x12
3.214515500000000,0,0x07,0x01
3.214533541666666,0,0x00,0x00
3.214551583333333,0,0x66,0x01
3.214572208333333,0,0x30,0x00
3.214590208333334,0,0x00,0x01
3.214608291666667,0,0xC0,0x01
3.214628541666666,0,0x87,0x01
3.214646541666667,0,0xFF,0x00
3.214664750000000,0,0xFF,0x46
3.214685625000000,0,0x07,0x01
3.214703666666667,0,0x00,0x00
3.214721708333333,0,0x66,0x01
3.215519458333334,0,0xB0,0x12
3.215537458333333,0,0xFF,0x12
3.215555666666666,0,0xFF,0x0C
3.217506375000000,0,0xB0,0x12
3.217524416666667,0,0xFF,0x12
3.217542625000000,0,0xFF,0x0C
3.219493791666667,0,0xF0,0x12
3.219511833333333,0,0xFF,0x12
3.219530000000000,0,0xFF,0x0C
3.221481083333333,0,0xB0,0x12
3.221499125000000,0,0xFF,0x12
3.221517333333333,0,0xFF,0x0C
3.223468375000000,0,0x98,0x1A
3.223486416666667,0,0xFF,0x02
3.223504625000000,0,0xFF,0x0C
3.225455750000000,0,0xB0,0x12
3.225473791666666,0,0xFF,0x13
3.225492000000000,0,0xFF,0x0C
3.227442916666666,0,0x98,0x10
3.227460958333333,0,0xFF,0x02
3.227479166666666,0,0xFF,0x0C
3.229430333333333,0,0x98,0x1A
3.229448375000000,0,0xFF,0x12
3.229466583333333,0,0xFF,0x0C
3.231417791666667,0,0xF0,0x12
3.231435791666667,0,0x7F,0x12
3.231454000000000,0,0xFF,0x0C
3.233405250000000,0,0xB0,0x12
3.233423250000000,0,0xFF,0x10
3.233441458333334,0,0xFF,0x0C
3.235392541666667,0,0xF0,0x02
3.235410541666667,0,0x7F,0x12
3.235428750000000,0,0xFF,0x04
3.237379916666667,0,0xB0,0x13
3.237397916666667,0,0x7F,0x1A
3.237416125000000,0,0xFF,0x04
3.239367208333333,0,0xB0,0x12
3.239385208333333,0,0xFF,0x12
3.239403416666667,0,0xFF,0x0C
3.241354458333333,0,0xF0,0x12
3.241372500000000,0,0xFF,0x12
3.241390666666667,0,0xFF,0x0C
3.243341875000000,0,0xF0,0x02
3.243359875000000,0,0x7F,0x12
3.243378083333333,0,0xFF,0x0C
3.245329250000000,0,0xF0,0x02
3.245347250000000,0,0x7F,0x12
3.245365458333333,0,0xFF,0x0C
3.245390291666667,0,0x87,0x12
3.245408291666667,0,0xFF,0x00
3.245426500000000,0,0xFF,0xC6
3.245447041666667,0,0x87,0x12
3.245465083333333,0,0x00,0x12
3.245483166666667,0,0x00,0x13
3.246312791666667,0,0x07,0x01
3.246330833333333,0,0x00,0x01
3.246348916666667,0,0x00,0x01
3.246369500000000,0,0x34,0x01
3.246387541666667,0,0x80,0x01
3.246405583333333,0,0x00,0x01
3.246425833333333,0,0x87,0x01
3.246443875000000,0,0xFF,0x00
3.246462041666667,0,0xFF,0x00
3.246482916666667,0,0x87,0x01
3.246500958333333,0,0x00,0x01
3.246519041666667,0,0x80,0x00
3.247316791666667,0,0x30,0x92
3.247334833333333,0,0xFF,0x12
3.247353041666666,0,0xFF,0x00
3.249303916666667,0,0xF0,0x02
3.249321916666667,0,0x7F,0x12
3.249340125000000,0,0xFF,0x00
3.251291208333333,0,0xB0,0x13
3.251309208333333,0,0x7F,0x1A
3.251327416666667,0,0xFF,0x00
3.253278541666667,0,0xF0,0x02
3.253296541666667,0,0x7F,0x12
3.253314750000000,0,0xFF,0x00
3.255265708333333,0,0xB0,0x12
3.255283750000000,0,0xFF,0x12
3.255301916666667,0,0xFF,0x00
3.257252916666667,0,0x90,0x12
3.257270958333333,0,0xFF,0x12
3.257289166666667,0,0xFF,0x00
3.259240250000000,0,0xF0,0x02
3.259258250000000,0,0x7F,0x12
3.259276458333333,0,0xFF,0x00
3.261227666666667,0,0x98,0x1A
3.261245708333333,0,0xFF,0x12
3.261263916666667,0,0xFF,0x00
3.263215000000000,0,0xB0,0x12
3.263233041666667,0,0xFF,0x12
3.263251250000000,0,0xFF,0x00
3.265202208333333,0,0x98,0x10
3.265220250000000,0,0xFF,0x12
3.265238458333333,0,0xFF,0x00
3.267189333333334,0,0xB0,0x12
3.267207375000000,0,0xFF,0x12
3.267225541666666,0,0xFF,0x00
3.269176500000000,0,0xF0,0x02
3.269194500000000,0,0x7F,0x12
3.269212708333333,0,0xFF,0x00
3.271163666666667,0,0xB0,0x12
3.271181708333333,0,0xFF,0x12
3.271199875000000,0,0xFF,0x00
3.273150791666667,0,0xF0,0x12
3.273168791666667,0,0x7F,0x1A
3.273187000000000,0,0xFF,0x00
3.275138000000000,0,0xB0,0x12
3.275156041666667,0,0xFF,0x12
3.275174208333334,0,0xFF,0x00
3.277125208333334,0,0x98,0x10
3.277143250000000,0,0xFF,0x02
3.277161458333333,0,0xFF,0x00
3.277186250000000,0,0x87,0x12
3.277204291666667,0,0xFF,0x00
3.277222500000000,0,0xFF,0x80
3.277243041666666,0,0x07,0x12
3.277261083333333,0,0x00,0x12
3.277279125000000,0,0x28,0x12
3.278108791666666,0,0x07,0x01
3.278126833333333,0,0x00,0x01
3.278144916666667,0,0x3C,0x00
3.278165500000000,0,0x3E,0x01
3.278183541666666,0,0xC0,0x01
3.278201583333333,0,0x00,0x81
3.278221833333333,0,0x87,0x01
3.278239875000000,0,0xFF,0x00
3.278258083333333,0,0xFF,0x2C
3.278278958333333,0,0x03,0x01
3.278296958333333,0,0x80,0x01
3.278315041666667,0,0xA8,0x01
3.279112875000000,0,0xF0,0x12
3.279130875000000,0,0x7F,0x12
3.279149083333333,0,0xFF,0x10
3.281099750000000,0,0xB0,0x12
3.281117791666667,0,0xFF,0x12
3.281136000000000,0,0xFF,0x00
3.283086875000000,0,0xB0,0x12
3.283104916666667,0,0xFF,0x12
3.283123125000000,0,0xFF,0x00
3.285074083333333,0,0xB0,0x12
3.285092125000000,0,0xFF,0x13
3.285110333333333,0,0xFF,0x10
3.287061333333333,0,0xF0,0x13
3.287079333333333,0,0x7F,0x1A
3.287097541666667,0,0xFF,0x10
3.289048500000000,0,0x98,0x10
3.289066541666667,0,0xFF,0x02
3.289084750000000,0,0xFF,0x10
3.291035708333333,0,0x98,0x12
3.291053750000000,0,0xFF,0x12
3.291071958333333,0,0xFF,0x10
3.293022875000000,0,0xF0,0x03
3.293040875000000,0,0x7F,0x10
3.293059083333334,0,0xFF,0x10
3.295009916666667,0,0xB0,0x12
3.295027958333333,0,0xFF,0x12
3.295046125000000,0,0xFF,0x10
3.296996916666667,0,0xB0,0x12
3.297014958333333,0,0xFF,0x12
3.297033166666667,0,0xFF,0x00
3.298984083333333,0,0xF0,0x13
3.299002083333333,0,0x7F,0x18
3.299020291666667,0,0xFF,0x10
3.300971250000000,0,0x98,0x1A
3.300989291666667,0,0xFF,0x12
3.301007500000000,0,0xFF,0x00
3.302958500000000,0,0xB0,0x12
3.302976500000000,0,0xFF,0x10
3.302994708333333,0,0xFF,0x10
3.304945541666667,0,0xF0,0x02
3.304963541666667,0,0x7F,0x12
3.304981750000000,0,0xFF,0x10
3.306932750000000,0,0xB0,0x13
3.306950750000000,0,0x7F,0x18
3.306968958333333,0,0xFF,0x10
3.308919875000000,0,0x98,0x1A
3.308937916666667,0,0xFF,0x02
3.308956125000000,0,0xFF,0x10
3.308980916666667,0,0xC3,0x02
3.308998916666666,0,0xFF,0x00
3.309017125000000,0,0xFF,0xA8
3.309037708333333,0,0x07,0x12
3.309055708333333,0,0x00,0x12
3.309073791666667,0,0x0F,0x13
3.309903291666667,0,0x03,0x01
3.309921291666666,0,0x80,0x01
3.309939375000000,0,0x0A,0x01
3.309959958333333,0,0x1C,0x01
3.309978000000000,0,0xC0,0x01
3.309996083333334,0,0x80,0x01
3.310016291666667,0,0x07,0x01
3.310034333333333,0,0xFF,0x00
3.310052541666667,0,0xFF,0x0E
3.310073416666667,0,0x03,0x00
3.310091416666667,0,0x80,0x01
3.310109500000000,0,0xCA,0x01
3.310907208333334,0,0x18,0x10
3.310925250000000,0,0xFF,0x02
3.310943458333333,0,0xFF,0x10
3.312894083333333,0,0xF0,0x02
3.312912083333333,0,0x7F,0x12
3.312930291666667,0,0xFF,0x14
3.314881416666667,0,0xB0,0x12
3.314899416666667,0,0xFF,0x12
3.314917625000000,0,0xFF,0x14
3.316868583333333,0,0xB0,0x12
3.316886625000000,0,0xFF,0x12
3.316904791666667,0,0xFF,0x14
3.318855791666667,0,0x98,0x18
3.318873833333333,0,0xFF,0x02
3.318892041666667,0,0xFF,0x00
3.320843083333333,0,0xB8,0x12
3.320861125000000,0,0xFF,0x12
3.320879333333334,0,0xFF,0x14
3.322830333333334,0,0xF0,0x12
3.322848333333333,0,0x7F,0x1A
3.322866541666667,0,0xFF,0x1C
3.324817666666667,0,0xB0,0x12
3.324835666666667,0,0xFF,0x12
3.324853875000000,0,0xFF,0x14
3.326804958333333,0,0xB0,0x12
3.326823000000000,0,0xFF,0x12
3.326841208333333,0,0xFF,0x04
3.328792291666667,0,0x98,0x10
3.328810333333333,0,0xFF,0x02
3.328828541666667,0,0xFF,0x00
3.330779625000000,0,0x98,0x10
3.330797666666667,0,0xFF,0x02
3.330815875000000,0,0xFF,0x10
3.332766916666666,0,0xB0,0x12
3.332784958333333,0,0xFF,0x12
3.332803166666667,0,0xFF,0x14
3.334754208333333,0,0xB0,0x12
3.334772208333333,0,0xFF,0x12
3.334790416666667,0,0xFF,0x14
3.336741291666667,0,0xF0,0x13
3.336759291666667,0,0x7F,0x18
3.336777500000000,0,0xFF,0x14
3.338728458333333,0,0xB0,0x12
3.338746500000000,0,0xFF,0x12
3.338764666666667,0,0xFF,0x14
3.340715500000000,0,0xF0,0x02
3.340733500000000,0,0x7F,0x12
3.340751708333333,0,0xFF,0x1E
3.340776500000000,0,0x87,0x12
3.340794541666666,0,0xFF,0x00
3.340812750000000,0,0xFF,0x8A
3.340833291666667,0,0x87,0x1A
3.340851333333333,0,0x00,0x12
3.340869416666667,0,0x33,0x13
3.341699000000000,0,0x07,0x01
3.341717041666667,0,0x00,0x01
3.341735125000000,0,0x33,0x01
3.341755708333333,0,0x34,0x01
3.341773750000000,0,0x80,0x01
3.341791791666667,0,0x80,0x01
3.341812041666667,0,0xC7,0x01
3.341830041666667,0,0xFF,0x80
3.341848250000000,0,0xFF,0x12
3.341869125000000,0,0x87,0x01
3.341887166666667,0,0x00,0x01
3.341905208333333,0,0x33,0x81
3.342702708333333,0,0xB0,0x12
3.342720708333333,0,0xFF,0x12
3.342738916666667,0,0xFF,0x04
3.344689833333333,0,0xB0,0x12
3.344707875000000,0,0xFF,0x12
3.344726041666667,0,0xFF,0x04
3.346676833333333,0,0xF0,0x02
3.346694833333333,0,0x7F,0x12
3.346713041666667,0,0xFF,0x06
3.348663875000000,0,0x98,0x10
3.348681916666667,0,0xFF,0x13
3.348700125000000,0,0xFF,0x04
3.350651125000000,0,0x98,0x18
3.350669166666667,0,0xFF,0x12
3.350687375000000,0,0xFF,0x04
3.352638333333333,0,0xB0,0x13
3.352656333333333,0,0x7F,0x18
3.352674541666667,0,0xFF,0x06
3.354625583333333,0,0xB0,0x12
3.354643625000000,0,0xFF,0x12
3.354661833333333,0,0xFF,0x04
3.356612791666667,0,0xB0,0x12
3.356630791666666,0,0xFF,0x12
3.356649000000000,0,0xFF,0x04
3.358599833333333,0,0xB0,0x12
3.358617875000000,0,0xFF,0x12
3.358636083333333,0,0xFF,0x04
3.360587125000000,0,0xB0,0x12
3.360605125000000,0,0xFF,0x12
3.360623333333333,0,0xFF,0x04
3.362574333333333,0,0xB0,0x12
3.362592375000000,0,0xFF,0x13
3.362610583333333,0,0xFF,0x04
3.364561500000000,0,0x98,0x1A
3.364579541666667,0,0xFF,0x02
3.364597750000000,0,0xFF,0x04
3.366548750000000,0,0xB0,0x12
3.366566791666667,0,0xFF,0x12
3.366584958333333,0,0xFF,0x04
3.368535958333333,0,0xF0,0x02
3.368553958333333,0,0x7F,0x12
3.368572166666667,0,0xFF,0x04
3.370523125000000,0,0x98,0x10
3.370541166666666,0,0xFF,0x02
3.370559375000000,0,0xFF,0x00
3.372510333333333,0,0xF0,0x12
3.372528333333333,0,0x7F,0x1A
3.372546541666666,0,0xFF,0x04
3.372571333333333,0,0x87,0x12
3.372589375000000,0,0xFF,0x00
3.372607583333334,0,0xFF,0xB2
3.372628125000000,0,0x87,0x18
3.372646166666667,0,0x00,0x02
3.372664208333333,0,0x14,0x12
3.373493750000000,0,0x07,0x01
3.373511791666667,0,0x00,0x01
3.373529875000000,0,0x14,0x01
3.373550458333333,0,0x34,0x01
3.373568458333333,0,0x00,0x81
3.373586541666667,0,0x80,0x01
3.373606791666667,0,0xC3,0x00
3.373624791666667,0,0xFF,0x00
3.373643000000000,0,0xFF,0x16
3.373663875000000,0,0x07,0x01
3.373681916666667,0,0x00,0x00
3.373699958333333,0,0x1E,0x01
3.374497708333333,0,0x30,0x92
3.374515750000000,0,0xFF,0x12
3.374533958333333,0,0xFF,0x08
3.376484708333333,0,0xF0,0x13
3.376502708333333,0,0x7F,0x1A
3.376520916666667,0,0xFF,0x08
3.378471958333333,0,0xB0,0x12
3.378490000000000,0,0xFF,0x12
3.378508208333333,0,0xFF,0x08
3.380459250000000,0,0xB0,0x13
3.380477250000000,0,0x7F,0x1A
3.380495458333333,0,0xFF,0x00
3.382446541666666,0,0xB0,0x12
3.382464583333333,0,0xFF,0x12
3.382482791666667,0,0xFF,0x08
3.384433875000000,0,0xB0,0x12
3.384451875000000,0,0xFF,0x10
3.384470083333333,0,0xFF,0x08
3.386421166666667,0,0xB0,0x12
3.386439208333333,0,0xFF,0x12
3.386457375000000,0,0xFF,0x08
3.388408416666667,0,0xB0,0x12
3.388426458333333,0,0xFF,0x12
3.388444666666667,0,0xFF,0x08
3.390395791666667,0,0xF0,0x02
3.390413791666667,0,0x7F,0x12
3.390432000000000,0,0xFF,0x00
3.392383083333333,0,0x90,0x12
3.392401125000000,0,0xFF,0x12
3.392419333333333,0,0xFF,0x08
3.394370416666667,0,0xB0,0x12
3.394388458333333,0,0xFF,0x12
3.394406666666667,0,0xFF,0x08
3.396357833333334,0,0x90,0x12
3.396375875000000,0,0xFF,0x12
3.396394083333333,0,0xFF,0x08
3.398345041666667,0,0xB0,0x12
3.398363083333333,0,0xFF,0x12
3.398381291666666,0,0xFF,0x08
3.400332333333334,0,0xB0,0x12
3.400350375000000,0,0xFF,0x13
3.400368583333333,0,0xFF,0x08
3.402319583333334,0,0xB0,0x13
3.402337583333333,0,0xFF,0x10
3.402355791666666,0,0xFF,0x08
3.404306708333333,0,0x98,0x18
3.404324750000000,0,0xFF,0x02
3.404342958333333,0,0xFF,0x0C
3.404367750000000,0,0x87,0x12
3.404385791666667,0,0xFF,0x00
3.404404000000000,0,0xFF,0x94
3.404424541666667,0,0x07,0x12
3.404442583333333,0,0x00,0x12
3.404460625000000,0,0x1E,0x18
3.405290250000000,0,0x07,0x01
3.405308291666667,0,0x00,0x00
3.405326333333333,0,0x1C,0x01
3.405346958333333,0,0x30,0x00
3.405364958333333,0,0x00,0x01
3.405383041666667,0,0xC0,0x01
3.405403291666667,0,0x83,0x00
3.405421291666667,0,0xFF,0x00
3.405439500000000,0,0xFF,0x3C
3.405460375000000,0,0x07,0x01
3.405478416666667,0,0x00,0x01
3.405496458333333,0,0x1E,0x01
3.406294250000000,0,0xF0,0x02
3.406312250000000,0,0x7F,0x1A
3.406330458333333,0,0xFF,0x18
3.408281250000000,0,0x90,0x12
3.408299291666667,0,0xFF,0x12
3.408317500000000,0,0xFF,0x18
3.410268416666667,0,0xB0,0x12
3.410286458333333,0,0xFF,0x12
3.410304625000000,0,0xFF,0x18
3.412255583333333,0,0x98,0x18
3.412273625000000,0,0xFF,0x12
3.412291833333333,0,0xFF,0x08
3.414242833333333,0,0x98,0x10
3.414260875000000,0,0xFF,0x02
3.414279083333333,0,0xFF,0x0C
3.416230208333333,0,0xF0,0x02
3.416248208333333,0,0x7F,0x12
3.416266416666667,0,0xFF,0x18
3.418217458333333,0,0x98,0x18
3.418235500000000,0,0xFF,0x02
3.418253708333333,0,0xFF,0x18
3.420204750000000,0,0xB0,0x12
3.420222750000000,0,0xFF,0x10
3.420240958333333,0,0xFF,0x18
3.422192041666666,0,0x90,0x12
3.422210083333333,0,0xFF,0x02
3.422228291666667,0,0xFF,0x18
3.424179500000000,0,0xB0,0x13
3.424197500000000,0,0xFF,0x10
3.424215708333334,0,0xFF,0x18
3.426166791666667,0,0x98,0x18
3.426184833333333,0,0xFF,0x02
3.426203041666667,0,0xFF,0x0C
3.428154125000000,0,0xF0,0x02
3.428172125000000,0,0x7F,0x12
3.428190333333333,0,0xFF,0x18
3.430141416666667,0,0xB0,0x12
3.430159416666667,0,0xFF,0x10
3.430177625000000,0,0xFF,0x18
3.432128583333333,0,0xB0,0x12
3.432146625000000,0,0xFF,0x12
3.432164833333333,0,0xFF,0x18
3.434115791666667,0,0x98,0x18
3.434133833333334,0,0xFF,0x02
3.434152041666667,0,0xFF,0x18
3.436103125000000,0,0xB0,0x12
3.436121125000000,0,0xFF,0x10
3.436139333333333,0,0xFF,0x18
3.436164125000000,0,0x87,0x12
3.436182166666667,0,0xFF,0x00
3.436200375000000,0,0xFF,0xBC
3.436220916666667,0,0x87,0x1A
3.436238958333333,0,0x00,0x12
3.436257041666666,0,0x0F,0x13
3.437086625000000,0,0x07,0x01
3.437104666666666,0,0x00,0x01
3.437122750000000,0,0x0F,0x00
3.437143333333333,0,0x36,0x01
3.437161375000000,0,0x80,0x00
3.437179416666666,0,0x00,0x01
3.437199666666667,0,0x87,0x01
3.437217708333333,0,0xFF,0x00
3.437235916666667,0,0xFF,0x1F
3.437256791666667,0,0x07,0x01
3.437274791666667,0,0x00,0x01
3.437292875000000,0,0xDE,0x01
3.438090458333333,0,0xF0,0x02
3.438108458333333,0,0x7F,0x12
3.438126666666667,0,0xFF,0x1C
3.440077750000000,0,0xF0,0x02
3.440095750000000,0,0x7F,0x12
3.440113958333333,0,0xFF,0x1C
3.442065083333333,0,0x98,0x18
3.442083125000000,0,0xFF,0x02
3.442101333333333,0,0xFF,0x0C
3.444052416666667,0,0x98,0x10
3.444070458333333,0,0xFF,0x02
3.444088666666667,0,0xFF,0x0C
3.446039750000000,0,0xB0,0x12
3.446057750000000,0,0xFF,0x10
3.446075958333333,0,0xFF,0x1C
3.448027083333333,0,0xB0,0x12
3.448045125000000,0,0xFF,0x12
3.448063333333333,0,0xFF,0x1C
3.450014416666667,0,0xF0,0x12
3.450032416666667,0,0x7F,0x12
3.450050625000000,0,0xFF,0x1C
3.452001750000000,0,0x98,0x1A
3.452019791666667,0,0xFF,0x12
3.452038000000000,0,0xFF,0x1C
3.453989000000000,0,0x98,0x18
3.454007041666667,0,0xFF,0x02
3.454025250000000,0,0xFF,0x0C
3.455976333333334,0,0xB0,0x13
3.455994333333333,0,0xFF,0x10
3.456012541666666,0,0xFF,0x1C
3.457963708333333,0,0xF0,0x02
3.457981708333334,0,0x7F,0x12
3.457999916666667,0,0xFF,0x1C
3.459950875000000,0,0xB0,0x12
3.459968916666667,0,0xFF,0x12
3.459987083333333,0,0xFF,0x1C
3.461938083333334,0,0x98,0x12
3.461956125000000,0,0xFF,0x02
3.461974333333333,0,0xFF,0x1C
3.463925458333333,0,0xB0,0x12
3.463943458333334,0,0xFF,0x10
3.463961666666667,0,0xFF,0x1E
3.465912750000000,0,0xB0,0x12
3.465930791666667,0,0xFF,0x12
3.465948958333333,0,0xFF,0x1C
3.467900000000000,0,0xB0,0x13
3.467918000000000,0,0x7F,0x10
3.467936208333333,0,0xFF,0x1E
3.467961000000000,0,0x87,0x12
3.467979041666667,0,0xFF,0x00
3.467997250000000,0,0xFF,0xDE
3.468017791666667,0,0x07,0x10
3.468035833333333,0,0x00,0x02
3.468053875000000,0,0x46,0x12
3.468883500000000,0,0x03,0x00
3.468901500000000,0,0x00,0x01
3.468919583333333,0,0x02,0x01
3.468940166666667,0,0x1E,0x01
3.468958208333333,0,0xC0,0x01
3.468976250000000,0,0x00,0x81
3.468996500000000,0,0x87,0x01
3.469014541666667,0,0xFF,0x00
3.469032750000000,0,0xFF,0x47
3.469053625000000,0,0x07,0x01
3.469071625000000,0,0x00,0x01
3.469089708333333,0,0xC2,0x01
3.469887458333333,0,0xB0,0x12
3.469905458333333,0,0xFF,0x12
3.469923666666667,0,0xFF,0x0C
3.471874375000000,0,0xF0,0x02
3.471892375000000,0,0x7F,0x12
3.471910583333333,0,0xFF,0x04
3.473861625000000,0,0xB0,0x12
3.473879666666666,0,0xFF,0x12
3.473897875000000,0,0xFF,0x0C
3.475848916666667,0,0xB0,0x12
3.475866958333333,0,0xFF,0x13
3.475885166666667,0,0xFF,0x0C
3.477836291666667,0,0xF0,0x12
3.477854291666667,0,0x7F,0x1A
3.477872500000000,0,0xFF,0x06
3.479823625000000,0,0xB0,0x12
3.479841666666667,0,0xFF,0x12
3.479859875000000,0,0xFF,0x0C
3.481811208333333,0,0xB0,0x12
3.481829250000000,0,0xFF,0x12
3.481847458333333,0,0xFF,0x0C
3.483798708333333,0,0xB0,0x12
3.483816750000000,0,0xFF,0x12
3.483834958333333,0,0xFF,0x0C
3.485786041666667,0,0x90,0x12
3.485804083333333,0,0xFF,0x12
3.485822291666667,0,0xFF,0x0C
3.487773375000000,0,0x98,0x1A
3.487791416666667,0,0xFF,0x12
3.487809625000000,0,0xFF,0x0C
3.489760791666667,0,0xB0,0x13
3.489778791666667,0,0xFF,0x18
3.489797000000000,0,0xFF,0x0E
3.491748208333334,0,0xB0,0x13
3.491766208333333,0,0x7F,0x1A
3.491784416666667,0,0xFF,0x04
3.493735583333333,0,0xF0,0x12
3.493753583333334,0,0x7F,0x12
3.493771791666667,0,0xFF,0x04
3.495723000000000,0,0xF0,0x02
3.495741000000000,0,0x7F,0x12
3.495759208333333,0,0xFF,0x0C
3.497710250000000,0,0x98,0x10
3.497728291666667,0,0xFF,0x02
3.497746500000000,0,0xFF,0x0C
3.499697625000000,0,0xB0,0x12
3.499715666666666,0,0xFF,0x13
3.499733875000000,0,0xFF,0x0C
3.499758666666667,0,0xC3,0x02
3.499776666666667,0,0xFF,0x00
3.499794875000000,0,0xFF,0xE6
3.499815458333333,0,0x03,0x13
3.499833458333333,0,0x00,0x10
3.499851541666667,0,0x00,0x12
3.500681125000000,0,0x07,0x01
3.500699125000000,0,0x80,0x81
3.500717208333334,0,0x00,0x01
3.500737833333333,0,0x34,0x01
3.500755833333333,0,0x80,0x01
3.500773916666667,0,0xC0,0x01
3.500794166666667,0,0x83,0x01
3.500812166666667,0,0xFF,0x00
3.500830375000000,0,0xFF,0x00
3.500851250000000,0,0x07,0x01
3.500869291666667,0,0x00,0x00
3.500887333333333,0,0x00,0x01
3.501685166666667,0,0xB0,0x12
3.501703208333333,0,0xFF,0x12
3.501721416666667,0,0xFF,0x00
3.503672291666667,0,0xB0,0x12
3.503690333333333,0,0xFF,0x13
3.503708541666667,0,0xFF,0x00
3.505659583333333,0,0xF0,0x02
3.505677583333333,0,0x7F,0x12
3.505695791666667,0,0xFF,0x00
3.507647000000000,0,0xF0,0x02
3.507665000000000,0,0x7F,0x12
3.507683208333333,0,0xFF,0x00
3.509634500000000,0,0xF0,0x12
3.509652500000000,0,0x7F,0x12
3.509670708333333,0,0xFF,0x00
3.511621875000000,0,0x98,0x1A
3.511639916666667,0,0xFF,0x12
3.511658125000000,0,0xFF,0x00
3.513609083333333,0,0x98,0x1A
3.513627125000000,0,0xFF,0x12
3.513645333333333,0,0xFF,0x00
3.515596250000000,0,0x98,0x10
3.515614291666667,0,0xFF,0x02
3.515632500000000,0,0xFF,0x00
3.517583416666667,0,0xB0,0x12
3.517601458333333,0,0xFF,0x13
3.517619666666667,0,0xFF,0x00
3.519570708333333,0,0xF0,0x02
3.519588708333333,0,0x7F,0x1A
3.519606916666667,0,0xFF,0x00
3.521558083333333,0,0xF0,0x12
3.521576083333333,0,0x7F,0x12
3.521594291666667,0,0xFF,0x00
3.523545541666667,0,0xB0,0x13
3.523563541666667,0,0x7F,0x1A
3.523581750000000,0,0xFF,0x00
3.525532958333333,0,0x98,0x1A
3.525551000000000,0,0xFF,0x12
3.525569208333333,0,0xFF,0x00
3.527520333333333,0,0xB0,0x12
3.527538375000000,0,0xFF,0x12
3.527556583333333,0,0xFF,0x00
3.529507833333333,0,0xF0,0x02
3.529525833333333,0,0x7F,0x12
3.529544041666667,0,0xFF,0x00
3.531495041666667,0,0xF0,0x12
3.531513083333333,0,0xFF,0x12
3.531531291666667,0,0xFF,0x00
3.531556083333333,0,0xC3,0x02
3.531574083333333,0,0xFF,0x00
3.531592291666667,0,0xFF,0x80
3.531612875000000,0,0x03,0x13
3.531630875000000,0,0x80,0x1A
3.531648958333333,0,0x28,0x12
3.532478625000000,0,0x07,0x01
3.532496666666667,0,0x00,0x01
3.532514708333333,0,0x00,0x01
3.532535333333333,0,0x30,0x00
3.532553333333333,0,0x00,0x01
3.532571416666667,0,0xC0,0x01
3.532591666666667,0,0xC3,0x01
3.532609666666667,0,0xFF,0x00
3.532627875000000,0,0xFF,0x00
3.532648750000000,0,0x07,0x01
3.532666791666667,0,0x00,0x01
3.532684875000000,0,0xAC,0x00
3.533491833333333,0,0xB0,0x12
3.533509833333333,0,0xFF,0x10
3.533528041666667,0,0xFF,0x10
3.535487791666667,0,0xF0,0x02
3.535505791666667,0,0x7F,0x12
3.535524000000000,0,0xFF,0x10
3.537476833333333,0,0xF0,0x12
3.537494833333333,0,0x7F,0x12
3.537513041666667,0,0xFF,0x10
3.539473833333334,0,0xF0,0x02
3.539491833333333,0,0x7F,0x12
3.539510041666666,0,0xFF,0x10
3.541461083333334,0,0xB0,0x12
3.541479125000000,0,0xFF,0x13
3.541497333333333,0,0xFF,0x10
3.543455791666667,0,0x98,0x10
3.543473833333334,0,0xFF,0x02
3.543492041666667,0,0xFF,0x00
3.545448250000000,0,0xB0,0x12
3.545466291666667,0,0xFF,0x12
3.545484500000000,0,0xFF,0x10
3.547441625000000,0,0xB0,0x12
3.547459666666667,0,0xFF,0x13
3.547477875000000,0,0xFF,0x10
3.549434333333333,0,0x98,0x1A
3.549452375000000,0,0xFF,0x12
3.549470583333334,0,0xFF,0x10
3.551428333333333,0,0xF0,0x13
3.551446333333333,0,0x7F,0x1A
3.551464541666667,0,0xFF,0x10
3.553425375000000,0,0x90,0x12
3.553443416666667,0,0xFF,0x02
3.553461625000000,0,0xFF,0x10
3.555418250000000,0,0xF0,0x02
3.555436250000000,0,0x7F,0x12
3.555454458333333,0,0xFF,0x10
3.557414291666666,0,0xB0,0x12
3.557432333333333,0,0xFF,0x12
3.557450541666667,0,0xFF,0x10
3.559407500000000,0,0xF0,0x12
3.559425500000000,0,0x7F,0x1A
3.559443708333333,0,0xFF,0x10
3.561400166666667,0,0xB0,0x12
3.561418208333333,0,0xFF,0x12
3.561436416666667,0,0xFF,0x10
3.563389250000000,0,0xF0,0x02
3.563407250000000,0,0x7F,0x12
3.563425458333333,0,0xFF,0x10
3.563450250000000,0,0x87,0x12
3.563468291666667,0,0xFF,0x00
3.563486500000000,0,0xFF,0xFC
3.563507041666667,0,0x07,0x12
3.563525083333333,0,0x00,0x12
3.563543125000000,0,0x0A,0x12
3.564274958333333,0,0x07,0x01
3.564293000000000,0,0x00,0x00
3.564311041666667,0,0x0A,0x01
3.564331666666666,0,0x34,0x01
3.564349708333333,0,0x80,0x01
3.564367750000000,0,0x00,0x01
3.564388000000000,0,0x87,0x01
3.564406041666667,0,0xFF,0x00
3.564424250000000,0,0xFF,0x0E
3.564445125000000,0,0x03,0x01
3.564463125000000,0,0x80,0x01
3.564481208333333,0,0x80,0x01
3.565863666666667,0,0xB0,0x13
3.565881666666667,0,0x7F,0x1A
3.565899875000000,0,0xFF,0x1E
3.567851375000000,0,0x98,0x18
3.567869416666666,0,0xFF,0x02
3.567887625000000,0,0xFF,0x10
3.569848000000000,0,0xF0,0x02
3.569866000000000,0,0x7F,0x12
3.569884208333333,0,0xFF,0x1C
3.571834541666667,0,0xB0,0x12
3.571852583333333,0,0xFF,0x12
3.571870791666667,0,0xFF,0x14
3.573824000000000,0,0xB0,0x12
3.573842041666667,0,0xFF,0x13
3.573860250000000,0,0xFF,0x14
3.575813458333333,0,0xB0,0x13
3.575831458333333,0,0xFF,0x10
3.575849666666667,0,0xFF,0x14
3.577808416666667,0,0xF0,0x12
3.577826458333333,0,0xFF,0x12
3.577844625000000,0,0xFF,0x14
3.579796208333333,0,0x98,0x10
3.579814250000000,0,0xFF,0x02
3.579832458333333,0,0xFF,0x04
3.581783375000000,0,0x98,0x1A
3.581801416666667,0,0xFF,0x12
3.581819625000000,0,0xFF,0x14
3.583775666666666,0,0xB0,0x13
3.583793666666667,0,0x7F,0x1A
3.583811875000000,0,0xFF,0x1C
3.585763500000000,0,0xB0,0x12
3.585781541666667,0,0xFF,0x13
3.585799750000000,0,0xFF,0x14
3.587751958333333,0,0xB0,0x12
3.587770000000000,0,0xFF,0x12
3.587788166666666,0,0xFF,0x14
3.589751458333333,0,0xB0,0x13
3.589769458333333,0,0xFF,0x10
3.589787666666667,0,0xFF,0x1E
3.591742125000000,0,0xB0,0x13
3.591760125000000,0,0x7F,0x1A
3.591778333333334,0,0xFF,0x1C
3.593730125000000,0,0x98,0x1A
3.593748166666667,0,0xFF,0x12
3.593766375000000,0,0xFF,0x14
3.595718875000000,0,0xF0,0x12
3.595736875000000,0,0x7F,0x1A
3.595755083333333,0,0xFF,0x1C
3.595779916666667,0,0x87,0x12
3.595797916666667,0,0xFF,0x00
3.595816125000000,0,0xFF,0x88
3.595836666666667,0,0x87,0x12
3.595854708333333,0,0x00,0x10
3.595872791666667,0,0x32,0x02
3.596072083333334,0,0x07,0x01
3.596090125000000,0,0x00,0x00
3.596108166666667,0,0x1A,0x01
3.596128791666667,0,0x30,0x01
3.596146791666667,0,0x00,0x81
3.596164875000000,0,0x80,0x01
3.596185125000000,0,0xC7,0x01
3.596203166666667,0,0xFF,0x00
3.596221333333333,0,0xFF,0x32
3.596242208333333,0,0x87,0x01
3.596260250000000,0,0x00,0x01
3.596278333333333,0,0xF2,0x01
3.597708958333333,0,0xB0,0x12
3.597727000000000,0,0xFF,0x12
3.597745208333333,0,0xFF,0x00
3.599706750000000,0,0xB0,0x12
3.599724750000000,0,0xFF,0x10
3.599742958333333,0,0xFF,0x04
3.601695000000000,0,0xB0,0x12
3.601713041666667,0,0xFF,0x13
3.601731250000000,0,0xFF,0x04
3.603693541666667,0,0xB0,0x12
3.603711583333333,0,0xFF,0x12
3.603729791666667,0,0xFF,0x04
3.605687500000000,0,0xB0,0x12
3.605705500000000,0,0xFF,0x10
3.605723708333334,0,0xFF,0x06
3.607674708333333,0,0x98,0x10
3.607692750000000,0,0xFF,0x12
3.607710958333334,0,0xFF,0x04
3.609671166666667,0,0xB0,0x13
3.609689166666667,0,0x7F,0x1A
3.609707375000000,0,0xFF,0x04
3.611668958333333,0,0x90,0x12
3.611687000000000,0,0xFF,0x12
3.611705208333333,0,0xFF,0x04
3.613661583333333,0,0xB0,0x12
3.613679625000000,0,0xFF,0x13
3.613697833333333,0,0xFF,0x04
3.615656666666667,0,0xF0,0x02
3.615674666666667,0,0x7F,0x12
3.615692875000000,0,0xFF,0x04
3.617653291666667,0,0xB0,0x13
3.617671291666666,0,0x7F,0x1A
3.617689500000000,0,0xFF,0x04
3.619648208333333,0,0xB0,0x12
3.619666250000000,0,0xFF,0x12
3.619684458333333,0,0xFF,0x00
3.621639208333333,0,0x98,0x1A
3.621657250000000,0,0xFF,0x12
3.621675458333333,0,0xFF,0x04
3.623629500000000,0,0xF0,0x12
3.623647500000000,0,0x7F,0x12
3.623665708333333,0,0xFF,0x04
3.625623375000000,0,0xF0,0x12
3.625641416666667,0,0xFF,0x13
3.625659625000000,0,0xFF,0x04
3.627617250000000,0,0x90,0x12
3.627635291666667,0,0xFF,0x12
3.627653500000000,0,0xFF,0x04
3.627678291666667,0,0x87,0x12
3.627696333333333,0,0xFF,0x00
3.627714541666667,0,0xFF,0xB0
3.627735125000000,0,0x07,0x12
3.627753125000000,0,0x00,0x10
3.627771208333333,0,0x14,0x12
3.627870000000000,0,0x03,0x01
3.627888000000000,0,0x80,0x01
3.627906083333333,0,0x1E,0x01
3.627926708333333,0,0x30,0x00
3.627944708333333,0,0x00,0x01
3.627962791666667,0,0x80,0x01
3.627983041666667,0,0xC3,0x01
3.628001041666667,0,0xFF,0x80
3.628019250000000,0,0xFF,0x14
3.628040125000000,0,0x87,0x01
3.628058166666666,0,0x00,0x01
3.628076250000000,0,0xC0,0x01
3.629608666666666,0,0xB0,0x12
3.629626708333333,0,0xFF,0x13
3.629644916666667,0,0xFF,0x08
3.631601416666667,0,0xF0,0x02
3.631619416666667,0,0x7F,0x12
3.631637625000000,0,0xFF,0x08
3.633598083333333,0,0x98,0x1A
3.633616125000000,0,0xFF,0x12
3.633634333333333,0,0xFF,0x08
3.635589458333333,0,0xB0,0x12
3.635607500000000,0,0xFF,0x12
3.635625708333333,0,0xFF,0x08
3.637576791666667,0,0xF0,0x12
3.637594833333333,0,0xFF,0x13
3.637613041666667,0,0xFF,0x08
3.639571000000000,0,0xB0,0x13
3.639589000000000,0,0xFF,0x10
3.639607208333334,0,0xFF,0x08
3.641565041666667,0,0xB0,0x13
3.641583041666667,0,0x7F,0x1A
3.641601250000000,0,0xFF,0x08
3.643559750000000,0,0xF0,0x02
3.643577750000000,0,0x7F,0x12
3.643595958333333,0,0xFF,0x08
3.645548041666667,0,0x90,0x12
3.645566083333333,0,0xFF,0x12
3.645584291666667,0,0xFF,0x08
3.647547625000000,0,0x98,0x1A
3.647565666666666,0,0xFF,0x12
3.647583875000000,0,0xFF,0x08
3.649535583333333,0,0xB0,0x12
3.649553625000000,0,0xFF,0x12
3.649571833333333,0,0xFF,0x08
3.651524625000000,0,0x98,0x10
3.651542666666667,0,0xFF,0x02
3.651560875000000,0,0xFF,0x08
3.653521541666667,0,0x98,0x10
3.653539583333334,0,0xFF,0x02
3.653557791666667,0,0xFF,0x0C
3.655509583333334,0,0xB0,0x12
3.655527625000000,0,0xFF,0x10
3.655545833333333,0,0xFF,0x08
3.657497750000000,0,0xB0,0x12
3.657515791666667,0,0xFF,0x12
3.657534000000000,0,0xFF,0x08
3.659489791666667,0,0xB0,0x13
3.659507791666667,0,0x7F,0x1A
3.659526000000000,0,0xFF,0x00
3.659550833333333,0,0x87,0x12
3.659568833333333,0,0xFF,0x00
3.659587041666667,0,0xFF,0x94
3.659607583333333,0,0x87,0x12
3.659625625000000,0,0x00,0x12
3.659643708333333,0,0x3C,0x02
3.659667875000000,0,0x07,0x01
3.659685916666667,0,0x00,0x00
3.659703958333334,0,0x1C,0x01
3.659724583333333,0,0x30,0x01
3.659742583333333,0,0x00,0x81
3.659760666666667,0,0x80,0x01
3.659780916666667,0,0x87,0x01
3.659798958333333,0,0xFF,0x00
3.659817166666667,0,0xFF,0x3C
3.659838041666667,0,0x03,0x01
3.659856041666667,0,0x00,0x01
3.659874125000000,0,0xFC,0x01
3.661489333333333,0,0xB0,0x12
3.661507375000000,0,0xFF,0x13
3.661525583333333,0,0xFF,0x18
3.663484208333333,0,0x98,0x1A
3.663502250000000,0,0xFF,0x12
3.663520458333333,0,0xFF,0x18
3.665472083333333,0,0xB0,0x12
3.665490083333333,0,0xFF,0x10
3.665508291666667,0,0xFF,0x18
3.667463791666667,0,0xB0,0x12
3.667481833333333,0,0xFF,0x12
3.667500041666667,0,0xFF,0x18
3.669456833333333,0,0xF0,0x02
3.669474833333333,0,0x7F,0x12
3.669493041666667,0,0xFF,0x18
3.671449583333333,0,0xF0,0x02
3.671467583333333,0,0x7F,0x12
3.671485791666667,0,0xFF,0x18
3.673442333333333,0,0xF0,0x12
3.673460333333333,0,0x7F,0x12
3.673478541666667,0,0xFF,0x18
3.675433041666667,0,0x98,0x18
3.675451083333333,0,0xFF,0x12
3.675469291666666,0,0xFF,0x08
3.677422166666667,0,0xB0,0x12
3.677440208333334,0,0xFF,0x02
3.677458416666667,0,0xFF,0x0C
3.679413416666667,0,0xB0,0x12
3.679431458333333,0,0xFF,0x13
3.679449666666667,0,0xFF,0x18
3.681413041666667,0,0x98,0x18
3.681431083333333,0,0xFF,0x12
3.681449291666667,0,0xFF,0x08
3.683408041666667,0,0xF0,0x12
3.683426083333333,0,0xFF,0x13
3.683444291666667,0,0xFF,0x18
3.685406291666667,0,0x98,0x1A
3.685424333333333,0,0xFF,0x12
3.685442541666667,0,0xFF,0x18
3.687397291666667,0,0xB0,0x13
3.687415291666666,0,0x7F,0x1A
3.687433500000000,0,0xFF,0x18
3.689393250000000,0,0xF0,0x02
3.689411250000000,0,0x7F,0x12
3.689429458333333,0,0xFF,0x18
3.691383166666667,0,0xF0,0x02
3.691401166666667,0,0x7F,0x12
3.691419375000000,0,0xFF,0x18
3.691444208333333,0,0x83,0x13
3.691464291666667,0,0xFF,0x00
3.691482500000000,0,0xFF,0xBC
3.691503041666667,0,0x87,0x12
3.691521083333333,0,0x00,0x12
3.691539166666667,0,0x0E,0x02
3.692458416666667,0,0x07,0x01
3.692476416666667,0,0x00,0x01
3.692494500000000,0,0x0E,0x01
3.692515083333333,0,0x1E,0x01
3.692533125000000,0,0xC0,0x01
3.692551166666667,0,0x00,0x81
3.692571416666667,0,0x87,0x01
3.692589458333333,0,0xFF,0x00
3.692607666666667,0,0xFF,0x1E
3.692628500000000,0,0x87,0x01
3.692646541666667,0,0x00,0x01
3.692664625000000,0,0xCE,0x01
3.694072458333333,0,0xB0,0x13
3.694090458333333,0,0x7F,0x1A
3.694108666666667,0,0xFF,0x1E
3.696071666666667,0,0xB0,0x12
3.696089708333334,0,0xFF,0x12
3.696107916666667,0,0xFF,0x1C
3.698059083333333,0,0x98,0x10
3.698077125000000,0,0xFF,0x02
3.698095333333333,0,0xFF,0x1C
3.700049250000000,0,0xF0,0x02
3.700067250000000,0,0x7F,0x12
3.700085458333333,0,0xFF,0x1C
3.702046041666667,0,0xF0,0x02
3.702064041666667,0,0x7F,0x12
3.702082291666667,0,0xFF,0x1C
3.704034375000000,0,0xF0,0x12
3.704052375000000,0,0x7F,0x12
3.704070583333333,0,0xFF,0x1C
3.706027375000000,0,0xB0,0x12
3.706045416666667,0,0xFF,0x02
3.706063625000000,0,0xFF,0x1C
3.708015208333333,0,0x98,0x1A
3.708033250000000,0,0xFF,0x12
3.708051458333333,0,0xFF,0x1C
3.710005166666666,0,0x98,0x1A
3.710023208333333,0,0xFF,0x12
3.710041416666667,0,0xFF,0x0C
3.711993833333334,0,0xB0,0x12
3.712011833333333,0,0xFF,0x10
3.712030041666667,0,0xFF,0x1C
3.713981833333333,0,0xB0,0x12
3.713999875000000,0,0xFF,0x12
3.714018083333333,0,0xFF,0x1C
3.715973708333333,0,0xB0,0x13
3.715991708333333,0,0xFF,0x18
3.716009916666667,0,0xFF,0x1E
3.717966541666667,0,0xB0,0x12
3.717984583333333,0,0xFF,0x13
3.718002791666667,0,0xFF,0x1C
3.719954833333333,0,0xB0,0x12
3.719972875000000,0,0xFF,0x10
3.719991083333333,0,0xFF,0x1E
3.721952625000000,0,0x98,0x1A
3.721970666666667,0,0xFF,0x12
3.721988875000000,0,0xFF,0x0C
3.723941583333333,0,0xF0,0x02
3.723959583333333,0,0x7F,0x12
3.723977791666667,0,0xFF,0x1C
3.724002625000000,0,0x83,0x12
3.724020625000000,0,0xFF,0x00
3.724038833333333,0,0xFF,0x9E
3.724059375000000,0,0x87,0x12
3.724077416666667,0,0x00,0x12
3.724095500000000,0,0x02,0x02
3.724255291666667,0,0x03,0x00
3.724273291666667,0,0x00,0x01
3.724291375000000,0,0x46,0x01
3.724311958333333,0,0x14,0x01
3.724330000000000,0,0xC0,0x01
3.724348083333333,0,0x80,0x00
3.724368291666666,0,0x07,0x81
3.724386333333333,0,0xFF,0x00
3.724404541666666,0,0xFF,0x46
3.724425416666667,0,0x07,0x01
3.724443458333333,0,0x00,0x00
3.724461500000000,0,0x66,0x01
3.725936958333333,0,0xB0,0x13
3.725954958333333,0,0x7F,0x1A
3.725973166666666,0,0xFF,0x0C
3.727924416666667,0,0xB0,0x12
3.727942458333333,0,0xFF,0x12
3.727960666666667,0,0xFF,0x0C
3.729918250000000,0,0x98,0x10
3.729936291666667,0,0xFF,0x02
3.729954500000000,0,0xFF,0x0C
3.731910541666667,0,0xB0,0x12
3.731928583333334,0,0xFF,0x12
3.731946791666667,0,0xFF,0x0C
3.733910041666667,0,0x98,0x10
3.733928083333333,0,0xFF,0x02
3.733946291666667,0,0xFF,0x0C
3.735899125000000,0,0xB0,0x13
3.735917125000000,0,0x7F,0x1A
3.735935333333333,0,0xFF,0x04
3.737895750000000,0,0xF0,0x12
3.737913791666667,0,0xFF,0x12
3.737931958333333,0,0xFF,0x0C
3.739883375000000,0,0xF0,0x02
3.739901375000000,0,0x7F,0x12
3.739919583333333,0,0xFF,0x0C
3.741875708333333,0,0xB0,0x13
3.741893708333333,0,0xFF,0x10
3.741911916666667,0,0xFF,0x0E
3.743875000000000,0,0xB0,0x12
3.743893000000000,0,0x7F,0x12
3.743911208333333,0,0xFF,0x0C
3.745872458333333,0,0x98,0x1A
3.745890500000000,0,0xFF,0x12
3.745908708333333,0,0xFF,0x0C
3.747864208333333,0,0xF0,0x02
3.747882208333333,0,0x7F,0x12
3.747900416666667,0,0xFF,0x04
3.749861000000000,0,0x98,0x18
3.749879041666667,0,0xFF,0x12
3.749897250000000,0,0xFF,0x0C
3.751850916666667,0,0xF0,0x02
3.751868916666667,0,0x7F,0x12
3.751887125000000,0,0xFF,0x0C
3.753844791666667,0,0xF0,0x12
3.753862833333333,0,0xFF,0x12
3.753881041666667,0,0xFF,0x0C
3.755843125000000,0,0xB0,0x12
3.755861166666667,0,0xFF,0x12
3.755879375000000,0,0xFF,0x0C
3.755904166666667,0,0x87,0x12
3.755922208333333,0,0xFF,0x00
3.755940416666667,0,0xFF,0xC6
3.755960958333334,0,0x07,0x12
3.755979000000000,0,0x00,0x12
3.755997041666667,0,0x00,0x1A
3.756053125000000,0,0x03,0x00
3.756071125000000,0,0x80,0x01
3.756089208333333,0,0x00,0x01
3.756109833333333,0,0x30,0x00
3.756127833333333,0,0x00,0x01
3.756145916666667,0,0x80,0x01
3.756166166666667,0,0xC3,0x01
3.756184166666667,0,0xFF,0x00
3.756202375000000,0,0xFF,0x00
3.756223250000000,0,0x87,0x01
3.756241291666667,0,0x00,0x01
3.756259375000000,0,0x80,0x00
3.757831166666667,0,0x98,0x10
3.757849208333333,0,0xFF,0x02
3.757867416666667,0,0xFF,0x00
3.759830833333333,0,0xF0,0x02
3.759848833333333,0,0x7F,0x12
3.759867041666667,0,0xFF,0x00
3.761821000000000,0,0xF0,0x02
3.761839000000000,0,0x7F,0x12
3.761857208333333,0,0xFF,0x00
3.763813791666667,0,0xB0,0x12
3.763831833333333,0,0xFF,0x10
3.763850041666667,0,0xFF,0x00
3.765801666666666,0,0xB0,0x13
3.765819666666667,0,0x7F,0x1A
3.765837875000000,0,0xFF,0x00
3.767793458333333,0,0xB0,0x12
3.767811500000000,0,0xFF,0x12
3.767829708333333,0,0xFF,0x00
3.769784416666667,0,0xF0,0x02
3.769802416666667,0,0x7F,0x12
3.769820625000000,0,0xFF,0x00
3.771772750000000,0,0xF0,0x02
3.771790750000000,0,0x7F,0x12
3.771808958333333,0,0xFF,0x00
3.773761708333333,0,0xF0,0x02
3.773779708333334,0,0x7F,0x1A
3.773797916666667,0,0xFF,0x00
3.775756375000000,0,0x98,0x10
3.775774416666667,0,0xFF,0x12
3.775792625000000,0,0xFF,0x00
3.777747083333333,0,0xF0,0x02
3.777765083333333,0,0x7F,0x12
3.777783291666667,0,0xFF,0x00
3.779743250000000,0,0xF0,0x12
3.779761250000000,0,0x7F,0x12
3.779779458333334,0,0xFF,0x00
3.781739416666666,0,0xF0,0x02
3.781757416666667,0,0x7F,0x12
3.781775625000000,0,0xFF,0x00
3.783734166666667,0,0xB0,0x12
3.783752208333333,0,0xFF,0x12
3.783770375000000,0,0xFF,0x00
3.785721416666667,0,0xF0,0x02
3.785739416666666,0,0x7F,0x1A
3.785757625000000,0,0xFF,0x00
3.787714166666666,0,0x98,0x10
3.787732208333333,0,0xFF,0x02
3.787750416666666,0,0xFF,0x00
3.787775208333333,0,0xC7,0x12
3.787793208333333,0,0xFF,0x00
3.787811416666667,0,0xFF,0x80
3.787832000000000,0,0x07,0x12
3.787850208333333,0,0x00,0x12
3.787868250000000,0,0x00,0x10
3.788843083333334,0,0x03,0x01
3.788861083333333,0,0x80,0x01
3.788879166666667,0,0x28,0x01
3.788899750000000,0,0x34,0x81
3.788917791666667,0,0x80,0x01
3.788935875000000,0,0x80,0x00
3.788956083333333,0,0x07,0x81
3.788974125000000,0,0xFF,0x00
3.788992333333333,0,0xFF,0x3C
3.789013208333333,0,0x03,0x00
3.789031208333333,0,0x80,0x01
3.789049291666667,0,0xA8,0x01
3.790439125000000,0,0xB0,0x12
3.790457166666667,0,0xFF,0x13
3.790475375000000,0,0xFF,0x10
3.792429125000000,0,0xB0,0x12
3.792447166666667,0,0xFF,0x12
3.792465375000000,0,0xFF,0x10
3.794425708333333,0,0x90,0x12
3.794443750000000,0,0xFF,0x12
3.794461958333333,0,0xFF,0x10
3.796415250000000,0,0xB0,0x12
3.796433291666667,0,0xFF,0x12
3.796451500000000,0,0xFF,0x10
3.798413083333333,0,0xB0,0x12
3.798431125000000,0,0xFF,0x12
3.798449333333333,0,0xFF,0x10
3.800401083333333,0,0xF0,0x12
3.800419083333333,0,0x7F,0x1A
3.800437291666667,0,0xFF,0x18
3.802400000000000,0,0xF0,0x02
3.802418000000000,0,0x7F,0x12
3.802436208333333,0,0xFF,0x18
3.804399416666667,0,0xB0,0x12
3.804417458333333,0,0xFF,0x12
3.804435625000000,0,0xFF,0x10
3.806387250000000,0,0xB0,0x12
3.806405250000000,0,0xFF,0x12
3.806423458333333,0,0xFF,0x10
3.808376666666667,0,0x98,0x18
3.808394708333333,0,0xFF,0x02
3.808412916666667,0,0xFF,0x00
3.810366416666667,0,0xB0,0x12
3.810384458333334,0,0xFF,0x12
3.810402625000000,0,0xFF,0x10
3.812354583333333,0,0xB0,0x12
3.812372625000000,0,0xFF,0x13
3.812390833333333,0,0xFF,0x10
3.814344541666667,0,0xB0,0x12
3.814362583333333,0,0xFF,0x12
3.814380791666667,0,0xFF,0x10
3.816337791666667,0,0xB0,0x13
3.816355791666667,0,0xFF,0x1A
3.816374000000000,0,0xFF,0x18
3.818332541666666,0,0xB0,0x12
3.818350583333333,0,0xFF,0x12
3.818368791666667,0,0xFF,0x10
3.820321083333333,0,0xB0,0x12
3.820339125000000,0,0xFF,0x12
3.820357333333333,0,0xFF,0x10
3.820382125000000,0,0x87,0x10
3.820400166666666,0,0xFF,0x00
3.820418375000000,0,0xFF,0xA8
3.820438916666667,0,0x07,0x12
3.820456958333333,0,0x00,0x13
3.820475000000000,0,0x0A,0x12
3.820639083333333,0,0x07,0x01
3.820657125000000,0,0x00,0x01
3.820675208333333,0,0x0B,0x01
3.820695791666667,0,0x34,0x01
3.820713833333333,0,0x80,0x01
3.820731875000000,0,0x00,0x01
3.820752125000000,0,0x87,0x01
3.820770166666667,0,0xFF,0x00
3.820788375000000,0,0xFF,0x0B
3.820809250000000,0,0x03,0x00
3.820827250000000,0,0x00,0x01
3.820845333333333,0,0x8A,0x01
3.822315750000000,0,0x98,0x12
3.822333791666667,0,0xFF,0x13
3.822352000000000,0,0xFF,0x14
3.824311416666667,0,0x98,0x1A
3.824329458333333,0,0xFF,0x12
3.824347666666667,0,0xFF,0x00
3.826299666666667,0,0xB0,0x12
3.826317708333333,0,0xFF,0x12
3.826335916666667,0,0xFF,0x14
3.828288125000000,0,0xB0,0x12
3.828306166666667,0,0xFF,0x13
3.828324375000000,0,0xFF,0x14
3.830283666666667,0,0xF0,0x02
3.830301708333333,0,0xFF,0x12
3.830319875000000,0,0xFF,0x14
3.832274125000000,0,0xB0,0x12
3.832292166666666,0,0xFF,0x10
3.832310375000000,0,0xFF,0x14
3.834268833333333,0,0x98,0x1A
3.834286875000000,0,0xFF,0x12
3.834305083333333,0,0xFF,0x14
3.836268000000000,0,0xF0,0x12
3.836286000000000,0,0x7F,0x12
3.836304208333333,0,0xFF,0x14
3.838259541666666,0,0xF0,0x12
3.838277541666667,0,0x7F,0x12
3.838295750000000,0,0xFF,0x14
3.840251208333334,0,0x98,0x1A
3.840269250000000,0,0xFF,0x12
3.840287458333334,0,0xFF,0x14
3.842243625000000,0,0xB0,0x12
3.842261625000000,0,0xFF,0x10
3.842279833333333,0,0xFF,0x16
3.844231125000000,0,0xB0,0x12
3.844249166666667,0,0xFF,0x12
3.844267375000000,0,0xFF,0x14
3.846221416666667,0,0xB0,0x12
3.846239416666667,0,0xFF,0x12
3.846257625000000,0,0xFF,0x14
3.848220958333334,0,0xF0,0x13
3.848238958333333,0,0x7F,0x18
3.848257166666667,0,0xFF,0x14
3.850214958333333,0,0xB0,0x13
3.850232958333333,0,0x7F,0x1A
3.850251166666667,0,0xFF,0x1E
3.852204916666667,0,0xF0,0x02
3.852222916666667,0,0x7F,0x12
3.852241125000000,0,0xFF,0x14
3.852265958333333,0,0x83,0x13
3.852283958333333,0,0xFF,0x00
3.852302166666667,0,0xFF,0x88
3.852322750000000,0,0x07,0x12
3.852340750000000,0,0x00,0x10
3.852358833333333,0,0x32,0x02
3.852435416666667,0,0x07,0x01
3.852453458333333,0,0x00,0x01
3.852471500000000,0,0x33,0x81
3.852492125000000,0,0x34,0x01
3.852510125000000,0,0x00,0x81
3.852528208333333,0,0x80,0x01
3.852548458333333,0,0xC7,0x01
3.852566458333333,0,0xFF,0x80
3.852584666666667,0,0xFF,0x32
3.852605541666667,0,0x87,0x01
3.852623583333334,0,0x00,0x01
3.852641666666667,0,0xB3,0x00
3.854201750000000,0,0xF0,0x02
3.854219750000000,0,0x7F,0x12
3.854237958333333,0,0xFF,0x04
3.856193666666667,0,0xB0,0x13
3.856211666666667,0,0x7F,0x1A
3.856229875000000,0,0xFF,0x06
3.858181083333333,0,0xF0,0x12
3.858199083333334,0,0x7F,0x1A
3.858217291666667,0,0xFF,0x06
3.860177916666667,0,0xB0,0x12
3.860195958333333,0,0xFF,0x12
3.860214166666667,0,0xFF,0x04
3.862171625000000,0,0xF0,0x02
3.862189625000000,0,0x7F,0x12
3.862207833333333,0,0xFF,0x04
3.864163000000000,0,0xB0,0x12
3.864181000000000,0,0xFF,0x12
3.864199208333333,0,0xFF,0x04
3.866153791666667,0,0xB0,0x13
3.866171791666666,0,0xFF,0x10
3.866190000000000,0,0xFF,0x04
3.868149416666667,0,0xB0,0x12
3.868167458333333,0,0xFF,0x12
3.868185625000000,0,0xFF,0x04
3.870141333333333,0,0xB0,0x12
3.870159375000000,0,0xFF,0x02
3.870177583333333,0,0xFF,0x04
3.872132708333333,0,0xF0,0x02
3.872150708333333,0,0x7F,0x12
3.872168916666667,0,0xFF,0x04
3.874127916666667,0,0x98,0x18
3.874145958333334,0,0xFF,0x12
3.874164166666667,0,0xFF,0x00
3.876121208333333,0,0xB0,0x12
3.876139250000000,0,0xFF,0x12
3.876157458333333,0,0xFF,0x04
3.878114583333333,0,0xF0,0x02
3.878132583333334,0,0x7F,0x12
3.878150791666667,0,0xFF,0x04
3.880107625000000,0,0xB0,0x12
3.880125666666667,0,0xFF,0x13
3.880143875000000,0,0xFF,0x04
3.882102791666667,0,0xF0,0x02
3.882120791666666,0,0x7F,0x12
3.882139000000000,0,0xFF,0x04
3.884100583333333,0,0xF0,0x02
3.884118583333333,0,0x7F,0x12
3.884136791666667,0,0xFF,0x04
3.884161625000000,0,0xC7,0x02
3.884179625000000,0,0xFF,0x00
3.884197833333333,0,0xFF,0x32
3.884218416666667,0,0x07,0x02
3.884236291666667,0,0x00,0x10
3.884254375000000,0,0x14,0x12
3.885225750000000,0,0x07,0x01
3.885243750000000,0,0x00,0x01
3.885261833333333,0,0x14,0x01
3.885282416666667,0,0x14,0x01
3.885300458333333,0,0x80,0x01
3.885318541666666,0,0xC0,0x01
3.885338791666667,0,0x87,0x01
3.885356791666667,0,0xFF,0x00
3.885375000000000,0,0xFF,0x14
3.885395875000000,0,0x07,0x01
3.885413916666667,0,0x00,0x01
3.885431958333333,0,0x14,0x81
3.886822916666667,0,0x18,0x1A
3.886840958333333,0,0xFF,0x12
3.886859166666667,0,0xFF,0x08
3.888821208333333,0,0x98,0x1A
3.888839250000000,0,0xFF,0x12
3.888857458333333,0,0xFF,0x08
3.890811333333333,0,0xB0,0x12
3.890829333333333,0,0xFF,0x10
3.890847541666667,0,0xFF,0x08
3.892798708333333,0,0xF0,0x12
3.892816750000000,0,0xFF,0x13
3.892834958333333,0,0xFF,0x08
3.894791583333333,0,0xB0,0x12
3.894809625000000,0,0xFF,0x13
3.894827833333333,0,0xFF,0x08
3.896788916666666,0,0xB0,0x12
3.896806958333333,0,0xFF,0x13
3.896825166666666,0,0xFF,0x08
3.898781958333333,0,0xB0,0x13
3.898799958333333,0,0x7F,0x1A
3.898818166666667,0,0xFF,0x00
3.900770791666667,0,0xB0,0x12
3.900788833333333,0,0xFF,0x12
3.900807000000000,0,0xFF,0x08
3.902760250000000,0,0x90,0x12
3.902778291666666,0,0xFF,0x12
3.902796500000000,0,0xFF,0x08
3.904749041666667,0,0x90,0x12
3.904767083333333,0,0xFF,0x12
3.904785291666667,0,0xFF,0x08
3.906739458333333,0,0xF0,0x02
3.906757458333333,0,0x7F,0x12
3.906775666666667,0,0xFF,0x00
3.908731791666667,0,0xB0,0x12
3.908749833333333,0,0xFF,0x12
3.908768041666667,0,0xFF,0x08
3.910721250000000,0,0xF0,0x12
3.910739250000000,0,0x7F,0x1A
3.910757458333333,0,0xFF,0x00
3.912708791666667,0,0xB0,0x12
3.912726833333333,0,0xFF,0x10
3.912745041666667,0,0xFF,0x08
3.914702250000000,0,0xF0,0x02
3.914720250000000,0,0x7F,0x12
3.914738458333333,0,0xFF,0x00
3.916695375000000,0,0x98,0x10
3.916713416666667,0,0xFF,0x02
3.916731625000000,0,0xFF,0x0C
3.916756416666667,0,0x87,0x12
3.916774458333333,0,0xFF,0x00
3.916792666666667,0,0xFF,0x94
3.916813208333333,0,0x03,0x02
3.916831208333333,0,0x80,0x12
3.916849291666667,0,0x3E,0x12
3.917022583333333,0,0x03,0x01
3.917040583333333,0,0x80,0x01
3.917058666666667,0,0x3E,0x01
3.917079291666667,0,0x34,0x01
3.917097291666667,0,0x80,0x01
3.917115375000000,0,0xC0,0x01
3.917135583333333,0,0x07,0x81
3.917153625000000,0,0xFF,0x00
3.917171833333333,0,0xFF,0x3C
3.917192708333333,0,0x07,0x01
3.917210750000000,0,0x00,0x00
3.917228791666667,0,0x1C,0x01
3.918692791666667,0,0xB0,0x12
3.918710833333333,0,0xFF,0x12
3.918729041666666,0,0xFF,0x18
3.920681291666666,0,0x90,0x12
3.920699333333333,0,0xFF,0x12
3.920717541666667,0,0xFF,0x18
3.922672458333333,0,0xB0,0x12
3.922690500000000,0,0xFF,0x12
3.922708666666667,0,0xFF,0x18
3.924663625000000,0,0xB0,0x12
3.924681666666667,0,0xFF,0x13
3.924699875000000,0,0xFF,0x18
3.926663375000000,0,0xB0,0x12
3.926681375000000,0,0xFF,0x10
3.926699583333333,0,0xFF,0x18
3.928652708333333,0,0xB0,0x12
3.928670750000000,0,0xFF,0x12
3.928688958333333,0,0xFF,0x18
3.930648625000000,0,0x98,0x10
3.930666666666667,0,0xFF,0x02
3.930684875000000,0,0xFF,0x1C
3.932637750000000,0,0xB0,0x12
3.932655791666666,0,0xFF,0x10
3.932674000000000,0,0xFF,0x18
3.934636583333333,0,0xB0,0x12
3.934654625000000,0,0xFF,0x12
3.934672833333333,0,0xFF,0x18
3.936625666666667,0,0xB0,0x13
3.936643666666667,0,0xFF,0x10
3.936661875000000,0,0xFF,0x18
3.938617083333333,0,0xB0,0x13
3.938635083333333,0,0x7F,0x1A
3.938653291666667,0,0xFF,0x18
3.940607666666667,0,0xF0,0x13
3.940625666666667,0,0x7F,0x10
3.940643875000000,0,0xFF,0x18
3.942600083333333,0,0xB0,0x12
3.942618125000000,0,0xFF,0x13
3.942636333333333,0,0xFF,0x18
3.944589708333333,0,0xB0,0x12
3.944607750000000,0,0xFF,0x12
3.944625958333333,0,0xFF,0x18
3.946578250000000,0,0xF0,0x12
3.946596250000000,0,0x7F,0x12
3.946614458333333,0,0xFF,0x18
3.948570416666667,0,0x98,0x1A
3.948588458333333,0,0xFF,0x12
3.948606666666667,0,0xFF,0x08
3.948631458333333,0,0x87,0x12
3.948649500000000,0,0xFF,0x00
3.948667708333333,0,0xFF,0xBC
3.948688250000000,0,0x07,0x12
3.948706291666667,0,0x00,0x13
3.948724333333333,0,0x1E,0x12
3.948819333333333,0,0x07,0x01
3.948837375000000,0,0x00,0x01
3.948855416666667,0,0x1E,0x81
3.948876041666667,0,0x34,0x01
3.948894041666667,0,0x00,0x81
3.948912125000000,0,0x00,0x01
3.948932375000000,0,0x87,0x01
3.948950416666666,0,0xFF,0x00
3.948968625000000,0,0xFF,0x1F
3.948989500000000,0,0x07,0x01
3.949007500000000,0,0x00,0x01
3.949025583333333,0,0xDE,0x01
3.950560375000000,0,0xB0,0x12
3.950578416666667,0,0xFF,0x12
3.950596625000000,0,0xFF,0x1C
3.952551833333333,0,0xB0,0x12
3.952569875000000,0,0xFF,0x12
3.952588083333333,0,0xFF,0x1C
3.954546666666667,0,0xB0,0x12
3.954564666666667,0,0xFF,0x12
3.954582875000000,0,0xFF,0x1C
3.956538416666667,0,0xB0,0x12
3.956556458333333,0,0xFF,0x12
3.956574666666667,0,0xFF,0x1C
3.958525875000000,0,0xB0,0x12
3.958543916666667,0,0xFF,0x12
3.958562125000000,0,0xFF,0x1C
3.960520458333333,0,0x98,0x1A
3.960538500000000,0,0xFF,0x12
3.960556708333333,0,0xFF,0x0C
3.962511833333333,0,0x98,0x18
3.962529875000000,0,0xFF,0x12
3.962548083333334,0,0xFF,0x0C
3.964502916666667,0,0x98,0x10
3.964520958333333,0,0xFF,0x02
3.964539166666667,0,0xFF,0x0C
3.966491625000000,0,0xB0,0x12
3.966509666666667,0,0xFF,0x13
3.966527875000000,0,0xFF,0x1C
3.968483291666667,0,0xB0,0x12
3.968501291666667,0,0xFF,0x10
3.968519500000000,0,0xFF,0x1C
3.970472125000000,0,0x98,0x10
3.970490166666667,0,0xFF,0x02
3.970508375000000,0,0xFF,0x1C
3.972461416666667,0,0xF0,0x12
3.972479416666667,0,0x7F,0x1A
3.972497625000000,0,0xFF,0x1C
3.974460250000000,0,0xB0,0x12
3.974478250000000,0,0xFF,0x10
3.974496458333333,0,0xFF,0x1C
3.976452458333333,0,0xF0,0x02
3.976470458333333,0,0x7F,0x12
3.976488666666667,0,0xFF,0x1C
3.978445833333333,0,0xB0,0x12
3.978463875000000,0,0xFF,0x13
3.978482083333333,0,0xFF,0x1C
3.980440458333333,0,0xB0,0x12
3.980458500000000,0,0xFF,0x12
3.980476708333333,0,0xFF,0x1C
3.980501500000000,0,0x87,0x10
3.980519541666667,0,0xFF,0x00
3.980537750000000,0,0xFF,0x9F
3.980558291666667,0,0x07,0x12
3.980576333333333,0,0x00,0x12
3.980594375000000,0,0x66,0x10
3.981609333333333,0,0x07,0x01
3.981627333333333,0,0x00,0x01
3.981645416666667,0,0x02,0x01
3.981666000000000,0,0x1E,0x01
3.981684041666667,0,0xC0,0x00
3.981702083333333,0,0x00,0x01
3.981722333333333,0,0x87,0x01
3.981740375000000,0,0xFF,0x00
3.981758583333333,0,0xFF,0x46
3.981779416666666,0,0x87,0x01
3.981797458333333,0,0x00,0x01
3.981815541666667,0,0xC3,0x00
3.983190166666667,0,0xB0,0x12
3.983208208333334,0,0xFF,0x12
3.983226375000000,0,0xFF,0x0C
3.985178000000000,0,0xB0,0x13
3.985196000000000,0,0xFF,0x10
3.985214208333333,0,0xFF,0x0C
3.987169625000000,0,0xB0,0x13
3.987187625000000,0,0x7F,0x1A
3.987205833333333,0,0xFF,0x0E
3.989158666666667,0,0x98,0x10
3.989176708333333,0,0xFF,0x02
3.989194916666666,0,0xFF,0x0C
3.991157250000000,0,0x98,0x10
3.991175291666667,0,0xFF,0x02
3.991193500000000,0,0xFF,0x0C
3.993145250000000,0,0xB0,0x13
3.993163250000000,0,0xFF,0x10
3.993181458333333,0,0xFF,0x0C
3.995138750000000,0,0xB0,0x12
3.995156791666667,0,0xFF,0x12
3.995175000000000,0,0xFF,0x0C
3.997127375000000,0,0xB0,0x12
3.997145375000000,0,0xFF,0x10
3.997163583333333,0,0xFF,0x0C
3.999119000000000,0,0xB0,0x13
3.999137000000000,0,0x7F,0x1A
3.999155208333333,0,0xFF,0x04
4.001105791666666,0,0xB0,0x12
4.001123791666667,0,0xFF,0x12
4.001142000000000,0,0xFF,0x0C
4.003103916666666,0,0xB0,0x12
4.003121916666666,0,0xFF,0x12
4.003140125000000,0,0xFF,0x0C
4.005091750000000,0,0xB0,0x12
4.005109791666666,0,0xFF,0x12
4.005128000000000,0,0xFF,0x0C
4.007080958333334,0,0xB0,0x12
4.007099000000000,0,0xFF,0x12
4.007117208333334,0,0xFF,0x0C
4.009070208333333,0,0x98,0x10
4.009088250000000,0,0xFF,0x02
4.009106458333333,0,0xFF,0x0C
4.011063958333334,0,0xB0,0x12
4.011082000000000,0,0xFF,0x13
4.011100208333334,0,0xFF,0x0C
4.013062458333334,0,0xB0,0x13
4.013080458333333,0,0xFF,0x10
4.013098666666667,0,0xFF,0x0C
4.013123458333333,0,0x87,0x1A
4.013141500000000,0,0xFF,0x00
4.013159708333333,0,0xFF,0xC2
4.013180250000000,0,0x07,0x12
4.013198291666667,0,0x00,0x12
4.013216333333333,0,0x00,0x12
4.013404250000000,0,0x07,0x01
4.013422291666667,0,0x00,0x01
4.013440375000000,0,0x00,0x00
4.013460958333333,0,0x1E,0x01
4.013479000000000,0,0xC0,0x01
4.013497041666667,0,0x00,0x81
4.013517291666667,0,0x07,0x01
4.013535333333333,0,0xFF,0x00
4.013553541666667,0,0xFF,0x00
4.013574416666667,0,0x03,0x01
4.013592416666667,0,0x80,0x01
4.013610500000000,0,0x80,0x01
4.015049875000000,0,0x30,0x92
4.015067916666666,0,0xFF,0x12
4.015086125000000,0,0xFF,0x00
4.017036625000000,0,0xF0,0x12
4.017054625000000,0,0x7F,0x12
4.017072833333334,0,0xFF,0x00
4.019024250000000,0,0x98,0x1A
4.019042291666667,0,0xFF,0x12
4.019060500000000,0,0xFF,0x00
4.021015083333333,0,0x98,0x1A
4.021033125000000,0,0xFF,0x12
4.021051333333333,0,0xFF,0x00
4.023004083333333,0,0xF0,0x13
4.023022083333333,0,0x7F,0x10
4.023040291666667,0,0xFF,0x00
4.024994000000000,0,0xB0,0x12
4.025012000000000,0,0xFF,0x12
4.025030208333333,0,0xFF,0x00
4.026985666666667,0,0xB0,0x12
4.027003708333333,0,0xFF,0x12
4.027021916666667,0,0xFF,0x00
4.028978250000000,0,0xB0,0x12
4.028996250000000,0,0xFF,0x12
4.029014458333333,0,0xFF,0x00
4.030975125000000,0,0xB0,0x13
4.030993125000000,0,0xFF,0x10
4.031011333333334,0,0xFF,0x00
4.032965291666667,0,0xB0,0x12
4.032983333333333,0,0xFF,0x12
4.033001541666667,0,0xFF,0x00
4.034956833333333,0,0xF0,0x12
4.034974833333333,0,0x7F,0x12
4.034993041666667,0,0xFF,0x00
4.036951375000000,0,0xB0,0x12
4.036969375000000,0,0xFF,0x10
4.036987583333334,0,0xFF,0x00
4.038948750000000,0,0xB0,0x12
4.038966791666667,0,0xFF,0x12
4.038985000000000,0,0xFF,0x00
4.040936583333333,0,0xF0,0x12
4.040954583333333,0,0x7F,0x12
4.040972791666666,0,0xFF,0x00
4.042926791666667,0,0xB0,0x12
4.042944833333333,0,0xFF,0x12
4.042963041666667,0,0xFF,0x00
4.044924541666667,0,0x98,0x12
4.044942583333333,0,0xFF,0x12
4.044960791666667,0,0xFF,0x00
4.044985583333333,0,0xC7,0x12
4.045003583333333,0,0xFF,0x00
4.045021791666667,0,0xFF,0x00
4.045042375000000,0,0x03,0x02
4.045060375000000,0,0x80,0x12
4.045078458333333,0,0x20,0x12
4.045198416666667,0,0x07,0x01
4.045216458333333,0,0x00,0x01
4.045234541666667,0,0x28,0x01
4.045255125000000,0,0x34,0x01
4.045273166666667,0,0x80,0x00
4.045291208333333,0,0x00,0x01
4.045311458333333,0,0x87,0x01
4.045329500000000,0,0xFF,0x00
4.045347708333333,0,0xFF,0x28
4.045368583333333,0,0x03,0x00
4.045386583333333,0,0x00,0x01
4.045404666666666,0,0xA8,0x01
4.046919625000000,0,0xF0,0x12
4.046937666666667,0,0xFF,0x12
4.046955875000000,0,0xFF,0x10
4.048911083333333,0,0x98,0x10
4.048929125000000,0,0xFF,0x02
4.048947333333333,0,0xFF,0x00
4.050900833333333,0,0x98,0x10
4.050918875000000,0,0xFF,0x02
4.050937083333333,0,0xFF,0x10
4.052898458333333,0,0xF0,0x13
4.052916458333334,0,0x7F,0x1A
4.052934666666666,0,0xFF,0x18
4.054889708333334,0,0x98,0x1A
4.054907750000000,0,0xFF,0x02
4.054925958333333,0,0xFF,0x10
4.056878791666667,0,0x98,0x10
4.056896833333333,0,0xFF,0x02
4.056915041666667,0,0xFF,0x00
4.058872750000000,0,0xB0,0x12
4.058890750000000,0,0xFF,0x12
4.058908958333333,0,0xFF,0x10
4.060865416666666,0,0xB0,0x12
4.060883416666667,0,0xFF,0x12
4.060901625000000,0,0xFF,0x10
4.062852208333333,0,0xB0,0x12
4.062870250000000,0,0xFF,0x12
4.062888416666667,0,0xFF,0x10
4.064842875000000,0,0xB0,0x12
4.064860875000000,0,0xFF,0x10
4.064879083333333,0,0xFF,0x10
4.066836458333333,0,0xF0,0x02
4.066854458333333,0,0x7F,0x12
4.066872666666667,0,0xFF,0x10
4.068828250000000,0,0xF0,0x02
4.068846250000000,0,0x7F,0x1A
4.068864458333334,0,0xFF,0x18
4.070822833333334,0,0xF0,0x12
4.070840833333333,0,0x7F,0x12
4.070859041666667,0,0xFF,0x10
4.072815166666667,0,0xB0,0x12
4.072833166666666,0,0xFF,0x12
4.072851375000000,0,0xFF,0x10
4.074808416666666,0,0xB0,0x12
4.074826458333333,0,0xFF,0x13
4.074844666666666,0,0xFF,0x10
4.076797541666667,0,0x98,0x10
4.076815583333333,0,0xFF,0x02
4.076833791666667,0,0xFF,0x10
4.076858583333333,0,0x87,0x12
4.076876625000000,0,0xFF,0x00
4.076894791666667,0,0xFF,0x28
4.076915375000000,0,0x03,0x13
4.076933375000000,0,0x80,0x1A
4.076951458333333,0,0x0A,0x12
4.076994000000000,0,0x07,0x01
4.077012041666666,0,0x00,0x00
4.077030083333334,0,0x02,0x01
4.077050708333333,0,0x30,0x00
4.077068708333333,0,0x00,0x01
4.077086791666667,0,0x80,0x01
4.077107041666666,0,0xC3,0x00
4.077125041666666,0,0xFF,0x00
4.077143250000000,0,0xFF,0x0A
4.077164125000000,0,0x07,0x01
4.077182166666667,0,0x00,0x00
4.077200208333333,0,0x02,0x01
4.078794708333334,0,0xF0,0x02
4.078812708333333,0,0x7F,0x12
4.078830916666667,0,0xFF,0x1C
4.080788500000000,0,0x98,0x10
4.080806541666667,0,0xFF,0x02
4.080824750000000,0,0xFF,0x10
4.082784583333333,0,0xF0,0x02
4.082802583333334,0,0x7F,0x12
4.082820791666666,0,0xFF,0x1C
4.084775750000000,0,0xB0,0x12
4.084793791666667,0,0xFF,0x13
4.084812000000000,0,0xFF,0x14
4.086762750000000,0,0xB0,0x12
4.086780791666667,0,0xFF,0x12
4.086799000000000,0,0xFF,0x14
4.088761625000000,0,0x98,0x10
4.088779666666666,0,0xFF,0x02
4.088797875000000,0,0xFF,0x14
4.090759541666666,0,0xB0,0x12
4.090777541666666,0,0xFF,0x10
4.090795750000000,0,0xFF,0x16
4.092751291666667,0,0x98,0x1A
4.092769333333333,0,0xFF,0x02
4.092787541666667,0,0xFF,0x00
4.094741958333334,0,0xB0,0x12
4.094760000000000,0,0xFF,0x13
4.094778208333334,0,0xFF,0x14
4.096739583333333,0,0x98,0x10
4.096757625000000,0,0xFF,0x02
4.096775833333333,0,0xFF,0x14
4.098734625000000,0,0x90,0x12
4.098752666666667,0,0xFF,0x12
4.098770875000000,0,0xFF,0x04
4.100732416666666,0,0x98,0x12
4.100750458333334,0,0xFF,0x13
4.100768666666666,0,0xFF,0x14
4.102723000000000,0,0xF0,0x12
4.102741000000000,0,0x7F,0x12
4.102759208333334,0,0xFF,0x14
4.104713583333333,0,0xB0,0x12
4.104731625000000,0,0xFF,0x12
4.104749791666666,0,0xFF,0x14
4.106708541666666,0,0xF0,0x02
4.106726541666666,0,0x7F,0x12
4.106744750000000,0,0xFF,0x14
4.108703791666667,0,0xF0,0x13
4.108721791666667,0,0x7F,0x18
4.108740000000000,0,0xFF,0x16
4.108764791666666,0,0x87,0x12
4.108782833333334,0,0xFF,0x00
4.108801208333333,0,0xFF,0x80
4.108821791666666,0,0x03,0x12
4.108839791666667,0,0x00,0x10
4.108857875000000,0,0x32,0x02
4.109782208333334,0,0x07,0x01
4.109800250000000,0,0x00,0x01
4.109818333333333,0,0x33,0x01
4.109838916666667,0,0x34,0x01
4.109856958333333,0,0x80,0x00
4.109875000000000,0,0x00,0x01
4.109895250000000,0,0x87,0x01
4.109913291666667,0,0xFF,0x00
4.109931500000000,0,0xFF,0x32
4.109952333333333,0,0x87,0x01
4.109970375000000,0,0x00,0x01
4.109988458333333,0,0xB3,0x00
4.111383000000000,0,0xB0,0x12
4.111401000000000,0,0xFF,0x10
4.111419208333333,0,0xFF,0x04
4.113373083333333,0,0x90,0x12
4.113391125000000,0,0xFF,0x12
4.113409333333333,0,0xFF,0x04
4.115369666666667,0,0x90,0x12
4.115387708333333,0,0xFF,0x12
4.115405916666667,0,0xFF,0x04
4.117357375000000,0,0xB0,0x12
4.117375416666667,0,0xFF,0x12
4.117393625000000,0,0xFF,0x04
4.119345291666667,0,0x98,0x1A
4.119363333333333,0,0xFF,0x12
4.119381541666667,0,0xFF,0x04
4.121331916666667,0,0xB0,0x12
4.121349958333333,0,0xFF,0x13
4.121368166666667,0,0xFF,0x04
4.123331458333333,0,0xF0,0x02
4.123349458333333,0,0x7F,0x12
4.123367666666667,0,0xFF,0x04
4.125320583333333,0,0xB0,0x12
4.125338625000000,0,0xFF,0x12
4.125356833333333,0,0xFF,0x04
4.127312375000000,0,0x90,0x12
4.127330416666666,0,0xFF,0x12
4.127348625000000,0,0xFF,0x04
4.129299750000000,0,0xB0,0x12
4.129317791666667,0,0xFF,0x12
4.129336000000000,0,0xFF,0x00
4.131291875000000,0,0x98,0x1A
4.131309916666667,0,0xFF,0x12
4.131328125000000,0,0xFF,0x04
4.133288125000000,0,0x98,0x10
4.133306166666666,0,0xFF,0x02
4.133324375000000,0,0xFF,0x00
4.135277333333334,0,0xB0,0x12
4.135295375000000,0,0xFF,0x12
4.135313583333334,0,0xFF,0x04
4.137266833333333,0,0xF0,0x02
4.137284833333333,0,0x7F,0x12
4.137303041666667,0,0xFF,0x04
4.139256833333333,0,0x98,0x1A
4.139274875000000,0,0xFF,0x12
4.139293083333333,0,0xFF,0x00
4.141256791666667,0,0xB0,0x12
4.141274833333333,0,0xFF,0x12
4.141293041666667,0,0xFF,0x04
4.141317833333333,0,0x87,0x12
4.141335875000000,0,0xFF,0x00
4.141354083333334,0,0xFF,0xB2
4.141374625000000,0,0x87,0x1A
4.141392666666666,0,0x00,0x12
4.141410750000000,0,0x10,0x13
4.141578791666666,0,0x07,0x01
4.141596791666666,0,0x80,0x81
4.141614875000000,0,0x14,0x01
4.141635458333333,0,0x34,0x81
4.141653500000000,0,0x80,0x01
4.141671583333333,0,0xC0,0x01
4.141691791666666,0,0x07,0x81
4.141709833333334,0,0xFF,0x00
4.141728041666667,0,0xFF,0x14
4.141748916666667,0,0x07,0x01
4.141766958333333,0,0x00,0x00
4.141785000000000,0,0x14,0x01
4.143246041666667,0,0xB0,0x10
4.143264083333333,0,0xFF,0x02
4.143282291666667,0,0xFF,0x08
4.145237916666667,0,0xB0,0x12
4.145255958333333,0,0xFF,0x10
4.145274166666667,0,0xFF,0x08
4.147228958333334,0,0xB0,0x12
4.147246958333334,0,0xFF,0x10
4.147265166666666,0,0xFF,0x08
4.149219875000000,0,0x98,0x10
4.149237916666666,0,0xFF,0x02
4.149256125000000,0,0xFF,0x08
4.151217791666666,0,0x98,0x10
4.151235833333334,0,0xFF,0x12
4.151254041666666,0,0xFF,0x08
4.153213958333334,0,0x98,0x1A
4.153232000000000,0,0xFF,0x12
4.153250208333334,0,0xFF,0x08
4.155205791666667,0,0xF0,0x12
4.155223833333333,0,0xFF,0x13
4.155242041666667,0,0xFF,0x08
4.157197833333333,0,0xB0,0x12
4.157215875000000,0,0xFF,0x10
4.157234083333333,0,0xFF,0x08
4.159195500000000,0,0xF0,0x02
4.159213500000000,0,0x7F,0x12
4.159231708333333,0,0xFF,0x08
4.161186208333334,0,0xB0,0x12
4.161204208333333,0,0xFF,0x12
4.161222416666667,0,0xFF,0x08
4.163182333333333,0,0xB0,0x12
4.163200375000000,0,0xFF,0x13
4.163218583333333,0,0xFF,0x08
4.165170708333333,0,0xB0,0x12
4.165188750000000,0,0xFF,0x12
4.165206958333333,0,0xFF,0x08
4.167169833333333,0,0xB0,0x12
4.167187875000000,0,0xFF,0x12
4.167206083333333,0,0xFF,0x08
4.169169583333334,0,0xF0,0x02
4.169187583333334,0,0x7F,0x12
4.169205791666666,0,0xFF,0x08
4.171163083333333,0,0xB0,0x12
4.171181083333333,0,0xFF,0x10
4.171199291666666,0,0xFF,0x08
4.173153041666667,0,0xB0,0x12
4.173171083333333,0,0xFF,0x13
4.173189291666667,0,0xFF,0x08
4.173214083333334,0,0xC3,0x02
4.173232083333334,0,0xFF,0x00
4.173250291666666,0,0xFF,0x9C
4.173270875000000,0,0x03,0x13
4.173288875000000,0,0x80,0x18
4.173306958333334,0,0x3C,0x12
4.173376666666667,0,0x07,0x01
4.173394666666667,0,0x00,0x01
4.173412750000000,0,0x3C,0x01
4.173433333333334,0,0x14,0x01
4.173451375000000,0,0xC0,0x01
4.173469458333333,0,0x80,0x01
4.173489666666667,0,0x07,0x01
4.173507708333333,0,0xFF,0x00
4.173525916666667,0,0xFF,0x3C
4.173546791666666,0,0x03,0x01
4.173564791666666,0,0x80,0x01
4.173582875000000,0,0xBE,0x01
4.175150583333333,0,0xB0,0x13
4.175168583333333,0,0x7F,0x1A
4.175186791666667,0,0xFF,0x18
4.177142000000000,0,0x98,0x10
4.177160041666666,0,0xFF,0x02
4.177178250000000,0,0xFF,0x1C
4.179136916666667,0,0xB0,0x12
4.179154958333333,0,0xFF,0x13
4.179173166666667,0,0xFF,0x18
4.181124125000000,0,0xB0,0x12
4.181142166666667,0,0xFF,0x13
4.181160375000000,0,0xFF,0x18
4.183118750000000,0,0xB0,0x12
4.183136791666667,0,0xFF,0x12
4.183155000000000,0,0xFF,0x18
4.185109250000000,0,0xB0,0x12
4.185127291666666,0,0xFF,0x02
4.185145500000000,0,0xFF,0x08
4.187105541666667,0,0xF0,0x12
4.187123541666667,0,0x7F,0x12
4.187141750000000,0,0xFF,0x18
4.189098166666667,0,0xB0,0x12
4.189116208333333,0,0xFF,0x12
4.189134416666667,0,0xFF,0x0C
4.191091041666667,0,0x98,0x10
4.191109083333333,0,0xFF,0x02
4.191127291666667,0,0xFF,0x18
4.193079666666667,0,0xB0,0x12
4.193097708333333,0,0xFF,0x12
4.193115916666667,0,0xFF,0x18
4.195072458333334,0,0x98,0x10
4.195090500000000,0,0xFF,0x02
4.195108708333334,0,0xFF,0x1C
4.197065625000000,0,0xF0,0x12
4.197083625000000,0,0x7F,0x12
4.197101833333333,0,0xFF,0x18
4.199062958333333,0,0xB0,0x12
4.199081000000000,0,0xFF,0x13
4.199099208333333,0,0xFF,0x18
4.201050833333333,0,0xB0,0x12
4.201068833333333,0,0xFF,0x10
4.201087041666667,0,0xFF,0x18
4.203040708333333,0,0xB0,0x12
4.203058750000000,0,0xFF,0x12
4.203076958333333,0,0xFF,0x18
4.205029666666666,0,0xB0,0x13
4.205047666666666,0,0xFF,0x18
4.205065875000000,0,0xFF,0x18
4.205090666666667,0,0x87,0x12
4.205108708333333,0,0xFF,0x00
4.205126916666667,0,0xFF,0xBC
4.205147458333333,0,0x87,0x12
4.205165500000000,0,0x00,0x10
4.205183416666666,0,0x1F,0x12
4.206168041666666,0,0x03,0x01
4.206186041666666,0,0x00,0x01
4.206204125000000,0,0x1E,0x01
4.206224708333333,0,0x34,0x81
4.206242750000000,0,0x80,0x01
4.206260833333333,0,0xC0,0x01
4.206281083333334,0,0x87,0x01
4.206299083333334,0,0xFF,0x00
4.206317291666666,0,0xFF,0x1E
4.206338166666667,0,0x07,0x01
4.206356208333333,0,0x00,0x01
4.206374291666667,0,0x9F,0x01
4.207766416666667,0,0x98,0x10
4.207784458333333,0,0xFF,0x02
4.207802666666667,0,0xFF,0x0C
4.209765750000000,0,0xB0,0x12
4.209783791666666,0,0xFF,0x12
4.209802000000000,0,0xFF,0x1C
4.211763750000000,0,0xB0,0x12
4.211781791666667,0,0xFF,0x13
4.211800000000000,0,0xFF,0x1C
4.213751041666667,0,0xB0,0x12
4.213769083333333,0,0xFF,0x02
4.213787291666667,0,0xFF,0x0C
4.215739625000000,0,0xB0,0x12
4.215757666666667,0,0xFF,0x13
4.215775875000000,0,0xFF,0x1C
4.217737000000000,0,0xB0,0x12
4.217755000000000,0,0xFF,0x10
4.217773208333333,0,0xFF,0x1C
4.219729875000000,0,0xF0,0x12
4.219747875000000,0,0x7F,0x12
4.219766083333333,0,0xFF,0x1C
4.221717083333333,0,0xF0,0x02
4.221735083333333,0,0x7F,0x12
4.221753291666666,0,0xFF,0x1C
4.223708750000000,0,0x98,0x10
4.223726791666667,0,0xFF,0x02
4.223745000000000,0,0xFF,0x0C
4.225700041666666,0,0xF0,0x12
4.225718083333334,0,0xFF,0x12
4.225736291666666,0,0xFF,0x1C
4.227690958333334,0,0xF0,0x12
4.227709000000000,0,0xFF,0x12
4.227727166666667,0,0xFF,0x1C
4.229690125000000,0,0xB0,0x12
4.229708166666667,0,0xFF,0x12
4.229726375000000,0,0xFF,0x1C
4.231689666666667,0,0xB0,0x12
4.231707708333333,0,0xFF,0x02
4.231725916666667,0,0xFF,0x0C
4.233681625000000,0,0x98,0x1A
4.233699666666666,0,0xFF,0x12
4.233717875000000,0,0xFF,0x1C
4.235673791666667,0,0xB0,0x13
4.235691791666667,0,0x7F,0x1A
4.235710000000000,0,0xFF,0x1C
4.237667416666667,0,0x90,0x12
4.237685458333333,0,0xFF,0x12
4.237703666666667,0,0xFF,0x1C
4.237728458333334,0,0x87,0x12
4.237746500000000,0,0xFF,0x00
4.237764708333334,0,0xFF,0x9E
4.237785291666667,0,0x03,0x13
4.237803291666666,0,0x80,0x12
4.237821375000000,0,0x66,0x10
4.237967208333333,0,0x07,0x01
4.237985250000000,0,0x00,0x01
4.238003333333333,0,0x06,0x01
4.238023916666666,0,0x14,0x01
4.238041958333334,0,0x80,0x01
4.238060041666666,0,0xC0,0x01
4.238080291666667,0,0x83,0x00
4.238098291666667,0,0xFF,0x00
4.238116500000000,0,0xFF,0x66
4.238137375000000,0,0x87,0x01
4.238155416666666,0,0x00,0x01
4.238173500000000,0,0xC2,0x01
4.239656416666667,0,0xB0,0x13
4.239674416666666,0,0x7F,0x1A
4.239692625000000,0,0xFF,0x04
4.241648750000000,0,0xB0,0x12
4.241666791666667,0,0xFF,0x02
4.241685000000000,0,0xFF,0x0C
4.243635583333333,0,0x90,0x12
4.243653625000000,0,0xFF,0x12
4.243671833333333,0,0xFF,0x0C
4.245625291666666,0,0xF0,0x02
4.245643291666667,0,0x7F,0x12
4.245661500000000,0,0xFF,0x0C
4.247615208333333,0,0xB0,0x12
4.247633250000000,0,0xFF,0x13
4.247651458333333,0,0xFF,0x0C
4.249603208333333,0,0xB0,0x12
4.249621250000000,0,0xFF,0x12
4.249639458333333,0,0xFF,0x0C
4.251590333333334,0,0xB0,0x12
4.251608375000000,0,0xFF,0x13
4.251626583333334,0,0xFF,0x0C
4.253577625000000,0,0xB0,0x12
4.253595666666667,0,0xFF,0x02
4.253613875000000,0,0xFF,0x0C
4.255574250000000,0,0xB0,0x12
4.255592291666667,0,0xFF,0x13
4.255610500000000,0,0xFF,0x0C
4.257565708333333,0,0xB0,0x12
4.257583708333334,0,0xFF,0x12
4.257601916666666,0,0xFF,0x0C
4.259552625000000,0,0xF0,0x02
4.259570625000000,0,0x7F,0x12
4.259588833333333,0,0xFF,0x04
4.261541333333334,0,0xF0,0x13
4.261559333333333,0,0x7F,0x10
4.261577541666667,0,0xFF,0x0C
4.263536791666667,0,0xB0,0x13
4.263554791666667,0,0x7F,0x1A
4.263573000000000,0,0xFF,0x0E
4.265527750000000,0,0x90,0x12
4.265545791666667,0,0xFF,0x12
4.265564000000000,0,0xFF,0x0C
4.267516083333334,0,0x98,0x12
4.267534125000000,0,0xFF,0x02
4.267552333333334,0,0xFF,0x0C
4.269503875000000,0,0xB0,0x12
4.269521875000000,0,0xFF,0x10
4.269540083333333,0,0xFF,0x0E
4.269564875000000,0,0x87,0x12
4.269582916666667,0,0xFF,0x00
4.269601125000000,0,0xFF,0xC6
4.269621666666667,0,0x87,0x12
4.269639708333333,0,0x00,0x12
4.269657791666667,0,0x00,0x02
4.269764833333333,0,0x07,0x01
4.269782875000000,0,0x00,0x01
4.269800916666667,0,0x00,0x81
4.269821541666666,0,0x34,0x01
4.269839583333333,0,0x80,0x00
4.269857625000000,0,0x00,0x01
4.269877875000000,0,0x87,0x01
4.269895916666667,0,0xFF,0x00
4.269914125000000,0,0xFF,0x00
4.269935000000000,0,0x03,0x01
4.269953000000000,0,0x80,0x01
4.269971083333333,0,0x80,0x01
4.271496041666667,0,0xB0,0x13
4.271514041666666,0,0x7F,0x1A
4.271532250000000,0,0xFF,0x00
4.273486666666667,0,0xF0,0x12
4.273504666666667,0,0x7F,0x12
4.273522875000000,0,0xFF,0x00
4.275480833333333,0,0xB0,0x12
4.275498875000000,0,0xFF,0x12
4.275517083333333,0,0xFF,0x00
4.277471083333333,0,0x98,0x1A
4.277489125000000,0,0xFF,0x12
4.277507333333333,0,0xFF,0x00
4.279462375000000,0,0xF0,0x02
4.279480375000000,0,0x7F,0x12
4.279498583333333,0,0xFF,0x00
4.281454250000000,0,0xF0,0x02
4.281472250000000,0,0x7F,0x12
4.281490458333334,0,0xFF,0x00
4.283445458333333,0,0xB0,0x12
4.283463458333333,0,0x7F,0x12
4.283481666666667,0,0xFF,0x00
4.285444416666667,0,0x98,0x10
4.285462458333333,0,0xFF,0x12
4.285480666666666,0,0xFF,0x00
4.287441625000000,0,0x98,0x10
4.287459666666667,0,0xFF,0x02
4.287477875000000,0,0xFF,0x00
4.289440875000000,0,0xB0,0x13
4.289458875000000,0,0x7F,0x1A
4.289477083333334,0,0xFF,0x00
4.291433958333333,0,0xF0,0x12
4.291451958333333,0,0x7F,0x12
4.291470166666667,0,0xFF,0x00
4.293424708333333,0,0xB0,0x12
4.293442750000000,0,0xFF,0x10
4.293460958333333,0,0xFF,0x00
4.295412333333333,0,0xB0,0x12
4.295430375000000,0,0xFF,0x12
4.295448583333333,0,0xFF,0x00
4.297403500000000,0,0xB8,0x12
4.297421541666667,0,0xFF,0x02
4.297439750000000,0,0xFF,0x00
4.299400958333333,0,0x98,0x1A
4.299419000000000,0,0xFF,0x12
4.299437208333333,0,0xFF,0x00
4.301392666666667,0,0xB0,0x12
4.301410708333333,0,0xFF,0x13
4.301428916666667,0,0xFF,0x00
4.301453708333334,0,0xC3,0x02
4.301471708333334,0,0xFF,0x00
4.301489916666666,0,0xFF,0x80
4.301510500000000,0,0x03,0x02
4.301528500000000,0,0x80,0x12
4.301546583333334,0,0x20,0x10
4.302557291666667,0,0x07,0x01
4.302575333333333,0,0x00,0x01
4.302593416666666,0,0x3C,0x01
4.302614000000000,0,0x3E,0x01
4.302632041666667,0,0xC0,0x01
4.302650083333333,0,0x00,0x81
4.302670333333333,0,0x87,0x01
4.302688375000000,0,0xFF,0x00
4.302706583333333,0,0xFF,0x2C
4.302727458333333,0,0x03,0x01
4.302745458333334,0,0x80,0x01
4.302763541666667,0,0xA8,0x01
4.304151958333334,0,0xF0,0x02
4.304169958333333,0,0x7F,0x12
4.304188166666667,0,0xFF,0x18
4.306142791666667,0,0xB0,0x12
4.306160833333333,0,0xFF,0x12
4.306179041666667,0,0xFF,0x10
4.308132375000000,0,0xB0,0x12
4.308150416666667,0,0xFF,0x12
4.308168625000000,0,0xFF,0x10
4.310126916666666,0,0xB0,0x12
4.310144916666666,0,0xFF,0x10
4.310163125000000,0,0xFF,0x10
4.312119416666667,0,0xF0,0x02
4.312137416666666,0,0x7F,0x12
4.312155625000000,0,0xFF,0x10
4.314108291666667,0,0xB0,0x13
4.314126291666667,0,0x7F,0x1A
4.314144500000000,0,0xFF,0x10
4.316100916666667,0,0xB0,0x12
4.316118958333333,0,0xFF,0x10
4.316137166666667,0,0xFF,0x10
4.318088791666667,0,0xF0,0x02
4.318106791666667,0,0x7F,0x12
4.318125000000000,0,0xFF,0x10
4.320079000000000,0,0xB0,0x12
4.320097041666667,0,0xFF,0x12
4.320115250000000,0,0xFF,0x10
4.322072000000000,0,0x98,0x10
4.322090041666667,0,0xFF,0x02
4.322108250000000,0,0xFF,0x00
4.324067041666667,0,0xF0,0x12
4.324085083333333,0,0xFF,0x12
4.324103291666667,0,0xFF,0x10
4.326055208333333,0,0xB0,0x12
4.326073250000000,0,0xFF,0x10
4.326091458333333,0,0xFF,0x10
4.328045000000000,0,0xF0,0x12
4.328063041666667,0,0xFF,0x12
4.328081208333334,0,0xFF,0x10
4.330032625000000,0,0xB0,0x12
4.330050666666667,0,0xFF,0x12
4.330068875000000,0,0xFF,0x10
4.332023208333333,0,0x98,0x1A
4.332041250000000,0,0xFF,0x12
4.332059458333333,0,0xFF,0x10
4.334011583333333,0,0xF0,0x02
4.334029583333334,0,0x7F,0x12
4.334047791666666,0,0xFF,0x10
4.334072625000000,0,0xC3,0x12
4.334090625000000,0,0xFF,0x00
4.334108833333334,0,0xFF,0x28
4.334129416666666,0,0x07,0x12
4.334147458333334,0,0x00,0x13
4.334165500000000,0,0x0A,0x12
4.334356000000000,0,0x03,0x01
4.334374000000000,0,0x80,0x81
4.334392083333333,0,0x00,0x01
4.334412708333334,0,0x30,0x01
4.334430708333334,0,0x00,0x01
4.334448791666667,0,0x80,0x01
4.334469041666667,0,0x87,0x01
4.334487083333333,0,0xFF,0x00
4.334505291666667,0,0xFF,0x0A
4.334526125000000,0,0x87,0x01
4.334544166666666,0,0x00,0x01
4.334562250000000,0,0x88,0x01
4.336004625000000,0,0xF0,0x12
4.336022666666667,0,0xFF,0x13
4.336040875000000,0,0xFF,0x14
4.338003166666667,0,0xB0,0x12
4.338021166666667,0,0xFF,0x10
4.338039375000000,0,0xFF,0x16
4.340002791666667,0,0xB0,0x12
4.340020833333333,0,0xFF,0x12
4.340039041666667,0,0xFF,0x14
4.341994250000000,0,0xB0,0x13
4.342012250000000,0,0x7F,0x1A
4.342030458333333,0,0xFF,0x16
4.343986333333334,0,0x98,0x1A
4.344004375000000,0,0xFF,0x12
4.344022583333333,0,0xFF,0x14
4.345979583333333,0,0xB8,0x12
4.345997625000000,0,0xFF,0x12
4.346015833333333,0,0xFF,0x10
4.347972416666667,0,0xB0,0x12
4.347990416666667,0,0xFF,0x10
4.348008625000000,0,0xFF,0x16
4.349965625000000,0,0xB0,0x12
4.349983666666667,0,0xFF,0x12
4.350001875000000,0,0xFF,0x14
4.351955000000000,0,0xB0,0x12
4.351973041666667,0,0xFF,0x10
4.351991250000000,0,0xFF,0x14
4.353943291666667,0,0xB0,0x13
4.353961291666667,0,0x7F,0x1A
4.353979500000000,0,0xFF,0x1E
4.355942875000000,0,0xB0,0x12
4.355960916666667,0,0xFF,0x12
4.355979125000000,0,0xFF,0x14
4.357934416666667,0,0x98,0x1A
4.357952458333333,0,0xFF,0x12
4.357970666666667,0,0xFF,0x14
4.359922875000000,0,0x98,0x12
4.359940916666667,0,0xFF,0x12
4.359959125000000,0,0xFF,0x14
4.361916333333333,0,0xB8,0x12
4.361934375000000,0,0xFF,0x12
4.361952583333333,0,0xFF,0x14
4.363911916666667,0,0xF0,0x02
4.363929916666667,0,0x7F,0x12
4.363948125000000,0,0xFF,0x14
4.365910416666667,0,0xB0,0x12
4.365928458333333,0,0xFF,0x13
4.365946666666667,0,0xFF,0x14
4.365971458333333,0,0xC7,0x02
4.365989458333333,0,0xFF,0x00
4.366007666666667,0,0xFF,0x0A
4.366028250000000,0,0x03,0x02
4.366046250000000,0,0x80,0x1A
4.366064333333333,0,0x32,0x12
4.366154208333334,0,0x07,0x01
4.366172250000000,0,0x00,0x01
4.366190291666666,0,0x33,0x81
4.366210916666667,0,0x34,0x01
4.366228958333333,0,0x80,0x01
4.366247000000000,0,0x00,0x01
4.366267250000000,0,0x87,0x01
4.366285291666666,0,0xFF,0x00
4.366303500000000,0,0xFF,0x33
4.366324375000000,0,0x03,0x01
4.366342375000000,0,0x00,0x01
4.366360458333333,0,0xF2,0x01
4.367906916666667,0,0xB0,0x12
4.367924958333333,0,0xFF,0x13
4.367943166666667,0,0xFF,0x04
4.369898875000000,0,0xB0,0x12
4.369916916666667,0,0xFF,0x02
4.369935125000000,0,0xFF,0x00
4.371896416666667,0,0xB0,0x12
4.371914458333333,0,0xFF,0x12
4.371932666666667,0,0xFF,0x04
4.373888958333334,0,0xB0,0x12
4.373907000000000,0,0xFF,0x12
4.373925208333334,0,0xFF,0x04
4.375876708333333,0,0xB0,0x13
4.375894708333333,0,0xFF,0x10
4.375912916666667,0,0xFF,0x04
4.377867708333333,0,0xB0,0x12
4.377885750000000,0,0xFF,0x13
4.377903958333333,0,0xFF,0x04
4.379860083333333,0,0xB0,0x12
4.379878083333334,0,0x7F,0x1A
4.379896291666666,0,0xFF,0x04
4.381856791666666,0,0xB0,0x12
4.381874791666666,0,0xFF,0x10
4.381893000000000,0,0xFF,0x04
4.383847833333333,0,0xF0,0x02
4.383865833333333,0,0x7F,0x12
4.383884041666667,0,0xFF,0x04
4.385839833333334,0,0xB0,0x12
4.385857875000000,0,0xFF,0x13
4.385876083333334,0,0xFF,0x04
4.387830416666667,0,0xB0,0x12
4.387848458333333,0,0xFF,0x13
4.387866666666667,0,0xFF,0x04
4.389827625000000,0,0xB0,0x12
4.389845666666667,0,0xFF,0x02
4.389863875000000,0,0xFF,0x00
4.391818375000000,0,0xB0,0x12
4.391836416666667,0,0xFF,0x1A
4.391854625000000,0,0xFF,0x04
4.393809500000000,0,0xB0,0x12
4.393827541666667,0,0xFF,0x12
4.393845750000000,0,0xFF,0x04
4.395800541666667,0,0xB0,0x12
4.395818583333333,0,0xFF,0x12
4.395836791666667,0,0xFF,0x00
4.397793916666667,0,0xB0,0x12
4.397811958333333,0,0xFF,0x12
4.397830166666667,0,0xFF,0x04
4.397854958333333,0,0xC3,0x02
4.397872958333333,0,0xFF,0x00
4.397891166666667,0,0xFF,0x9A
4.397911750000000,0,0x03,0x13
4.397929750000000,0,0x00,0x10
4.397950041666666,0,0x16,0x12
4.398945750000000,0,0x07,0x01
4.398963791666667,0,0x00,0x01
4.398981875000000,0,0x14,0x01
4.399002458333333,0,0x34,0x01
4.399020500000000,0,0x80,0x00
4.399038541666667,0,0x00,0x01
4.399058791666667,0,0x87,0x01
4.399076833333333,0,0xFF,0x00
4.399095041666667,0,0xFF,0x00
4.399115916666666,0,0x03,0x01
4.399133916666667,0,0x80,0x01
4.399152000000000,0,0x9E,0x01
4.400545625000000,0,0xF0,0x12
4.400563625000000,0,0x7F,0x12
4.400581833333334,0,0xFF,0x08
4.402545875000000,0,0x90,0x12
4.402563916666667,0,0xFF,0x12
4.402582125000000,0,0xFF,0x08
4.404543125000000,0,0xF0,0x02
4.404561166666666,0,0xFF,0x12
4.404579333333333,0,0xFF,0x08
4.406542541666667,0,0x98,0x1A
4.406560583333333,0,0xFF,0x12
4.406578791666667,0,0xFF,0x08
4.408535833333334,0,0xB0,0x13
4.408553833333333,0,0xFF,0x10
4.408572041666667,0,0xFF,0x08
4.410533166666666,0,0xB0,0x12
4.410551208333334,0,0xFF,0x13
4.410569416666666,0,0xFF,0x08
4.412521958333333,0,0xB0,0x12
4.412539958333333,0,0xFF,0x10
4.412558166666667,0,0xFF,0x08
4.414509875000000,0,0xF0,0x12
4.414527916666667,0,0xFF,0x13
4.414546125000000,0,0xFF,0x08
4.416499000000000,0,0x98,0x18
4.416517041666666,0,0xFF,0x12
4.416535250000000,0,0xFF,0x08
4.418486916666667,0,0xF0,0x02
4.418504916666667,0,0x7F,0x12
4.418523125000000,0,0xFF,0x08
4.420480291666666,0,0xB0,0x12
4.420498333333334,0,0xFF,0x12
4.420516541666666,0,0xFF,0x08
4.422467541666666,0,0xB0,0x12
4.422485583333334,0,0xFF,0x02
4.422503791666666,0,0xFF,0x0C
4.424459083333334,0,0xF0,0x12
4.424477125000000,0,0xFF,0x13
4.424495333333334,0,0xFF,0x08
4.426449708333333,0,0xF0,0x02
4.426467708333333,0,0x7F,0x12
4.426485958333333,0,0xFF,0x08
4.428449083333334,0,0x98,0x1A
4.428467125000000,0,0xFF,0x12
4.428485333333334,0,0xFF,0x08
4.430441875000000,0,0xB0,0x12
4.430459916666667,0,0xFF,0x10
4.430478125000000,0,0xFF,0x08
4.430502958333333,0,0x83,0x13
4.430520958333333,0,0xFF,0x00
4.430539166666667,0,0xFF,0x9C
4.430559750000000,0,0x03,0x12
4.430577750000000,0,0x80,0x12
4.430595833333333,0,0x1E,0x10
4.430744583333333,0,0x07,0x01
4.430762625000000,0,0x00,0x01
4.430780708333334,0,0x3C,0x01
4.430801291666667,0,0x14,0x01
4.430819333333333,0,0x80,0x01
4.430837416666667,0,0xC0,0x01
4.430857666666666,0,0x83,0x00
4.430875666666667,0,0xFF,0x00
4.430893875000000,0,0xFF,0x3C
4.430914750000000,0,0x07,0x01
4.430932791666667,0,0x00,0x01
4.430950875000000,0,0xBC,0x00
4.432437958333334,0,0xB0,0x12
4.432456000000000,0,0xFF,0x02
4.432474208333334,0,0xFF,0x0C
4.434427958333333,0,0x98,0x10
4.434446000000000,0,0xFF,0x02
4.434464208333333,0,0xFF,0x1C
4.436424958333333,0,0x90,0x12
4.436443000000000,0,0xFF,0x12
4.436461208333333,0,0xFF,0x18
4.438420416666666,0,0xF0,0x12
4.438438458333334,0,0xFF,0x13
4.438456666666666,0,0xFF,0x18
4.440410791666666,0,0xF0,0x12
4.440428833333334,0,0xFF,0x13
4.440447041666666,0,0xFF,0x18
4.442399875000000,0,0x98,0x1A
4.442417916666667,0,0xFF,0x12
4.442436125000000,0,0xFF,0x18
4.444387125000000,0,0xF0,0x12
4.444405166666667,0,0xFF,0x13
4.444423375000000,0,0xFF,0x18
4.446376291666667,0,0x98,0x18
4.446394333333333,0,0xFF,0x02
4.446412541666667,0,0xFF,0x0C
4.448374083333333,0,0xB0,0x12
4.448392125000000,0,0xFF,0x12
4.448410333333333,0,0xFF,0x18
4.450373458333333,0,0xF0,0x12
4.450391500000000,0,0xFF,0x12
4.450409666666666,0,0xFF,0x18
4.452370583333333,0,0x98,0x10
4.452388625000000,0,0xFF,0x02
4.452406833333334,0,0xFF,0x08
4.454361833333333,0,0xB8,0x10
4.454379875000000,0,0xFF,0x02
4.454398083333333,0,0xFF,0x1C
4.456357500000000,0,0xB0,0x13
4.456375500000000,0,0x7F,0x1A
4.456393708333334,0,0xFF,0x18
4.458350625000000,0,0x98,0x12
4.458368666666667,0,0xFF,0x12
4.458386875000000,0,0xFF,0x18
4.460348625000000,0,0xF0,0x12
4.460366625000000,0,0x7F,0x12
4.460384833333333,0,0xFF,0x18
4.462342833333333,0,0x98,0x10
4.462360875000000,0,0xFF,0x12
4.462379083333333,0,0xFF,0x08
4.462403875000000,0,0x87,0x10
4.462421916666667,0,0xFF,0x00
4.462440125000000,0,0xFF,0xFC
4.462460666666667,0,0x87,0x1A
4.462478708333333,0,0x00,0x12
4.462496791666666,0,0x0E,0x12
4.462543000000000,0,0x07,0x01
4.462561000000000,0,0x80,0x81
4.462579083333333,0,0x1E,0x01
4.462599708333333,0,0x30,0x01
4.462617708333333,0,0x00,0x81
4.462635791666667,0,0x80,0x01
4.462656041666667,0,0x87,0x01
4.462674083333333,0,0xFF,0x00
4.462692291666666,0,0xFF,0x1E
4.462713166666667,0,0x07,0x01
4.462731166666667,0,0x00,0x01
4.462749250000000,0,0xDE,0x01
4.464334791666666,0,0x18,0x1A
4.464352833333334,0,0xFF,0x12
4.464371041666666,0,0xFF,0x1C
4.466332750000000,0,0xB0,0x12
4.466350791666667,0,0xFF,0x12
4.466369000000000,0,0xFF,0x1C
4.468320916666666,0,0xB0,0x12
4.468338958333334,0,0xFF,0x12
4.468357166666666,0,0xFF,0x1C
4.470312958333333,0,0xB0,0x13
4.470330958333333,0,0x7F,0x1A
4.470349166666667,0,0xFF,0x1C
4.472301250000000,0,0xB0,0x12
4.472319291666667,0,0xFF,0x12
4.472337500000000,0,0xFF,0x1C
4.474291500000000,0,0x98,0x1A
4.474309541666667,0,0xFF,0x12
4.474327750000000,0,0xFF,0x1C
4.476282291666666,0,0xF0,0x12
4.476300333333334,0,0xFF,0x12
4.476318541666667,0,0xFF,0x1C
4.478270250000000,0,0x98,0x1A
4.478288291666667,0,0xFF,0x12
4.478306500000000,0,0xFF,0x1C
4.480262666666667,0,0xB8,0x12
4.480280708333333,0,0xFF,0x12
4.480298916666666,0,0xFF,0x1C
4.482250833333334,0,0xB0,0x12
4.482268875000000,0,0xFF,0x10
4.482287083333333,0,0xFF,0x1C
4.484237833333333,0,0xB0,0x13
4.484255833333333,0,0xFF,0x10
4.484274041666667,0,0xFF,0x1C
4.486226708333334,0,0xF0,0x02
4.486244708333333,0,0x7F,0x12
4.486262916666667,0,0xFF,0x1C
4.488225166666667,0,0xF0,0x13
4.488243166666667,0,0x7F,0x1A
4.488261375000000,0,0xFF,0x1E
4.490224250000000,0,0xB0,0x12
4.490242291666667,0,0xFF,0x12
4.490260500000000,0,0xFF,0x1C
4.492217125000000,0,0xF0,0x02
4.492235125000000,0,0x7F,0x12
4.492253333333333,0,0xFF,0x1C
4.494208083333334,0,0xB0,0x12
4.494226125000000,0,0xFF,0x13
4.494244333333334,0,0xFF,0x1C
4.494269125000000,0,0x87,0x12
4.494287166666667,0,0xFF,0x00
4.494305375000000,0,0xFF,0x9F
4.494325916666667,0,0x07,0x12
4.494344166666667,0,0x00,0x10
4.494362250000000,0,0x06,0x12
4.495334500000000,0,0x07,0x01
4.495352541666667,0,0x00,0x01
4.495370625000000,0,0x43,0x00
4.495391208333333,0,0x36,0x01
4.495409250000000,0,0xC0,0x00
4.495427291666667,0,0x00,0x01
4.495447541666667,0,0x87,0x01
4.495465583333333,0,0xFF,0x00
4.495483791666667,0,0xFF,0x42
4.495504666666666,0,0x03,0x01
4.495522666666667,0,0x80,0x81
4.495540750000000,0,0xE6,0x01
4.496956291666667,0,0xF0,0x02
4.496974291666667,0,0x7F,0x12
4.496992500000000,0,0xFF,0x0C
4.498956416666666,0,0x98,0x10
4.498974458333334,0,0xFF,0x02
4.498992666666667,0,0xFF,0x0C
4.500945875000000,0,0xB0,0x12
4.500963916666667,0,0xFF,0x13
4.500982125000000,0,0xFF,0x0C
4.502935833333333,0,0xF0,0x02
4.502953833333334,0,0x7F,0x12
4.502972041666666,0,0xFF,0x0C
4.504925958333334,0,0xB0,0x12
4.504944000000000,0,0xFF,0x02
4.504962208333334,0,0xFF,0x0C
4.506914791666667,0,0xB0,0x12
4.506932791666666,0,0xFF,0x1A
4.506951000000000,0,0xFF,0x04
4.508914125000000,0,0x98,0x10
4.508932166666667,0,0xFF,0x12
4.508950375000000,0,0xFF,0x0C
4.510905500000000,0,0x98,0x18
4.510923541666667,0,0xFF,0x02
4.510941750000000,0,0xFF,0x0C
4.512900041666667,0,0x98,0x18
4.512918083333333,0,0xFF,0x12
4.512936291666667,0,0xFF,0x0C
4.514887250000000,0,0xF0,0x12
4.514905250000000,0,0x7F,0x12
4.514923458333334,0,0xFF,0x0C
4.516883708333333,0,0x98,0x1A
4.516901750000000,0,0xFF,0x12
4.516919958333333,0,0xFF,0x0C
4.518872791666666,0,0xB0,0x12
4.518890791666666,0,0xFF,0x10
4.518909000000000,0,0xFF,0x0E
4.520869708333334,0,0xF0,0x12
4.520887750000000,0,0xFF,0x13
4.520905958333334,0,0xFF,0x0C
4.522858041666667,0,0x98,0x1A
4.522876083333333,0,0xFF,0x12
4.522894291666667,0,0xFF,0x0C
4.524848458333333,0,0xB0,0x13
4.524866458333333,0,0x7F,0x1A
4.524884666666667,0,0xFF,0x04
4.526837708333334,0,0xF0,0x02
4.526855708333334,0,0x7F,0x12
4.526873916666666,0,0xFF,0x0C
4.526898750000000,0,0xC7,0x02
4.526916750000000,0,0xFF,0x00
4.526935000000000,0,0xFF,0xC6
4.526955541666666,0,0x07,0x12
4.526973583333334,0,0x00,0x12
4.526991625000000,0,0x00,0x12
4.527134083333333,0,0x07,0x01
4.527152125000000,0,0x00,0x01
4.527170208333334,0,0x00,0x00
4.527190791666666,0,0x3E,0x01
4.527208833333333,0,0xC0,0x01
4.527226916666667,0,0x80,0x00
4.527247125000000,0,0x07,0x81
4.527265166666667,0,0xFF,0x00
4.527283375000000,0,0xFF,0x00
4.527304250000000,0,0x07,0x01
4.527322291666667,0,0x00,0x01
4.527340375000000,0,0xC0,0x01
4.528833500000000,0,0x18,0x1A
4.528851541666667,0,0xFF,0x12
4.528869750000000,0,0xFF,0x00
4.530832666666667,0,0xB0,0x12
4.530850708333333,0,0xFF,0x1A
4.530868916666667,0,0xFF,0x00
4.532830500000000,0,0x90,0x12
4.532848541666667,0,0xFF,0x12
4.532866750000000,0,0xFF,0x00
4.534820833333334,0,0xB0,0x12
4.534838875000000,0,0xFF,0x02
4.534857083333334,0,0xFF,0x00
4.536808708333333,0,0xB0,0x12
4.536826750000000,0,0xFF,0x1A
4.536844958333333,0,0xFF,0x00
4.538797916666667,0,0xB0,0x12
4.538815916666667,0,0xFF,0x10
4.538834125000000,0,0xFF,0x00
4.540796500000000,0,0xB0,0x12
4.540814541666666,0,0xFF,0x02
4.540832750000000,0,0xFF,0x00
4.542789916666667,0,0xB0,0x12
4.542807958333333,0,0xFF,0x12
4.542826166666667,0,0xFF,0x00
4.544781000000000,0,0xB0,0x12
4.544799041666667,0,0xFF,0x13
4.544817250000000,0,0xFF,0x00
4.546773291666667,0,0x90,0x12
4.546791333333333,0,0xFF,0x12
4.546809541666667,0,0xFF,0x00
4.548764291666667,0,0xF0,0x02
4.548782291666667,0,0x7F,0x12
4.548800500000000,0,0xFF,0x00
4.550761416666667,0,0xB0,0x12
4.550779458333333,0,0xFF,0x10
4.550797666666667,0,0xFF,0x00
4.552751333333333,0,0xB0,0x12
4.552769375000000,0,0xFF,0x12
4.552787583333333,0,0xFF,0x00
4.554744125000000,0,0xB0,0x12
4.554762125000000,0,0xFF,0x10
4.554780333333333,0,0xFF,0x00
4.556740375000000,0,0xF0,0x12
4.556758416666667,0,0xFF,0x13
4.556776625000000,0,0xFF,0x00
4.558731625000000,0,0x98,0x1A
4.558749666666666,0,0xFF,0x12
4.558767875000000,0,0xFF,0x00
4.558792666666666,0,0x87,0x10
4.558810708333334,0,0xFF,0x00
4.558828916666666,0,0xFF,0x80
4.558849458333333,0,0x07,0x12
4.558867500000000,0,0x00,0x13
4.558885541666666,0,0x28,0x12
4.558933750000000,0,0x07,0x01
4.558951791666667,0,0x00,0x01
4.558969875000000,0,0x28,0x01
4.558990458333334,0,0x36,0x01
4.559008500000000,0,0xC0,0x01
4.559026541666666,0,0x00,0x81
4.559046791666667,0,0x07,0x01
4.559064833333333,0,0xFF,0x00
4.559083041666667,0,0xFF,0x28
4.559103916666666,0,0x07,0x01
4.559121916666666,0,0x80,0x81
4.559140000000000,0,0x00,0x01
4.560723583333333,0,0xB0,0x12
4.560741625000000,0,0xFF,0x13
4.560759833333333,0,0xFF,0x10
4.562712416666667,0,0xB0,0x12
4.562730458333333,0,0xFF,0x13
4.562748666666667,0,0xFF,0x10
4.564702875000000,0,0x98,0x10
4.564720916666666,0,0xFF,0x02
4.564739125000000,0,0xFF,0x00
4.566695416666667,0,0xB0,0x12
4.566713458333333,0,0xFF,0x12
4.566731666666667,0,0xFF,0x10
4.568692083333334,0,0xB0,0x12
4.568710125000000,0,0xFF,0x12
4.568728333333334,0,0xFF,0x10
4.570685833333333,0,0xB0,0x12
4.570703875000000,0,0xFF,0x10
4.570722083333333,0,0xFF,0x10
4.572681916666666,0,0xB0,0x13
4.572699916666667,0,0xFF,0x1A
4.572718125000000,0,0xFF,0x18
4.574669458333333,0,0xB0,0x12
4.574687500000000,0,0xFF,0x12
4.574705708333333,0,0xFF,0x10
4.576657541666667,0,0x98,0x1A
4.576675583333333,0,0xFF,0x12
4.576693791666667,0,0xFF,0x00
4.578645791666666,0,0x98,0x10
4.578663833333334,0,0xFF,0x02
4.578682041666666,0,0xFF,0x00
4.580644875000000,0,0x98,0x10
4.580662916666666,0,0xFF,0x12
4.580681125000000,0,0xFF,0x10
4.582638375000000,0,0xB0,0x12
4.582656416666667,0,0xFF,0x12
4.582674625000000,0,0xFF,0x10
4.584629041666667,0,0xB0,0x13
4.584647041666667,0,0x7F,0x12
4.584665250000000,0,0xFF,0x10
4.586619416666666,0,0xF0,0x02
4.586637458333334,0,0xFF,0x13
4.586655666666666,0,0xFF,0x10
4.588612500000000,0,0xF0,0x12
4.588630541666666,0,0xFF,0x13
4.588648750000000,0,0xFF,0x10
4.590603541666667,0,0xB0,0x13
4.590621541666667,0,0xFF,0x18
4.590639750000000,0,0xFF,0x10
4.590664541666666,0,0x87,0x12
4.590682583333333,0,0xFF,0x00
4.590700791666666,0,0xFF,0xA8
4.590721333333334,0,0x87,0x12
4.590739583333334,0,0x80,0x12
4.590757666666667,0,0x00,0x10
4.591726000000000,0,0x07,0x01
4.591744041666667,0,0x00,0x01
4.591762125000000,0,0x0E,0x01
4.591782708333334,0,0x1C,0x01
4.591800750000000,0,0xC0,0x01
4.591818833333333,0,0x80,0x00
4.591839041666667,0,0x07,0x81
4.591857083333333,0,0xFF,0x00
4.591875291666667,0,0xFF,0x0A
4.591896166666666,0,0x07,0x01
4.591914208333334,0,0x00,0x01
4.591932250000000,0,0x0B,0x81
4.593308875000000,0,0x30,0x92
4.593326916666666,0,0xFF,0x12
4.593345125000000,0,0xFF,0x14
4.595309125000000,0,0xB0,0x12
4.595327166666666,0,0xFF,0x12
4.595345375000000,0,0xFF,0x14
4.597301416666666,0,0xB0,0x12
4.597319458333334,0,0xFF,0x12
4.597337666666666,0,0xFF,0x14
4.599294041666667,0,0xF0,0x12
4.599312083333333,0,0xFF,0x13
4.599330291666667,0,0xFF,0x14
4.601289458333333,0,0xF0,0x13
4.601307458333333,0,0xFF,0x1A
4.601325666666667,0,0xFF,0x16
4.603287375000000,0,0xF0,0x12
4.603305416666666,0,0xFF,0x12
4.603323583333333,0,0xFF,0x14
4.605278625000000,0,0xF0,0x02
4.605296625000000,0,0x7F,0x12
4.605314833333333,0,0xFF,0x16
4.607278458333333,0,0x98,0x1A
4.607296500000000,0,0xFF,0x12
4.607314708333333,0,0xFF,0x14
4.609270000000000,0,0x90,0x12
4.609288041666667,0,0xFF,0x12
4.609306250000000,0,0xFF,0x14
4.611257291666667,0,0xB0,0x12
4.611275291666667,0,0x7F,0x12
4.611293500000000,0,0xFF,0x14
4.613247375000000,0,0xB0,0x12
4.613265416666667,0,0xFF,0x13
4.613283625000000,0,0xFF,0x14
4.615245083333333,0,0xB0,0x13
4.615263083333334,0,0xFF,0x10
4.615281291666666,0,0xFF,0x16
4.617232583333333,0,0xB0,0x13
4.617250583333333,0,0xFF,0x18
4.617268791666667,0,0xFF,0x1C
4.619220416666667,0,0xB0,0x13
4.619238416666667,0,0x7F,0x1A
4.619256625000000,0,0xFF,0x1C
4.621209416666667,0,0xF0,0x02
4.621227416666667,0,0x7F,0x12
4.621245625000000,0,0xFF,0x14
4.623208750000000,0,0xB0,0x12
4.623226791666666,0,0xFF,0x12
4.623245000000000,0,0xFF,0x14
4.623269791666667,0,0x87,0x1A
4.623287833333333,0,0xFF,0x00
4.623306041666667,0,0xFF,0xCA
4.623326583333333,0,0x07,0x1A
4.623344625000000,0,0x00,0x12
4.623362708333334,0,0x33,0x13
4.623524125000000,0,0x07,0x01
4.623542166666667,0,0x00,0x01
4.623560208333333,0,0x33,0x81
4.623580833333333,0,0x34,0x01
4.623598875000000,0,0x80,0x00
4.623616916666666,0,0x00,0x01
4.623637166666667,0,0x87,0x01
4.623655208333333,0,0xFF,0x00
4.623673416666667,0,0xFF,0x33
4.623694291666666,0,0x03,0x00
4.623712291666667,0,0x00,0x01
4.623730375000000,0,0xB0,0x01
4.625198291666667,0,0x18,0x10
4.625216333333333,0,0xFF,0x02
4.625234541666667,0,0xFF,0x04
4.627187666666667,0,0xF0,0x02
4.627205666666667,0,0x7F,0x12
4.627223875000000,0,0xFF,0x04
4.629179166666667,0,0xB0,0x12
4.629197208333333,0,0xFF,0x12
4.629215416666667,0,0xFF,0x04
4.631171208333333,0,0xB0,0x12
4.631189250000000,0,0xFF,0x10
4.631207458333333,0,0xFF,0x04
4.633166500000000,0,0x98,0x1A
4.633184541666667,0,0xFF,0x12
4.633202750000000,0,0xFF,0x04
4.635155083333333,0,0xF0,0x02
4.635173083333333,0,0x7F,0x12
4.635191291666667,0,0xFF,0x04
4.637153458333334,0,0xB0,0x12
4.637171500000000,0,0xFF,0x12
4.637189708333334,0,0xFF,0x04
4.639146541666666,0,0xB0,0x12
4.639164583333334,0,0xFF,0x12
4.639182750000000,0,0xFF,0x04
4.641133666666667,0,0xF0,0x02
4.641151666666667,0,0x7F,0x12
4.641169875000000,0,0xFF,0x04
4.643126791666667,0,0xB0,0x12
4.643144833333333,0,0xFF,0x12
4.643163041666667,0,0xFF,0x04
4.645117583333334,0,0xF0,0x02
4.645135583333333,0,0x7F,0x12
4.645153791666667,0,0xFF,0x04
4.647109125000000,0,0xF0,0x13
4.647127125000000,0,0x7F,0x1A
4.647145333333333,0,0xFF,0x06
4.649104041666667,0,0xB0,0x12
4.649122083333333,0,0xFF,0x12
4.649140291666667,0,0xFF,0x04
4.651102541666667,0,0xF0,0x02
4.651120583333333,0,0xFF,0x12
4.651138791666667,0,0xFF,0x04
4.653101708333334,0,0xF0,0x12
4.653119708333334,0,0x7F,0x12
4.653137916666667,0,0xFF,0x04
4.655093208333334,0,0xF0,0x02
4.655111208333333,0,0x7F,0x12
4.655129416666667,0,0xFF,0x04
4.655154250000000,0,0x83,0x13
4.655172250000000,0,0xFF,0x00
4.655190458333333,0,0xFF,0x9A
4.655211041666667,0,0x03,0x13
4.655229041666667,0,0x00,0x1A
4.655247125000000,0,0x16,0x12
4.655321000000000,0,0x03,0x00
4.655339000000000,0,0x80,0x01
4.655357083333334,0,0x1E,0x01
4.655377708333333,0,0x30,0x00
4.655395708333334,0,0x00,0x01
4.655413791666667,0,0x80,0x01
4.655434041666667,0,0xC7,0x01
4.655452083333333,0,0xFF,0x00
4.655470291666667,0,0xFF,0x14
4.655491166666667,0,0x07,0x01
4.655509166666667,0,0x00,0x01
4.655527250000000,0,0xD4,0x01
4.657092208333333,0,0x18,0x1A
4.657110250000000,0,0xFF,0x12
4.657128458333333,0,0xFF,0x08
4.659082458333334,0,0x98,0x10
4.659100500000000,0,0xFF,0x02
4.659118708333334,0,0xFF,0x0C
4.661073916666667,0,0xF0,0x02
4.661091916666667,0,0x7F,0x12
4.661110125000000,0,0xFF,0x08
4.663064541666667,0,0x98,0x18
4.663082583333333,0,0xFF,0x02
4.663100791666666,0,0xFF,0x0C
4.665054458333334,0,0xF0,0x02
4.665072458333333,0,0x7F,0x12
4.665090666666667,0,0xFF,0x08
4.667047750000000,0,0xB0,0x13
4.667065750000000,0,0xFF,0x10
4.667083958333333,0,0xFF,0x08
4.669035041666667,0,0xF0,0x02
4.669053041666666,0,0x7F,0x12
4.669071250000000,0,0xFF,0x08
4.671027291666666,0,0xB0,0x12
4.671045333333334,0,0xFF,0x12
4.671063541666666,0,0xFF,0x08
4.673025375000000,0,0x90,0x12
4.673043416666666,0,0xFF,0x12
4.673061625000000,0,0xFF,0x08
4.675017541666667,0,0xF0,0x02
4.675035541666666,0,0x7F,0x12
4.675053750000000,0,0xFF,0x08
4.677012583333333,0,0xB0,0x12
4.677030625000000,0,0xFF,0x12
4.677048833333333,0,0xFF,0x08
4.679003500000000,0,0xF0,0x12
4.679021500000000,0,0x7F,0x12
4.679039708333334,0,0xFF,0x08
4.680991583333333,0,0xB0,0x12
4.681009625000000,0,0xFF,0x12
4.681027833333333,0,0xFF,0x08
4.682991541666667,0,0xF0,0x02
4.683009583333333,0,0xFF,0x12
4.683027791666666,0,0xFF,0x08
4.684990708333333,0,0x98,0x1A
4.685008750000000,0,0xFF,0x12
4.685026958333333,0,0xFF,0x08
4.686985708333333,0,0xF0,0x02
4.687003708333333,0,0x7F,0x12
4.687021916666667,0,0xFF,0x08
4.687046750000000,0,0xC3,0x02
4.687064750000000,0,0xFF,0x00
4.687082958333334,0,0xFF,0x94
4.687103541666667,0,0x07,0x02
4.687121458333333,0,0x80,0x12
4.687139541666666,0,0x1E,0x10
4.688112750000000,0,0x03,0x01
4.688130750000000,0,0x80,0x01
4.688148833333333,0,0x1E,0x01
4.688169458333333,0,0x30,0x00
4.688187458333333,0,0x00,0x01
4.688205541666667,0,0x80,0x01
4.688225791666667,0,0xC3,0x00
4.688243791666666,0,0xFF,0x00
4.688262000000000,0,0xFF,0x3E
4.688282875000000,0,0x07,0x01
4.688300916666667,0,0x00,0x01
4.688318958333333,0,0x3C,0x81
4.689703458333334,0,0xB0,0x12
4.689721500000000,0,0xFF,0x13
4.689739708333334,0,0xFF,0x18
4.691700750000000,0,0xB0,0x12
4.691718791666666,0,0xFF,0x12
4.691737000000000,0,0xFF,0x18
4.693696625000000,0,0xB0,0x12
4.693714666666667,0,0xFF,0x13
4.693732875000000,0,0xFF,0x18
4.695694000000000,0,0xB0,0x12
4.695712041666667,0,0xFF,0x12
4.695730250000000,0,0xFF,0x18
4.697690416666667,0,0xB0,0x12
4.697708458333334,0,0xFF,0x12
4.697726666666667,0,0xFF,0x18
4.699681875000000,0,0xF0,0x12
4.699699875000000,0,0x7F,0x12
4.699718083333333,0,0xFF,0x18
4.701669208333334,0,0xF0,0x02
4.701687208333333,0,0x7F,0x12
4.701705416666667,0,0xFF,0x18
4.703658625000000,0,0xF0,0x13
4.703676625000000,0,0x7F,0x18
4.703694833333333,0,0xFF,0x18
4.705647041666666,0,0x98,0x1A
4.705665083333334,0,0xFF,0x02
4.705683291666666,0,0xFF,0x18
4.707638541666666,0,0xF0,0x02
4.707656541666666,0,0x7F,0x12
4.707674750000000,0,0xFF,0x18
4.709635750000000,0,0xF0,0x12
4.709653791666667,0,0xFF,0x12
4.709671958333334,0,0xFF,0x18
4.711623250000000,0,0xB0,0x13
4.711641250000000,0,0x7F,0x1A
4.711659458333333,0,0xFF,0x18
4.713621208333334,0,0xF0,0x12
4.713639208333333,0,0x7F,0x12
4.713657416666667,0,0xFF,0x18
4.715615291666666,0,0x90,0x12
4.715633333333333,0,0xFF,0x12
4.715651541666666,0,0xFF,0x18
4.717607875000000,0,0xF0,0x13
4.717625875000000,0,0x7F,0x1A
4.717644083333333,0,0xFF,0x18
4.719595291666667,0,0xB0,0x12
4.719613333333333,0,0xFF,0x12
4.719631500000000,0,0xFF,0x18
4.719656333333333,0,0x83,0x13
4.719674333333334,0,0xFF,0x00
4.719692541666666,0,0xFF,0xBE
4.719713083333334,0,0x87,0x12
4.719731125000000,0,0x00,0x12
4.719749208333333,0,0x0E,0x02
4.719909000000000,0,0x07,0x01
4.719927041666667,0,0x00,0x00
4.719945083333333,0,0x1E,0x01
4.719965708333334,0,0x30,0x01
4.719983708333333,0,0x00,0x01
4.720001791666666,0,0x80,0x01
4.720022041666667,0,0xC3,0x01
4.720040041666667,0,0xFF,0x00
4.720058250000000,0,0xFF,0x1E
4.720079125000000,0,0x07,0x01
4.720097166666666,0,0x00,0x01
4.720115208333334,0,0x1F,0x81
4.721593291666666,0,0x10,0x12
4.721611333333334,0,0xFF,0x12
4.721629541666666,0,0xFF,0x1C
4.723581875000000,0,0xF0,0x12
4.723599875000000,0,0x7F,0x12
4.723618083333333,0,0xFF,0x1C
4.725568791666666,0,0xB0,0x13
4.725586791666666,0,0x7F,0x1A
4.725605000000000,0,0xFF,0x1E
4.727568958333333,0,0xB0,0x12
4.727587000000000,0,0xFF,0x12
4.727605208333333,0,0xFF,0x1C
4.729560166666666,0,0xB0,0x12
4.729578166666666,0,0xFF,0x10
4.729596375000000,0,0xFF,0x1E
4.731549583333333,0,0xF0,0x02
4.731567583333334,0,0x7F,0x12
4.731585791666666,0,0xFF,0x1C
4.733538583333333,0,0x98,0x10
4.733556625000000,0,0xFF,0x12
4.733574833333333,0,0xFF,0x0C
4.735537250000000,0,0xB0,0x13
4.735555250000000,0,0xFF,0x10
4.735573458333334,0,0xFF,0x1E
4.737536750000000,0,0xB0,0x12
4.737554791666667,0,0xFF,0x13
4.737573000000000,0,0xFF,0x1C
4.739524916666666,0,0xB0,0x12
4.739542958333334,0,0xFF,0x12
4.739561166666666,0,0xFF,0x1C
4.741523416666666,0,0xB0,0x12
4.741541458333334,0,0xFF,0x12
4.741559625000000,0,0xFF,0x1C
4.743517750000000,0,0xF0,0x12
4.743535791666667,0,0xFF,0x12
4.743554000000000,0,0xFF,0x1C
4.745512916666667,0,0xB0,0x12
4.745530958333333,0,0xFF,0x12
4.745549166666667,0,0xFF,0x1C
4.747508208333334,0,0x98,0x10
4.747526250000000,0,0xFF,0x02
4.747544458333333,0,0xFF,0x1C
4.749495875000000,0,0xB0,0x12
4.749513875000000,0,0xFF,0x10
4.749532083333333,0,0xFF,0x1E
4.751487958333334,0,0xF0,0x12
4.751506000000000,0,0xFF,0x12
4.751524166666667,0,0xFF,0x1C
4.751549000000000,0,0xC3,0x12
4.751567000000000,0,0xFF,0x00
4.751585208333333,0,0xFF,0x9E
4.751605791666667,0,0x03,0x13
4.751623791666667,0,0x80,0x1A
4.751641875000000,0,0x46,0x12
4.751706500000000,0,0x07,0x01
4.751724541666666,0,0x00,0x01
4.751742625000000,0,0x43,0x00
4.751763208333333,0,0x36,0x01
4.751781250000000,0,0xC0,0x01
4.751799291666667,0,0x00,0x81
4.751819541666666,0,0x87,0x01
4.751837583333334,0,0xFF,0x00
4.751855791666666,0,0xFF,0x47
4.751876666666667,0,0x03,0x00
4.751894666666667,0,0x00,0x01
4.751912750000000,0,0xC6,0x01
4.753487333333333,0,0x30,0x92
4.753505375000000,0,0xFF,0x12
4.753523583333333,0,0xFF,0x0C
4.755476250000000,0,0xB0,0x12
4.755494291666666,0,0xFF,0x13
4.755512500000000,0,0xFF,0x0C
4.757466125000000,0,0xB0,0x12
4.757484166666667,0,0xFF,0x12
4.757502375000000,0,0xFF,0x0C
4.759457791666667,0,0x98,0x1A
4.759475833333333,0,0xFF,0x12
4.759494041666667,0,0xFF,0x0C
4.761452083333333,0,0xF0,0x12
4.761470125000000,0,0xFF,0x12
4.761488291666667,0,0xFF,0x0C
4.763446000000000,0,0xB0,0x13
4.763464000000000,0,0xFF,0x10
4.763482208333333,0,0xFF,0x0E
4.765445333333333,0,0xB0,0x13
4.765463333333333,0,0x7F,0x1A
4.765481541666666,0,0xFF,0x04
4.767434583333333,0,0x98,0x12
4.767452625000000,0,0xFF,0x02
4.767470833333333,0,0xFF,0x0C
4.769429291666667,0,0xB0,0x12
4.769447333333333,0,0xFF,0x13
4.769465541666666,0,0xFF,0x0C
4.771421000000000,0,0xB0,0x13
4.771439000000000,0,0xFF,0x10
4.771457208333334,0,0xFF,0x0C
4.773418208333333,0,0xB0,0x12
4.773436250000000,0,0xFF,0x13
4.773454458333333,0,0xFF,0x0C
4.775409791666666,0,0xF0,0x02
4.775427791666667,0,0x7F,0x12
4.775446000000000,0,0xFF,0x0C
4.777401250000000,0,0xF0,0x12
4.777419291666667,0,0xFF,0x12
4.777437458333333,0,0xFF,0x0C
4.779389083333333,0,0xF0,0x12
4.779407125000000,0,0xFF,0x12
4.779425291666667,0,0xFF,0x0C
4.781377875000000,0,0x98,0x1A
4.781395916666667,0,0xFF,0x02
4.781414125000000,0,0xFF,0x0C
4.783370916666667,0,0xB8,0x10
4.783388958333333,0,0xFF,0x12
4.783407166666667,0,0xFF,0x0C
4.783431958333333,0,0x87,0x12
4.783450000000000,0,0xFF,0x00
4.783468208333334,0,0xFF,0xC6
4.783488750000000,0,0x07,0x12
4.783506958333334,0,0x00,0x12
4.783525041666667,0,0x00,0x13
4.784497333333333,0,0x07,0x01
4.784515375000000,0,0x00,0x01
4.784533416666667,0,0x00,0x01
4.784554041666667,0,0x30,0x00
4.784572041666666,0,0x00,0x01
4.784590125000000,0,0x80,0x01
4.784610375000000,0,0xC3,0x01
4.784628375000000,0,0xFF,0x80
4.784646583333333,0,0xFF,0x00
4.784667458333334,0,0x87,0x01
4.784685500000000,0,0x00,0x01
4.784703583333333,0,0xC0,0x01
4.786085666666667,0,0x98,0x10
4.786103708333333,0,0xFF,0x02
4.786121916666667,0,0xFF,0x00
4.788075125000000,0,0xB0,0x12
4.788093166666667,0,0xFF,0x12
4.788111375000000,0,0xFF,0x00
4.790065916666666,0,0xB0,0x12
4.790083958333334,0,0xFF,0x13
4.790102166666666,0,0xFF,0x00
4.792065583333334,0,0xB0,0x12
4.792083625000000,0,0xFF,0x13
4.792101833333334,0,0xFF,0x00
4.794054166666666,0,0xB0,0x12
4.794072166666667,0,0xFF,0x12
4.794090375000000,0,0xFF,0x00
4.796042458333333,0,0xB0,0x12
4.796060500000000,0,0xFF,0x13
4.796078708333333,0,0xFF,0x00
4.798036375000000,0,0x98,0x1A
4.798054416666667,0,0xFF,0x12
4.798072625000000,0,0xFF,0x00
4.800030041666667,0,0xB0,0x12
4.800048083333333,0,0xFF,0x13
4.800066291666667,0,0xFF,0x00
4.802019625000000,0,0xB0,0x13
4.802037625000000,0,0xFF,0x18
4.802055833333333,0,0xFF,0x00
4.804016958333333,0,0xB0,0x12
4.804035000000000,0,0xFF,0x10
4.804053208333333,0,0xFF,0x00
4.806005291666667,0,0xB0,0x12
4.806023291666667,0,0xFF,0x10
4.806041500000000,0,0xFF,0x00
4.807992750000000,0,0x98,0x1A
4.808010791666667,0,0xFF,0x02
4.808029000000000,0,0xFF,0x00
4.809985208333333,0,0xB0,0x12
4.810003250000000,0,0xFF,0x12
4.810021458333333,0,0xFF,0x00
4.811983166666667,0,0xB0,0x12
4.812001208333333,0,0xFF,0x12
4.812019416666667,0,0xFF,0x00
4.813972083333334,0,0xB0,0x13
4.813990083333334,0,0x7F,0x1A
4.814008291666667,0,0xFF,0x00
4.815960250000000,0,0x98,0x1A
4.815978291666666,0,0xFF,0x12
4.815996500000000,0,0xFF,0x00
4.816021291666667,0,0x87,0x10
4.816039333333333,0,0xFF,0x00
4.816057541666667,0,0xFF,0x80
4.816078083333333,0,0x07,0x10
4.816096125000000,0,0x00,0x02
4.816114208333333,0,0x28,0x12
4.816295125000000,0,0x07,0x01
4.816313166666666,0,0x00,0x00
4.816331208333334,0,0x08,0x01
4.816351833333333,0,0x30,0x01
4.816369833333333,0,0x00,0x01
4.816387916666667,0,0x80,0x01
4.816408166666666,0,0xC3,0x01
4.816426166666667,0,0xFF,0x80
4.816444375000000,0,0xFF,0x28
4.816465250000000,0,0x87,0x01
4.816483291666667,0,0x00,0x01
4.816501375000000,0,0xFC,0x00
4.817952916666667,0,0xF0,0x12
4.817970958333333,0,0xFF,0x13
4.817989166666667,0,0xFF,0x10
4.819941458333333,0,0xB0,0x12
4.819959500000000,0,0xFF,0x13
4.819977708333333,0,0xFF,0x10
4.821937750000000,0,0xF0,0x02
4.821955791666666,0,0xFF,0x12
4.821974000000000,0,0xFF,0x10
4.823931250000000,0,0xF0,0x02
4.823949250000000,0,0x7F,0x12
4.823967458333334,0,0xFF,0x10
4.825929708333334,0,0xF0,0x02
4.825947708333334,0,0x7F,0x12
4.825965958333334,0,0xFF,0x10
4.827919166666667,0,0x98,0x10
4.827937208333333,0,0xFF,0x02
4.827955416666667,0,0xFF,0x00
4.829908250000000,0,0xB0,0x12
4.829926291666666,0,0xFF,0x13
4.829944500000000,0,0xFF,0x10
4.831900958333334,0,0xB0,0x12
4.831919000000000,0,0xFF,0x13
4.831937208333334,0,0xFF,0x10
4.833893750000000,0,0xF0,0x12
4.833911791666667,0,0xFF,0x12
4.833929958333333,0,0xFF,0x10
4.835882375000000,0,0xF0,0x12
4.835900375000000,0,0x7F,0x12
4.835918583333333,0,0xFF,0x10
4.837880666666667,0,0x98,0x10
4.837898708333333,0,0xFF,0x02
4.837916916666667,0,0xFF,0x00
4.839873833333334,0,0x98,0x1A
4.839891875000000,0,0xFF,0x12
4.839910083333334,0,0xFF,0x10
4.841868083333333,0,0x98,0x1A
4.841886125000000,0,0xFF,0x12
4.841904333333333,0,0xFF,0x10
4.843855583333333,0,0xB0,0x12
4.843873625000000,0,0xFF,0x13
4.843891833333333,0,0xFF,0x10
4.845846125000000,0,0xB0,0x12
4.845864166666667,0,0xFF,0x12
4.845882375000000,0,0xFF,0x10
4.847834833333334,0,0xB0,0x12
4.847852875000000,0,0xFF,0x12
4.847871083333334,0,0xFF,0x10
4.847895875000000,0,0xC7,0x12
4.847913916666666,0,0xFF,0x00
4.847932125000000,0,0xFF,0xA8
4.847952666666667,0,0x07,0x12
4.847970708333333,0,0x00,0x12
4.847988750000000,0,0x00,0x10
4.848093250000000,0,0x07,0x01
4.848111291666667,0,0x00,0x01
4.848129375000000,0,0x0F,0x00
4.848149958333333,0,0x36,0x01
4.848168000000000,0,0x80,0x00
4.848186041666667,0,0x00,0x01
4.848206291666667,0,0x87,0x01
4.848224333333333,0,0xFF,0x00
4.848242541666667,0,0xFF,0x0B
4.848263416666667,0,0x07,0x01
4.848281416666667,0,0x00,0x01
4.848299500000000,0,0xCA,0x01
4.849827916666666,0,0xF0,0x02
4.849845916666666,0,0x7F,0x12
4.849864125000000,0,0xFF,0x1C
4.851815541666666,0,0xB0,0x13
4.851833541666666,0,0xFF,0x1A
4.851851750000000,0,0xFF,0x16
4.853808083333333,0,0xF0,0x12
4.853826125000000,0,0xFF,0x13
4.853844333333333,0,0xFF,0x14
4.855799250000000,0,0x98,0x12
4.855817291666667,0,0xFF,0x13
4.855835500000000,0,0xFF,0x14
4.857787666666667,0,0xF0,0x02
4.857805666666667,0,0x7F,0x12
4.857823875000000,0,0xFF,0x14
4.859780833333334,0,0xF0,0x02
4.859798833333334,0,0x7F,0x12
4.859817041666667,0,0xFF,0x14
4.861778000000000,0,0x98,0x1A
4.861796041666667,0,0xFF,0x12
4.861814250000000,0,0xFF,0x14
4.863769791666667,0,0xB0,0x13
4.863787791666667,0,0x7F,0x1A
4.863806000000000,0,0xFF,0x16
4.865761916666667,0,0x98,0x10
4.865779958333333,0,0xFF,0x12
4.865798166666667,0,0xFF,0x14
4.867756625000000,0,0xB0,0x13
4.867774625000000,0,0x7F,0x1A
4.867792833333334,0,0xFF,0x1C
4.869752125000000,0,0xB0,0x12
4.869770166666667,0,0xFF,0x13
4.869788375000000,0,0xFF,0x14
4.871745250000000,0,0xF0,0x12
4.871763250000000,0,0x7F,0x12
4.871781458333333,0,0xFF,0x14
4.873743958333334,0,0x98,0x10
4.873762000000000,0,0xFF,0x02
4.873780208333334,0,0xFF,0x00
4.875740875000000,0,0xB0,0x12
4.875758916666666,0,0xFF,0x13
4.875777125000000,0,0xFF,0x14
4.877735625000000,0,0xB0,0x12
4.877753666666667,0,0xFF,0x12
4.877771875000000,0,0xFF,0x14
4.879733041666666,0,0xB0,0x13
4.879751041666666,0,0x7F,0x1A
4.879769250000000,0,0xFF,0x1C
4.879794083333334,0,0x87,0x12
4.879812083333333,0,0xFF,0x00
4.879830291666667,0,0xFF,0x8A
4.879850875000000,0,0x07,0x12
4.879868875000000,0,0x00,0x18
4.879889125000000,0,0x30,0x12
4.880884458333333,0,0x07,0x01
4.880902500000000,0,0x00,0x01
4.880920541666667,0,0x33,0x81
4.880941166666667,0,0x36,0x01
4.880959208333334,0,0xC0,0x01
4.880977250000000,0,0x00,0x81
4.880997500000000,0,0x07,0x01
4.881015541666667,0,0xFF,0x00
4.881033750000000,0,0xFF,0x32
4.881054625000000,0,0x03,0x01
4.881072625000000,0,0x80,0x81
4.881090708333334,0,0x98,0x01
4.882469291666666,0,0xF0,0x12
4.882487291666667,0,0x7F,0x12
4.882505500000000,0,0xFF,0x04
4.884465375000000,0,0xB0,0x12
4.884483416666667,0,0xFF,0x12
4.884501625000000,0,0xFF,0x04
4.886460250000000,0,0x98,0x10
4.886478291666666,0,0xFF,0x12
4.886496500000000,0,0xFF,0x04
4.888458958333334,0,0xB0,0x12
4.888477000000000,0,0xFF,0x12
4.888495208333334,0,0xFF,0x04
4.890456416666667,0,0x90,0x12
4.890474458333333,0,0xFF,0x12
4.890492666666667,0,0xFF,0x04
4.892455791666666,0,0xF0,0x12
4.892473791666666,0,0x7F,0x12
4.892492000000000,0,0xFF,0x04
4.894443541666667,0,0xF0,0x02
4.894461541666667,0,0x7F,0x12
4.894479750000000,0,0xFF,0x04
4.896443750000000,0,0xB0,0x13
4.896461750000000,0,0xFF,0x10
4.896479958333333,0,0xFF,0x04
4.898433666666667,0,0x98,0x1A
4.898451708333333,0,0xFF,0x12
4.898469916666667,0,0xFF,0x04
4.900421083333334,0,0xB0,0x12
4.900439125000000,0,0xFF,0x12
4.900457333333334,0,0xFF,0x04
4.902417125000000,0,0xB0,0x12
4.902435166666667,0,0xFF,0x10
4.902453375000000,0,0xFF,0x06
4.904410708333334,0,0xB0,0x13
4.904428708333334,0,0x7F,0x1A
4.904446916666667,0,0xFF,0x04
4.906401208333333,0,0xB0,0x12
4.906419250000000,0,0xFF,0x12
4.906437458333333,0,0xFF,0x04
4.908388583333333,0,0xB0,0x13
4.908406583333333,0,0x7F,0x12
4.908424791666667,0,0xFF,0x04
4.910382541666666,0,0xF0,0x02
4.910400541666666,0,0x7F,0x12
4.910418750000000,0,0xFF,0x04
4.912382375000000,0,0x98,0x1A
4.912400416666666,0,0xFF,0x12
4.912418625000000,0,0xFF,0x04
4.912443416666667,0,0x87,0x1A
4.912461458333333,0,0xFF,0x00
4.912479666666667,0,0xFF,0xF2
4.912500208333333,0,0x87,0x18
4.912518250000000,0,0x00,0x12
4.912536333333334,0,0x14,0x12
4.912683083333333,0,0x07,0x01
4.912701125000000,0,0x00,0x01
4.912719208333334,0,0x00,0x01
4.912739791666667,0,0x1C,0x01
4.912757833333333,0,0xC0,0x01
4.912775916666667,0,0x80,0x01
4.912796125000000,0,0x07,0x01
4.912814166666666,0,0xFF,0x00
4.912832375000000,0,0xFF,0x14
4.912853250000000,0,0x07,0x01
4.912871291666667,0,0x00,0x00
4.912889333333333,0,0x14,0x01
4.914372875000000,0,0x18,0x1A
4.914390916666667,0,0xFF,0x12
4.914409125000000,0,0xFF,0x08
4.916361500000000,0,0x98,0x1A
4.916379541666666,0,0xFF,0x12
4.916397750000000,0,0xFF,0x0C
4.918357958333333,0,0xB0,0x13
4.918375958333334,0,0x7F,0x18
4.918394166666666,0,0xFF,0x08
4.920345125000000,0,0xF0,0x02
4.920363125000000,0,0x7F,0x12
4.920381333333333,0,0xFF,0x08
4.922335208333333,0,0x98,0x1A
4.922353250000000,0,0xFF,0x12
4.922371458333333,0,0xFF,0x08
4.924332791666667,0,0xB0,0x12
4.924350791666667,0,0xFF,0x10
4.924369000000000,0,0xFF,0x08
4.926331416666667,0,0xB0,0x12
4.926349416666667,0,0xFF,0x10
4.926367625000000,0,0xFF,0x08
4.928320000000000,0,0xB0,0x12
4.928338041666667,0,0xFF,0x10
4.928356250000000,0,0xFF,0x08
4.930315458333333,0,0xF0,0x02
4.930333458333333,0,0x7F,0x1A
4.930351666666667,0,0xFF,0x00
4.932307333333333,0,0xF0,0x02
4.932325333333333,0,0x7F,0x12
4.932343541666667,0,0xFF,0x00
4.934304208333334,0,0xF0,0x02
4.934322208333334,0,0x7F,0x12
4.934340416666666,0,0xFF,0x08
4.936303666666666,0,0xB0,0x12
4.936321708333334,0,0xFF,0x13
4.936339916666666,0,0xFF,0x08
4.938297958333333,0,0x98,0x10
4.938316000000000,0,0xFF,0x12
4.938334208333333,0,0xFF,0x08
4.940289958333334,0,0x98,0x1A
4.940308000000000,0,0xFF,0x12
4.940326208333333,0,0xFF,0x08
4.942283416666666,0,0xF0,0x12
4.942301458333334,0,0xFF,0x12
4.942319666666667,0,0xFF,0x08
4.944271833333334,0,0xB0,0x13
4.944289833333333,0,0x7F,0x1A
4.944308041666667,0,0xFF,0x00
4.944332875000000,0,0x87,0x12
4.944350875000000,0,0xFF,0x00
4.944369083333333,0,0xFF,0x94
4.944389625000000,0,0x87,0x12
4.944407666666667,0,0x00,0x10
4.944425750000000,0,0x3C,0x12
4.944481125000000,0,0x07,0x01
4.944499166666667,0,0x00,0x01
4.944517208333333,0,0x3C,0x81
4.944537833333333,0,0x34,0x01
4.944555875000000,0,0x80,0x00
4.944573916666666,0,0x00,0x01
4.944594166666667,0,0x87,0x01
4.944612208333333,0,0xFF,0x00
4.944630416666667,0,0xFF,0x3C
4.944651291666666,0,0x03,0x01
4.944669291666667,0,0x80,0x81
4.944687375000000,0,0x1E,0x01
4.946258666666667,0,0xB0,0x12
4.946276666666667,0,0xFF,0x10
4.946294875000000,0,0xFF,0x18
4.948252416666667,0,0x90,0x12
4.948270458333333,0,0xFF,0x12
4.948288666666667,0,0xFF,0x18
4.950239375000000,0,0xB0,0x12
4.950257416666667,0,0xFF,0x12
4.950275625000000,0,0xFF,0x18
4.952229750000000,0,0xB8,0x12
4.952247791666666,0,0xFF,0x02
4.952266000000000,0,0xFF,0x18
4.954227000000000,0,0xF0,0x12
4.954245041666667,0,0xFF,0x12
4.954263250000000,0,0xFF,0x18
4.956220500000000,0,0xB0,0x12
4.956238541666667,0,0xFF,0x12
4.956256750000000,0,0xFF,0x18
4.958211875000000,0,0x98,0x1A
4.958229916666666,0,0xFF,0x12
4.958248125000000,0,0xFF,0x18
4.960202625000000,0,0xB0,0x12
4.960220666666666,0,0xFF,0x12
4.960238875000000,0,0xFF,0x18
4.962198583333334,0,0xB0,0x12
4.962216625000000,0,0xFF,0x12
4.962234833333333,0,0xFF,0x18
4.964192041666666,0,0xB0,0x12
4.964210083333334,0,0xFF,0x10
4.964228291666666,0,0xFF,0x18
4.966185916666666,0,0xB0,0x13
4.966203916666666,0,0x7F,0x18
4.966222125000000,0,0xFF,0x18
4.968179166666666,0,0x98,0x10
4.968197208333334,0,0xFF,0x02
4.968215416666666,0,0xFF,0x08
4.970175750000000,0,0xF0,0x12
4.970193791666667,0,0xFF,0x13
4.970212000000000,0,0xFF,0x18
4.972173541666667,0,0xB0,0x12
4.972191583333333,0,0xFF,0x12
4.972209791666667,0,0xFF,0x18
4.974170708333333,0,0xB0,0x12
4.974188708333333,0,0xFF,0x12
4.974206916666667,0,0xFF,0x18
4.976159458333333,0,0x98,0x10
4.976177500000000,0,0xFF,0x02
4.976195708333333,0,0xFF,0x18
4.976220500000000,0,0x87,0x10
4.976238541666667,0,0xFF,0x00
4.976256750000000,0,0xFF,0xBC
4.976279375000000,0,0x07,0x12
4.976297416666666,0,0x00,0x12
4.976315458333334,0,0x1E,0x12
4.977273541666666,0,0x07,0x01
4.977291583333334,0,0x00,0x01
4.977309666666667,0,0x1F,0x00
4.977330250000000,0,0x3E,0x01
4.977348291666667,0,0xC0,0x01
4.977366375000000,0,0x80,0x01
4.977386583333334,0,0x07,0x01
4.977404625000000,0,0xFF,0x00
4.977422833333334,0,0xFF,0x1E
4.977443708333333,0,0x07,0x01
4.977461750000000,0,0x00,0x01
4.977479791666667,0,0x1E,0x01
4.978871458333334,0,0xB0,0x12
4.978889500000000,0,0xFF,0x12
4.978907666666666,0,0xFF,0x1C
4.980866875000000,0,0xF0,0x02
4.980884875000000,0,0x7F,0x12
4.980903083333334,0,0xFF,0x1C
4.982859541666667,0,0xB0,0x13
4.982877541666666,0,0xFF,0x10
4.982895750000000,0,0xFF,0x1C
4.984847833333333,0,0xB0,0x12
4.984865875000000,0,0xFF,0x12
4.984884083333333,0,0xFF,0x1C
4.986836416666667,0,0x90,0x12
4.986854458333333,0,0xFF,0x12
4.986872666666667,0,0xFF,0x1C
4.988829375000000,0,0xF0,0x02
4.988847375000000,0,0x7F,0x12
4.988865583333333,0,0xFF,0x1C
4.990819041666667,0,0xF0,0x02
4.990837041666667,0,0x7F,0x12
4.990855250000000,0,0xFF,0x1C
4.992818083333334,0,0xB0,0x12
4.992836083333334,0,0xFF,0x10
4.992854291666666,0,0xFF,0x1C
4.994804875000000,0,0xB0,0x12
4.994822916666666,0,0xFF,0x02
4.994841125000000,0,0xFF,0x0C
4.996796166666667,0,0xB0,0x12
4.996814208333333,0,0xFF,0x13
4.996832416666667,0,0xFF,0x1C
4.998795833333333,0,0xB0,0x13
4.998813833333333,0,0x7F,0x18
4.998832041666667,0,0xFF,0x1E
5.000785625000000,0,0x98,0x10
5.000803666666667,0,0xFF,0x02
5.000821875000000,0,0xFF,0x1C
5.002776375000000,0,0x98,0x10
5.002794416666666,0,0xFF,0x12
5.002812625000000,0,0xFF,0x0C
5.004764583333333,0,0xB0,0x12
5.004782625000000,0,0xFF,0x02
5.004800833333333,0,0xFF,0x1C
5.006759333333333,0,0x98,0x1A
5.006777375000000,0,0xFF,0x12
5.006795583333333,0,0xFF,0x1C
5.008748416666666,0,0xF0,0x12
5.008766458333334,0,0xFF,0x12
5.008784625000000,0,0xFF,0x1C
5.008809458333333,0,0xC7,0x02
5.008827458333333,0,0xFF,0x00
5.008845666666667,0,0xFF,0x1E
5.008866250000000,0,0x07,0x12
5.008884291666667,0,0x00,0x12
5.008902333333333,0,0x66,0x1A
5.009071625000000,0,0x07,0x01
5.009089666666667,0,0x00,0x01
5.009107750000000,0,0x02,0x01
5.009128333333333,0,0x1E,0x01
5.009146375000000,0,0xC0,0x01
5.009164458333333,0,0x80,0x00
5.009184666666667,0,0x07,0x81
5.009202708333333,0,0xFF,0x00
5.009220916666667,0,0xFF,0x46
5.009241791666667,0,0x07,0x01
5.009259833333333,0,0x00,0x01
5.009277916666667,0,0xC3,0x00
5.010742750000000,0,0xB0,0x12
5.010760791666667,0,0xFF,0x13
5.010779000000000,0,0xFF,0x0C
5.012741208333333,0,0xB0,0x12
5.012759250000000,0,0xFF,0x10
5.012777458333334,0,0xFF,0x0C
5.014740291666667,0,0xF0,0x12
5.014758333333333,0,0xFF,0x12
5.014776541666667,0,0xFF,0x0C
5.016738583333333,0,0xF0,0x02
5.016756583333334,0,0x7F,0x12
5.016774791666666,0,0xFF,0x0C
5.018736166666667,0,0x90,0x12
5.018754208333333,0,0xFF,0x12
5.018772416666667,0,0xFF,0x0C
5.020727458333333,0,0x98,0x10
5.020745500000000,0,0xFF,0x02
5.020763708333333,0,0xFF,0x0C
5.022723125000000,0,0xF0,0x02
5.022741125000000,0,0x7F,0x12
5.022759333333333,0,0xFF,0x0C
5.024723208333334,0,0x98,0x1A
5.024741250000000,0,0xFF,0x12
5.024759458333333,0,0xFF,0x0C
5.026718541666667,0,0xB0,0x12
5.026736583333333,0,0xFF,0x12
5.026754791666667,0,0xFF,0x0C
5.028710375000000,0,0xB0,0x12
5.028728416666667,0,0xFF,0x12
5.028746625000000,0,0xFF,0x0C
5.030700833333333,0,0xB0,0x12
5.030718875000000,0,0xFF,0x12
5.030737083333333,0,0xFF,0x0C
5.032696208333333,0,0xB0,0x12
5.032714250000000,0,0xFF,0x12
5.032732458333333,0,0xFF,0x0C
5.034689250000000,0,0xB8,0x12
5.034707291666667,0,0xFF,0x02
5.034725500000000,0,0xFF,0x0C
5.036683958333334,0,0x98,0x1A
5.036702000000000,0,0xFF,0x12
5.036720208333334,0,0xFF,0x0C
5.038678125000000,0,0xB0,0x12
5.038696166666667,0,0xFF,0x13
5.038714375000000,0,0xFF,0x0C
5.040672208333334,0,0xB0,0x12
5.040690250000000,0,0xFF,0x13
5.040708458333333,0,0xFF,0x0C
5.040733250000000,0,0x87,0x12
5.040751291666667,0,0xFF,0x00
5.040769500000000,0,0xFF,0xC7
5.040790041666667,0,0x07,0x12
5.040808083333333,0,0x00,0x12
5.040826125000000,0,0x00,0x18
5.040869625000000,0,0x07,0x01
5.040887666666666,0,0x00,0x01
5.040905750000000,0,0x00,0x00
5.040926333333333,0,0x36,0x01
5.040944375000000,0,0xC0,0x00
5.040962416666667,0,0x00,0x01
5.040982666666666,0,0x87,0x01
5.041000708333334,0,0xFF,0x00
5.041018916666666,0,0xFF,0x00
5.041039791666667,0,0x07,0x01
5.041057791666667,0,0x00,0x01
5.041075875000000,0,0xC0,0x01
5.042664291666667,0,0x98,0x10
5.042682333333333,0,0xFF,0x02
5.042700541666667,0,0xFF,0x00
5.044659375000000,0,0xB0,0x12
5.044677416666667,0,0xFF,0x10
5.044695625000000,0,0xFF,0x00
5.046654333333334,0,0xB0,0x12
5.046672375000000,0,0xFF,0x12
5.046690583333334,0,0xFF,0x00
5.048644375000000,0,0xB0,0x12
5.048662416666667,0,0xFF,0x12
5.048680625000000,0,0xFF,0x00
5.050638458333333,0,0xF0,0x12
5.050656458333333,0,0x7F,0x12
5.050674666666667,0,0xFF,0x00
5.052636500000000,0,0x98,0x18
5.052654541666667,0,0xFF,0x12
5.052672750000000,0,0xFF,0x00
5.054623833333333,0,0xF0,0x12
5.054641875000000,0,0xFF,0x13
5.054660083333333,0,0xFF,0x00
5.056611416666667,0,0x98,0x1A
5.056629458333333,0,0xFF,0x12
5.056647666666667,0,0xFF,0x00
5.058604875000000,0,0xF0,0x02
5.058622875000000,0,0x7F,0x12
5.058641083333334,0,0xFF,0x00
5.060599916666667,0,0xB0,0x12
5.060617958333333,0,0xFF,0x13
5.060636166666667,0,0xFF,0x00
5.062598541666667,0,0xB0,0x13
5.062616541666666,0,0xFF,0x1A
5.062634750000000,0,0xFF,0x00
5.064590208333334,0,0xB0,0x12
5.064608250000000,0,0xFF,0x12
5.064626458333334,0,0xFF,0x00
5.066581916666666,0,0xB0,0x12
5.066599958333334,0,0xFF,0x12
5.066618166666666,0,0xFF,0x00
5.068573291666667,0,0x98,0x10
5.068591333333333,0,0xFF,0x02
5.068609541666667,0,0xFF,0x00
5.070564250000000,0,0xB0,0x12
5.070582291666667,0,0xFF,0x13
5.070600500000000,0,0xFF,0x00
5.072555333333334,0,0xB0,0x12
5.072573375000000,0,0xFF,0x12
5.072591583333334,0,0xFF,0x00
5.072616375000000,0,0x87,0x12
5.072634416666666,0,0xFF,0x00
5.072652625000000,0,0xFF,0x80
5.072673375000000,0,0x87,0x12
5.072691416666666,0,0x00,0x12
5.072709500000000,0,0x38,0x02
5.073662125000000,0,0x07,0x01
5.073680125000000,0,0x80,0x81
5.073698208333333,0,0x00,0x01
5.073718833333333,0,0x30,0x01
5.073736833333333,0,0x00,0x01
5.073754916666666,0,0x80,0x01
5.073775166666667,0,0xC7,0x01
5.073793166666666,0,0xFF,0x80
5.073811375000000,0,0xFF,0x28
5.073832250000000,0,0x87,0x01
5.073850291666667,0,0x00,0x01
5.073868375000000,0,0xFC,0x01
5.075245333333333,0,0xF0,0x12
5.075263333333333,0,0x7F,0x12
5.075281541666667,0,0xFF,0x18
5.077234000000000,0,0xF0,0x02
5.077252041666667,0,0xFF,0x12
5.077270208333333,0,0xFF,0x10
5.079224916666667,0,0xB0,0x12
5.079242958333333,0,0xFF,0x12
5.079261166666667,0,0xFF,0x10
5.081217666666666,0,0xF0,0x12
5.081235666666666,0,0x7F,0x12
5.081253875000000,0,0xFF,0x10
5.083210541666666,0,0xB0,0x12
5.083228583333334,0,0xFF,0x12
5.083246791666666,0,0xFF,0x10
5.085197625000000,0,0x90,0x12
5.085215666666667,0,0xFF,0x12
5.085233875000000,0,0xFF,0x10
5.087193875000000,0,0x98,0x1A
5.087211916666667,0,0xFF,0x12
5.087230125000000,0,0xFF,0x10
5.089193875000000,0,0xB0,0x12
5.089211916666667,0,0xFF,0x12
5.089230125000000,0,0xFF,0x10
5.091187958333333,0,0xF0,0x13
5.091205958333333,0,0x7F,0x1A
5.091224166666667,0,0xFF,0x18
5.093175541666667,0,0xF0,0x12
5.093193583333333,0,0xFF,0x13
5.093211791666667,0,0xFF,0x10
5.095165250000000,0,0xF0,0x02
5.095183250000000,0,0x7F,0x12
5.095201458333333,0,0xFF,0x10
5.097155750000000,0,0xB0,0x12
5.097173791666667,0,0xFF,0x12
5.097192000000000,0,0xFF,0x10
5.099147625000000,0,0xB0,0x13
5.099165625000000,0,0x7F,0x1A
5.099183833333333,0,0xFF,0x18
5.101146583333334,0,0xB0,0x12
5.101164625000000,0,0xFF,0x12
5.101182833333334,0,0xFF,0x10
5.103133791666667,0,0xF0,0x12
5.103151833333333,0,0xFF,0x13
5.103170041666667,0,0xFF,0x10
5.105123291666667,0,0x98,0x1A
5.105141333333333,0,0xFF,0x12
5.105159541666667,0,0xFF,0x10
5.105184333333334,0,0x87,0x10
5.105202375000000,0,0xFF,0x00
5.105220583333334,0,0xFF,0xA8
5.105241125000000,0,0x07,0x12
5.105259166666666,0,0x00,0x13
5.105277208333334,0,0x0A,0x12
5.105460750000000,0,0x07,0x01
5.105478791666667,0,0x00,0x01
5.105496875000000,0,0x0A,0x01
5.105517458333333,0,0x1C,0x01
5.105535500000000,0,0x80,0x01
5.105553583333333,0,0xC0,0x01
5.105573833333334,0,0x87,0x01
5.105591833333333,0,0xFF,0x00
5.105610041666667,0,0xFF,0x08
5.105630916666667,0,0x07,0x01
5.105648958333333,0,0x00,0x01
5.105667000000000,0,0x0B,0x81
5.107113791666666,0,0x98,0x10
5.107131833333334,0,0xFF,0x02
5.107150041666666,0,0xFF,0x04
5.109107500000000,0,0x98,0x10
5.109125541666667,0,0xFF,0x02
5.109143750000000,0,0xFF,0x00
5.111101833333334,0,0xF0,0x12
5.111119833333333,0,0x7F,0x12
5.111138041666667,0,0xFF,0x14
5.113100916666666,0,0x90,0x12
5.113118958333334,0,0xFF,0x12
5.113137166666666,0,0xFF,0x14
5.115098000000000,0,0x90,0x12
5.115116041666667,0,0xFF,0x12
5.115134250000000,0,0xFF,0x14
5.117091583333333,0,0xB0,0x12
5.117109625000000,0,0xFF,0x12
5.117127833333333,0,0xFF,0x14
5.119086125000000,0,0xB0,0x12
5.119104166666666,0,0xFF,0x12
5.119122333333333,0,0xFF,0x14
5.121076666666666,0,0xF0,0x12
5.121094666666667,0,0x7F,0x1A
5.121112875000000,0,0xFF,0x16
5.123066166666667,0,0x98,0x1A
5.123084208333333,0,0xFF,0x12
5.123102416666667,0,0xFF,0x04
5.125057291666667,0,0xF0,0x02
5.125075291666667,0,0x7F,0x12
5.125093500000000,0,0xFF,0x1E
5.127048000000000,0,0xF0,0x12
5.127066041666667,0,0xFF,0x13
5.127084250000000,0,0xFF,0x14
5.129037291666667,0,0xB0,0x12
5.129055291666667,0,0xFF,0x12
5.129073500000000,0,0xFF,0x14
5.131027208333333,0,0xF0,0x12
5.131045208333333,0,0x7F,0x12
5.131063416666667,0,0xFF,0x1C
5.133019750000000,0,0xB0,0x12
5.133037750000000,0,0xFF,0x10
5.133055958333333,0,0xFF,0x16
5.135016041666667,0,0x90,0x12
5.135034083333333,0,0xFF,0x12
5.135052291666667,0,0xFF,0x14
5.137007500000000,0,0xB0,0x12
5.137025541666667,0,0xFF,0x12
5.137043750000000,0,0xFF,0x14
5.137068541666666,0,0x87,0x12
5.137086583333334,0,0xFF,0x00
5.137104791666666,0,0xFF,0x8A
5.137125333333334,0,0x87,0x12
5.137143375000000,0,0x00,0x12
5.137161458333333,0,0x32,0x02
5.137257291666667,0,0x07,0x01
5.137275333333333,0,0x00,0x01
5.137293375000000,0,0x18,0x01
5.137314000000000,0,0x30,0x00
5.137332000000000,0,0x00,0x01
5.137350083333334,0,0x80,0x01
5.137370333333333,0,0xC3,0x01
5.137388333333333,0,0xFF,0x80
5.137406541666667,0,0xFF,0x32
5.137427416666666,0,0x87,0x01
5.137445458333334,0,0x00,0x01
5.137463541666667,0,0xB3,0x00
5.138997166666667,0,0x10,0x12
5.139015208333333,0,0xFF,0x12
5.139033416666667,0,0xFF,0x04
5.140988666666667,0,0xB0,0x12
5.141006708333333,0,0xFF,0x13
5.141024916666667,0,0xFF,0x04
5.142985791666667,0,0xB0,0x12
5.143003833333333,0,0xFF,0x13
5.143022041666667,0,0xFF,0x04
5.144974541666667,0,0xB0,0x13
5.144992541666666,0,0x7F,0x12
5.145010750000000,0,0xFF,0x04
5.146973916666667,0,0xB0,0x12
5.146991958333333,0,0xFF,0x10
5.147010166666667,0,0xFF,0x04
5.148965791666667,0,0x90,0x12
5.148983833333333,0,0xFF,0x12
5.149002041666667,0,0xFF,0x04
5.150958958333334,0,0x90,0x12
5.150977000000000,0,0xFF,0x12
5.150995208333334,0,0xFF,0x04
5.152950458333334,0,0xF0,0x02
5.152968458333334,0,0x7F,0x12
5.152986666666667,0,0xFF,0x04
5.154941000000000,0,0x90,0x12
5.154959041666666,0,0xFF,0x12
5.154977250000000,0,0xFF,0x04
5.156935333333333,0,0xF0,0x12
5.156953333333333,0,0x7F,0x1A
5.156971541666667,0,0xFF,0x04
5.158928375000000,0,0xB0,0x13
5.158946375000000,0,0xFF,0x18
5.158964583333334,0,0xFF,0x06
5.160923083333333,0,0xB0,0x12
5.160941125000000,0,0xFF,0x12
5.160959333333333,0,0xFF,0x04
5.162912375000000,0,0xB0,0x12
5.162930416666667,0,0xFF,0x13
5.162948625000000,0,0xFF,0x04
5.164901083333334,0,0xB0,0x12
5.164919125000000,0,0xFF,0x13
5.164937333333333,0,0xFF,0x04
5.166898250000000,0,0x98,0x10
5.166916291666666,0,0xFF,0x02
5.166934500000000,0,0xFF,0x00
5.168890333333334,0,0xB0,0x12
5.168908375000000,0,0xFF,0x12
5.168926583333334,0,0xFF,0x04
5.168951375000000,0,0x87,0x1A
5.168969416666667,0,0xFF,0x00
5.168987625000000,0,0xFF,0xB2
5.169008166666667,0,0x87,0x12
5.169026208333333,0,0x00,0x12
5.169044291666666,0,0x04,0x02
5.170049625000000,0,0x03,0x00
5.170067625000000,0,0x00,0x01
5.170085708333334,0,0x14,0x01
5.170106291666666,0,0x1C,0x01
5.170124333333334,0,0xC0,0x01
5.170142416666667,0,0x80,0x00
5.170162625000000,0,0x07,0x01
5.170180666666667,0,0xFF,0x00
5.170198875000000,0,0xFF,0x14
5.170219750000000,0,0x07,0x01
5.170237791666667,0,0x00,0x01
5.170255833333333,0,0x1C,0x01
5.171641500000000,0,0xB0,0x12
5.171659541666667,0,0xFF,0x12
5.171677750000000,0,0xFF,0x08
5.173630833333333,0,0x90,0x12
5.173648875000000,0,0xFF,0x12
5.173667083333333,0,0xFF,0x08
5.175620750000000,0,0xF0,0x12
5.175638791666667,0,0xFF,0x12
5.175656958333334,0,0xFF,0x08
5.177610291666666,0,0xF0,0x02
5.177628291666666,0,0x7F,0x12
5.177646500000000,0,0xFF,0x08
5.179600333333333,0,0xF0,0x12
5.179618375000000,0,0xFF,0x13
5.179636583333333,0,0xFF,0x08
5.181592833333333,0,0xF0,0x02
5.181610875000000,0,0xFF,0x12
5.181629083333333,0,0xFF,0x08
5.183589708333334,0,0xB0,0x12
5.183607750000000,0,0xFF,0x13
5.183625958333334,0,0xFF,0x08
5.185580541666667,0,0xB0,0x12
5.185598541666667,0,0xFF,0x12
5.185616750000000,0,0xFF,0x08
5.187575083333333,0,0xB0,0x12
5.187593083333334,0,0xFF,0x10
5.187611291666666,0,0xFF,0x08
5.189568833333333,0,0xB0,0x13
5.189586833333333,0,0xFF,0x18
5.189605041666667,0,0xFF,0x00
5.191559500000000,0,0xB0,0x12
5.191577541666667,0,0xFF,0x13
5.191595750000000,0,0xFF,0x08
5.193549666666667,0,0xB0,0x12
5.193567708333333,0,0xFF,0x12
5.193585916666667,0,0xFF,0x08
5.195545750000000,0,0x98,0x10
5.195563791666666,0,0xFF,0x02
5.195582000000000,0,0xFF,0x0C
5.197533208333334,0,0x98,0x12
5.197551250000000,0,0xFF,0x02
5.197569458333334,0,0xFF,0x0C
5.199526166666667,0,0xF0,0x13
5.199544166666667,0,0x7F,0x1A
5.199562375000000,0,0xFF,0x00
5.201519250000000,0,0xF0,0x12
5.201537291666667,0,0xFF,0x12
5.201555458333333,0,0xFF,0x08
5.201580291666667,0,0x83,0x13
5.201598291666667,0,0xFF,0x00
5.201616500000000,0,0xFF,0x96
5.201637041666666,0,0x87,0x12
5.201655083333334,0,0x00,0x12
5.201673166666667,0,0x3C,0x12
5.201847083333333,0,0x07,0x01
5.201865083333334,0,0x00,0x01
5.201883166666667,0,0x3C,0x01
5.201903750000000,0,0x34,0x81
5.201921791666667,0,0x80,0x01
5.201939875000000,0,0xC0,0x01
5.201960125000000,0,0x83,0x01
5.201978125000000,0,0xFF,0x00
5.201996333333334,0,0xFF,0x3E
5.202017208333333,0,0x07,0x01
5.202035250000000,0,0x00,0x01
5.202053291666667,0,0x3C,0x81
5.203517791666667,0,0xB0,0x12
5.203535833333333,0,0xFF,0x12
5.203554041666667,0,0xFF,0x1C
5.205507875000000,0,0xB0,0x13
5.205525875000000,0,0x7F,0x1A
5.205544083333334,0,0xFF,0x18
5.207506833333333,0,0xB0,0x13
5.207524833333333,0,0xFF,0x10
5.207543041666667,0,0xFF,0x18
5.209506750000000,0,0x98,0x1A
5.209524791666666,0,0xFF,0x12
5.209543000000000,0,0xFF,0x18
5.211494583333334,0,0xF0,0x02
5.211512583333334,0,0x7F,0x12
5.211530791666667,0,0xFF,0x18
5.213483333333333,0,0xF0,0x12
5.213501333333333,0,0x7F,0x12
5.213519541666667,0,0xFF,0x18
5.215469791666667,0,0xB0,0x12
5.215487833333333,0,0xFF,0x13
5.215506041666667,0,0xFF,0x18
5.217469208333333,0,0x98,0x10
5.217487250000000,0,0xFF,0x12
5.217505458333333,0,0xFF,0x18
5.219457000000000,0,0xB0,0x13
5.219475000000000,0,0x7F,0x1A
5.219493208333334,0,0xFF,0x18
5.221446666666667,0,0xF0,0x12
5.221464708333333,0,0xFF,0x12
5.221482916666667,0,0xFF,0x18
5.223440875000000,0,0xF0,0x02
5.223458875000000,0,0x7F,0x12
5.223477083333333,0,0xFF,0x18
5.225432375000000,0,0xB0,0x13
5.225450375000000,0,0x7F,0x12
5.225468583333333,0,0xFF,0x18
5.227419416666667,0,0xF0,0x12
5.227437458333333,0,0xFF,0x13
5.227455666666667,0,0xFF,0x18
5.229408958333333,0,0x98,0x10
5.229427000000000,0,0xFF,0x12
5.229445208333333,0,0xFF,0x18
5.231409375000000,0,0xB0,0x12
5.231427416666667,0,0xFF,0x12
5.231445625000000,0,0xFF,0x0C
5.233402125000000,0,0xB0,0x12
5.233420166666667,0,0xFF,0x12
5.233438375000000,0,0xFF,0x1C
5.233463166666667,0,0x87,0x12
5.233481208333333,0,0xFF,0x00
5.233499416666667,0,0xFF,0xBC
5.233519958333333,0,0x07,0x12
5.233538000000000,0,0x00,0x02
5.233556041666667,0,0x1F,0x12
5.233645708333333,0,0x07,0x01
5.233663750000000,0,0x00,0x01
5.233681833333334,0,0x0E,0x01
5.233702416666667,0,0x14,0x01
5.233720458333333,0,0x80,0x01
5.233738541666667,0,0xC0,0x01
5.233758791666666,0,0x83,0x01
5.233776791666667,0,0xFF,0x00
5.233795000000000,0,0xFF,0x1E
5.233815875000000,0,0x07,0x01
5.233833916666667,0,0x00,0x01
5.233851958333333,0,0x1F,0x81
5.235401958333333,0,0xF0,0x12
5.235420000000000,0,0xFF,0x12
5.235438208333333,0,0xFF,0x1C
5.237390416666667,0,0xB0,0x13
5.237408416666667,0,0x7F,0x1A
5.237426625000000,0,0xFF,0x1E
5.239387250000000,0,0x98,0x18
5.239405291666666,0,0xFF,0x02
5.239423500000000,0,0xFF,0x0C
5.241377750000000,0,0xB0,0x12
5.241395750000000,0,0xFF,0x10
5.241413958333333,0,0xFF,0x1C
5.243366916666667,0,0x98,0x10
5.243384958333333,0,0xFF,0x02
5.243403166666667,0,0xFF,0x0C
5.245359416666667,0,0x98,0x1A
5.245377458333333,0,0xFF,0x12
5.245395666666667,0,0xFF,0x0C
5.247350333333333,0,0xF0,0x12
5.247368375000000,0,0xFF,0x12
5.247386583333333,0,0xFF,0x1C
5.249343000000000,0,0xF0,0x12
5.249361041666667,0,0xFF,0x13
5.249379250000000,0,0xFF,0x1C
5.251331625000000,0,0xF0,0x12
5.251349625000000,0,0x7F,0x12
5.251367833333333,0,0xFF,0x1C
5.253321541666667,0,0xB0,0x12
5.253339541666667,0,0xFF,0x12
5.253357750000000,0,0xFF,0x1C
5.255317750000000,0,0xB0,0x13
5.255335750000000,0,0x7F,0x1A
5.255353958333333,0,0xFF,0x1C
5.257305375000000,0,0xB0,0x12
5.257323416666667,0,0xFF,0x12
5.257341625000000,0,0xFF,0x1C
5.259297333333333,0,0xB0,0x12
5.259315375000000,0,0xFF,0x02
5.259333583333333,0,0xFF,0x1C
5.261290916666667,0,0xB0,0x13
5.261308916666667,0,0x7F,0x1A
5.261327125000000,0,0xFF,0x1C
5.263287666666667,0,0xB0,0x12
5.263305708333333,0,0xFF,0x12
5.263323916666667,0,0xFF,0x1C
5.265279125000000,0,0xF0,0x12
5.265297166666667,0,0xFF,0x12
5.265315333333334,0,0xFF,0x1C
5.265340166666666,0,0xC3,0x02
5.265358166666666,0,0xFF,0x00
5.265376375000000,0,0xFF,0x1E
5.265396958333334,0,0x03,0x02
5.265414958333333,0,0x80,0x12
5.265433041666666,0,0x66,0x10
5.266437666666667,0,0x03,0x00
5.266455666666666,0,0x80,0x01
5.266473750000000,0,0x46,0x01
5.266494333333333,0,0x14,0x01
5.266512375000000,0,0x80,0x01
5.266530458333333,0,0x80,0x00
5.266550666666666,0,0x07,0x81
5.266568708333334,0,0xFF,0x00
5.266586916666666,0,0xFF,0x46
5.266607791666667,0,0x07,0x01
5.266625833333333,0,0x00,0x01
5.266643875000000,0,0x66,0x01
5.268012000000000,0,0x98,0x12
5.268030041666667,0,0xFF,0x12
5.268048250000000,0,0xFF,0x0C
5.270004583333334,0,0x98,0x1A
5.270022625000000,0,0xFF,0x12
5.270040833333334,0,0xFF,0x0C
5.271998750000000,0,0xB0,0x13
5.272016750000000,0,0x7F,0x1A
5.272034958333333,0,0xFF,0x04
5.273985791666667,0,0xB0,0x12
5.274003833333333,0,0xFF,0x12
5.274022041666667,0,0xFF,0x0C
5.275973625000000,0,0xF0,0x02
5.275991625000000,0,0x7F,0x12
5.276009875000000,0,0xFF,0x0C
5.277969583333333,0,0xF0,0x12
5.277987583333333,0,0x7F,0x12
5.278005791666667,0,0xFF,0x0C
5.279959041666666,0,0xB0,0x13
5.279977041666666,0,0x7F,0x1A
5.279995250000000,0,0xFF,0x04
5.281955500000000,0,0xF0,0x12
5.281973541666667,0,0xFF,0x12
5.281991708333333,0,0xFF,0x0C
5.283950000000000,0,0xB8,0x12
5.283968041666666,0,0xFF,0x02
5.283986250000000,0,0xFF,0x0C
5.285948083333333,0,0xB0,0x12
5.285966083333333,0,0xFF,0x10
5.285984291666667,0,0xFF,0x0E
5.287936791666667,0,0xB0,0x12
5.287954833333333,0,0xFF,0x13
5.287973041666667,0,0xFF,0x0C
5.289927666666666,0,0xB0,0x12
5.289945666666667,0,0xFF,0x10
5.289963875000000,0,0xFF,0x0C
5.291919500000000,0,0xF0,0x02
5.291937500000000,0,0x7F,0x12
5.291955708333333,0,0xFF,0x04
5.293918291666666,0,0x98,0x10
5.293936333333333,0,0xFF,0x02
5.293954541666666,0,0xFF,0x0C
5.295909250000000,0,0xB0,0x12
5.295927291666667,0,0xFF,0x12
5.295945500000000,0,0xFF,0x0C
5.297899541666666,0,0xF0,0x02
5.297917541666667,0,0x7F,0x12
5.297935750000000,0,0xFF,0x0C
5.297960583333333,0,0xC3,0x02
5.297978583333333,0,0xFF,0x00
5.297996791666667,0,0xFF,0xE6
5.298017375000000,0,0x03,0x12
5.298035375000000,0,0x00,0x10
5.298053458333333,0,0x00,0x12
5.298234583333334,0,0x07,0x01
5.298252625000000,0,0x00,0x00
5.298270666666666,0,0x00,0x01
5.298291291666667,0,0x30,0x01
5.298309291666667,0,0x00,0x81
5.298327375000000,0,0x80,0x01
5.298347625000000,0,0xC7,0x01
5.298365666666666,0,0xFF,0x00
5.298383833333333,0,0xFF,0x00
5.298404708333333,0,0x87,0x01
5.298422750000000,0,0x00,0x01
5.298440833333333,0,0xC0,0x01
5.299890250000000,0,0xF0,0x12
5.299908291666667,0,0xFF,0x12
5.299926458333333,0,0xFF,0x00
5.301881333333333,0,0xB0,0x12
5.301899333333333,0,0xFF,0x10
5.301917541666667,0,0xFF,0x00
5.303877416666666,0,0x98,0x1A
5.303895458333334,0,0xFF,0x12
5.303913666666666,0,0xFF,0x00
5.305868625000000,0,0xF0,0x02
5.305886625000000,0,0x7F,0x12
5.305904833333333,0,0xFF,0x00
5.307856500000000,0,0xB0,0x12
5.307874541666667,0,0xFF,0x12
5.307892750000000,0,0xFF,0x00
5.309844625000000,0,0xB0,0x12
5.309862625000000,0,0xFF,0x12
5.309880833333334,0,0xFF,0x00
5.311840625000000,0,0x98,0x10
5.311858666666667,0,0xFF,0x02
5.311876875000000,0,0xFF,0x00
5.313832125000000,0,0x98,0x1A
5.313850166666667,0,0xFF,0x12
5.313868375000000,0,0xFF,0x00
5.315820000000000,0,0xB0,0x12
5.315838000000000,0,0xFF,0x10
5.315856208333333,0,0xFF,0x00
5.317820000000000,0,0xB0,0x12
5.317838041666667,0,0xFF,0x13
5.317856250000000,0,0xFF,0x00
5.319814166666666,0,0xF0,0x12
5.319832166666667,0,0x7F,0x12
5.319850375000000,0,0xFF,0x00
5.321805583333333,0,0xF0,0x02
5.321823583333333,0,0x7F,0x12
5.321841791666666,0,0xFF,0x00
5.323792708333333,0,0xF0,0x02
5.323810708333333,0,0x7F,0x12
5.323828916666667,0,0xFF,0x00
5.325780375000000,0,0xF0,0x12
5.325798416666666,0,0xFF,0x13
5.325816625000000,0,0xFF,0x00
5.327775583333334,0,0xB0,0x12
5.327793625000000,0,0xFF,0x12
5.327811833333334,0,0xFF,0x00
5.329765375000000,0,0xB0,0x12
5.329783375000000,0,0xFF,0x12
5.329801583333333,0,0xFF,0x00
5.329826375000000,0,0x87,0x1A
5.329844416666667,0,0xFF,0x00
5.329862625000000,0,0xFF,0xC0
5.329883166666667,0,0x87,0x1A
5.329901208333333,0,0x00,0x12
5.329919291666666,0,0x3C,0x13
5.330031041666667,0,0x07,0x01
5.330049083333333,0,0x00,0x01
5.330067166666667,0,0x28,0x01
5.330087750000000,0,0x14,0x01
5.330105791666667,0,0x80,0x01
5.330123875000000,0,0xC0,0x01
5.330144125000000,0,0x87,0x01
5.330162125000000,0,0xFF,0x00
5.330180333333334,0,0xFF,0x28
5.330201208333333,0,0x07,0x01
5.330219250000000,0,0x00,0x01
5.330237291666666,0,0x00,0x01
5.331757958333333,0,0xB0,0x12
5.331776000000000,0,0xFF,0x13
5.331794208333333,0,0xFF,0x10
5.333756416666667,0,0xB0,0x12
5.333774458333333,0,0xFF,0x12
5.333792666666667,0,0xFF,0x00
5.335752708333334,0,0xB0,0x12
5.335770750000000,0,0xFF,0x12
5.335788958333334,0,0xFF,0x10
5.337744583333333,0,0xF0,0x12
5.337762625000000,0,0xFF,0x12
5.337780833333333,0,0xFF,0x10
5.339733375000000,0,0xB0,0x13
5.339751375000000,0,0xFF,0x1A
5.339769583333333,0,0xFF,0x10
5.341726250000000,0,0xF0,0x12
5.341744250000000,0,0x7F,0x1A
5.341762458333333,0,0xFF,0x18
5.343713750000000,0,0xB0,0x12
5.343731791666666,0,0xFF,0x12
5.343750000000000,0,0xFF,0x10
5.345706000000000,0,0xB0,0x13
5.345724000000000,0,0x7F,0x1A
5.345742208333333,0,0xFF,0x18
5.347696375000000,0,0xF0,0x12
5.347714375000000,0,0x7F,0x12
5.347732583333333,0,0xFF,0x10
5.349690875000000,0,0x98,0x10
5.349708916666667,0,0xFF,0x02
5.349727125000000,0,0xFF,0x00
5.351684166666667,0,0xB0,0x12
5.351702208333333,0,0xFF,0x12
5.351720416666667,0,0xFF,0x10
5.353674875000000,0,0x98,0x1A
5.353692916666667,0,0xFF,0x12
5.353711125000000,0,0xFF,0x00
5.355669583333333,0,0xF0,0x12
5.355687625000000,0,0xFF,0x12
5.355705833333333,0,0xFF,0x10
5.357660416666667,0,0xB0,0x12
5.357678458333333,0,0xFF,0x13
5.357696666666667,0,0xFF,0x10
5.359647833333334,0,0x98,0x1A
5.359665875000000,0,0xFF,0x12
5.359684083333334,0,0xFF,0x10
5.361638875000000,0,0xB0,0x13
5.361656875000000,0,0x7F,0x1A
5.361675083333333,0,0xFF,0x18
5.361699916666667,0,0x83,0x13
5.361717916666667,0,0xFF,0x00
5.361736125000000,0,0xFF,0xA8
5.361756708333333,0,0x07,0x12
5.361774708333333,0,0x00,0x10
5.361792791666667,0,0x0A,0x12
5.361828958333334,0,0x07,0x01
5.361847000000000,0,0x00,0x01
5.361865083333333,0,0x0F,0x00
5.361885666666667,0,0x3E,0x01
5.361903708333333,0,0xC0,0x01
5.361921750000000,0,0x00,0x81
5.361942000000000,0,0x07,0x01
5.361960041666666,0,0xFF,0x00
5.361978250000000,0,0xFF,0x0E
5.361999125000000,0,0x03,0x00
5.362017125000000,0,0x80,0x01
5.362035208333333,0,0x88,0x01
5.363634833333333,0,0xF0,0x12
5.363652875000000,0,0xFF,0x13
5.363671083333333,0,0xFF,0x14
5.365625750000000,0,0x98,0x10
5.365643791666667,0,0xFF,0x02
5.365662000000000,0,0xFF,0x10
5.367618625000000,0,0xB0,0x12
5.367636666666667,0,0xFF,0x12
5.367654875000000,0,0xFF,0x14
5.369607958333333,0,0x98,0x1A
5.369626000000000,0,0xFF,0x12
5.369644208333333,0,0xFF,0x14
5.371603958333333,0,0x98,0x1A
5.371622000000000,0,0xFF,0x12
5.371640208333333,0,0xFF,0x14
5.373603458333333,0,0x98,0x10
5.373621500000000,0,0xFF,0x13
5.373639708333333,0,0xFF,0x14
5.375599541666666,0,0xB0,0x13
5.375617541666666,0,0x7F,0x1A
5.375635750000000,0,0xFF,0x1C
5.377598541666667,0,0xB0,0x12
5.377616583333333,0,0xFF,0x13
5.377634791666667,0,0xFF,0x14
5.379587875000000,0,0xB0,0x12
5.379605916666667,0,0xFF,0x13
5.379624125000000,0,0xFF,0x14
5.381575791666667,0,0x98,0x1A
5.381593833333334,0,0xFF,0x12
5.381612041666667,0,0xFF,0x14
5.383565708333333,0,0xF0,0x12
5.383583708333333,0,0x7F,0x12
5.383601916666667,0,0xFF,0x14
5.385557833333333,0,0xB0,0x12
5.385575833333333,0,0xFF,0x12
5.385594041666667,0,0xFF,0x14
5.387548083333333,0,0xF0,0x12
5.387566083333334,0,0x7F,0x12
5.387584291666666,0,0xFF,0x14
5.389544333333333,0,0x98,0x1A
5.389562375000000,0,0xFF,0x12
5.389580583333333,0,0xFF,0x14
5.391541625000000,0,0x98,0x1A
5.391559666666667,0,0xFF,0x12
5.391577875000000,0,0xFF,0x04
5.393534625000000,0,0xB0,0x12
5.393552625000000,0,0xFF,0x1A
5.393570833333333,0,0xFF,0x1C
5.393595666666666,0,0x83,0x13
5.393613666666667,0,0xFF,0x00
5.393632083333333,0,0xFF,0x8B
5.393652625000000,0,0x07,0x12
5.393670666666667,0,0x00,0x13
5.393688708333333,0,0x32,0x12
5.394620458333334,0,0x07,0x01
5.394638458333334,0,0x80,0x81
5.394656541666667,0,0x18,0x01
5.394677166666667,0,0x30,0x01
5.394695166666667,0,0x00,0x81
5.394713250000000,0,0x80,0x01
5.394733500000000,0,0x87,0x01
5.394751541666666,0,0xFF,0x00
5.394769750000000,0,0xFF,0x32
5.394790625000000,0,0x03,0x01
5.394808625000000,0,0x80,0x01
5.394826708333333,0,0xB0,0x01
5.396219250000000,0,0xB0,0x13
5.396237250000000,0,0x7F,0x1A
5.396255458333333,0,0xFF,0x04
5.398214958333333,0,0xF0,0x12
5.398232958333334,0,0x7F,0x12
5.398251166666666,0,0xFF,0x04
5.400214958333334,0,0xB0,0x13
5.400232958333333,0,0xFF,0x10
5.400251166666667,0,0xFF,0x06
5.402204208333333,0,0xB0,0x12
5.402222250000000,0,0xFF,0x13
5.402240458333333,0,0xFF,0x00
5.404203708333333,0,0x90,0x12
5.404221750000000,0,0xFF,0x02
5.404239958333333,0,0xFF,0x00
5.406194750000000,0,0xB0,0x13
5.406212750000000,0,0x7F,0x18
5.406230958333333,0,0xFF,0x06
5.408194666666667,0,0x98,0x1A
5.408212708333333,0,0xFF,0x12
5.408230916666667,0,0xFF,0x04
5.410183166666667,0,0xF0,0x02
5.410201166666667,0,0x7F,0x12
5.410219375000000,0,0xFF,0x04
5.412181333333334,0,0xF0,0x02
5.412199333333334,0,0x7F,0x12
5.412217541666666,0,0xFF,0x04
5.414172166666667,0,0xB0,0x12
5.414190208333333,0,0xFF,0x12
5.414208416666667,0,0xFF,0x04
5.416163750000000,0,0xB0,0x12
5.416181791666666,0,0xFF,0x12
5.416200000000000,0,0xFF,0x04
5.418161916666667,0,0x98,0x1A
5.418179958333333,0,0xFF,0x12
5.418198166666667,0,0xFF,0x04
5.420154875000000,0,0xB0,0x12
5.420172916666667,0,0xFF,0x12
5.420191125000000,0,0xFF,0x00
5.422142541666667,0,0xB0,0x13
5.422160541666667,0,0x7F,0x1A
5.422178750000000,0,0xFF,0x04
5.424129500000000,0,0xF0,0x12
5.424147500000000,0,0x7F,0x1A
5.424165708333334,0,0xFF,0x04
5.426121000000000,0,0xF0,0x02
5.426139000000000,0,0x7F,0x12
5.426157208333334,0,0xFF,0x04
5.426182041666666,0,0xC7,0x12
5.426200083333334,0,0xFF,0x00
5.426218291666666,0,0xFF,0xB3
5.426238833333334,0,0x07,0x12
5.426256875000000,0,0x00,0x12
5.426274916666666,0,0x14,0x12
5.426419166666666,0,0x07,0x01
5.426437208333334,0,0x00,0x01
5.426455250000000,0,0x14,0x81
5.426475875000000,0,0x36,0x01
5.426493916666667,0,0xC0,0x01
5.426511958333333,0,0x00,0x81
5.426532208333334,0,0x07,0x01
5.426550250000000,0,0xFF,0x00
5.426568458333334,0,0xFF,0x16
5.426589333333333,0,0x07,0x01
5.426607375000000,0,0x00,0x01
5.426625458333334,0,0xC0,0x01
5.428115208333334,0,0xF0,0x02
5.428133250000000,0,0xFF,0x12
5.428151458333334,0,0xFF,0x08
5.430104791666666,0,0xB0,0x13
5.430122791666666,0,0xFF,0x1A
5.430141000000000,0,0xFF,0x00
5.432097916666667,0,0xB0,0x12
5.432115958333333,0,0xFF,0x10
5.432134166666667,0,0xFF,0x08
5.434085208333333,0,0xB0,0x13
5.434103208333333,0,0xFF,0x1A
5.434121416666667,0,0xFF,0x00
5.436081458333334,0,0xB0,0x13
5.436099458333334,0,0xFF,0x1A
5.436117666666667,0,0xFF,0x00
5.438073708333333,0,0xB0,0x13
5.438091708333333,0,0xFF,0x1A
5.438109916666667,0,0xFF,0x00
5.440066708333333,0,0xB0,0x12
5.440084750000000,0,0xFF,0x12
5.440102958333333,0,0xFF,0x08
5.442057250000000,0,0x90,0x12
5.442075291666667,0,0xFF,0x10
5.442093500000000,0,0xFF,0x08
5.444052875000000,0,0xB0,0x12
5.444070916666667,0,0xFF,0x12
5.444089125000000,0,0xFF,0x0C
5.446052583333334,0,0x98,0x10
5.446070625000000,0,0xFF,0x12
5.446088833333333,0,0xFF,0x08
5.448041375000000,0,0xB0,0x12
5.448059416666666,0,0xFF,0x13
5.448077625000000,0,0xFF,0x08
5.450033541666667,0,0xB0,0x12
5.450051583333333,0,0xFF,0x10
5.450069791666666,0,0xFF,0x08
5.452030333333333,0,0x98,0x10
5.452048375000000,0,0xFF,0x12
5.452066583333333,0,0xFF,0x08
5.454022583333333,0,0xB8,0x10
5.454040625000000,0,0xFF,0x02
5.454058833333334,0,0xFF,0x08
5.456013125000000,0,0xB0,0x12
5.456031166666667,0,0xFF,0x10
5.456049375000000,0,0xFF,0x00
5.458005791666666,0,0xB0,0x12
5.458023833333334,0,0xFF,0x10
5.458042041666666,0,0xFF,0x08
5.458066875000000,0,0x83,0x13
5.458084875000000,0,0xFF,0x00
5.458103083333333,0,0xFF,0x9C
5.458123666666666,0,0x03,0x02
5.458141666666666,0,0x80,0x12
5.458159750000000,0,0x1C,0x1A
5.458220791666666,0,0x07,0x01
5.458238833333334,0,0x00,0x01
5.458256916666667,0,0x3C,0x01
5.458277500000000,0,0x1C,0x01
5.458295541666667,0,0x80,0x01
5.458313625000000,0,0xC0,0x01
5.458333875000000,0,0x87,0x01
5.458351875000000,0,0xFF,0x00
5.458370083333334,0,0xFF,0x3E
5.458390958333333,0,0x07,0x01
5.458409000000000,0,0x00,0x01
5.458427083333333,0,0xBC,0x00
5.460004041666667,0,0xB0,0x12
5.460022041666667,0,0xFF,0x10
5.460040250000000,0,0xFF,0x18
5.461994041666666,0,0x98,0x10
5.462012083333334,0,0xFF,0x02
5.462030291666666,0,0xFF,0x08
5.463992833333333,0,0xB0,0x12
5.464010875000000,0,0xFF,0x02
5.464029083333333,0,0xFF,0x0C
5.465987750000000,0,0x98,0x1A
5.466005791666666,0,0xFF,0x12
5.466024000000000,0,0xFF,0x18
5.467987083333333,0,0x98,0x1A
5.468005125000000,0,0xFF,0x12
5.468023333333333,0,0xFF,0x18
5.469977958333334,0,0xB0,0x12
5.469996000000000,0,0xFF,0x12
5.470014208333334,0,0xFF,0x18
5.471972500000000,0,0xB0,0x12
5.471990541666667,0,0xFF,0x12
5.472008750000000,0,0xFF,0x18
5.473963375000000,0,0xB0,0x12
5.473981416666667,0,0xFF,0x12
5.473999625000000,0,0xFF,0x18
5.475951250000000,0,0xB0,0x12
5.475969291666667,0,0xFF,0x12
5.475987500000000,0,0xFF,0x18
5.477941166666667,0,0xB0,0x12
5.477959208333333,0,0xFF,0x12
5.477977416666667,0,0xFF,0x18
5.479939208333334,0,0x98,0x1A
5.479957250000000,0,0xFF,0x12
5.479975458333334,0,0xFF,0x18
5.481938916666667,0,0x90,0x12
5.481956958333333,0,0xFF,0x12
5.481975166666667,0,0xFF,0x18
5.483928000000000,0,0xB0,0x13
5.483946000000000,0,0x7F,0x1A
5.483964208333333,0,0xFF,0x18
5.485917750000000,0,0x90,0x12
5.485935791666667,0,0xFF,0x12
5.485954000000000,0,0xFF,0x18
5.487907416666666,0,0xB0,0x13
5.487925416666666,0,0x7F,0x12
5.487943625000000,0,0xFF,0x18
5.489900208333333,0,0x98,0x1A
5.489918250000000,0,0xFF,0x12
5.489936458333333,0,0xFF,0x18
5.489961250000000,0,0x87,0x18
5.489979291666667,0,0xFF,0x00
5.489997500000000,0,0xFF,0xFC
5.490020166666667,0,0x87,0x1A
5.490038208333333,0,0x00,0x12
5.490056291666667,0,0x0F,0x13
5.491014333333333,0,0x03,0x00
5.491032333333333,0,0x80,0x01
5.491050416666667,0,0x1E,0x01
5.491071000000000,0,0x34,0x81
5.491089041666666,0,0x80,0x01
5.491107125000000,0,0xC0,0x01
5.491127375000000,0,0x87,0x01
5.491145375000000,0,0xFF,0x00
5.491163583333333,0,0xFF,0x1E
5.491184458333334,0,0x07,0x01
5.491202500000000,0,0x00,0x01
5.491220541666666,0,0x1E,0x01
5.492596125000000,0,0x18,0x1A
5.492614166666667,0,0xFF,0x12
5.492632375000000,0,0xFF,0x1C
5.494595541666667,0,0xB0,0x12
5.494613583333333,0,0xFF,0x13
5.494631791666666,0,0xFF,0x1C
5.496589375000000,0,0x98,0x1A
5.496607416666667,0,0xFF,0x12
5.496625625000000,0,0xFF,0x1C
5.498579458333333,0,0x90,0x12
5.498597500000000,0,0xFF,0x12
5.498615708333333,0,0xFF,0x1C
5.500570083333334,0,0xF0,0x12
5.500588125000000,0,0xFF,0x13
5.500606333333334,0,0xFF,0x1C
5.502561750000000,0,0xB0,0x12
5.502579791666666,0,0xFF,0x12
5.502598000000000,0,0xFF,0x1C
5.504559541666667,0,0xB0,0x12
5.504577583333333,0,0xFF,0x10
5.504595791666667,0,0xFF,0x1E
5.506547541666666,0,0xF0,0x02
5.506565541666666,0,0x7F,0x12
5.506583750000000,0,0xFF,0x1C
5.508544000000000,0,0xF0,0x02
5.508562000000000,0,0x7F,0x12
5.508580208333333,0,0xFF,0x1C
5.510534375000000,0,0xF0,0x12
5.510552416666667,0,0xFF,0x13
5.510570625000000,0,0xFF,0x1C
5.512528166666667,0,0xF0,0x02
5.512546166666667,0,0x7F,0x12
5.512564375000000,0,0xFF,0x1C
5.514528500000000,0,0xF0,0x02
5.514546500000000,0,0x7F,0x12
5.514564708333333,0,0xFF,0x1C
5.516524125000000,0,0xB0,0x12
5.516542166666667,0,0xFF,0x13
5.516560375000000,0,0xFF,0x1C
5.518515875000000,0,0x98,0x10
5.518533916666667,0,0xFF,0x02
5.518552125000000,0,0xFF,0x0C
5.520510416666666,0,0x98,0x10
5.520528458333334,0,0xFF,0x02
5.520546666666666,0,0xFF,0x0C
5.522497708333334,0,0xB0,0x12
5.522515750000000,0,0xFF,0x12
5.522533958333334,0,0xFF,0x1C
5.522558750000000,0,0x87,0x12
5.522576791666666,0,0xFF,0x00
5.522595000000000,0,0xFF,0x9F
5.522615541666666,0,0x07,0x12
5.522633583333334,0,0x00,0x02
5.522651666666667,0,0x43,0x12
5.522813708333334,0,0x07,0x01
5.522831750000000,0,0x00,0x01
5.522849833333333,0,0x06,0x01
5.522870416666667,0,0x34,0x81
5.522888458333333,0,0x80,0x01
5.522906541666667,0,0xC0,0x01
5.522926791666666,0,0xC7,0x01
5.522944833333334,0,0xFF,0x00
5.522963041666666,0,0xFF,0x46
5.522983916666667,0,0x03,0x01
5.523001916666667,0,0x80,0x01
5.523020000000000,0,0xE6,0x01
5.524488041666666,0,0xF0,0x02
5.524506083333334,0,0xFF,0x12
5.524524291666666,0,0xFF,0x0C
5.526479416666667,0,0xB0,0x12
5.526497458333333,0,0xFF,0x02
5.526515666666667,0,0xFF,0x0C
5.528474708333333,0,0xB0,0x13
5.528492708333333,0,0x7F,0x1A
5.528510916666667,0,0xFF,0x04
5.530463625000000,0,0xF0,0x02
5.530481625000000,0,0x7F,0x12
5.530499833333334,0,0xFF,0x0C
5.532459000000000,0,0xB0,0x12
5.532477041666667,0,0xFF,0x10
5.532495250000000,0,0xFF,0x0E
5.534447208333333,0,0x98,0x10
5.534465250000000,0,0xFF,0x02
5.534483458333334,0,0xFF,0x0C
5.536446125000000,0,0x90,0x12
5.536464166666667,0,0xFF,0x12
5.536482375000000,0,0xFF,0x0C
5.538439416666667,0,0xB0,0x13
5.538457416666667,0,0xFF,0x18
5.538475625000000,0,0xFF,0x04
5.540427958333333,0,0xB0,0x13
5.540445958333334,0,0x7F,0x1A
5.540464166666666,0,0xFF,0x04
5.542416833333333,0,0xF0,0x12
5.542434833333333,0,0x7F,0x1A
5.542453041666667,0,0xFF,0x04
5.544405583333333,0,0xF0,0x02
5.544423583333334,0,0x7F,0x12
5.544441791666666,0,0xFF,0x0C
5.546394875000000,0,0xF0,0x12
5.546412916666666,0,0xFF,0x13
5.546431125000000,0,0xFF,0x0C
5.548391958333333,0,0xB0,0x12
5.548410000000000,0,0xFF,0x12
5.548428208333333,0,0xFF,0x0C
5.550382000000000,0,0xF0,0x12
5.550400041666666,0,0xFF,0x12
5.550418208333333,0,0xFF,0x0C
5.552380166666667,0,0xB0,0x12
5.552398166666666,0,0xFF,0x10
5.552416375000000,0,0xFF,0x0C
5.554367833333333,0,0xB0,0x12
5.554385875000000,0,0xFF,0x13
5.554404083333333,0,0xFF,0x0C
5.554428875000000,0,0x87,0x12
5.554446916666667,0,0xFF,0x00
5.554465125000000,0,0xFF,0xC2
5.554485666666666,0,0x07,0x10
5.554503708333334,0,0x00,0x02
5.554521750000000,0,0x00,0x12
5.554613125000000,0,0x07,0x01
5.554631166666667,0,0x00,0x01
5.554649250000000,0,0x00,0x01
5.554669833333334,0,0x1E,0x01
5.554687875000000,0,0xC0,0x01
5.554705916666666,0,0x00,0x81
5.554726166666667,0,0x87,0x01
5.554744208333333,0,0xFF,0x00
5.554762416666667,0,0xFF,0x00
5.554783291666666,0,0x03,0x01
5.554801291666666,0,0x80,0x01
5.554819375000000,0,0x80,0x01
5.556356291666667,0,0xF0,0x02
5.556374291666667,0,0x7F,0x12
5.556392500000000,0,0xFF,0x00
5.558347833333333,0,0xF0,0x13
5.558365833333333,0,0x7F,0x1A
5.558384041666667,0,0xFF,0x00
5.560338000000000,0,0xB0,0x12
5.560356041666667,0,0xFF,0x12
5.560374250000000,0,0xFF,0x00
5.562330333333334,0,0xF0,0x12
5.562348375000000,0,0xFF,0x12
5.562366583333334,0,0xFF,0x00
5.564319250000000,0,0xF0,0x12
5.564337291666667,0,0xFF,0x13
5.564355500000000,0,0xFF,0x00
5.566313333333333,0,0x98,0x10
5.566331375000000,0,0xFF,0x02
5.566349583333333,0,0xFF,0x00
5.568304458333333,0,0x98,0x10
5.568322500000000,0,0xFF,0x02
5.568340708333333,0,0xFF,0x00
5.570295583333333,0,0x90,0x12
5.570313625000000,0,0xFF,0x12
5.570331833333333,0,0xFF,0x00
5.572283500000000,0,0xF0,0x02
5.572301500000000,0,0x7F,0x12
5.572319708333334,0,0xFF,0x00
5.574272125000000,0,0xB0,0x12
5.574290166666667,0,0xFF,0x12
5.574308375000000,0,0xFF,0x00
5.576271541666666,0,0x98,0x10
5.576289583333334,0,0xFF,0x02
5.576307791666666,0,0xFF,0x00
5.578264333333333,0,0xB0,0x13
5.578282333333333,0,0xFF,0x1A
5.578300541666667,0,0xFF,0x00
5.580255708333334,0,0xF0,0x12
5.580273750000000,0,0xFF,0x12
5.580291958333333,0,0xFF,0x00
5.582252166666667,0,0xB0,0x12
5.582270208333333,0,0xFF,0x12
5.582288416666667,0,0xFF,0x00
5.584246125000000,0,0x98,0x10
5.584264166666666,0,0xFF,0x12
5.584282375000000,0,0xFF,0x00
5.586241500000000,0,0xB0,0x12
5.586259500000000,0,0xFF,0x10
5.586277708333333,0,0xFF,0x00
5.586302500000000,0,0x87,0x12
5.586320541666667,0,0xFF,0x00
5.586338750000000,0,0xFF,0x80
5.586359291666667,0,0x87,0x12
5.586377333333333,0,0x00,0x12
5.586395416666667,0,0x3C,0x02
5.587405500000000,0,0x07,0x01
5.587423541666666,0,0x00,0x01
5.587441583333334,0,0x28,0x81
5.587462208333333,0,0x34,0x01
5.587480250000000,0,0x80,0x01
5.587498291666667,0,0x00,0x01
5.587518541666666,0,0x87,0x01
5.587536583333334,0,0xFF,0x00
5.587554791666666,0,0xFF,0x28
5.587575666666667,0,0x03,0x00
5.587593666666667,0,0x00,0x01
5.587611750000000,0,0xE8,0x01
5.588999916666666,0,0xF0,0x02
5.589017916666666,0,0x7F,0x12
5.589036125000000,0,0xFF,0x10
5.590986833333333,0,0xB0,0x13
5.591004833333334,0,0xFF,0x10
5.591023041666666,0,0xFF,0x10
5.592973875000000,0,0xB0,0x12
5.592991916666667,0,0xFF,0x13
5.593010125000000,0,0xFF,0x10
5.594963041666666,0,0xB0,0x12
5.594981083333334,0,0xFF,0x1A
5.594999291666666,0,0xFF,0x18
5.596956041666667,0,0xB0,0x12
5.596974083333333,0,0xFF,0x10
5.596992291666667,0,0xFF,0x10
5.598949458333333,0,0xB0,0x12
5.598967500000000,0,0xFF,0x10
5.598985708333333,0,0xFF,0x10
5.600945625000000,0,0xB0,0x12
5.600963666666667,0,0xFF,0x12
5.600981875000000,0,0xFF,0x10
5.602937333333333,0,0xB0,0x12
5.602955375000000,0,0xFF,0x12
5.602973583333333,0,0xFF,0x10
5.604925416666667,0,0x90,0x12
5.604943458333334,0,0xFF,0x12
5.604961666666667,0,0xFF,0x10
5.606925708333334,0,0xB0,0x12
5.606943750000000,0,0xFF,0x12
5.606961958333334,0,0xFF,0x10
5.608918750000000,0,0xB0,0x12
5.608936791666666,0,0xFF,0x12
5.608955000000000,0,0xFF,0x00
5.610915833333333,0,0xF0,0x12
5.610933875000000,0,0xFF,0x12
5.610952083333333,0,0xFF,0x10
5.612910583333333,0,0x98,0x1A
5.612928625000000,0,0xFF,0x12
5.612946833333333,0,0xFF,0x10
5.614902333333333,0,0xF0,0x12
5.614920375000000,0,0xFF,0x13
5.614938583333333,0,0xFF,0x10
5.616895375000000,0,0xB0,0x12
5.616913416666667,0,0xFF,0x12
5.616931625000000,0,0xFF,0x10
5.618884083333334,0,0xF0,0x02
5.618902083333333,0,0x7F,0x12
5.618920291666667,0,0xFF,0x10
5.618945125000000,0,0x83,0x13
5.618963125000000,0,0xFF,0x00
5.618981333333333,0,0xFF,0xA0
5.619001916666667,0,0x03,0x13
5.619019916666667,0,0x80,0x1A
5.619038000000000,0,0x00,0x12
5.619205958333334,0,0x07,0x01
5.619224000000000,0,0x00,0x01
5.619242083333333,0,0x0F,0x00
5.619262666666667,0,0x3E,0x01
5.619280708333333,0,0xC0,0x01
5.619298791666667,0,0x80,0x01
5.619319000000000,0,0x07,0x01
5.619337041666666,0,0xFF,0x00
5.619355250000000,0,0xFF,0x0A
5.619376125000000,0,0x07,0x01
5.619394166666667,0,0x00,0x00
5.619412208333333,0,0x0B,0x81
5.620881958333333,0,0x10,0x12
5.620900000000000,0,0xFF,0x12
5.620918208333333,0,0xFF,0x14
5.622872916666667,0,0xF0,0x12
5.622890916666667,0,0x7F,0x12
5.622909125000000,0,0xFF,0x14
5.624871458333334,0,0xB0,0x12
5.624889500000000,0,0xFF,0x13
5.624907708333334,0,0xFF,0x14
5.626862625000000,0,0x98,0x1A
5.626880666666667,0,0xFF,0x12
5.626898875000000,0,0xFF,0x14
5.628858208333333,0,0xF0,0x02
5.628876208333334,0,0x7F,0x12
5.628894416666666,0,0xFF,0x14
5.630852500000000,0,0xF0,0x12
5.630870500000000,0,0x7F,0x12
5.630888708333333,0,0xFF,0x1C
5.632849416666667,0,0xF0,0x12
5.632867458333333,0,0xFF,0x12
5.632885625000000,0,0xFF,0x14
5.634838875000000,0,0xB0,0x12
5.634856916666667,0,0xFF,0x13
5.634875125000000,0,0xFF,0x14
5.636832958333334,0,0xB0,0x12
5.636851000000000,0,0xFF,0x13
5.636869208333334,0,0xFF,0x14
5.638825500000000,0,0xB0,0x12
5.638843541666667,0,0xFF,0x12
5.638861750000000,0,0xFF,0x14
5.640815125000000,0,0xB0,0x12
5.640833166666667,0,0xFF,0x12
5.640851375000000,0,0xFF,0x10
5.642806583333333,0,0xB0,0x12
5.642824625000000,0,0xFF,0x12
5.642842833333333,0,0xFF,0x00
5.644793666666667,0,0xB0,0x12
5.644811666666667,0,0xFF,0x10
5.644829875000000,0,0xFF,0x16
5.646787125000000,0,0xF0,0x12
5.646805166666667,0,0xFF,0x12
5.646823375000000,0,0xFF,0x14
5.648779375000000,0,0x98,0x1A
5.648797416666667,0,0xFF,0x12
5.648815625000000,0,0xFF,0x04
5.650778958333333,0,0xB0,0x12
5.650797000000000,0,0xFF,0x12
5.650815208333333,0,0xFF,0x14
5.650840000000000,0,0x87,0x1A
5.650858041666667,0,0xFF,0x00
5.650876250000000,0,0xFF,0xCA
5.650896791666667,0,0x87,0x12
5.650914833333333,0,0x00,0x12
5.650932916666667,0,0x32,0x02
5.651006416666666,0,0x03,0x01
5.651024416666667,0,0x80,0x81
5.651042500000000,0,0x18,0x01
5.651063125000000,0,0x30,0x00
5.651081125000000,0,0x00,0x01
5.651099208333333,0,0x80,0x01
5.651119458333334,0,0xC7,0x01
5.651137458333333,0,0xFF,0x80
5.651155708333333,0,0xFF,0x32
5.651176583333333,0,0x07,0x01
5.651194583333333,0,0x00,0x01
5.651212666666667,0,0xB2,0x01
5.652768333333333,0,0xB0,0x12
5.652786375000000,0,0xFF,0x13
5.652804583333333,0,0xFF,0x04
5.654759416666667,0,0xB0,0x12
5.654777458333333,0,0xFF,0x10
5.654795666666667,0,0xFF,0x06
5.656746250000000,0,0xB0,0x12
5.656764291666667,0,0xFF,0x10
5.656782500000000,0,0xFF,0x04
5.658738458333334,0,0x98,0x1A
5.658756500000000,0,0xFF,0x12
5.658774708333334,0,0xFF,0x04
5.660735291666667,0,0x90,0x12
5.660753333333333,0,0xFF,0x12
5.660771541666667,0,0xFF,0x04
5.662726291666667,0,0xB0,0x12
5.662744333333333,0,0xFF,0x02
5.662762541666667,0,0xFF,0x04
5.664722000000000,0,0xF0,0x02
5.664740041666667,0,0xFF,0x13
5.664758250000000,0,0xFF,0x04
5.666713500000000,0,0x98,0x1A
5.666731541666667,0,0xFF,0x12
5.666749750000000,0,0xFF,0x04
5.668712291666667,0,0xF0,0x12
5.668730333333333,0,0xFF,0x12
5.668748541666667,0,0xFF,0x04
5.670703666666666,0,0x98,0x10
5.670721708333334,0,0xFF,0x02
5.670739916666666,0,0xFF,0x04
5.672702291666667,0,0xB0,0x12
5.672720333333333,0,0xFF,0x02
5.672738541666667,0,0xFF,0x04
5.674692375000000,0,0xB0,0x12
5.674710375000000,0,0x7F,0x12
5.674728583333334,0,0xFF,0x04
5.676691375000000,0,0xF0,0x02
5.676709375000000,0,0x7F,0x12
5.676727583333333,0,0xFF,0x04
5.678686958333333,0,0x98,0x10
5.678705000000000,0,0xFF,0x02
5.678723208333333,0,0xFF,0x04
5.680678958333333,0,0xB0,0x12
5.680697000000000,0,0xFF,0x12
5.680715208333333,0,0xFF,0x00
5.682667500000000,0,0xF0,0x02
5.682685500000000,0,0x7F,0x12
5.682703708333333,0,0xFF,0x04
5.682728541666667,0,0xC3,0x02
5.682746541666667,0,0xFF,0x00
5.682764750000000,0,0xFF,0x92
5.682785333333333,0,0x03,0x12
5.682805416666667,0,0x80,0x12
5.682823500000000,0,0x16,0x12
5.683801125000000,0,0x07,0x01
5.683819166666667,0,0x00,0x01
5.683837250000000,0,0x00,0x01
5.683857833333334,0,0x1E,0x01
5.683875875000000,0,0xC0,0x01
5.683893958333333,0,0x80,0x01
5.683914166666667,0,0x07,0x01
5.683932208333333,0,0xFF,0x00
5.683950416666667,0,0xFF,0x04
5.683971291666666,0,0x07,0x01
5.683989291666666,0,0x80,0x81
5.684007375000000,0,0x9E,0x01
5.685394291666666,0,0xB0,0x13
5.685412291666666,0,0x7F,0x12
5.685430500000000,0,0xFF,0x08
5.687382583333333,0,0x98,0x1A
5.687400625000000,0,0xFF,0x12
5.687418833333333,0,0xFF,0x08
5.689374416666666,0,0x98,0x10
5.689392458333334,0,0xFF,0x12
5.689410666666666,0,0xFF,0x08
5.691364375000000,0,0xF0,0x02
5.691382375000000,0,0x7F,0x12
5.691400583333333,0,0xFF,0x08
5.693360875000000,0,0xB0,0x12
5.693378916666667,0,0xFF,0x10
5.693397125000000,0,0xFF,0x08
5.695360958333334,0,0xF0,0x12
5.695378958333333,0,0x7F,0x12
5.695397166666667,0,0xFF,0x08
5.697350375000000,0,0xB0,0x13
5.697368375000000,0,0x7F,0x1A
5.697386583333333,0,0xFF,0x00
5.699337916666667,0,0xB0,0x12
5.699355958333333,0,0xFF,0x10
5.699374166666667,0,0xFF,0x08
5.701330166666667,0,0xB0,0x12
5.701348166666667,0,0xFF,0x10
5.701366375000000,0,0xFF,0x08
5.703323708333333,0,0xF0,0x02
5.703341708333333,0,0x7F,0x12
5.703359916666667,0,0xFF,0x08
5.705315000000000,0,0xB0,0x12
5.705333041666667,0,0xFF,0x13
5.705351250000000,0,0xFF,0x08
5.707302208333333,0,0xB0,0x12
5.707320250000000,0,0xFF,0x12
5.707338458333333,0,0xFF,0x0C
5.709292416666667,0,0xB0,0x12
5.709310458333333,0,0xFF,0x12
5.709328666666667,0,0xFF,0x08
5.711286166666667,0,0xF0,0x12
5.711304208333333,0,0xFF,0x12
5.711322416666667,0,0xFF,0x08
5.713280416666667,0,0xB0,0x12
5.713298458333333,0,0xFF,0x13
5.713316666666667,0,0xFF,0x08
5.715268083333333,0,0xF0,0x12
5.715286083333333,0,0x7F,0x12
5.715304291666667,0,0xFF,0x00
5.715329125000000,0,0x83,0x13
5.715347125000000,0,0xFF,0x00
5.715365333333334,0,0xFF,0x96
5.715385916666667,0,0x07,0x12
5.715403916666666,0,0x00,0x10
5.715422000000000,0,0x3C,0x12
5.715601708333334,0,0x07,0x01
5.715619750000000,0,0x00,0x00
5.715637791666667,0,0x3C,0x01
5.715658416666667,0,0x34,0x01
5.715676458333333,0,0x80,0x01
5.715694500000000,0,0x00,0x01
5.715714750000000,0,0x87,0x01
5.715732791666666,0,0xFF,0x00
5.715751000000000,0,0xFF,0x3C
5.715771875000000,0,0x03,0x00
5.715789875000000,0,0x00,0x01
5.715807958333333,0,0xBE,0x01
5.717261791666667,0,0x30,0x12
5.717279833333333,0,0xFF,0x12
5.717298041666667,0,0xFF,0x18
5.719255041666667,0,0x98,0x10
5.719273083333333,0,0xFF,0x02
5.719291291666667,0,0xFF,0x0C
5.721242833333333,0,0xF0,0x12
5.721260833333333,0,0x7F,0x12
5.721279041666667,0,0xFF,0x18
5.723235583333333,0,0xF0,0x02
5.723253583333333,0,0x7F,0x12
5.723271791666667,0,0xFF,0x18
5.725228958333333,0,0xB0,0x12
5.725247000000000,0,0xFF,0x12
5.725265208333333,0,0xFF,0x18
5.727217250000000,0,0xB0,0x12
5.727235291666666,0,0xFF,0x12
5.727253500000000,0,0xFF,0x18
5.729216958333334,0,0xB0,0x12
5.729235000000000,0,0xFF,0x12
5.729253208333334,0,0xFF,0x1C
5.731208333333333,0,0x98,0x10
5.731226375000000,0,0xFF,0x02
5.731244583333333,0,0xFF,0x18
5.733204958333333,0,0xB0,0x12
5.733223000000000,0,0xFF,0x10
5.733241208333333,0,0xFF,0x18
5.735194666666667,0,0xF0,0x02
5.735212666666667,0,0x7F,0x12
5.735230875000000,0,0xFF,0x18
5.737184625000000,0,0x90,0x12
5.737202666666667,0,0xFF,0x12
5.737220875000000,0,0xFF,0x18
5.739177916666667,0,0xB0,0x12
5.739195958333333,0,0xFF,0x02
5.739214166666667,0,0xFF,0x1C
5.741165958333333,0,0x98,0x10
5.741184000000000,0,0xFF,0x02
5.741202208333333,0,0xFF,0x0C
5.743155500000000,0,0x90,0x12
5.743173541666667,0,0xFF,0x12
5.743191750000000,0,0xFF,0x18
5.745143958333333,0,0xF0,0x02
5.745162000000000,0,0xFF,0x12
5.745180208333333,0,0xFF,0x18
5.747132625000000,0,0xB0,0x12
5.747150666666666,0,0xFF,0x12
5.747168875000000,0,0xFF,0x18
5.747193666666667,0,0x87,0x12
5.747211708333333,0,0xFF,0x00
5.747229916666667,0,0xFF,0xBC
5.747250458333333,0,0x07,0x10
5.747268500000000,0,0x00,0x02
5.747286583333334,0,0x1F,0x12
5.747401791666666,0,0x07,0x01
5.747419833333334,0,0x00,0x01
5.747437875000000,0,0x1F,0x81
5.747458500000000,0,0x34,0x01
5.747476541666667,0,0x80,0x00
5.747494583333333,0,0x00,0x01
5.747514833333334,0,0x07,0x01
5.747532875000000,0,0xFF,0x00
5.747551083333334,0,0xFF,0x1E
5.747571958333333,0,0x07,0x01
5.747590000000000,0,0x00,0x01
5.747608083333334,0,0x9F,0x01
5.749132625000000,0,0x98,0x10
5.749150666666667,0,0xFF,0x02
5.749168875000000,0,0xFF,0x0C
5.751127000000000,0,0xB0,0x12
5.751145041666667,0,0xFF,0x13
5.751163250000000,0,0xFF,0x1C
5.753116041666667,0,0xB0,0x12
5.753134041666667,0,0xFF,0x1A
5.753152250000000,0,0xFF,0x1C
5.755108541666667,0,0x98,0x1A
5.755126583333333,0,0xFF,0x12
5.755144791666667,0,0xFF,0x1C
5.757105041666667,0,0xB0,0x13
5.757123041666667,0,0x7F,0x1A
5.757141250000000,0,0xFF,0x1C
5.759092333333333,0,0xB0,0x13
5.759110333333333,0,0x7F,0x12
5.759128541666667,0,0xFF,0x1C
5.761085708333334,0,0xB0,0x12
5.761103750000000,0,0xFF,0x12
5.761121958333334,0,0xFF,0x1C
5.763078041666667,0,0xB0,0x12
5.763096041666667,0,0xFF,0x10
5.763114250000000,0,0xFF,0x1E
5.765075916666667,0,0xB0,0x13
5.765093916666666,0,0x7F,0x1A
5.765112125000000,0,0xFF,0x1E
5.767067041666667,0,0x98,0x1A
5.767085083333333,0,0xFF,0x12
5.767103291666666,0,0xFF,0x1C
5.769057250000000,0,0xB0,0x12
5.769075291666667,0,0xFF,0x02
5.769093500000000,0,0xFF,0x1C
5.771050250000000,0,0x90,0x12
5.771068291666666,0,0xFF,0x12
5.771086500000000,0,0xFF,0x1C
5.773043916666666,0,0xB0,0x12
5.773061916666666,0,0x7F,0x12
5.773080125000000,0,0xFF,0x1C
5.775033583333333,0,0xB0,0x12
5.775051625000000,0,0xFF,0x12
5.775069833333333,0,0xFF,0x1C
5.777026041666667,0,0xB0,0x12
5.777044083333333,0,0xFF,0x12
5.777062291666667,0,0xFF,0x1C
5.779013791666666,0,0xF0,0x02
5.779031791666666,0,0x7F,0x13
5.779050041666666,0,0xFF,0x1C
5.779074833333333,0,0x87,0x12
5.779092875000000,0,0xFF,0x00
5.779111083333333,0,0xFF,0xDE
5.779131625000000,0,0x87,0x12
5.779149666666667,0,0x00,0x10
5.779167750000000,0,0x46,0x12
5.779202958333333,0,0x07,0x01
5.779221000000000,0,0x00,0x00
5.779239041666667,0,0x47,0x81
5.779259666666666,0,0x36,0x01
5.779277708333334,0,0xC0,0x01
5.779295791666667,0,0x80,0x00
5.779316000000000,0,0x07,0x81
5.779334041666667,0,0xFF,0x00
5.779352250000000,0,0xFF,0x46
5.779373125000000,0,0x87,0x01
5.779391166666667,0,0x00,0x01
5.779409250000000,0,0xC6,0x01
5.781011708333334,0,0xB0,0x13
5.781029708333334,0,0x7F,0x1A
5.781047916666667,0,0xFF,0x04
5.783006541666667,0,0xB0,0x13
5.783024583333333,0,0x7F,0x1A
5.783042791666666,0,0xFF,0x04
5.784999708333333,0,0xF0,0x12
5.785017708333333,0,0x7F,0x12
5.785035958333333,0,0xFF,0x0C
5.786994541666667,0,0x90,0x12
5.787012583333333,0,0xFF,0x12
5.787030791666667,0,0xFF,0x0C
5.788986541666667,0,0xF0,0x02
5.789004583333333,0,0xFF,0x13
5.789022791666667,0,0xFF,0x0C
5.790980083333333,0,0xB0,0x13
5.790998083333333,0,0x7F,0x1A
5.791016291666667,0,0xFF,0x04
5.792977583333333,0,0xF0,0x12
5.792995625000000,0,0xFF,0x13
5.793013833333333,0,0xFF,0x0C
5.794970541666666,0,0xF0,0x12
5.794988583333334,0,0xFF,0x13
5.795006791666666,0,0xFF,0x0C
5.796959541666666,0,0xB0,0x12
5.796977541666666,0,0xFF,0x10
5.796995750000000,0,0xFF,0x04
5.798952416666666,0,0xB0,0x12
5.798970458333334,0,0xFF,0x12
5.798988666666666,0,0xFF,0x0C
5.800950375000000,0,0xF0,0x12
5.800968416666667,0,0xFF,0x13
5.800986625000000,0,0xFF,0x0C
5.802947000000000,0,0x98,0x1A
5.802965041666667,0,0xFF,0x12
5.802983250000000,0,0xFF,0x0C
5.804946750000000,0,0xB0,0x12
5.804964791666666,0,0xFF,0x12
5.804983000000000,0,0xFF,0x0E
5.806936500000000,0,0x90,0x12
5.806954541666666,0,0xFF,0x12
5.806972750000000,0,0xFF,0x0C
5.808935875000000,0,0xB0,0x12
5.808953916666667,0,0xFF,0x12
5.808972125000000,0,0xFF,0x0C
5.810929625000000,0,0xF0,0x12
5.810947666666666,0,0xFF,0x12
5.810965875000000,0,0xFF,0x0C
5.810990666666667,0,0xC7,0x02
5.811008875000000,0,0xFF,0x00
5.811027083333333,0,0xFF,0xC2
5.811047625000000,0,0x07,0x12
5.811065666666667,0,0x00,0x12
5.811083708333333,0,0x00,0x12
5.811998208333334,0,0x07,0x01
5.812016250000000,0,0x00,0x01
5.812034333333333,0,0x00,0x01
5.812054916666667,0,0x1E,0x01
5.812072958333333,0,0xC0,0x01
5.812091041666666,0,0x80,0x01
5.812111291666667,0,0x83,0x01
5.812129291666666,0,0xFF,0x00
5.812147500000000,0,0xFF,0x00
5.812168375000000,0,0x07,0x01
5.812186416666667,0,0x00,0x01
5.812204500000000,0,0x80,0x00
5.813579083333333,0,0xB0,0x12
5.813597125000000,0,0xFF,0x12
5.813615333333333,0,0xFF,0x00
5.815576541666666,0,0xB0,0x13
5.815594541666667,0,0x7F,0x12
5.815612750000000,0,0xFF,0x00
5.817566250000000,0,0xF0,0x12
5.817584291666667,0,0xFF,0x13
5.817602500000000,0,0xFF,0x00
5.819556083333334,0,0xB0,0x12
5.819574083333333,0,0x7F,0x12
5.819592291666667,0,0xFF,0x00
5.821546250000000,0,0xF0,0x12
5.821564291666666,0,0xFF,0x12
5.821582458333333,0,0xFF,0x00
5.823536416666666,0,0xB0,0x12
5.823554458333334,0,0xFF,0x12
5.823572666666666,0,0xFF,0x00
5.825525958333333,0,0x98,0x1A
5.825544000000000,0,0xFF,0x12
5.825562208333333,0,0xFF,0x00
5.827525541666667,0,0x98,0x10
5.827543583333333,0,0xFF,0x12
5.827561791666667,0,0xFF,0x00
5.829520458333334,0,0xF0,0x02
5.829538458333333,0,0x7F,0x12
5.829556666666667,0,0xFF,0x00
5.831519625000000,0,0xB0,0x12
5.831537625000000,0,0x7F,0x12
5.831555833333334,0,0xFF,0x00
5.833509458333333,0,0xF0,0x12
5.833527458333333,0,0x7F,0x12
5.833545666666667,0,0xFF,0x00
5.835498833333333,0,0x90,0x12
5.835516875000000,0,0xFF,0x12
5.835535083333333,0,0xFF,0x00
5.837498250000000,0,0x98,0x1A
5.837516291666667,0,0xFF,0x12
5.837534500000000,0,0xFF,0x00
5.839489291666666,0,0xF0,0x12
5.839507291666667,0,0x7F,0x12
5.839525500000000,0,0xFF,0x00
5.841476333333333,0,0xB0,0x12
5.841494375000000,0,0xFF,0x12
5.841512583333333,0,0xFF,0x00
5.843464791666666,0,0xB0,0x12
5.843482833333334,0,0xFF,0x10
5.843501041666666,0,0xFF,0x00
5.843525875000000,0,0x83,0x13
5.843543875000000,0,0xFF,0x00
5.843562083333333,0,0xFF,0x00
5.843582666666666,0,0x07,0x12
5.843600708333334,0,0x00,0x12
5.843618750000000,0,0x28,0x12
5.843799958333333,0,0x07,0x01
5.843817958333333,0,0x80,0x81
5.843836041666667,0,0x00,0x01
5.843856666666666,0,0x30,0x01
5.843874666666666,0,0x00,0x81
5.843892750000000,0,0x00,0x01
5.843913000000000,0,0x87,0x01
5.843931041666667,0,0xFF,0x00
5.843949250000000,0,0xFF,0x2C
5.843970125000000,0,0x03,0x01
5.843988125000000,0,0x80,0x81
5.844006208333333,0,0x00,0x01
5.845456750000000,0,0xF0,0x02
5.845474750000000,0,0x7F,0x12
5.845492958333334,0,0xFF,0x10
5.847446666666666,0,0x98,0x1A
5.847464708333334,0,0xFF,0x12
5.847482916666666,0,0xFF,0x10
5.849438750000000,0,0xF0,0x12
5.849456750000000,0,0x7F,0x12
5.849474958333333,0,0xFF,0x10
5.851435625000000,0,0xF0,0x02
5.851453625000000,0,0x7F,0x12
5.851471833333333,0,0xFF,0x10
5.853435291666667,0,0xB0,0x12
5.853453291666667,0,0xFF,0x10
5.853471500000000,0,0xFF,0x10
5.855424791666667,0,0xB0,0x12
5.855442833333333,0,0xFF,0x12
5.855461041666667,0,0xFF,0x10
5.857412875000000,0,0xB0,0x12
5.857430916666667,0,0xFF,0x13
5.857449125000000,0,0xFF,0x10
5.859412041666666,0,0xF0,0x12
5.859430083333334,0,0xFF,0x13
5.859448291666666,0,0xFF,0x10
5.861402750000000,0,0xB0,0x12
5.861420791666666,0,0xFF,0x12
5.861439000000000,0,0xFF,0x00
5.863401666666666,0,0xB0,0x12
5.863419708333334,0,0xFF,0x02
5.863437916666666,0,0xFF,0x00
5.865394416666667,0,0xB0,0x12
5.865412458333333,0,0xFF,0x13
5.865430666666667,0,0xFF,0x10
5.867389125000000,0,0xB0,0x12
5.867407125000000,0,0x7F,0x12
5.867425333333333,0,0xFF,0x10
5.869385541666666,0,0xB0,0x12
5.869403541666666,0,0xFF,0x10
5.869421750000000,0,0xFF,0x10
5.871378333333333,0,0xB0,0x12
5.871396375000000,0,0xFF,0x10
5.871414583333333,0,0xFF,0x10
5.873368750000000,0,0xB0,0x12
5.873386750000000,0,0xFF,0x10
5.873404958333333,0,0xFF,0x10
5.875359291666666,0,0xB0,0x12
5.875377333333334,0,0xFF,0x1A
5.875395541666666,0,0xFF,0x18
5.875420375000000,0,0xC3,0x02
5.875438375000000,0,0xFF,0x00
5.875456625000000,0,0xFF,0xA8
5.875477166666666,0,0x07,0x12
5.875495208333334,0,0x00,0x02
5.875513291666667,0,0x0F,0x13
5.875601875000000,0,0x07,0x01
5.875619916666666,0,0x00,0x00
5.875637958333333,0,0x0B,0x81
5.875658583333333,0,0x36,0x01
5.875676625000000,0,0xC0,0x01
5.875694666666667,0,0x00,0x81
5.875714916666666,0,0x07,0x01
5.875732958333334,0,0xFF,0x00
5.875751166666666,0,0xFF,0x08
5.875772041666667,0,0x07,0x01
5.875790083333333,0,0x00,0x01
5.875808166666666,0,0x8E,0x01
5.877354458333333,0,0xF0,0x12
5.877372500000000,0,0xFF,0x13
5.877390708333333,0,0xFF,0x14
5.879345750000000,0,0xB0,0x13
5.879363750000000,0,0xFF,0x1A
5.879381958333333,0,0xFF,0x1C
5.881338875000000,0,0xB0,0x12
5.881356916666666,0,0xFF,0x1A
5.881375125000000,0,0xFF,0x14
5.883330541666667,0,0xB0,0x12
5.883348583333333,0,0xFF,0x02
5.883366791666667,0,0xFF,0x04
5.885319000000000,0,0xB0,0x12
5.885337041666666,0,0xFF,0x10
5.885355250000000,0,0xFF,0x16
5.887310625000000,0,0xB0,0x12
5.887328666666667,0,0xFF,0x10
5.887346875000000,0,0xFF,0x16
5.889299625000000,0,0xB0,0x13
5.889317625000000,0,0x7F,0x12
5.889335833333333,0,0xFF,0x14
5.891289708333334,0,0xB0,0x13
5.891307708333334,0,0x7F,0x12
5.891325916666666,0,0xFF,0x14
5.893280541666667,0,0xF0,0x12
5.893298583333333,0,0xFF,0x13
5.893316791666667,0,0xFF,0x14
5.895268833333334,0,0xB0,0x12
5.895286875000000,0,0xFF,0x13
5.895305083333334,0,0xFF,0x14
5.897259791666666,0,0xB0,0x12
5.897277833333334,0,0xFF,0x12
5.897296041666666,0,0xFF,0x14
5.899251000000000,0,0x98,0x1A
5.899269041666667,0,0xFF,0x12
5.899287250000000,0,0xFF,0x14
5.901248416666666,0,0xB0,0x13
5.901266416666667,0,0x7F,0x1A
5.901284625000000,0,0xFF,0x16
5.903243583333333,0,0xF0,0x02
5.903261583333333,0,0x7F,0x12
5.903279791666667,0,0xFF,0x14
5.905234541666666,0,0xF0,0x02
5.905252541666667,0,0x7F,0x12
5.905270750000000,0,0xFF,0x14
5.907226208333333,0,0x98,0x10
5.907244250000000,0,0xFF,0x02
5.907262458333333,0,0xFF,0x00
5.907287250000000,0,0x87,0x12
5.907305291666667,0,0xFF,0x00
5.907323500000000,0,0xFF,0x8E
5.907344041666667,0,0x07,0x10
5.907362083333333,0,0x00,0x12
5.907380166666667,0,0x33,0x13
5.908396750000000,0,0x03,0x01
5.908414750000000,0,0x80,0x01
5.908432833333333,0,0x38,0x01
5.908453458333334,0,0x30,0x01
5.908471458333334,0,0x80,0x01
5.908489541666667,0,0xC0,0x01
5.908509791666667,0,0xC3,0x00
5.908527791666667,0,0xFF,0x00
5.908546000000000,0,0xFF,0x1A
5.908566875000000,0,0x87,0x01
5.908584916666666,0,0x00,0x01
5.908603000000000,0,0xF2,0x01
5.909991458333334,0,0x98,0x12
5.910009500000000,0,0xFF,0x12
5.910027708333334,0,0xFF,0x04
5.911983791666667,0,0xF0,0x02
5.912001791666667,0,0x7F,0x12
5.912020041666667,0,0xFF,0x04
5.913973416666667,0,0xB0,0x12
5.913991458333333,0,0xFF,0x12
5.914009666666667,0,0xFF,0x00
5.915967541666666,0,0xB0,0x12
5.915985541666666,0,0xFF,0x10
5.916003750000000,0,0xFF,0x06
5.917955250000000,0,0xB0,0x13
5.917973250000000,0,0xFF,0x1A
5.917991458333334,0,0xFF,0x04
5.919942875000000,0,0xB0,0x12
5.919960916666667,0,0xFF,0x02
5.919979125000000,0,0xFF,0x04
5.921936416666667,0,0x90,0x12
5.921954458333333,0,0xFF,0x12
5.921972666666667,0,0xFF,0x04
5.923927208333334,0,0xB0,0x13
5.923945208333333,0,0x7F,0x12
5.923963416666667,0,0xFF,0x04
5.925922500000000,0,0xB0,0x12
5.925940541666667,0,0xFF,0x02
5.925958750000000,0,0xFF,0x04
5.927922708333333,0,0xB0,0x12
5.927940708333334,0,0xFF,0x10
5.927958916666666,0,0xFF,0x06
5.929911166666667,0,0xB0,0x12
5.929929208333333,0,0xFF,0x12
5.929947416666667,0,0xFF,0x04
5.931910875000000,0,0x98,0x1A
5.931928916666667,0,0xFF,0x12
5.931947125000000,0,0xFF,0x04
5.933907000000000,0,0x90,0x12
5.933925041666667,0,0xFF,0x12
5.933943250000000,0,0xFF,0x04
5.935895000000000,0,0xB0,0x12
5.935913041666667,0,0xFF,0x10
5.935931250000000,0,0xFF,0x06
5.937889041666667,0,0xB0,0x12
5.937907083333333,0,0xFF,0x10
5.937925291666667,0,0xFF,0x06
5.939877458333333,0,0xB0,0x12
5.939895500000000,0,0xFF,0x02
5.939913708333333,0,0xFF,0x00
5.939938500000000,0,0x87,0x10
5.939956541666667,0,0xFF,0x00
5.939974750000000,0,0xFF,0xF2
5.939995291666667,0,0x87,0x1A
5.940013333333333,0,0x00,0x12
5.940031416666667,0,0x04,0x02
5.940198833333334,0,0x07,0x01
5.940216875000000,0,0x00,0x01
5.940234958333333,0,0x14,0x01
5.940255541666667,0,0x34,0x81
5.940273583333333,0,0x80,0x01
5.940291666666667,0,0xC0,0x01
5.940311916666666,0,0xC3,0x01
5.940329916666666,0,0xFF,0x80
5.940348125000000,0,0xFF,0x14
5.940369000000000,0,0x87,0x01
5.940387041666667,0,0x00,0x01
5.940405125000000,0,0x94,0x01
5.941866541666666,0,0x30,0x92
5.941884583333334,0,0xFF,0x10
5.941902791666666,0,0xFF,0x08
5.943865208333333,0,0xB0,0x12
5.943883208333333,0,0x7F,0x12
5.943901416666667,0,0xFF,0x08
5.945863833333333,0,0x90,0x12
5.945881875000000,0,0xFF,0x12
5.945900083333333,0,0xFF,0x08
5.947851541666667,0,0xF0,0x12
5.947869583333333,0,0xFF,0x13
5.947887791666667,0,0xFF,0x08
5.949842916666666,0,0xB0,0x12
5.949860958333334,0,0xFF,0x12
5.949879166666666,0,0xFF,0x08
5.951832708333334,0,0xB0,0x12
5.951850750000000,0,0xFF,0x10
5.951868958333334,0,0xFF,0x08
5.953824500000000,0,0x98,0x10
5.953842541666667,0,0xFF,0x12
5.953860750000000,0,0xFF,0x08
5.955814958333334,0,0x98,0x1A
5.955833000000000,0,0xFF,0x12
5.955851208333334,0,0xFF,0x08
5.957807250000000,0,0xB0,0x12
5.957825250000000,0,0xFF,0x1A
5.957843458333334,0,0xFF,0x00
5.959798750000000,0,0xF0,0x12
5.959816791666666,0,0xFF,0x13
5.959835000000000,0,0xFF,0x0C
5.961793375000000,0,0x98,0x10
5.961811416666666,0,0xFF,0x02
5.961829625000000,0,0xFF,0x08
5.963792958333333,0,0xF0,0x02
5.963811000000000,0,0xFF,0x13
5.963829208333333,0,0xFF,0x08
5.965785500000000,0,0xF0,0x12
5.965803541666666,0,0xFF,0x13
5.965821750000000,0,0xFF,0x08
5.967775458333334,0,0x90,0x12
5.967793500000000,0,0xFF,0x12
5.967811708333334,0,0xFF,0x0C
5.969771416666667,0,0x98,0x1A
5.969789458333334,0,0xFF,0x12
5.969807666666667,0,0xFF,0x08
5.971771083333334,0,0xF0,0x12
5.971789125000000,0,0xFF,0x13
5.971807333333333,0,0xFF,0x08
5.971832125000000,0,0x87,0x12
5.971850166666667,0,0xFF,0x00
5.971868375000000,0,0xFF,0x94
5.971888916666667,0,0x07,0x12
5.971906958333333,0,0x00,0x12
5.971925000000000,0,0x3C,0x12
5.972000666666666,0,0x07,0x01
5.972018708333334,0,0x00,0x01
5.972036791666667,0,0x3C,0x01
5.972057375000000,0,0x34,0x01
5.972075416666667,0,0x80,0x01
5.972093500000000,0,0xC0,0x01
5.972113750000000,0,0x83,0x00
5.972131750000000,0,0xFF,0x00
5.972149958333334,0,0xFF,0x1C
5.972170833333333,0,0x87,0x01
5.972188875000000,0,0x00,0x01
5.972206958333333,0,0xFC,0x01
5.973762625000000,0,0xF0,0x12
5.973780625000000,0,0x7F,0x12
5.973798833333333,0,0xFF,0x18
5.975762791666667,0,0xF0,0x12
5.975780791666667,0,0x7F,0x1A
5.975799000000000,0,0xFF,0x18
5.977762541666666,0,0xB0,0x12
5.977780583333334,0,0xFF,0x10
5.977798791666666,0,0xFF,0x18
5.979757125000000,0,0x90,0x12
5.979775166666666,0,0xFF,0x12
5.979793375000000,0,0xFF,0x18
5.981750958333333,0,0x98,0x18
5.981769000000000,0,0xFF,0x12
5.981787208333333,0,0xFF,0x08
5.983744666666666,0,0xB0,0x12
5.983762708333333,0,0xFF,0x13
5.983780916666666,0,0xFF,0x18
5.985737000000000,0,0xF0,0x02
5.985755000000000,0,0x7F,0x12
5.985773250000000,0,0xFF,0x18
5.987730208333334,0,0xF0,0x12
5.987748250000000,0,0xFF,0x12
5.987766458333334,0,0xFF,0x18
5.989718416666666,0,0x98,0x1A
5.989736458333334,0,0xFF,0x12
5.989754666666666,0,0xFF,0x18
5.991709833333333,0,0x98,0x10
5.991727875000000,0,0xFF,0x12
5.991746083333333,0,0xFF,0x18
5.993697500000000,0,0x98,0x1A
5.993715541666667,0,0xFF,0x12
5.993733750000000,0,0xFF,0x18
5.995689000000000,0,0xB0,0x12
5.995707041666667,0,0xFF,0x12
5.995725250000000,0,0xFF,0x0C
5.997686583333333,0,0x98,0x1A
5.997704625000000,0,0xFF,0x12
5.997722833333333,0,0xFF,0x18
5.999679458333333,0,0xB0,0x12
5.999697500000000,0,0xFF,0x13
5.999715708333333,0,0xFF,0x18
6.001672125000000,0,0xB0,0x12
6.001690125000000,0,0xFF,0x10
6.001708333333333,0,0xFF,0x18
6.003670291666666,0,0xF0,0x12
6.003688291666666,0,0x7F,0x12
6.003706541666666,0,0xFF,0x18
6.003731333333334,0,0xC7,0x12
6.003749375000000,0,0xFF,0x00
6.003767583333333,0,0xFF,0xBC
6.003788125000000,0,0x07,0x18
6.003806000000000,0,0x00,0x13
6.003824041666666,0,0x1E,0x12
6.004794916666667,0,0x03,0x00
6.004812916666666,0,0x80,0x01
6.004831000000000,0,0x1E,0x01
6.004851625000000,0,0x30,0x00
6.004869625000000,0,0x00,0x01
6.004887708333333,0,0x80,0x01
6.004907958333333,0,0xC7,0x01
6.004926000000000,0,0xFF,0x00
6.004944166666666,0,0xFF,0x1E
6.004965041666667,0,0x87,0x01
6.004983083333333,0,0x00,0x01
6.005001166666666,0,0xDE,0x01
6.006388333333334,0,0x30,0x92
6.006406375000000,0,0xFF,0x10
6.006424583333334,0,0xFF,0x1E
6.008375625000000,0,0xB0,0x12
6.008393666666667,0,0xFF,0x12
6.008411875000000,0,0xFF,0x0C
6.010368083333334,0,0x98,0x10
6.010386125000000,0,0xFF,0x02
6.010404333333334,0,0xFF,0x0C
6.012366875000000,0,0xF0,0x02
6.012384875000000,0,0x7F,0x12
6.012403083333333,0,0xFF,0x1C
6.014362041666667,0,0x98,0x10
6.014380083333333,0,0xFF,0x02
6.014398291666667,0,0xFF,0x1C
6.016352500000000,0,0xF0,0x12
6.016370541666666,0,0xFF,0x12
6.016388708333333,0,0xFF,0x1C
6.018339958333334,0,0x98,0x1A
6.018358000000000,0,0xFF,0x12
6.018376208333334,0,0xFF,0x1C
6.020328708333333,0,0xB0,0x12
6.020346750000000,0,0xFF,0x10
6.020364958333333,0,0xFF,0x1E
6.022324375000000,0,0x90,0x12
6.022342416666667,0,0xFF,0x12
6.022360625000000,0,0xFF,0x1C
6.024317250000000,0,0xB0,0x13
6.024335250000000,0,0x7F,0x1A
6.024353458333334,0,0xFF,0x1C
6.026310708333333,0,0x98,0x10
6.026328750000000,0,0xFF,0x12
6.026346958333333,0,0xFF,0x1C
6.028299541666667,0,0xF0,0x12
6.028317583333333,0,0xFF,0x13
6.028335791666667,0,0xFF,0x1C
6.030293833333333,0,0xF0,0x12
6.030311875000000,0,0xFF,0x12
6.030330041666667,0,0xFF,0x1C
6.032294458333333,0,0xF0,0x02
6.032312458333333,0,0x7F,0x12
6.032330666666667,0,0xFF,0x1C
6.034292291666667,0,0x98,0x10
6.034310333333333,0,0xFF,0x02
6.034328541666667,0,0xFF,0x0C
6.036285958333333,0,0xF0,0x12
6.036304000000000,0,0xFF,0x12
6.036322208333333,0,0xFF,0x1C
6.036347000000000,0,0xC7,0x12
6.036365041666667,0,0xFF,0x00
6.036383250000000,0,0xFF,0x9F
6.036403791666666,0,0x07,0x12
6.036421833333334,0,0x00,0x12
6.036439916666667,0,0x47,0x12
6.036595916666666,0,0x07,0x01
6.036613958333334,0,0x00,0x01
6.036632000000000,0,0x47,0x81
6.036652625000000,0,0x3E,0x01
6.036670666666667,0,0xC0,0x01
6.036688750000000,0,0x80,0x00
6.036708958333334,0,0x07,0x81
6.036727000000000,0,0xFF,0x00
6.036745208333334,0,0xFF,0x46
6.036766083333333,0,0x87,0x01
6.036784125000000,0,0x00,0x01
6.036802208333333,0,0xC2,0x01
6.038283250000000,0,0xB0,0x13
6.038301250000000,0,0x7F,0x1A
6.038319458333334,0,0xFF,0x04
6.040275541666666,0,0xB0,0x12
6.040293583333334,0,0xFF,0x13
6.040311791666666,0,0xFF,0x0C
6.042265708333334,0,0xB0,0x13
6.042283708333334,0,0x7F,0x12
6.042301916666666,0,0xFF,0x0C
6.044257041666667,0,0xB0,0x12
6.044275083333333,0,0xFF,0x10
6.044293291666667,0,0xFF,0x0E
6.046246833333333,0,0xF0,0x02
6.046264833333334,0,0x7F,0x12
6.046283041666666,0,0xFF,0x0C
6.048237833333333,0,0x98,0x18
6.048255875000000,0,0xFF,0x02
6.048274083333333,0,0xFF,0x0C
6.050225458333333,0,0xB0,0x12
6.050243500000000,0,0xFF,0x13
6.050261708333333,0,0xFF,0x0C
6.052224458333333,0,0xF0,0x12
6.052242458333334,0,0x7F,0x12
6.052260666666666,0,0xFF,0x0C
6.054216833333333,0,0xB0,0x12
6.054234875000000,0,0xFF,0x12
6.054253083333333,0,0xFF,0x0C
6.056207458333334,0,0xB0,0x12
6.056225500000000,0,0xFF,0x12
6.056243708333334,0,0xFF,0x0C
6.058198291666667,0,0xF0,0x02
6.058216291666667,0,0x7F,0x1A
6.058234500000000,0,0xFF,0x04
6.060190541666667,0,0xB0,0x12
6.060208583333333,0,0xFF,0x10
6.060226791666667,0,0xFF,0x0E
6.062183750000000,0,0x98,0x1A
6.062201791666666,0,0xFF,0x12
6.062220000000000,0,0xFF,0x0C
6.064178791666667,0,0x98,0x10
6.064196833333333,0,0xFF,0x12
6.064215041666666,0,0xFF,0x0C
6.066176583333333,0,0xB0,0x13
6.066194583333333,0,0x7F,0x1A
6.066212791666667,0,0xFF,0x04
6.068167291666667,0,0xB0,0x13
6.068185291666667,0,0x7F,0x12
6.068203500000000,0,0xFF,0x0C
6.068228333333333,0,0xC7,0x12
6.068246375000000,0,0xFF,0x00
6.068264583333334,0,0xFF,0xC2
6.068285125000000,0,0x07,0x10
6.068303166666666,0,0x00,0x12
6.068321250000000,0,0x00,0x12
6.068395916666667,0,0x07,0x01
6.068413958333333,0,0x00,0x01
6.068432000000000,0,0x00,0x81
6.068452625000000,0,0x36,0x01
6.068470666666666,0,0xC0,0x01
6.068488708333334,0,0x00,0x81
6.068508958333333,0,0x07,0x01
6.068527000000000,0,0xFF,0x00
6.068545208333333,0,0xFF,0x00
6.068566083333334,0,0x07,0x01
6.068584125000000,0,0x00,0x00
6.068602166666667,0,0x00,0x81
6.070163583333334,0,0xF0,0x12
6.070181625000000,0,0xFF,0x12
6.070199833333334,0,0xFF,0x00
6.072159958333334,0,0xB0,0x13
6.072177958333334,0,0x7F,0x12
6.072196166666667,0,0xFF,0x00
6.074153000000000,0,0x98,0x10
6.074171041666666,0,0xFF,0x02
6.074189250000000,0,0xFF,0x00
6.076145583333333,0,0x98,0x10
6.076163625000000,0,0xFF,0x02
6.076181833333333,0,0xFF,0x00
6.078142333333333,0,0x90,0x12
6.078160375000000,0,0xFF,0x12
6.078178583333333,0,0xFF,0x00
6.080136000000000,0,0xB0,0x13
6.080154000000000,0,0x7F,0x1A
6.080172208333333,0,0xFF,0x00
6.082124166666667,0,0xB0,0x12
6.082142208333333,0,0xFF,0x10
6.082160416666667,0,0xFF,0x00
6.084116750000000,0,0xF0,0x02
6.084134750000000,0,0x7F,0x12
6.084152958333333,0,0xFF,0x00
6.086108291666666,0,0xF0,0x02
6.086126291666667,0,0x7F,0x12
6.086144500000000,0,0xFF,0x00
6.088100166666667,0,0xB0,0x12
6.088118208333333,0,0xFF,0x12
6.088136416666667,0,0xFF,0x00
6.090088708333333,0,0x98,0x1A
6.090106750000000,0,0xFF,0x12
6.090124958333333,0,0xFF,0x00
6.092087625000000,0,0xF0,0x02
6.092105666666667,0,0xFF,0x13
6.092123875000000,0,0xFF,0x00
6.094082708333334,0,0xF0,0x13
6.094100708333333,0,0x7F,0x1A
6.094118916666667,0,0xFF,0x00
6.096076208333334,0,0xB0,0x12
6.096094250000000,0,0xFF,0x12
6.096112458333334,0,0xFF,0x00
6.098063416666666,0,0xB0,0x12
6.098081416666667,0,0xFF,0x10
6.098099625000000,0,0xFF,0x00
6.100056166666667,0,0x90,0x12
6.100074208333333,0,0xFF,0x12
6.100092416666667,0,0xFF,0x00
6.100117208333334,0,0x87,0x12
6.100135250000000,0,0xFF,0x00
6.100153458333334,0,0xFF,0x80
6.100174000000000,0,0x87,0x12
6.100194083333333,0,0x00,0x12
6.100212166666667,0,0x3C,0x13
6.101190083333333,0,0x03,0x01
6.101208083333334,0,0x80,0x01
6.101226166666667,0,0x20,0x01
6.101246791666667,0,0x30,0x00
6.101264791666667,0,0x00,0x01
6.101282875000000,0,0x80,0x01
6.101303125000000,0,0xC7,0x01
6.101321125000000,0,0xFF,0x80
6.101339333333334,0,0xFF,0x28
6.101360208333333,0,0x87,0x01
6.101378250000000,0,0x00,0x01
6.101396333333334,0,0xE8,0x01
6.102813875000000,0,0xF0,0x02
6.102831875000000,0,0x7F,0x12
6.102850083333333,0,0xFF,0x10
6.104805458333334,0,0x90,0x12
6.104823500000000,0,0xFF,0x12
6.104841708333334,0,0xFF,0x10
6.106799208333333,0,0xB0,0x12
6.106817250000000,0,0xFF,0x13
6.106835458333333,0,0xFF,0x10
6.108799250000000,0,0xF0,0x12
6.108817291666667,0,0xFF,0x13
6.108835500000000,0,0xFF,0x10
6.110793083333333,0,0xB0,0x12
6.110811125000000,0,0xFF,0x10
6.110829333333333,0,0xFF,0x10
6.112786291666667,0,0xF0,0x02
6.112804291666667,0,0x7F,0x12
6.112822500000000,0,0xFF,0x10
6.114783750000000,0,0xB8,0x12
6.114801791666666,0,0xFF,0x02
6.114820000000000,0,0xFF,0x00
6.116774750000000,0,0xF0,0x12
6.116792750000000,0,0x7F,0x12
6.116810958333334,0,0xFF,0x10
6.118768083333333,0,0x98,0x10
6.118786125000000,0,0xFF,0x02
6.118804333333333,0,0xFF,0x00
6.120757375000000,0,0xF0,0x02
6.120775375000000,0,0x7F,0x12
6.120793583333334,0,0xFF,0x10
6.122747083333334,0,0xF0,0x12
6.122765125000000,0,0xFF,0x13
6.122783333333333,0,0xFF,0x10
6.124735458333333,0,0xF0,0x02
6.124753458333333,0,0x7F,0x12
6.124771666666667,0,0xFF,0x10
6.126733125000000,0,0x98,0x10
6.126751166666667,0,0xFF,0x02
6.126769375000000,0,0xFF,0x00
6.128732458333333,0,0x98,0x10
6.128750500000000,0,0xFF,0x02
6.128768708333333,0,0xFF,0x00
6.130732791666667,0,0xB0,0x12
6.130750833333333,0,0xFF,0x12
6.130769041666666,0,0xFF,0x10
6.132722000000000,0,0xF0,0x02
6.132740000000000,0,0x7F,0x12
6.132758208333334,0,0xFF,0x10
6.132783041666666,0,0xC3,0x12
6.132801041666666,0,0xFF,0x00
6.132819250000000,0,0xFF,0x88
6.132839833333334,0,0x03,0x12
6.132857833333333,0,0x80,0x12
6.132875916666666,0,0x00,0x10
6.132990791666667,0,0x03,0x01
6.133008791666667,0,0x80,0x81
6.133026875000000,0,0x02,0x01
6.133047500000000,0,0x30,0x01
6.133065500000000,0,0x00,0x81
6.133083583333334,0,0x00,0x01
6.133103833333333,0,0x87,0x01
6.133121875000000,0,0xFF,0x00
6.133140083333333,0,0xFF,0x0E
6.133160958333334,0,0x03,0x01
6.133178958333334,0,0x80,0x81
6.133197041666667,0,0x80,0x01
6.134717041666667,0,0xF0,0x12
6.134735083333333,0,0xFF,0x12
6.134753291666667,0,0xFF,0x10
6.136716583333333,0,0xB0,0x12
6.136734583333333,0,0xFF,0x18
6.136752791666667,0,0xFF,0x1C
6.138711833333334,0,0xB0,0x12
6.138729875000000,0,0xFF,0x12
6.138748083333334,0,0xFF,0x14
6.140698833333333,0,0xF0,0x02
6.140716833333333,0,0x7F,0x12
6.140735041666667,0,0xFF,0x14
6.142693625000000,0,0xF0,0x02
6.142711625000000,0,0x7F,0x12
6.142729833333333,0,0xFF,0x14
6.144686125000000,0,0xB0,0x13
6.144704125000000,0,0xFF,0x1A
6.144722333333333,0,0xFF,0x1C
6.146674375000000,0,0xB0,0x13
6.146692375000000,0,0xFF,0x1A
6.146710583333333,0,0xFF,0x1C
6.148667750000000,0,0xF0,0x12
6.148685791666667,0,0xFF,0x13
6.148704000000000,0,0xFF,0x14
6.150656625000000,0,0xF0,0x02
6.150674625000000,0,0x7F,0x12
6.150692833333333,0,0xFF,0x14
6.152649583333333,0,0xF0,0x12
6.152667625000000,0,0xFF,0x12
6.152685833333333,0,0xFF,0x14
6.154644333333334,0,0xB0,0x12
6.154662375000000,0,0xFF,0x10
6.154680583333334,0,0xFF,0x16
6.156638375000000,0,0x98,0x1A
6.156656416666666,0,0xFF,0x12
6.156674625000000,0,0xFF,0x14
6.158632416666666,0,0xF0,0x12
6.158650458333334,0,0xFF,0x13
6.158668666666666,0,0xFF,0x14
6.160625333333333,0,0x98,0x10
6.160643375000000,0,0xFF,0x02
6.160661583333333,0,0xFF,0x00
6.162617208333334,0,0xF0,0x02
6.162635208333334,0,0x7F,0x12
6.162653416666667,0,0xFF,0x14
6.164608250000000,0,0xB0,0x13
6.164626250000000,0,0x7F,0x1A
6.164644458333333,0,0xFF,0x1C
6.164669291666667,0,0x83,0x12
6.164687291666667,0,0xFF,0x00
6.164705500000000,0,0xFF,0x82
6.164726083333333,0,0x03,0x02
6.164744083333333,0,0x80,0x12
6.164762166666667,0,0x18,0x10
6.164791958333334,0,0x03,0x01
6.164809958333334,0,0x80,0x81
6.164828041666667,0,0x1A,0x01
6.164848666666667,0,0x30,0x01
6.164866666666667,0,0x00,0x01
6.164884750000000,0,0x80,0x01
6.164905000000000,0,0xC7,0x01
6.164923041666666,0,0xFF,0x00
6.164941208333333,0,0xFF,0x32
6.164962083333333,0,0x87,0x01
6.164980125000000,0,0x00,0x01
6.164998208333333,0,0xF2,0x01
6.166603541666666,0,0xB0,0x13
6.166621541666666,0,0x7F,0x1A
6.166639750000000,0,0xFF,0x04
6.168594666666666,0,0xF0,0x02
6.168612666666666,0,0x7F,0x12
6.168630875000000,0,0xFF,0x04
6.170585916666667,0,0xF0,0x02
6.170603958333333,0,0xFF,0x12
6.170622166666667,0,0xFF,0x04
6.172584375000000,0,0x90,0x12
6.172602416666667,0,0xFF,0x12
6.172620625000000,0,0xFF,0x04
6.174574750000000,0,0x98,0x10
6.174592791666667,0,0xFF,0x12
6.174611000000000,0,0xFF,0x04
6.176562833333334,0,0xF0,0x12
6.176580833333333,0,0x7F,0x12
6.176599041666667,0,0xFF,0x04
6.178556791666667,0,0xB0,0x13
6.178574791666667,0,0xFF,0x1A
6.178593000000000,0,0xFF,0x04
6.180556125000000,0,0xF0,0x12
6.180574125000000,0,0x7F,0x12
6.180592333333333,0,0xFF,0x04
6.182545666666667,0,0x90,0x12
6.182563708333333,0,0xFF,0x12
6.182581916666667,0,0xFF,0x06
6.184535541666667,0,0xB0,0x13
6.184553541666666,0,0x7F,0x1A
6.184571750000000,0,0xFF,0x04
6.186527000000000,0,0xB8,0x12
6.186545041666666,0,0xFF,0x02
6.186563250000000,0,0xFF,0x04
6.188515375000000,0,0xF0,0x12
6.188533375000000,0,0x7F,0x12
6.188551583333333,0,0xFF,0x04
6.190515375000000,0,0x98,0x10
6.190533416666667,0,0xFF,0x02
6.190551625000000,0,0xFF,0x04
6.192506708333333,0,0x98,0x10
6.192524750000000,0,0xFF,0x12
6.192542958333333,0,0xFF,0x04
6.194498250000000,0,0x98,0x1A
6.194516291666667,0,0xFF,0x12
6.194534500000000,0,0xFF,0x04
6.196490250000000,0,0xB0,0x12
6.196508291666667,0,0xFF,0x13
6.196526500000000,0,0xFF,0x04
6.196551291666666,0,0x87,0x12
6.196569333333334,0,0xFF,0x00
6.196587541666666,0,0xFF,0xB2
6.196607916666666,0,0x03,0x02
6.196625916666667,0,0x80,0x12
6.196644000000000,0,0x1C,0x1A
6.197586916666666,0,0x07,0x01
6.197604958333334,0,0x00,0x01
6.197623041666667,0,0x00,0x00
6.197643625000000,0,0x1C,0x01
6.197661666666667,0,0xC0,0x01
6.197679750000000,0,0xC0,0x01
6.197700000000000,0,0x87,0x01
6.197718000000000,0,0xFF,0x00
6.197736208333334,0,0xFF,0x1C
6.197757083333333,0,0x07,0x01
6.197775125000000,0,0x00,0x01
6.197793208333334,0,0x80,0x00
6.199187625000000,0,0x98,0x10
6.199205666666667,0,0xFF,0x02
6.199223875000000,0,0xFF,0x08
6.201181291666667,0,0xB0,0x12
6.201199333333333,0,0xFF,0x13
6.201217541666667,0,0xFF,0x08
6.203171625000000,0,0xB0,0x12
6.203189666666667,0,0xFF,0x12
6.203207875000000,0,0xFF,0x08
6.205169583333333,0,0xB0,0x13
6.205187583333333,0,0x7F,0x12
6.205205791666667,0,0xFF,0x08
6.207158875000000,0,0xB0,0x12
6.207176916666667,0,0xFF,0x10
6.207195125000000,0,0xFF,0x08
6.209146333333333,0,0xF0,0x12
6.209164375000000,0,0xFF,0x13
6.209182583333333,0,0xFF,0x08
6.211137916666667,0,0xF0,0x12
6.211155916666667,0,0x7F,0x12
6.211174125000000,0,0xFF,0x08
6.213126333333333,0,0xF0,0x02
6.213144333333333,0,0x7F,0x12
6.213162583333333,0,0xFF,0x08
6.215119416666667,0,0x90,0x12
6.215137458333333,0,0xFF,0x12
6.215155666666667,0,0xFF,0x08
6.217107083333334,0,0xB0,0x13
6.217125083333333,0,0x7F,0x1A
6.217143291666667,0,0xFF,0x00
6.219102083333333,0,0xB0,0x12
6.219120125000000,0,0xFF,0x13
6.219138333333333,0,0xFF,0x08
6.221089333333333,0,0x98,0x10
6.221107375000000,0,0xFF,0x12
6.221125583333333,0,0xFF,0x08
6.223082750000000,0,0x98,0x10
6.223100791666667,0,0xFF,0x12
6.223119000000000,0,0xFF,0x08
6.225075166666667,0,0xB0,0x12
6.225093208333333,0,0xFF,0x12
6.225111416666667,0,0xFF,0x0C
6.227070541666667,0,0xF0,0x02
6.227088541666666,0,0x7F,0x12
6.227106750000000,0,0xFF,0x08
6.229059125000000,0,0xB0,0x12
6.229077166666666,0,0xFF,0x12
6.229095375000000,0,0xFF,0x08
6.229120166666666,0,0x87,0x12
6.229138208333334,0,0xFF,0x00
6.229156416666667,0,0xFF,0x90
6.229176958333333,0,0x07,0x12
6.229195000000000,0,0x00,0x02
6.229213041666666,0,0x3C,0x12
6.229387083333333,0,0x07,0x01
6.229405083333333,0,0x80,0x81
6.229423166666667,0,0x1E,0x01
6.229443791666666,0,0x30,0x01
6.229461791666667,0,0x00,0x01
6.229479875000000,0,0x80,0x01
6.229500125000000,0,0xC7,0x01
6.229518125000000,0,0xFF,0x80
6.229536333333333,0,0xFF,0x3C
6.229557208333333,0,0x87,0x01
6.229575250000000,0,0x00,0x01
6.229593333333334,0,0xFC,0x00
6.231049208333333,0,0xF0,0x12
6.231067208333333,0,0x7F,0x12
6.231085416666667,0,0xFF,0x18
6.233038041666667,0,0xB0,0x12
6.233056083333333,0,0xFF,0x12
6.233074291666667,0,0xFF,0x18
6.235033791666667,0,0xB0,0x12
6.235051791666667,0,0xFF,0x10
6.235070000000000,0,0xFF,0x18
6.237022083333334,0,0x90,0x12
6.237040125000000,0,0xFF,0x12
6.237058333333334,0,0xFF,0x18
6.239009833333333,0,0xB0,0x13
6.239027833333333,0,0x7F,0x18
6.239046041666667,0,0xFF,0x18
6.240998083333333,0,0xF0,0x12
6.241016083333333,0,0x7F,0x12
6.241034291666667,0,0xFF,0x18
6.242996500000000,0,0xF0,0x12
6.243014500000000,0,0x7F,0x12
6.243032708333334,0,0xFF,0x18
6.244986541666667,0,0xF0,0x12
6.245004541666667,0,0x7F,0x1A
6.245022750000000,0,0xFF,0x18
6.246973833333334,0,0x98,0x10
6.246991875000000,0,0xFF,0x12
6.247010083333334,0,0xFF,0x18
6.248963333333333,0,0xB0,0x13
6.248981333333333,0,0x7F,0x12
6.248999541666667,0,0xFF,0x18
6.250953833333333,0,0xB0,0x12
6.250971875000000,0,0xFF,0x13
6.250990083333333,0,0xFF,0x18
6.252943000000000,0,0xF0,0x12
6.252961041666667,0,0xFF,0x12
6.252979208333334,0,0xFF,0x18
6.254938541666666,0,0x98,0x1A
6.254956583333334,0,0xFF,0x12
6.254974791666666,0,0xFF,0x18
6.256926041666667,0,0xF0,0x02
6.256944041666666,0,0x7F,0x12
6.256962250000000,0,0xFF,0x18
6.258915375000000,0,0xF0,0x13
6.258933375000000,0,0x7F,0x12
6.258951583333333,0,0xFF,0x18
6.260903875000000,0,0x98,0x10
6.260921916666667,0,0xFF,0x12
6.260940125000000,0,0xFF,0x18
6.260964916666667,0,0x87,0x10
6.260982958333333,0,0xFF,0x00
6.261001166666667,0,0xFF,0xFC
6.261021708333334,0,0x87,0x12
6.261039750000000,0,0x00,0x12
6.261057833333333,0,0x0E,0x12
6.261186208333333,0,0x07,0x01
6.261204250000000,0,0x00,0x00
6.261222291666667,0,0x1E,0x01
6.261242916666666,0,0x34,0x01
6.261260958333334,0,0x80,0x01
6.261279000000000,0,0x00,0x01
6.261299250000000,0,0x87,0x01
6.261317291666667,0,0xFF,0x00
6.261335500000000,0,0xFF,0x0E
6.261356375000000,0,0x07,0x01
6.261374416666666,0,0x00,0x01
6.261392458333333,0,0x1E,0x01
6.262892625000000,0,0xB0,0x13
6.262910625000000,0,0x7F,0x1A
6.262928833333334,0,0xFF,0x1C
6.264885125000000,0,0xB0,0x12
6.264903166666667,0,0xFF,0x12
6.264921375000000,0,0xFF,0x1C
6.266874583333333,0,0xF0,0x12
6.266892583333333,0,0x7F,0x12
6.266910791666667,0,0xFF,0x1C
6.268867333333334,0,0xB0,0x13
6.268885333333333,0,0x7F,0x1A
6.268903541666667,0,0xFF,0x1C
6.270857500000000,0,0xB0,0x12
6.270875541666666,0,0xFF,0x12
6.270893750000000,0,0xFF,0x1C
6.272848333333333,0,0xF0,0x02
6.272866333333333,0,0x7F,0x12
6.272884541666667,0,0xFF,0x1C
6.274845208333334,0,0x90,0x12
6.274863250000000,0,0xFF,0x12
6.274881458333334,0,0xFF,0x1C
6.276834041666667,0,0xB0,0x12
6.276852041666666,0,0xFF,0x12
6.276870250000000,0,0xFF,0x1C
6.278833625000000,0,0xF0,0x12
6.278851625000000,0,0x7F,0x12
6.278869833333333,0,0xFF,0x1C
6.280825708333333,0,0xB0,0x12
6.280843750000000,0,0xFF,0x12
6.280861958333333,0,0xFF,0x1C
6.282824916666667,0,0xB0,0x12
6.282842958333333,0,0xFF,0x12
6.282861166666667,0,0xFF,0x1C
6.284818375000000,0,0x98,0x10
6.284836416666667,0,0xFF,0x02
6.284854625000000,0,0xFF,0x1C
6.286813250000000,0,0xB0,0x13
6.286831250000000,0,0x7F,0x18
6.286849458333333,0,0xFF,0x1E
6.288806125000000,0,0xB0,0x12
6.288824166666667,0,0xFF,0x13
6.288842375000000,0,0xFF,0x1C
6.290799875000000,0,0x98,0x10
6.290817916666667,0,0xFF,0x02
6.290836125000000,0,0xFF,0x0C
6.292788000000000,0,0xB0,0x13
6.292806000000000,0,0xFF,0x10
6.292824208333333,0,0xFF,0x1E
6.292849000000000,0,0x87,0x12
6.292867041666667,0,0xFF,0x00
6.292885250000000,0,0xFF,0x9E
6.292905791666667,0,0x87,0x12
6.292923833333333,0,0x00,0x10
6.292941916666667,0,0x06,0x12
6.292985750000000,0,0x03,0x00
6.293003750000000,0,0x00,0x01
6.293021833333333,0,0x46,0x01
6.293042416666666,0,0x34,0x81
6.293060458333334,0,0x80,0x01
6.293078541666667,0,0xC0,0x01
6.293098791666667,0,0xC3,0x00
6.293116791666667,0,0xFF,0x00
6.293135000000000,0,0xFF,0x66
6.293155875000000,0,0x87,0x01
6.293173916666666,0,0x00,0x01
6.293192000000000,0,0xC2,0x01
6.294777208333334,0,0x18,0x1A
6.294795250000000,0,0xFF,0x12
6.294813458333334,0,0xFF,0x0C
6.296767333333333,0,0xF0,0x12
6.296785333333333,0,0x7F,0x12
6.296803541666667,0,0xFF,0x0C
6.298766041666667,0,0x98,0x10
6.298784083333334,0,0xFF,0x02
6.298802291666667,0,0xFF,0x0C
6.300756500000000,0,0xF0,0x02
6.300774500000000,0,0x7F,0x12
6.300792708333334,0,0xFF,0x0C
6.302748083333333,0,0xF0,0x12
6.302766083333333,0,0x7F,0x1A
6.302784291666667,0,0xFF,0x04
6.304738291666666,0,0x90,0x12
6.304756333333334,0,0xFF,0x12
6.304774541666666,0,0xFF,0x0C
6.306728541666667,0,0xF0,0x02
6.306746541666667,0,0x7F,0x12
6.306764750000000,0,0xFF,0x0C
6.308718000000000,0,0xB0,0x12
6.308736000000000,0,0xFF,0x10
6.308754208333333,0,0xFF,0x04
6.310709875000000,0,0xF0,0x02
6.310727875000000,0,0x7F,0x12
6.310746083333333,0,0xFF,0x04
6.312705041666667,0,0xF0,0x02
6.312723041666667,0,0x7F,0x1A
6.312741250000000,0,0xFF,0x0E
6.314699125000000,0,0xB0,0x12
6.314717125000000,0,0xFF,0x10
6.314735333333333,0,0xFF,0x0C
6.316694000000000,0,0xB0,0x12
6.316712041666666,0,0xFF,0x12
6.316730250000000,0,0xFF,0x0C
6.318684791666667,0,0xB0,0x12
6.318702833333333,0,0xFF,0x12
6.318721041666667,0,0xFF,0x0C
6.320675875000000,0,0xB0,0x13
6.320693875000000,0,0xFF,0x10
6.320712083333333,0,0xFF,0x0E
6.322668791666667,0,0xB0,0x12
6.322686833333333,0,0xFF,0x12
6.322705041666667,0,0xFF,0x0C
6.324658916666666,0,0xF0,0x12
6.324676916666666,0,0x7F,0x1A
6.324695125000000,0,0xFF,0x0E
6.324719916666667,0,0x87,0x12
6.324737958333333,0,0xFF,0x00
6.324756166666667,0,0xFF,0xC6
6.324776708333333,0,0x87,0x12
6.324794583333333,0,0x00,0x12
6.324812625000000,0,0x00,0x12
6.325776541666666,0,0x03,0x00
6.325794541666666,0,0x00,0x01
6.325812625000000,0,0x00,0x01
6.325833208333333,0,0x14,0x01
6.325851250000000,0,0x80,0x01
6.325869333333333,0,0x80,0x00
6.325889541666666,0,0x07,0x01
6.325907583333334,0,0xFF,0x00
6.325925791666666,0,0xFF,0x00
6.325946666666667,0,0x03,0x01
6.325964666666667,0,0x80,0x81
6.325982750000000,0,0x80,0x01
6.327370916666666,0,0xB0,0x13
6.327388916666667,0,0x7F,0x1A
6.327407125000000,0,0xFF,0x00
6.329357500000000,0,0xB0,0x12
6.329375541666667,0,0xFF,0x13
6.329393750000000,0,0xFF,0x00
6.331351833333334,0,0xB0,0x12
6.331369875000000,0,0xFF,0x13
6.331388083333334,0,0xFF,0x00
6.333339875000000,0,0x98,0x18
6.333357916666666,0,0xFF,0x02
6.333376125000000,0,0xFF,0x00
6.335334208333333,0,0xB0,0x12
6.335352250000000,0,0xFF,0x12
6.335370458333333,0,0xFF,0x00
6.337333375000000,0,0xF0,0x12
6.337351375000000,0,0x7F,0x12
6.337369583333333,0,0xFF,0x00
6.339320041666666,0,0xF0,0x13
6.339338041666666,0,0x7F,0x1A
6.339356250000000,0,0xFF,0x00
6.341307541666667,0,0xF0,0x12
6.341325541666667,0,0x7F,0x12
6.341343750000000,0,0xFF,0x00
6.343304750000000,0,0x98,0x10
6.343322791666667,0,0xFF,0x02
6.343341000000000,0,0xFF,0x00
6.345295250000000,0,0x98,0x1A
6.345313291666667,0,0xFF,0x12
6.345331500000000,0,0xFF,0x00
6.347291291666667,0,0x98,0x1A
6.347309333333333,0,0xFF,0x12
6.347327541666667,0,0xFF,0x00
6.349282208333333,0,0xB0,0x12
6.349300250000000,0,0xFF,0x12
6.349318458333333,0,0xFF,0x00
6.351275833333333,0,0x98,0x10
6.351293875000000,0,0xFF,0x12
6.351312083333333,0,0xFF,0x00
6.353263875000000,0,0x98,0x10
6.353281916666667,0,0xFF,0x02
6.353300125000000,0,0xFF,0x00
6.355262708333333,0,0x90,0x12
6.355280750000000,0,0xFF,0x12
6.355298958333333,0,0xFF,0x00
6.357251416666666,0,0xF0,0x02
6.357269416666667,0,0x7F,0x12
6.357287625000000,0,0xFF,0x00
6.357312458333333,0,0xC3,0x12
6.357330458333333,0,0xFF,0x00
6.357348666666667,0,0xFF,0x00
6.357369250000000,0,0x03,0x02
6.357387250000000,0,0x80,0x12
6.357405333333333,0,0x00,0x10
6.357573333333334,0,0x03,0x00
6.357591333333334,0,0x80,0x01
6.357609416666667,0,0x28,0x01
6.357630000000000,0,0x34,0x81
6.357648041666667,0,0x80,0x01
6.357666125000000,0,0x80,0x01
6.357686375000000,0,0xC3,0x01
6.357704375000000,0,0xFF,0x80
6.357722583333334,0,0xFF,0x28
6.357743458333333,0,0x87,0x01
6.357761500000000,0,0x00,0x01
6.357779583333333,0,0xF8,0x01
6.359251375000000,0,0xF0,0x02
6.359269375000000,0,0x7F,0x12
6.359287583333334,0,0xFF,0x10
6.361242166666667,0,0x98,0x10
6.361260208333333,0,0xFF,0x02
6.361278416666667,0,0xFF,0x00
6.363241750000000,0,0xB0,0x12
6.363259791666667,0,0xFF,0x13
6.363278000000000,0,0xFF,0x10
6.365233375000000,0,0xF0,0x12
6.365251375000000,0,0x7F,0x12
6.365269583333333,0,0xFF,0x10
6.367220916666667,0,0xB0,0x12
6.367238958333333,0,0xFF,0x12
6.367257166666667,0,0xFF,0x10
6.369209375000000,0,0xB0,0x12
6.369227416666667,0,0xFF,0x13
6.369245625000000,0,0xFF,0x10
6.371200833333333,0,0x90,0x12
6.371218875000000,0,0xFF,0x12
6.371237083333333,0,0xFF,0x10
6.373188333333333,0,0xB0,0x12
6.373206375000000,0,0xFF,0x13
6.373224583333333,0,0xFF,0x10
6.375177583333334,0,0xB0,0x13
6.375195583333333,0,0x7F,0x18
6.375213791666667,0,0xFF,0x18
6.377166916666667,0,0xB0,0x12
6.377184958333333,0,0xFF,0x12
6.377203166666667,0,0xFF,0x10
6.379163208333333,0,0xF0,0x02
6.379181208333334,0,0x7F,0x12
6.379199416666666,0,0xFF,0x18
6.381150333333333,0,0xB0,0x12
6.381168375000000,0,0xFF,0x12
6.381186583333333,0,0xFF,0x10
6.383146916666667,0,0xB0,0x12
6.383164916666667,0,0xFF,0x10
6.383183125000000,0,0xFF,0x10
6.385139791666667,0,0x98,0x1A
6.385157833333333,0,0xFF,0x12
6.385176041666667,0,0xFF,0x10
6.387137041666667,0,0x98,0x10
6.387155083333333,0,0xFF,0x02
6.387173291666667,0,0xFF,0x10
6.389125416666666,0,0x90,0x12
6.389143458333334,0,0xFF,0x12
6.389161666666666,0,0xFF,0x10
6.389186458333334,0,0x87,0x10
6.389204500000000,0,0xFF,0x00
6.389222708333334,0,0xFF,0xBC
6.389243250000000,0,0x07,0x12
6.389261291666666,0,0x00,0x02
6.389279375000000,0,0x0B,0x12
6.389369958333333,0,0x07,0x01
6.389388000000000,0,0x00,0x00
6.389406041666667,0,0x0A,0x01
6.389426666666667,0,0x30,0x01
6.389444666666667,0,0x00,0x01
6.389462750000000,0,0x80,0x01
6.389483000000000,0,0xC3,0x01
6.389501000000000,0,0xFF,0x00
6.389519208333334,0,0xFF,0x02
6.389540083333333,0,0x07,0x01
6.389558125000000,0,0x00,0x01
6.389576166666667,0,0x0B,0x81
6.391114375000000,0,0x98,0x10
6.391132416666666,0,0xFF,0x02
6.391150625000000,0,0xFF,0x14
6.393107666666666,0,0x98,0x12
6.393125708333334,0,0xFF,0x02
6.393143916666666,0,0xFF,0x00
6.395097708333333,0,0xB0,0x12
6.395115750000000,0,0xFF,0x12
6.395133958333333,0,0xFF,0x00
6.397086375000000,0,0x98,0x18
6.397104416666667,0,0xFF,0x02
6.397122625000000,0,0xFF,0x00
6.399079541666667,0,0xF0,0x02
6.399097541666666,0,0x7F,0x12
6.399115750000000,0,0xFF,0x14
6.401071208333334,0,0xF0,0x13
6.401089208333334,0,0x7F,0x1A
6.401107416666667,0,0xFF,0x16
6.403060875000000,0,0xF0,0x02
6.403078875000000,0,0x7F,0x12
6.403097083333333,0,0xFF,0x1E
6.405054541666667,0,0x98,0x1A
6.405072583333333,0,0xFF,0x12
6.405090791666667,0,0xFF,0x14
6.407048041666667,0,0xB0,0x12
6.407066083333333,0,0xFF,0x02
6.407084291666667,0,0xFF,0x00
6.409047041666667,0,0xF0,0x12
6.409065083333333,0,0xFF,0x13
6.409083291666667,0,0xFF,0x14
6.411040666666667,0,0x90,0x12
6.411058708333333,0,0xFF,0x10
6.411076916666667,0,0xFF,0x16
6.413032875000000,0,0xB0,0x12
6.413050916666666,0,0xFF,0x12
6.413069125000000,0,0xFF,0x14
6.415020958333334,0,0xB0,0x12
6.415039000000000,0,0xFF,0x10
6.415057208333334,0,0xFF,0x16
6.417012750000000,0,0x98,0x1A
6.417030791666667,0,0xFF,0x12
6.417049000000000,0,0xFF,0x14
6.419009583333334,0,0xF0,0x12
6.419027583333333,0,0x7F,0x12
6.419045791666667,0,0xFF,0x1C
6.420997208333334,0,0xF0,0x02
6.421015208333333,0,0x7F,0x12
6.421033416666667,0,0xFF,0x14
6.421058250000000,0,0xC7,0x02
6.421076291666667,0,0xFF,0x00
6.421094500000000,0,0xFF,0x8A
6.421115041666667,0,0x07,0x12
6.421133083333333,0,0x00,0x13
6.421151125000000,0,0x32,0x12
6.422161250000000,0,0x03,0x01
6.422179250000000,0,0x80,0x01
6.422197333333333,0,0x18,0x01
6.422217958333333,0,0x30,0x00
6.422235958333333,0,0x00,0x01
6.422254041666666,0,0x80,0x01
6.422274291666667,0,0x87,0x01
6.422292333333333,0,0xFF,0x00
6.422310541666667,0,0xFF,0x33
6.422331416666666,0,0x07,0x01
6.422349416666667,0,0x00,0x01
6.422367500000000,0,0xF2,0x01
6.423785250000000,0,0xB0,0x12
6.423803291666666,0,0xFF,0x13
6.423821500000000,0,0xFF,0x04
6.425772208333333,0,0xB0,0x12
6.425790208333333,0,0xFF,0x10
6.425808416666666,0,0xFF,0x06
6.427762916666667,0,0x90,0x12
6.427780958333333,0,0xFF,0x12
6.427799166666667,0,0xFF,0x04
6.429755708333333,0,0xB0,0x12
6.429773708333333,0,0xFF,0x10
6.429791916666667,0,0xFF,0x06
6.431752333333334,0,0x90,0x12
6.431770375000000,0,0xFF,0x12
6.431788583333334,0,0xFF,0x04
6.433745166666666,0,0x98,0x1A
6.433763208333334,0,0xFF,0x12
6.433781416666666,0,0xFF,0x04
6.435741500000000,0,0xF0,0x02
6.435759500000000,0,0x7F,0x12
6.435777708333333,0,0xFF,0x04
6.437733083333334,0,0x90,0x12
6.437751125000000,0,0xFF,0x12
6.437769333333334,0,0xFF,0x04
6.439729541666667,0,0xB0,0x12
6.439747583333333,0,0xFF,0x12
6.439765791666667,0,0xFF,0x04
6.441719916666667,0,0xF0,0x02
6.441737958333333,0,0xFF,0x12
6.441756166666667,0,0xFF,0x04
6.443712958333333,0,0xB0,0x12
6.443731000000000,0,0xFF,0x13
6.443749208333333,0,0xFF,0x04
6.445701458333334,0,0x98,0x10
6.445719500000000,0,0xFF,0x02
6.445737708333334,0,0xFF,0x04
6.447700875000000,0,0x90,0x12
6.447718916666667,0,0xFF,0x12
6.447737125000000,0,0xFF,0x06
6.449688666666667,0,0xF0,0x02
6.449706708333333,0,0xFF,0x12
6.449724916666667,0,0xFF,0x04
6.451678750000000,0,0xB0,0x13
6.451696750000000,0,0x7F,0x1A
6.451714958333334,0,0xFF,0x04
6.453667166666667,0,0xB0,0x12
6.453685208333333,0,0xFF,0x13
6.453703416666666,0,0xFF,0x04
6.453728208333334,0,0x87,0x12
6.453746250000000,0,0xFF,0x00
6.453764458333334,0,0xFF,0xB2
6.453785000000000,0,0x07,0x10
6.453803041666666,0,0x00,0x02
6.453821125000000,0,0x10,0x13
6.453961250000000,0,0x07,0x01
6.453979291666666,0,0x00,0x01
6.453997375000000,0,0x14,0x01
6.454017958333333,0,0x14,0x01
6.454036000000000,0,0x80,0x01
6.454054083333333,0,0xC0,0x01
6.454074333333334,0,0x83,0x00
6.454092333333334,0,0xFF,0x00
6.454110541666667,0,0xFF,0x1C
6.454131416666667,0,0x87,0x01
6.454149458333333,0,0x00,0x01
6.454167541666667,0,0xC0,0x01
6.455660958333334,0,0xB0,0x13
6.455678958333333,0,0xFF,0x1A
6.455697166666667,0,0xFF,0x00
6.457660416666666,0,0xB0,0x12
6.457678458333334,0,0xFF,0x12
6.457696666666667,0,0xFF,0x08
6.459647333333334,0,0xF0,0x02
6.459665333333334,0,0x7F,0x12
6.459683541666666,0,0xFF,0x08
6.461636875000000,0,0x98,0x1A
6.461654916666666,0,0xFF,0x12
6.461673125000000,0,0xFF,0x08
6.463631125000000,0,0x98,0x10
6.463649166666666,0,0xFF,0x02
6.463667375000000,0,0xFF,0x0C
6.465622708333333,0,0x98,0x1A
6.465640750000000,0,0xFF,0x12
6.465658958333333,0,0xFF,0x08
6.467618333333333,0,0xB0,0x13
6.467636333333333,0,0x7F,0x1A
6.467654541666667,0,0xFF,0x08
6.469606958333333,0,0xB0,0x13
6.469624958333333,0,0x7F,0x1A
6.469643166666667,0,0xFF,0x00
6.471598333333334,0,0x98,0x10
6.471616375000000,0,0xFF,0x12
6.471634583333334,0,0xFF,0x08
6.473590875000000,0,0x98,0x10
6.473608916666667,0,0xFF,0x02
6.473627125000000,0,0xFF,0x08
6.475581708333333,0,0xB0,0x12
6.475599750000000,0,0xFF,0x12
6.475617958333333,0,0xFF,0x0C
6.477574458333334,0,0x90,0x12
6.477592500000000,0,0xFF,0x12
6.477610708333334,0,0xFF,0x08
6.479566291666667,0,0xF0,0x12
6.479584333333333,0,0xFF,0x12
6.479602541666667,0,0xFF,0x08
6.481556541666667,0,0xF0,0x02
6.481574541666666,0,0x7F,0x12
6.481592750000000,0,0xFF,0x08
6.483554416666666,0,0xF0,0x12
6.483572416666667,0,0x7F,0x12
6.483590625000000,0,0xFF,0x00
6.485547458333333,0,0xB0,0x12
6.485565500000000,0,0xFF,0x02
6.485583708333333,0,0xFF,0x08
6.485608500000000,0,0x87,0x10
6.485626541666667,0,0xFF,0x00
6.485644750000000,0,0xFF,0x94
6.485665291666667,0,0x87,0x12
6.485683333333333,0,0x00,0x10
6.485701416666667,0,0x3E,0x12
6.485760916666667,0,0x07,0x01
6.485778958333333,0,0x00,0x01
6.485797000000000,0,0x3C,0x81
6.485817625000000,0,0x36,0x01
6.485835666666667,0,0xC0,0x01
6.485853708333333,0,0x00,0x81
6.485873958333333,0,0x07,0x01
6.485892000000000,0,0xFF,0x00
6.485910208333333,0,0xFF,0x3C
6.485931083333333,0,0x07,0x01
6.485949125000000,0,0x00,0x01
6.485967208333333,0,0xBC,0x00
6.487540541666666,0,0x98,0x10
6.487558583333334,0,0xFF,0x02
6.487576791666666,0,0xFF,0x18
6.489529458333333,0,0xF0,0x12
6.489547500000000,0,0xFF,0x13
6.489565708333333,0,0xFF,0x18
6.491517625000000,0,0x98,0x1A
6.491535666666667,0,0xFF,0x12
6.491553875000000,0,0xFF,0x18
6.493517208333333,0,0xF0,0x12
6.493535250000000,0,0xFF,0x12
6.493553416666667,0,0xFF,0x18
6.495515416666667,0,0xF0,0x12
6.495533458333333,0,0xFF,0x12
6.495551625000000,0,0xFF,0x18
6.497515416666666,0,0xB0,0x12
6.497533458333334,0,0xFF,0x12
6.497551666666666,0,0xFF,0x18
6.499509291666667,0,0xB0,0x12
6.499527333333333,0,0xFF,0x12
6.499545541666667,0,0xFF,0x18
