Time [s],Packet ID,MOSI,MISO
0.165934583333333,0,0x00,0x01
0.165952583333333,0,0x6F,0x81
0.165970666666667,0,0xE0,0x01
0.165990291666667,0,0x01,0x81
0.166008333333333,0,0x02,0x01
0.166026375000000,0,0x01,0x01
0.166046000000000,0,0x03,0x00
0.166064000000000,0,0x66,0x01
0.166082083333333,0,0x03,0x00
0.166101708333333,0,0x06,0x01
0.166119750000000,0,0xCC,0x01
0.166137791666667,0,0x61,0x01
0.166157416666667,0,0x00,0x01
0.166175416666667,0,0x66,0x01
0.166193500000000,0,0x33,0x01
0.166213125000000,0,0x07,0x01
0.166231125000000,0,0x80,0x81
0.166249208333333,0,0x00,0x01
0.166268791666667,0,0x00,0x01
0.166286833333333,0,0x3C,0x00
0.166304875000000,0,0x18,0x01
0.166324541666667,0,0x0C,0x00
0.166342541666667,0,0xE0,0x01
0.166360625000000,0,0x00,0x00
0.166380208333333,0,0x00,0x01
0.166398250000000,0,0x3F,0x01
0.166416291666667,0,0xFF,0x01
0.166435958333333,0,0x0B,0x01
0.166453958333333,0,0x00,0x01
0.166472000000000,0,0x00,0x81
0.166491625000000,0,0x0C,0x00
0.166509625000000,0,0x00,0x01
0.166527708333333,0,0x00,0x01
0.166547333333333,0,0x05,0x01
0.166565333333333,0,0xE0,0x01
0.166583416666667,0,0xFC,0x00
0.166603000000000,0,0x1E,0x01
0.166621000000000,0,0x00,0x81
0.166639083333333,0,0xFF,0x01
0.166658708333333,0,0x9F,0x01
0.166676750000000,0,0xC0,0x01
0.166694791666667,0,0x05,0x01
0.166714375000000,0,0x98,0x01
0.166732416666667,0,0x00,0x01
0.166750458333333,0,0x67,0x01
0.166770083333333,0,0x99,0x01
0.166788125000000,0,0x03,0x01
0.166806166666667,0,0x79,0x01
0.166825750000000,0,0x98,0x01
0.166843791666667,0,0x0C,0x01
0.166861833333333,0,0xE0,0x01
0.166881500000000,0,0x0B,0x01
0.166899500000000,0,0x03,0x01
0.166917541666667,0,0x00,0x01
0.166937000000000,0,0x1E,0x01
0.166955000000000,0,0x18,0x01
0.166973083333333,0,0x00,0x01
0.166992708333333,0,0x00,0x01
0.167010708333333,0,0x60,0x01
0.167028791666667,0,0x00,0x01
0.167048375000000,0,0x30,0x01
0.167066375000000,0,0x3F,0x01
0.167084416666667,0,0xE7,0x01
0.167104041666667,0,0x80,0x01
0.167122041666667,0,0x00,0x01
0.167140083333333,0,0x00,0x81
0.167159666666667,0,0x01,0x81
0.167177666666667,0,0x81,0x81
0.167195750000000,0,0x00,0x01
0.167215375000000,0,0x26,0x01
0.167233375000000,0,0x32,0x01
0.341304000000000,0,0x00,0x01
0.341322000000000,0,0x6F,0x01
0.341340083333333,0,0xE0,0x01
0.341359750000000,0,0x01,0x01
0.341377791666667,0,0x57,0x00
0.341395833333333,0,0x01,0x01
0.341415458333333,0,0x02,0x01
0.341433500000000,0,0x73,0x00
0.341451541666667,0,0x17,0x01
0.341471208333333,0,0x06,0x01
0.341489250000000,0,0xDC,0x01
0.341507333333333,0,0xCD,0x01
0.341526916666667,0,0x85,0x81
0.341544958333333,0,0x66,0x01
0.341563041666667,0,0x37,0x01
0.341582708333333,0,0x03,0x01
0.341600708333333,0,0x80,0x81
0.341618791666667,0,0x00,0x01
0.341638416666667,0,0x08,0x01
0.341656458333333,0,0x7C,0x00
0.341674500000000,0,0x10,0x01
0.341694166666667,0,0x01,0x01
0.341712208333333,0,0x08,0x01
0.341730291666667,0,0x00,0x01
0.341749875000000,0,0x0B,0x01
0.341767916666667,0,0x7F,0x01
0.341786000000000,0,0xFD,0x01
0.341805666666667,0,0x0F,0x01
0.341823666666667,0,0x80,0x81
0.341841750000000,0,0x00,0x01
0.341861375000000,0,0x0E,0x01
0.341879416666667,0,0x00,0x01
0.341897458333333,0,0x00,0x81
0.341917125000000,0,0x07,0x01
0.341935166666667,0,0x08,0x01
0.341953250000000,0,0xBD,0x01
0.341972833333333,0,0x96,0x01
0.341990875000000,0,0x00,0x01
0.342008958333333,0,0xFF,0x01
0.342028625000000,0,0x13,0x00
0.342046625000000,0,0x80,0x01
0.342064708333333,0,0x07,0x01
0.342084333333333,0,0x0C,0x00
0.342102333333333,0,0x00,0x01
0.342120416666667,0,0x67,0x01
0.342140083333333,0,0x0D,0x01
0.342158083333333,0,0x97,0x81
0.342176166666667,0,0x79,0x01
0.342195791666667,0,0x1A,0x01
0.342213833333333,0,0x1C,0x00
0.342231875000000,0,0xE0,0x01
0.342251541666667,0,0x19,0x01
0.342269583333333,0,0x03,0x01
0.342287625000000,0,0x80,0x81
0.342307125000000,0,0x1E,0x01
0.342325166666667,0,0x0C,0x01
0.342343208333333,0,0x00,0x81
0.342362875000000,0,0x00,0x01
0.342380916666667,0,0x48,0x01
0.342399000000000,0,0x00,0x01
0.342418583333333,0,0x20,0x81
0.342436625000000,0,0x1F,0x01
0.342454708333333,0,0xC7,0x01
0.342474375000000,0,0x33,0x00
0.342492375000000,0,0x00,0x01
0.342510458333333,0,0x00,0x01
0.342530083333333,0,0x33,0x01
0.342548083333333,0,0x83,0x81
0.342566166666667,0,0x80,0x01
0.342585833333333,0,0x26,0x01
0.342603875000000,0,0x32,0x01
0.342621958333333,0,0x00,0x00
0.342641541666667,0,0x05,0x01
0.342659583333333,0,0x06,0x01
0.342677666666667,0,0xCC,0x01
0.342697333333333,0,0x32,0x01
0.342715333333333,0,0x5B,0x01
0.342733416666667,0,0x7A,0x01
0.342753041666667,0,0x27,0x01
0.342771083333333,0,0x00,0x01
0.342789166666667,0,0x33,0x01
0.342808791666667,0,0xA8,0x81
0.342826833333333,0,0x64,0x01
0.342844916666667,0,0x01,0x01
0.342864541666667,0,0x39,0x01
0.342882583333333,0,0xB0,0x00
0.342900625000000,0,0x00,0x01
0.342920291666667,0,0x02,0x01
0.342938333333333,0,0xFD,0x01
0.342956416666667,0,0xF0,0x01
0.342976000000000,0,0x2B,0x81
0.342994041666667,0,0x00,0x01
0.343012125000000,0,0x0F,0x01
0.343031791666667,0,0x32,0x01
0.343049833333333,0,0x00,0x01
0.343067875000000,0,0x00,0x01
0.354223166666667,0,0x80,0x01
0.354241208333333,0,0xFF,0x30
0.354259416666667,0,0xFF,0x00
0.354279375000000,0,0x80,0x01
0.354297416666667,0,0xFF,0x04
0.354315625000000,0,0xFF,0x01
0.369133125000000,0,0x30,0x01
0.369151125000000,0,0x00,0x81
0.369169208333333,0,0x00,0x01
0.369189416666667,0,0x87,0x01
0.369207458333333,0,0xFF,0x00
0.369225666666667,0,0xFF,0x00
0.369246541666667,0,0x07,0x01
0.369264583333333,0,0x00,0x01
0.369282625000000,0,0x0A,0x01
0.369317583333333,0,0xB0,0x03
0.369335583333333,0,0x7F,0x03
0.369353791666667,0,0xFF,0x14
0.372120041666667,0,0x98,0x10
0.372138083333333,0,0xFF,0x02
0.372156291666667,0,0xFF,0x00
0.374107958333333,0,0xB0,0x12
0.374126000000000,0,0xFF,0x12
0.374144208333333,0,0xFF,0x16
0.376095625000000,0,0x98,0x1A
0.376113666666667,0,0xFF,0x12
0.376131875000000,0,0xFF,0x14
0.378083041666667,0,0x98,0x10
0.378101083333333,0,0xFF,0x02
0.378119291666667,0,0xFF,0x14
0.380070833333333,0,0x98,0x10
0.380088875000000,0,0xFF,0x12
0.380107083333333,0,0xFF,0x14
0.382058583333333,0,0x98,0x1A
0.382076625000000,0,0xFF,0x12
0.382094833333333,0,0xFF,0x14
0.384046333333333,0,0xF0,0x12
0.384064333333333,0,0x7F,0x12
0.384082541666667,0,0xFF,0x14
0.386034083333333,0,0xF0,0x12
0.386052125000000,0,0xFF,0x13
0.386070333333333,0,0xFF,0x14
0.388021708333333,0,0x98,0x1A
0.388039750000000,0,0xFF,0x12
0.388057958333333,0,0xFF,0x14
0.390009375000000,0,0xF0,0x02
0.390027375000000,0,0x7F,0x12
0.390045583333333,0,0xFF,0x14
0.391997125000000,0,0xB0,0x12
0.392015166666667,0,0xFF,0x10
0.392033375000000,0,0xFF,0x16
0.393984875000000,0,0x98,0x10
0.394002916666667,0,0xFF,0x12
0.394021125000000,0,0xFF,0x14
0.395972583333333,0,0xB0,0x12
0.395990625000000,0,0xFF,0x10
0.396008833333333,0,0xFF,0x16
0.397960125000000,0,0xB0,0x12
0.397978166666667,0,0xFF,0x12
0.397996375000000,0,0xFF,0x14
0.399947791666667,0,0x90,0x12
0.399965833333333,0,0xFF,0x12
0.399984041666667,0,0xFF,0x14
0.400008833333333,0,0x87,0x12
0.400026875000000,0,0xFF,0x00
0.400045083333333,0,0xFF,0xA8
0.400065666666667,0,0x03,0x13
0.400083666666667,0,0x80,0x1A
0.400101750000000,0,0x20,0x12
0.400931541666667,0,0x07,0x01
0.400949583333333,0,0x00,0x00
0.400967625000000,0,0x08,0x01
0.400988250000000,0,0x34,0x01
0.401006250000000,0,0x00,0x81
0.401024333333333,0,0x80,0x01
0.401044583333333,0,0x87,0x01
0.401062625000000,0,0xFF,0x00
0.401080833333333,0,0xFF,0x28
0.401101666666667,0,0x87,0x01
0.401119708333333,0,0x00,0x01
0.401137791666667,0,0xFC,0x01
0.401935666666667,0,0xF0,0x12
0.401953708333333,0,0xFF,0x12
0.401971916666667,0,0xFF,0x10
0.403923000000000,0,0xB0,0x13
0.403941000000000,0,0x7F,0x12
0.403959208333333,0,0xFF,0x10
0.405910583333333,0,0xB0,0x12
0.405928625000000,0,0xFF,0x12
0.405946833333333,0,0xFF,0x10
0.407898333333333,0,0xF0,0x02
0.407916333333333,0,0x7F,0x12
0.407934541666667,0,0xFF,0x10
0.409886041666667,0,0x98,0x10
0.409904083333333,0,0xFF,0x02
0.409922291666667,0,0xFF,0x00
0.411873708333333,0,0xB0,0x12
0.411891708333333,0,0x7F,0x12
0.411909916666667,0,0xFF,0x10
0.413861375000000,0,0xB0,0x12
0.413879416666667,0,0xFF,0x12
0.413897625000000,0,0xFF,0x00
0.415849083333333,0,0x98,0x10
0.415867125000000,0,0xFF,0x02
0.415885333333333,0,0xFF,0x00
0.417836750000000,0,0xF0,0x02
0.417854791666667,0,0xFF,0x12
0.417873000000000,0,0xFF,0x10
0.419824416666667,0,0x98,0x1A
0.419842458333333,0,0xFF,0x12
0.419860666666667,0,0xFF,0x10
0.421812041666667,0,0x90,0x12
0.421830083333333,0,0xFF,0x12
0.421848291666667,0,0xFF,0x10
0.423800000000000,0,0x98,0x1A
0.423818041666667,0,0xFF,0x12
0.423836250000000,0,0xFF,0x10
0.425787333333333,0,0x98,0x1A
0.425805375000000,0,0xFF,0x12
0.425823583333333,0,0xFF,0x10
0.427774875000000,0,0x98,0x1A
0.427792916666667,0,0xFF,0x12
0.427811125000000,0,0xFF,0x10
0.429762625000000,0,0xF0,0x12
0.429780666666667,0,0xFF,0x13
0.429798875000000,0,0xFF,0x10
0.431750500000000,0,0xF0,0x02
0.431768541666667,0,0xFF,0x13
0.431786750000000,0,0xFF,0x10
0.431811541666667,0,0x87,0x12
0.431829583333333,0,0xFF,0x00
0.431847791666667,0,0xFF,0xA8
0.431868333333333,0,0x07,0x12
0.431886375000000,0,0x00,0x12
0.431904416666667,0,0x0A,0x12
0.432734250000000,0,0x07,0x01
0.432752291666667,0,0x00,0x01
0.432770375000000,0,0x0E,0x01
0.432790958333333,0,0x1C,0x01
0.432809000000000,0,0x80,0x01
0.432827083333333,0,0xC0,0x01
0.432847333333333,0,0x83,0x00
0.432865333333333,0,0xFF,0x00
0.432883541666667,0,0xFF,0x02
0.432904416666667,0,0x87,0x01
0.432922458333333,0,0x00,0x01
0.432940541666667,0,0xCE,0x01
0.433738208333333,0,0x18,0x1A
0.433756250000000,0,0xFF,0x12
0.433774458333333,0,0xFF,0x14
0.435725958333333,0,0xB0,0x12
0.435744000000000,0,0xFF,0x10
0.435762208333333,0,0xFF,0x1C
0.437713750000000,0,0xF0,0x12
0.437731791666667,0,0xFF,0x13
0.437750000000000,0,0xFF,0x10
0.439701541666667,0,0x90,0x12
0.439719583333333,0,0xFF,0x12
0.439737791666667,0,0xFF,0x14
0.441689416666667,0,0x90,0x12
0.441707458333333,0,0xFF,0x12
0.441725666666667,0,0xFF,0x14
0.443677250000000,0,0xB0,0x13
0.443695250000000,0,0x7F,0x1A
0.443713458333333,0,0xFF,0x1C
0.445664958333333,0,0xB0,0x12
0.445683000000000,0,0xFF,0x10
0.445701208333333,0,0xFF,0x14
0.447652666666667,0,0xF0,0x02
0.447670666666667,0,0x7F,0x12
0.447688875000000,0,0xFF,0x14
0.449640333333333,0,0x98,0x1A
0.449658375000000,0,0xFF,0x12
0.449676583333333,0,0xFF,0x14
0.451628041666667,0,0xB0,0x12
0.451646083333333,0,0xFF,0x10
0.451664291666667,0,0xFF,0x16
0.453616000000000,0,0x98,0x10
0.453634041666667,0,0xFF,0x02
0.453652250000000,0,0xFF,0x00
0.455603750000000,0,0xB8,0x10
0.455621791666667,0,0xFF,0x02
0.455640000000000,0,0xFF,0x14
0.457591458333333,0,0xB0,0x12
0.457609500000000,0,0xFF,0x02
0.457627708333333,0,0xFF,0x00
0.459579291666667,0,0xF0,0x12
0.459597291666667,0,0x7F,0x12
0.459615500000000,0,0xFF,0x14
0.461566958333333,0,0xB0,0x12
0.461585000000000,0,0xFF,0x10
0.461603208333333,0,0xFF,0x1C
0.463554625000000,0,0xF0,0x02
0.463572625000000,0,0x7F,0x12
0.463590833333333,0,0xFF,0x14
0.463615666666667,0,0xC7,0x02
0.463633708333333,0,0xFF,0x00
0.463651916666667,0,0xFF,0x8B
0.463672458333333,0,0x07,0x12
0.463690500000000,0,0x00,0x02
0.463708583333333,0,0x33,0x12
0.464538166666667,0,0x07,0x01
0.464556208333333,0,0x00,0x01
0.464574291666667,0,0x30,0x01
0.464594916666667,0,0x30,0x00
0.464612916666667,0,0x00,0x01
0.464631000000000,0,0x80,0x01
0.464651250000000,0,0x87,0x01
0.464669291666667,0,0xFF,0x00
0.464687500000000,0,0xFF,0x33
0.464708375000000,0,0x03,0x01
0.464726375000000,0,0x80,0x81
0.464744458333333,0,0x1A,0x01
0.465542208333333,0,0xF0,0x12
0.465560208333333,0,0x7F,0x12
0.465578416666667,0,0xFF,0x04
0.467529875000000,0,0x98,0x1A
0.467547916666667,0,0xFF,0x12
0.467566125000000,0,0xFF,0x04
0.469517500000000,0,0xF0,0x02
0.469535541666667,0,0xFF,0x12
0.469553750000000,0,0xFF,0x04
0.471505458333333,0,0x98,0x1A
0.471523500000000,0,0xFF,0x12
0.471541708333333,0,0xFF,0x04
0.473492833333333,0,0xB0,0x13
0.473510875000000,0,0xFF,0x1A
0.473529083333333,0,0xFF,0x04
0.475480791666667,0,0xB0,0x12
0.475498833333333,0,0xFF,0x02
0.475517041666667,0,0xFF,0x00
0.477468083333333,0,0xB0,0x12
0.477486125000000,0,0xFF,0x10
0.477504333333333,0,0xFF,0x06
0.479456000000000,0,0xF0,0x12
0.479474041666667,0,0xFF,0x13
0.479492250000000,0,0xFF,0x04
0.481443458333333,0,0xF0,0x12
0.481461458333333,0,0x7F,0x12
0.481479666666667,0,0xFF,0x04
0.483431083333333,0,0x98,0x1A
0.483449125000000,0,0xFF,0x12
0.483467333333333,0,0xFF,0x04
0.485418791666667,0,0x98,0x10
0.485436833333333,0,0xFF,0x12
0.485455041666667,0,0xFF,0x04
0.487406583333333,0,0x98,0x18
0.487424625000000,0,0xFF,0x12
0.487442833333333,0,0xFF,0x04
0.489394500000000,0,0xB0,0x12
0.489412541666667,0,0xFF,0x10
0.489430750000000,0,0xFF,0x06
0.491381875000000,0,0x98,0x10
0.491399916666667,0,0xFF,0x02
0.491418125000000,0,0xFF,0x04
0.493369666666667,0,0xF0,0x02
0.493387708333333,0,0xFF,0x13
0.493405916666667,0,0xFF,0x04
0.495357500000000,0,0xB0,0x10
0.495375541666667,0,0xFF,0x02
0.495393750000000,0,0xFF,0x04
0.495418541666667,0,0x87,0x1A
0.495436583333333,0,0xFF,0x00
0.495454791666667,0,0xFF,0xB2
0.495475375000000,0,0x07,0x12
0.495493375000000,0,0x00,0x1A
0.495511458333333,0,0x16,0x12
0.496341333333333,0,0x07,0x01
0.496359375000000,0,0x00,0x01
0.496377458333333,0,0x00,0x01
0.496398041666667,0,0x1E,0x01
0.496416083333333,0,0xC0,0x01
0.496434166666667,0,0x80,0x01
0.496454375000000,0,0x07,0x01
0.496472416666667,0,0xFF,0x00
0.496490625000000,0,0xFF,0x16
0.496511500000000,0,0x07,0x01
0.496529541666667,0,0x00,0x01
0.496547625000000,0,0x80,0x00
0.497345250000000,0,0xF0,0x02
0.497363250000000,0,0x7F,0x12
0.497381458333333,0,0xFF,0x08
0.499332958333333,0,0xB0,0x12
0.499351000000000,0,0xFF,0x12
0.499369208333333,0,0xFF,0x08
0.501320666666667,0,0xB0,0x12
0.501338708333333,0,0xFF,0x12
0.501356916666667,0,0xFF,0x0C
0.503308375000000,0,0x98,0x1A
0.503326416666667,0,0xFF,0x12
0.503344625000000,0,0xFF,0x08
0.505296166666667,0,0xB0,0x12
0.505314208333333,0,0xFF,0x10
0.505332416666667,0,0xFF,0x00
0.507283958333333,0,0xF0,0x12
0.507302000000000,0,0xFF,0x13
0.507320208333333,0,0xFF,0x08
0.509271708333333,0,0xB8,0x10
0.509289750000000,0,0xFF,0x02
0.509307958333333,0,0xFF,0x08
0.511259583333333,0,0xF0,0x02
0.511277583333333,0,0x7F,0x12
0.511295833333333,0,0xFF,0x08
0.513247041666667,0,0xF0,0x02
0.513265041666667,0,0x7F,0x12
0.513283250000000,0,0xFF,0x08
0.515234541666667,0,0x98,0x10
0.515252583333333,0,0xFF,0x02
0.515270791666667,0,0xFF,0x08
0.517222625000000,0,0x90,0x12
0.517240666666667,0,0xFF,0x12
0.517258875000000,0,0xFF,0x08
0.519210083333333,0,0xB0,0x12
0.519228125000000,0,0xFF,0x12
0.519246333333333,0,0xFF,0x08
0.521197583333333,0,0xB0,0x13
0.521215583333333,0,0xFF,0x18
0.521233791666667,0,0xFF,0x08
0.523185041666667,0,0xB0,0x12
0.523203083333333,0,0xFF,0x12
0.523221291666667,0,0xFF,0x08
0.525172791666667,0,0xB8,0x10
0.525190833333333,0,0xFF,0x02
0.525209041666667,0,0xFF,0x08
0.527160625000000,0,0xB0,0x13
0.527178625000000,0,0xFF,0x18
0.527196833333333,0,0xFF,0x00
0.527221625000000,0,0x87,0x12
0.527239666666667,0,0xFF,0x00
0.527257875000000,0,0xFF,0x96
0.527278458333333,0,0x07,0x12
0.527296458333333,0,0x00,0x1A
0.527314541666667,0,0x3E,0x12
0.528144333333333,0,0x07,0x01
0.528162333333333,0,0x00,0x01
0.528180416666667,0,0x3C,0x01
0.528201000000000,0,0x34,0x81
0.528219041666667,0,0x80,0x01
0.528237125000000,0,0xC0,0x01
0.528257375000000,0,0x83,0x00
0.528275375000000,0,0xFF,0x00
0.528293583333333,0,0xFF,0x1C
0.528314458333333,0,0x87,0x01
0.528332500000000,0,0x00,0x01
0.528350583333333,0,0xFC,0x01
0.529148250000000,0,0x98,0x10
0.529166291666667,0,0xFF,0x02
0.529184500000000,0,0xFF,0x08
0.531135833333333,0,0x98,0x18
0.531153875000000,0,0xFF,0x12
0.531172083333333,0,0xFF,0x08
0.533123416666667,0,0xF0,0x02
0.533141416666667,0,0x7F,0x12
0.533159625000000,0,0xFF,0x18
0.535111083333333,0,0x90,0x12
0.535129125000000,0,0xFF,0x12
0.535147333333333,0,0xFF,0x18
0.537098500000000,0,0xF0,0x12
0.537116541666667,0,0xFF,0x12
0.537134708333333,0,0xFF,0x18
0.539086250000000,0,0x98,0x10
0.539104291666667,0,0xFF,0x12
0.539122500000000,0,0xFF,0x08
0.541073708333333,0,0xB0,0x12
0.541091750000000,0,0xFF,0x10
0.541109958333333,0,0xFF,0x18
0.543061583333333,0,0xB0,0x13
0.543079583333333,0,0x7F,0x1A
0.543097791666667,0,0xFF,0x18
0.545048916666667,0,0xB0,0x13
0.545066916666667,0,0x7F,0x1A
0.545085125000000,0,0xFF,0x18
0.547036541666667,0,0xB0,0x12
0.547054541666667,0,0xFF,0x10
0.547072750000000,0,0xFF,0x18
0.549024125000000,0,0xB0,0x13
0.549042125000000,0,0x7F,0x1A
0.549060333333333,0,0xFF,0x18
0.551011833333333,0,0xB0,0x12
0.551029875000000,0,0xFF,0x12
0.551048083333333,0,0xFF,0x1C
0.552999125000000,0,0xF0,0x02
0.553017125000000,0,0x7F,0x12
0.553035333333333,0,0xFF,0x18
0.554986458333333,0,0xB0,0x12
0.555004500000000,0,0xFF,0x12
0.555022708333333,0,0xFF,0x1C
0.556974333333333,0,0xF0,0x02
0.556992333333333,0,0x7F,0x12
0.557010541666667,0,0xFF,0x18
0.558961791666667,0,0xB0,0x13
0.558979791666667,0,0x7F,0x1A
0.558998000000000,0,0xFF,0x18
0.559022791666667,0,0x87,0x12
0.559040833333333,0,0xFF,0x00
0.559059041666667,0,0xFF,0xBC
0.559079583333333,0,0x87,0x12
0.559097625000000,0,0x00,0x12
0.559115708333333,0,0x0E,0x12
0.559945458333333,0,0x07,0x01
0.559963500000000,0,0x00,0x01
0.559981583333333,0,0x1F,0x00
0.560002166666667,0,0x3E,0x01
0.560020208333333,0,0xC0,0x01
0.560038250000000,0,0x00,0x81
0.560058500000000,0,0x07,0x01
0.560076541666667,0,0xFF,0x00
0.560094750000000,0,0xFF,0x1E
0.560115625000000,0,0x07,0x01
0.560133666666667,0,0x00,0x00
0.560151708333333,0,0x1F,0x81
0.560949583333333,0,0xB0,0x12
0.560967583333333,0,0xFF,0x10
0.560985791666667,0,0xFF,0x1E
0.562937291666667,0,0xB0,0x12
0.562955333333333,0,0xFF,0x12
0.562973541666667,0,0xFF,0x1C
0.564924791666667,0,0xB0,0x13
0.564942791666667,0,0x7F,0x1A
0.564961000000000,0,0xFF,0x1C
0.566912458333333,0,0xB0,0x12
0.566930458333333,0,0xFF,0x12
0.566948666666667,0,0xFF,0x1C
0.568899791666667,0,0xB0,0x13
0.568917791666667,0,0x7F,0x1A
0.568936000000000,0,0xFF,0x1C
0.570887375000000,0,0xB0,0x13
0.570905375000000,0,0xFF,0x10
0.570923583333333,0,0xFF,0x1E
0.572874875000000,0,0xB0,0x12
0.572892916666667,0,0xFF,0x10
0.572911125000000,0,0xFF,0x1E
0.574862708333333,0,0xB0,0x13
0.574880708333333,0,0x7F,0x12
0.574898916666667,0,0xFF,0x1C
0.576850125000000,0,0xB0,0x12
0.576868125000000,0,0xFF,0x10
0.576886333333333,0,0xFF,0x1E
0.578838041666667,0,0xB0,0x12
0.578856083333333,0,0xFF,0x10
0.578874291666667,0,0xFF,0x1E
0.580825375000000,0,0xB0,0x12
0.580843416666667,0,0xFF,0x12
0.580861625000000,0,0xFF,0x1C
0.582812916666667,0,0x90,0x12
0.582830958333333,0,0xFF,0x12
0.582849166666667,0,0xFF,0x1C
0.584800500000000,0,0xF0,0x02
0.584818500000000,0,0x7F,0x12
0.584836708333333,0,0xFF,0x1C
0.586788083333333,0,0xB0,0x12
0.586806125000000,0,0xFF,0x12
0.586824333333333,0,0xFF,0x1E
0.588775750000000,0,0x90,0x12
0.588793791666667,0,0xFF,0x12
0.588812000000000,0,0xFF,0x1C
0.590763375000000,0,0x98,0x1A
0.590781416666667,0,0xFF,0x12
0.590799625000000,0,0xFF,0x1C
0.590824416666667,0,0x87,0x18
0.590842458333333,0,0xFF,0x00
0.590860666666667,0,0xFF,0xDE
0.590881208333333,0,0x07,0x1A
0.590899250000000,0,0x00,0x12
0.590917333333333,0,0x43,0x13
0.591747125000000,0,0x07,0x01
0.591765166666667,0,0x00,0x01
0.591783208333333,0,0x47,0x81
0.591803833333333,0,0x36,0x01
0.591821875000000,0,0x80,0x01
0.591839916666667,0,0x00,0x81
0.591860166666667,0,0x07,0x01
0.591878208333333,0,0xFF,0x00
0.591896416666667,0,0xFF,0x46
0.591917291666667,0,0x07,0x01
0.591935333333333,0,0x00,0x01
0.591953416666667,0,0xC3,0x00
0.592751333333333,0,0xF0,0x02
0.592769333333333,0,0x7F,0x12
0.592787541666667,0,0xFF,0x04
0.594738625000000,0,0xB0,0x12
0.594756625000000,0,0xFF,0x10
0.594774833333333,0,0xFF,0x0C
0.596726041666667,0,0x98,0x1A
0.596744083333333,0,0xFF,0x12
0.596762291666667,0,0xFF,0x0C
0.598713458333333,0,0xB0,0x12
0.598731500000000,0,0xFF,0x12
0.598749708333333,0,0xFF,0x0C
0.600701166666667,0,0x98,0x1A
0.600719208333333,0,0xFF,0x12
0.600737416666667,0,0xFF,0x0C
0.602688375000000,0,0xB0,0x12
0.602706416666667,0,0xFF,0x10
0.602724625000000,0,0xFF,0x06
0.604675916666667,0,0xF0,0x12
0.604693958333333,0,0xFF,0x12
0.604712166666667,0,0xFF,0x0C
0.606663625000000,0,0xF0,0x02
0.606681625000000,0,0x7F,0x12
0.606699833333333,0,0xFF,0x0C
0.608651083333333,0,0xB0,0x12
0.608669125000000,0,0xFF,0x02
0.608687333333333,0,0xFF,0x0C
0.610639000000000,0,0xF0,0x02
0.610657000000000,0,0x7F,0x12
0.610675208333333,0,0xFF,0x0C
0.612626333333333,0,0x98,0x1A
0.612644375000000,0,0xFF,0x12
0.612662583333333,0,0xFF,0x0C
0.614613791666667,0,0xB0,0x12
0.614631833333333,0,0xFF,0x12
0.614650041666667,0,0xFF,0x0C
0.616601291666667,0,0xB0,0x12
0.616619291666667,0,0xFF,0x10
0.616637500000000,0,0xFF,0x0E
0.618588791666667,0,0xB0,0x12
0.618606791666667,0,0xFF,0x10
0.618625000000000,0,0xFF,0x0E
0.620576583333333,0,0xF0,0x02
0.620594583333333,0,0x7F,0x12
0.620612791666667,0,0xFF,0x0C
0.622563708333333,0,0xF0,0x02
0.622581708333333,0,0x7F,0x12
0.622599916666667,0,0xFF,0x04
0.622624750000000,0,0x83,0x12
0.622642750000000,0,0xFF,0x00
0.622660958333333,0,0xFF,0xC6
0.622681500000000,0,0x87,0x12
0.622699541666667,0,0x00,0x12
0.622717625000000,0,0x00,0x02
0.623547333333333,0,0x07,0x01
0.623565333333333,0,0x80,0x81
0.623583416666667,0,0x00,0x01
0.623604041666667,0,0x30,0x01
0.623622041666667,0,0x00,0x01
0.623640125000000,0,0x80,0x01
0.623660375000000,0,0xC7,0x01
0.623678375000000,0,0xFF,0x80
0.623696583333333,0,0xFF,0x00
0.623717458333333,0,0x87,0x01
0.623735500000000,0,0x00,0x01
0.623753583333333,0,0xC0,0x01
0.624551416666667,0,0x18,0x1A
0.624569458333333,0,0xFF,0x12
0.624587666666667,0,0xFF,0x00
0.626538875000000,0,0xF0,0x12
0.626556875000000,0,0x7F,0x1A
0.626575083333333,0,0xFF,0x00
0.628526125000000,0,0xB0,0x13
0.628544125000000,0,0x7F,0x1A
0.628562333333333,0,0xFF,0x00
0.630513875000000,0,0xB0,0x12
0.630531916666667,0,0xFF,0x12
0.630550125000000,0,0xFF,0x00
0.632501291666667,0,0xB0,0x13
0.632519291666667,0,0x7F,0x1A
0.632537500000000,0,0xFF,0x00
0.634489041666667,0,0x98,0x10
0.634507083333333,0,0xFF,0x02
0.634525291666667,0,0xFF,0x00
0.636476416666667,0,0x98,0x10
0.636494458333333,0,0xFF,0x12
0.636512666666667,0,0xFF,0x00
0.638464000000000,0,0x98,0x1A
0.638482041666667,0,0xFF,0x12
0.638500250000000,0,0xFF,0x00
0.640451875000000,0,0x98,0x10
0.640469916666667,0,0xFF,0x12
0.640488125000000,0,0xFF,0x00
0.642439375000000,0,0x98,0x1A
0.642457416666667,0,0xFF,0x12
0.642475625000000,0,0xFF,0x00
0.644426625000000,0,0xB0,0x12
0.644444625000000,0,0xFF,0x10
0.644462833333333,0,0xFF,0x00
0.646413958333333,0,0xB0,0x12
0.646432000000000,0,0xFF,0x12
0.646450208333333,0,0xFF,0x00
0.648401541666667,0,0xB0,0x12
0.648419583333333,0,0xFF,0x02
0.648437791666667,0,0xFF,0x00
0.650389125000000,0,0xF0,0x12
0.650407125000000,0,0x7F,0x12
0.650425333333333,0,0xFF,0x00
0.652376791666667,0,0xB0,0x12
0.652394791666667,0,0xFF,0x10
0.652413000000000,0,0xFF,0x00
0.654364250000000,0,0x90,0x12
0.654382291666667,0,0xFF,0x02
0.654400500000000,0,0xFF,0x00
0.654425291666667,0,0xC7,0x12
0.654443333333333,0,0xFF,0x00
0.654461541666667,0,0xFF,0x80
0.654482083333333,0,0x07,0x12
0.654500083333333,0,0x80,0x12
0.654518166666667,0,0x00,0x18
0.655347916666667,0,0x07,0x01
0.655365958333333,0,0x00,0x01
0.655384041666667,0,0x28,0x01
0.655404625000000,0,0x1C,0x01
0.655422666666667,0,0xC0,0x01
0.655440750000000,0,0x80,0x00
0.655460958333333,0,0x07,0x81
0.655479000000000,0,0xFF,0x00
0.655497208333333,0,0xFF,0x28
0.655518083333333,0,0x07,0x01
0.655536125000000,0,0x00,0x01
0.655554166666667,0,0x00,0x01
0.656351833333333,0,0xB0,0x12
0.656369833333333,0,0xFF,0x10
0.656388041666667,0,0xFF,0x10
0.658339291666667,0,0xF0,0x02
0.658357291666667,0,0x7F,0x12
0.658375500000000,0,0xFF,0x10
0.660326791666667,0,0x98,0x1A
0.660344833333333,0,0xFF,0x12
0.660363041666667,0,0xFF,0x10
0.662314416666667,0,0x98,0x1A
0.662332458333333,0,0xFF,0x12
0.662350666666667,0,0xFF,0x10
0.664301875000000,0,0x90,0x12
0.664319916666667,0,0xFF,0x12
0.664338125000000,0,0xFF,0x10
0.666289416666667,0,0xB0,0x12
0.666307416666667,0,0xFF,0x10
0.666325625000000,0,0xFF,0x10
0.668276625000000,0,0xB0,0x12
0.668294625000000,0,0xFF,0x10
0.668312833333333,0,0xFF,0x10
0.670264083333333,0,0xB0,0x12
0.670282125000000,0,0xFF,0x10
0.670300333333333,0,0xFF,0x10
0.672251791666667,0,0xB0,0x12
0.672269833333333,0,0xFF,0x12
0.672288041666667,0,0xFF,0x10
0.674239208333333,0,0xF0,0x02
0.674257208333333,0,0x7F,0x12
0.674275416666667,0,0xFF,0x18
0.676226875000000,0,0xB0,0x12
0.676244916666667,0,0xFF,0x12
0.676263125000000,0,0xFF,0x10
0.678214625000000,0,0xF0,0x12
0.678232666666667,0,0xFF,0x12
0.678250833333333,0,0xFF,0x10
0.680201916666667,0,0x98,0x10
0.680219958333333,0,0xFF,0x02
0.680238166666667,0,0xFF,0x00
0.682189291666667,0,0xB0,0x12
0.682207333333333,0,0xFF,0x12
0.682225541666667,0,0xFF,0x10
0.684176666666667,0,0xB0,0x12
0.684194708333333,0,0xFF,0x12
0.684212916666667,0,0xFF,0x10
0.686164208333333,0,0xB0,0x12
0.686182208333333,0,0xFF,0x10
0.686200416666667,0,0xFF,0x10
0.686225208333333,0,0x87,0x12
0.686243250000000,0,0xFF,0x00
0.686261458333333,0,0xFF,0xA8
0.686282000000000,0,0x87,0x1A
0.686300041666667,0,0x00,0x12
0.686318125000000,0,0x0F,0x13
0.687147833333333,0,0x07,0x01
0.687165833333333,0,0x00,0x01
0.687183916666667,0,0x0E,0x01
0.687204500000000,0,0x1E,0x01
0.687222541666667,0,0xC0,0x01
0.687240583333333,0,0x00,0x81
0.687260833333333,0,0x87,0x01
0.687278875000000,0,0xFF,0x00
0.687297083333333,0,0xFF,0x0B
0.687317958333333,0,0x03,0x01
0.687335958333333,0,0x00,0x01
0.687354041666667,0,0xCA,0x01
0.688151875000000,0,0xB0,0x12
0.688169875000000,0,0xFF,0x10
0.688188083333333,0,0xFF,0x16
0.690139250000000,0,0x98,0x10
0.690157291666667,0,0xFF,0x02
0.690175500000000,0,0xFF,0x04
0.692126583333333,0,0xF0,0x12
0.692144625000000,0,0xFF,0x13
0.692162833333333,0,0xFF,0x14
0.694114166666667,0,0xB0,0x12
0.694132166666667,0,0xFF,0x10
0.694150375000000,0,0xFF,0x1E
0.696101625000000,0,0xF0,0x02
0.696119625000000,0,0x7F,0x12
0.696137833333333,0,0xFF,0x14
0.698089250000000,0,0xB0,0x12
0.698107291666667,0,0xFF,0x12
0.698125500000000,0,0xFF,0x10
0.700076791666667,0,0x98,0x1A
0.700094833333333,0,0xFF,0x12
0.700113041666667,0,0xFF,0x14
0.702064541666667,0,0xF0,0x02
0.702082541666667,0,0x7F,0x12
0.702100750000000,0,0xFF,0x14
0.704051958333333,0,0x98,0x10
0.704070000000000,0,0xFF,0x02
0.704088208333333,0,0xFF,0x00
0.706039333333333,0,0x90,0x12
0.706057375000000,0,0xFF,0x12
0.706075583333333,0,0xFF,0x14
0.708026916666667,0,0xB0,0x12
0.708044958333333,0,0xFF,0x13
0.708063166666667,0,0xFF,0x14
0.710014458333333,0,0x98,0x10
0.710032500000000,0,0xFF,0x12
0.710050708333333,0,0xFF,0x14
0.712001958333333,0,0xB0,0x12
0.712020000000000,0,0xFF,0x13
0.712038208333333,0,0xFF,0x14
0.713989375000000,0,0xB0,0x12
0.714007416666667,0,0xFF,0x12
0.714025625000000,0,0xFF,0x14
0.715976875000000,0,0xF0,0x13
0.715994875000000,0,0x7F,0x1A
0.716013083333333,0,0xFF,0x16
0.717964250000000,0,0xB0,0x12
0.717982250000000,0,0xFF,0x10
0.718000458333333,0,0xFF,0x16
0.718025250000000,0,0x87,0x12
0.718043291666667,0,0xFF,0x00
0.718061500000000,0,0xFF,0x8A
0.718082041666667,0,0x87,0x12
0.718100083333333,0,0x00,0x12
0.718118166666667,0,0x32,0x12
0.718947916666667,0,0x07,0x01
0.718965916666667,0,0x80,0x81
0.718984000000000,0,0x18,0x01
0.719004625000000,0,0x30,0x01
0.719022625000000,0,0x00,0x01
0.719040708333333,0,0x80,0x01
0.719060958333333,0,0xC7,0x01
0.719078958333333,0,0xFF,0x80
0.719097166666667,0,0xFF,0x32
0.719118041666667,0,0x87,0x01
0.719136083333333,0,0x00,0x01
0.719154166666667,0,0xF2,0x01
0.719951916666667,0,0xF0,0x02
0.719969916666667,0,0x7F,0x12
0.719988125000000,0,0xFF,0x04
0.721939166666667,0,0xB0,0x12
0.721957208333333,0,0xFF,0x12
0.721975416666667,0,0xFF,0x00
0.723926791666667,0,0xB0,0x13
0.723944791666667,0,0x7F,0x10
0.723963000000000,0,0xFF,0x06
0.725913833333333,0,0xB0,0x12
0.725931875000000,0,0xFF,0x12
0.725950083333333,0,0xFF,0x04
0.727900958333333,0,0xB0,0x12
0.727918958333333,0,0xFF,0x10
0.727937166666667,0,0xFF,0x04
0.729888291666667,0,0xF0,0x02
0.729906291666667,0,0x7F,0x12
0.729924500000000,0,0xFF,0x04
0.731875625000000,0,0xB0,0x12
0.731893666666667,0,0xFF,0x12
0.731911875000000,0,0xFF,0x04
0.733862875000000,0,0x90,0x12
0.733880916666667,0,0xFF,0x12
0.733899125000000,0,0xFF,0x04
0.735850583333333,0,0xF0,0x12
0.735868583333333,0,0x7F,0x12
0.735886791666667,0,0xFF,0x04
0.737837708333333,0,0x90,0x12
0.737855750000000,0,0xFF,0x12
0.737873958333333,0,0xFF,0x04
0.739825416666667,0,0xB0,0x12
0.739843458333333,0,0xFF,0x12
0.739861666666667,0,0xFF,0x00
0.741812875000000,0,0xB0,0x13
0.741830875000000,0,0x7F,0x18
0.741849083333333,0,0xFF,0x06
0.743800333333333,0,0x98,0x10
0.743818375000000,0,0xFF,0x02
0.743836583333333,0,0xFF,0x00
0.745787750000000,0,0x98,0x18
0.745805791666667,0,0xFF,0x02
0.745824000000000,0,0xFF,0x00
0.747775166666667,0,0x90,0x12
0.747793208333333,0,0xFF,0x12
0.747811416666667,0,0xFF,0x04
0.749762250000000,0,0xB0,0x12
0.749780250000000,0,0xFF,0x12
0.749798458333333,0,0xFF,0x04
0.749823250000000,0,0x87,0x1A
0.749841291666667,0,0xFF,0x00
0.749859500000000,0,0xFF,0xB2
0.749880041666667,0,0x07,0x10
0.749898083333333,0,0x00,0x02
0.749916166666667,0,0x14,0x12
0.750745833333333,0,0x07,0x01
0.750763875000000,0,0x00,0x00
0.750781916666667,0,0x14,0x01
0.750802541666667,0,0x30,0x01
0.750820541666667,0,0x00,0x01
0.750838625000000,0,0x80,0x01
0.750858875000000,0,0xC3,0x01
0.750876875000000,0,0xFF,0x00
0.750895083333333,0,0xFF,0x1C
0.750915958333333,0,0x07,0x01
0.750934000000000,0,0x00,0x01
0.750952083333333,0,0x94,0x01
0.751749666666667,0,0xF0,0x02
0.751767666666667,0,0x7F,0x12
0.751785875000000,0,0xFF,0x08
0.753737333333333,0,0x90,0x12
0.753755375000000,0,0xFF,0x12
0.753773583333333,0,0xFF,0x08
0.755724750000000,0,0xB0,0x12
0.755742791666667,0,0xFF,0x13
0.755761000000000,0,0xFF,0x08
0.757712125000000,0,0x98,0x18
0.757730166666667,0,0xFF,0x12
0.757748375000000,0,0xFF,0x08
0.759699666666667,0,0xB0,0x13
0.759717666666667,0,0x7F,0x1A
0.759735875000000,0,0xFF,0x00
0.761686791666667,0,0xB0,0x13
0.761704791666667,0,0x7F,0x1A
0.761723000000000,0,0xFF,0x08
0.763674125000000,0,0x98,0x10
0.763692166666667,0,0xFF,0x02
0.763710375000000,0,0xFF,0x08
0.765661375000000,0,0x98,0x18
0.765679416666667,0,0xFF,0x02
0.765697625000000,0,0xFF,0x08
0.767648708333333,0,0xF0,0x12
0.767666708333333,0,0x7F,0x12
0.767684916666667,0,0xFF,0x08
0.769636125000000,0,0xB0,0x12
0.769654166666667,0,0xFF,0x12
0.769672375000000,0,0xFF,0x08
0.771623375000000,0,0xF0,0x02
0.771641375000000,0,0x7F,0x12
0.771659583333333,0,0xFF,0x08
0.773610833333333,0,0xF0,0x02
0.773628833333333,0,0x7F,0x12
0.773647041666667,0,0xFF,0x08
0.775598333333333,0,0x98,0x10
0.775616375000000,0,0xFF,0x02
0.775634583333333,0,0xFF,0x08
0.777585833333333,0,0xB0,0x12
0.777603833333333,0,0xFF,0x10
0.777622041666667,0,0xFF,0x08
0.779573291666667,0,0xB0,0x12
0.779591333333333,0,0xFF,0x12
0.779609541666667,0,0xFF,0x08
0.781560750000000,0,0xF0,0x02
0.781578750000000,0,0x7F,0x12
0.781596958333333,0,0xFF,0x00
0.781621791666667,0,0x87,0x12
0.781639791666667,0,0xFF,0x00
0.781658000000000,0,0xFF,0x94
0.781678541666667,0,0x87,0x12
0.781696583333333,0,0x00,0x12
0.781714666666667,0,0x3C,0x02
0.782544333333333,0,0x03,0x01
0.782562333333333,0,0x80,0x81
0.782580416666667,0,0x1E,0x01
0.782601041666667,0,0x34,0x01
0.782619041666667,0,0x80,0x01
0.782637125000000,0,0xC0,0x01
0.782657375000000,0,0x83,0x00
0.782675375000000,0,0xFF,0x00
0.782693583333333,0,0xFF,0x3C
0.782714458333333,0,0x07,0x01
0.782732500000000,0,0x00,0x00
0.782750541666667,0,0x1C,0x01
0.783548125000000,0,0x98,0x10
0.783566166666667,0,0xFF,0x02
0.783584375000000,0,0xFF,0x0C
0.785535625000000,0,0xB0,0x12
0.785553666666667,0,0xFF,0x13
0.785571875000000,0,0xFF,0x18
0.787523333333333,0,0x98,0x1A
0.787541375000000,0,0xFF,0x02
0.787559583333333,0,0xFF,0x0C
0.789510791666667,0,0xB0,0x12
0.789528833333333,0,0xFF,0x12
0.789547041666667,0,0xFF,0x18
0.791498166666667,0,0xF0,0x02
0.791516166666667,0,0x7F,0x12
0.791534375000000,0,0xFF,0x18
0.793485791666667,0,0xB0,0x12
0.793503833333333,0,0xFF,0x13
0.793522041666667,0,0xFF,0x18
0.795473166666667,0,0xB0,0x13
0.795491166666667,0,0xFF,0x1A
0.795509375000000,0,0xFF,0x18
0.797460333333333,0,0x98,0x1A
0.797478375000000,0,0xFF,0x12
0.797496583333333,0,0xFF,0x18
0.799448083333333,0,0x98,0x1A
0.799466125000000,0,0xFF,0x12
0.799484333333333,0,0xFF,0x08
0.801435166666667,0,0xB0,0x12
0.801453208333333,0,0xFF,0x12
0.801471416666667,0,0xFF,0x18
0.803422958333333,0,0xF0,0x12
0.803440958333333,0,0x7F,0x12
0.803459166666667,0,0xFF,0x18
0.805410416666667,0,0xB0,0x13
0.805428416666667,0,0xFF,0x1A
0.805446625000000,0,0xFF,0x18
0.807398208333333,0,0xB0,0x13
0.807416208333333,0,0x7F,0x1A
0.807434416666667,0,0xFF,0x18
0.809385541666667,0,0xF0,0x02
0.809403541666667,0,0x7F,0x12
0.809421750000000,0,0xFF,0x18
0.811373125000000,0,0x98,0x10
0.811391166666667,0,0xFF,0x02
0.811409375000000,0,0xFF,0x18
0.813360875000000,0,0xB0,0x13
0.813378875000000,0,0x7F,0x18
0.813397083333333,0,0xFF,0x18
0.813421916666667,0,0x83,0x13
0.813439916666667,0,0xFF,0x00
0.813458125000000,0,0xFF,0x9C
0.813478708333333,0,0x03,0x13
0.813496708333333,0,0x80,0x1A
0.813514791666667,0,0x1E,0x12
0.814344416666667,0,0x07,0x01
0.814362458333333,0,0x00,0x00
0.814380500000000,0,0x1F,0x81
0.814401125000000,0,0x36,0x01
0.814419166666667,0,0xC0,0x01
0.814437208333333,0,0x00,0x81
0.814457458333333,0,0x07,0x01
0.814475500000000,0,0xFF,0x00
0.814493708333333,0,0xFF,0x1E
0.814514583333333,0,0x07,0x01
0.814532625000000,0,0x00,0x01
0.814550708333333,0,0xCE,0x01
0.815348291666667,0,0xF0,0x12
0.815366291666667,0,0x7F,0x12
0.815384500000000,0,0xFF,0x1C
0.817335916666667,0,0xF0,0x12
0.817353958333333,0,0xFF,0x12
0.817372166666667,0,0xFF,0x1C
0.819323416666667,0,0x98,0x10
0.819341458333333,0,0xFF,0x02
0.819359666666667,0,0xFF,0x0C
0.821310750000000,0,0xF0,0x02
0.821328750000000,0,0x7F,0x12
0.821346958333333,0,0xFF,0x1C
0.823298375000000,0,0x98,0x10
0.823316416666667,0,0xFF,0x02
0.823334625000000,0,0xFF,0x1C
0.825285958333333,0,0xB0,0x13
0.825303958333333,0,0xFF,0x10
0.825322166666667,0,0xFF,0x1E
0.827273125000000,0,0xF0,0x13
0.827291125000000,0,0x7F,0x1A
0.827309333333333,0,0xFF,0x1C
0.829260833333333,0,0x98,0x1A
0.829278875000000,0,0xFF,0x12
0.829297083333333,0,0xFF,0x1C
0.831248333333333,0,0xB0,0x13
0.831266333333333,0,0xFF,0x1A
0.831284541666667,0,0xFF,0x1C
0.833235750000000,0,0x98,0x1A
0.833253791666667,0,0xFF,0x12
0.833272000000000,0,0xFF,0x0C
0.835222750000000,0,0x98,0x10
0.835240791666667,0,0xFF,0x02
0.835259000000000,0,0xFF,0x1C
0.837209958333333,0,0x98,0x10
0.837228000000000,0,0xFF,0x13
0.837246208333333,0,0xFF,0x1C
0.839197291666667,0,0x98,0x10
0.839215333333333,0,0xFF,0x02
0.839233541666667,0,0xFF,0x0C
0.841184625000000,0,0xB0,0x12
0.841202666666667,0,0xFF,0x12
0.841220875000000,0,0xFF,0x1C
0.843172166666667,0,0xB0,0x13
0.843190166666667,0,0x7F,0x1A
0.843208375000000,0,0xFF,0x1E
0.845159250000000,0,0xB0,0x12
0.845177291666667,0,0xFF,0x12
0.845195500000000,0,0xFF,0x1C
0.845220291666667,0,0x87,0x1A
0.845238333333333,0,0xFF,0x00
0.845256541666667,0,0xFF,0xDE
0.845277083333333,0,0x07,0x10
0.845295125000000,0,0x00,0x02
0.845313166666667,0,0x46,0x12
0.846142875000000,0,0x07,0x01
0.846160916666667,0,0x00,0x01
0.846178958333333,0,0x47,0x81
0.846199583333333,0,0x34,0x01
0.846217625000000,0,0x80,0x01
0.846235666666667,0,0x00,0x01
0.846255916666667,0,0x87,0x01
0.846273958333333,0,0xFF,0x00
0.846292166666667,0,0xFF,0x47
0.846313041666667,0,0x03,0x00
0.846331041666667,0,0x00,0x01
0.846349125000000,0,0xC6,0x01
0.847146875000000,0,0x18,0x1A
0.847164916666667,0,0xFF,0x12
0.847183125000000,0,0xFF,0x0C
0.849134333333333,0,0xF0,0x12
0.849152333333333,0,0x7F,0x12
0.849170541666667,0,0xFF,0x0C
0.851121625000000,0,0xB0,0x12
0.851139666666667,0,0xFF,0x12
0.851157833333333,0,0xFF,0x0C
0.853109166666667,0,0xB0,0x12
0.853127166666667,0,0xFF,0x10
0.853145375000000,0,0xFF,0x0C
0.855096333333333,0,0xB0,0x12
0.855114375000000,0,0xFF,0x13
0.855132583333333,0,0xFF,0x0C
0.857083666666667,0,0xB0,0x12
0.857101708333333,0,0xFF,0x12
0.857119916666667,0,0xFF,0x0C
0.859071291666667,0,0xF0,0x12
0.859089333333333,0,0xFF,0x12
0.859107500000000,0,0xFF,0x0C
0.861058500000000,0,0xB0,0x12
0.861076500000000,0,0xFF,0x10
0.861094708333333,0,0xFF,0x0E
0.863045958333333,0,0xB0,0x12
0.863064000000000,0,0xFF,0x12
0.863082208333333,0,0xFF,0x0C
0.865033416666667,0,0xB0,0x12
0.865051458333333,0,0xFF,0x12
0.865069666666667,0,0xFF,0x0C
0.867020875000000,0,0x98,0x1A
0.867038916666667,0,0xFF,0x12
0.867057125000000,0,0xFF,0x0C
0.869008291666667,0,0x98,0x18
0.869026333333333,0,0xFF,0x12
0.869044541666667,0,0xFF,0x0C
0.870995750000000,0,0xB0,0x12
0.871013791666667,0,0xFF,0x12
0.871032000000000,0,0xFF,0x0C
0.872983333333333,0,0xB0,0x12
0.873001333333333,0,0xFF,0x12
0.873019541666667,0,0xFF,0x0C
0.874970250000000,0,0x98,0x10
0.874988291666667,0,0xFF,0x12
0.875006500000000,0,0xFF,0x0C
0.876957583333333,0,0xB0,0x12
0.876975625000000,0,0xFF,0x13
0.876993833333333,0,0xFF,0x0C
0.877018625000000,0,0xC3,0x02
0.877036625000000,0,0xFF,0x00
0.877054833333333,0,0xFF,0xE6
0.877075416666667,0,0x03,0x13
0.877093416666667,0,0x80,0x18
0.877111500000000,0,0x00,0x12
0.877941208333333,0,0x03,0x01
0.877959208333333,0,0x80,0x01
0.877977291666667,0,0x00,0x01
0.877997916666667,0,0x30,0x00
0.878015916666667,0,0x00,0x01
0.878034000000000,0,0xC0,0x01
0.878054250000000,0,0x83,0x00
0.878072250000000,0,0xFF,0x00
0.878090458333333,0,0xFF,0x00
0.878111333333333,0,0x07,0x01
0.878129375000000,0,0x00,0x00
0.878147416666667,0,0x00,0x01
0.878944958333333,0,0xB0,0x13
0.878962958333333,0,0xFF,0x10
0.878981166666667,0,0xFF,0x00
0.880932250000000,0,0xB0,0x12
0.880950291666667,0,0xFF,0x12
0.880968500000000,0,0xFF,0x00
0.882919666666667,0,0xF0,0x12
0.882937708333333,0,0xFF,0x13
0.882955916666667,0,0xFF,0x00
0.884907208333333,0,0xF0,0x12
0.884925208333333,0,0x7F,0x12
0.884943416666667,0,0xFF,0x00
0.886894833333333,0,0x98,0x10
0.886912875000000,0,0xFF,0x02
0.886931083333333,0,0xFF,0x00
0.888882500000000,0,0xB0,0x12
0.888900541666667,0,0xFF,0x13
0.888918750000000,0,0xFF,0x00
0.890870041666667,0,0xB0,0x12
0.890888083333333,0,0xFF,0x12
0.890906291666667,0,0xFF,0x00
0.892857750000000,0,0xB0,0x12
0.892875791666667,0,0xFF,0x12
0.892894000000000,0,0xFF,0x00
0.894845250000000,0,0xF0,0x02
0.894863250000000,0,0x7F,0x12
0.894881458333333,0,0xFF,0x00
0.896832500000000,0,0xB0,0x12
0.896850541666667,0,0xFF,0x12
0.896868750000000,0,0xFF,0x00
0.898819833333333,0,0xB0,0x12
0.898837833333333,0,0xFF,0x10
0.898856041666667,0,0xFF,0x00
0.900807250000000,0,0xF0,0x02
0.900825250000000,0,0x7F,0x12
0.900843458333333,0,0xFF,0x00
0.902794750000000,0,0xB0,0x12
0.902812791666667,0,0xFF,0x12
0.902831000000000,0,0xFF,0x00
0.904782166666667,0,0xF0,0x02
0.904800166666667,0,0x7F,0x12
0.904818375000000,0,0xFF,0x00
0.906769541666667,0,0x98,0x10
0.906787583333333,0,0xFF,0x02
0.906805791666667,0,0xFF,0x00
0.908757250000000,0,0xF0,0x12
0.908775291666667,0,0xFF,0x12
0.908793458333333,0,0xFF,0x00
0.908818291666667,0,0xC3,0x02
0.908836291666667,0,0xFF,0x00
0.908854500000000,0,0xFF,0x00
0.908875083333333,0,0x07,0x02
0.908893083333333,0,0x80,0x12
0.908911166666667,0,0x00,0x10
0.909740708333333,0,0x07,0x01
0.909758750000000,0,0x00,0x01
0.909776791666667,0,0x28,0x81
0.909797416666667,0,0x34,0x01
0.909815458333333,0,0x80,0x01
0.909833500000000,0,0x00,0x01
0.909853750000000,0,0x87,0x01
0.909871791666667,0,0xFF,0x00
0.909890000000000,0,0xFF,0x28
0.909910833333333,0,0x87,0x01
0.909928875000000,0,0x00,0x01
0.909946958333333,0,0xFC,0x01
0.910744500000000,0,0xB0,0x12
0.910762541666667,0,0xFF,0x13
0.910780750000000,0,0xFF,0x10
0.912731958333333,0,0xB0,0x12
0.912750000000000,0,0xFF,0x10
0.912768208333333,0,0xFF,0x10
0.914719500000000,0,0xB0,0x12
0.914737541666667,0,0xFF,0x12
0.914755750000000,0,0xFF,0x10
0.916707416666667,0,0xF0,0x02
0.916725416666667,0,0x7F,0x12
0.916743666666667,0,0xFF,0x10
0.918694833333333,0,0xB0,0x12
0.918712875000000,0,0xFF,0x12
0.918731083333333,0,0xFF,0x10
0.920682625000000,0,0xB0,0x12
0.920700666666667,0,0xFF,0x12
0.920718875000000,0,0xFF,0x10
0.922670041666667,0,0xF0,0x12
0.922688041666667,0,0x7F,0x12
0.922706250000000,0,0xFF,0x10
0.924657958333333,0,0xF0,0x12
0.924675958333333,0,0x7F,0x12
0.924694166666667,0,0xFF,0x10
0.926645583333333,0,0x90,0x12
0.926663625000000,0,0xFF,0x02
0.926681833333333,0,0xFF,0x10
0.928633375000000,0,0xB0,0x13
0.928651375000000,0,0x7F,0x1A
0.928669583333333,0,0xFF,0x18
0.930621000000000,0,0xB0,0x12
0.930639041666667,0,0xFF,0x12
0.930657250000000,0,0xFF,0x10
0.932608583333333,0,0xB0,0x12
0.932626625000000,0,0xFF,0x13
0.932644833333333,0,0xFF,0x10
0.934595958333333,0,0x98,0x1A
0.934614000000000,0,0xFF,0x12
0.934632208333333,0,0xFF,0x10
0.936583583333333,0,0xB0,0x12
0.936601625000000,0,0xFF,0x13
0.936619833333333,0,0xFF,0x10
0.938570750000000,0,0xB0,0x12
0.938588791666667,0,0xFF,0x12
0.938607000000000,0,0xFF,0x10
0.940558458333333,0,0x98,0x10
0.940576500000000,0,0xFF,0x02
0.940594708333333,0,0xFF,0x00
0.940619500000000,0,0x87,0x12
0.940637541666667,0,0xFF,0x00
0.940655750000000,0,0xFF,0xA8
0.940676291666667,0,0x07,0x12
0.940694333333333,0,0x00,0x12
0.940712375000000,0,0x0A,0x12
0.941541958333333,0,0x07,0x01
0.941560000000000,0,0x00,0x01
0.941578083333333,0,0x0E,0x01
0.941598666666667,0,0x1E,0x01
0.941616708333333,0,0xC0,0x01
0.941634791666667,0,0x80,0x00
0.941655000000000,0,0x07,0x01
0.941673041666667,0,0xFF,0x00
0.941691250000000,0,0xFF,0x0A
0.941712125000000,0,0x07,0x01
0.941730166666667,0,0x00,0x00
0.941748208333333,0,0x02,0x01
0.942546083333333,0,0x30,0x92
0.942564125000000,0,0xFF,0x10
0.942582333333333,0,0xFF,0x16
0.944533458333333,0,0xB0,0x12
0.944551500000000,0,0xFF,0x13
0.944569708333333,0,0xFF,0x14
0.946520958333333,0,0xB0,0x13
0.946538958333333,0,0x7F,0x1A
0.946557166666667,0,0xFF,0x1C
0.948508500000000,0,0xB0,0x12
0.948526500000000,0,0xFF,0x10
0.948544708333333,0,0xFF,0x16
0.950496166666667,0,0xB0,0x12
0.950514208333333,0,0xFF,0x13
0.950532416666667,0,0xFF,0x14
0.952483833333333,0,0xB0,0x12
0.952501833333333,0,0xFF,0x10
0.952520041666667,0,0xFF,0x16
0.954471500000000,0,0xF0,0x12
0.954489541666667,0,0xFF,0x13
0.954507750000000,0,0xFF,0x14
0.956458833333333,0,0xB0,0x13
0.956476833333333,0,0x7F,0x1A
0.956495041666667,0,0xFF,0x14
0.958446708333333,0,0xF0,0x12
0.958464708333333,0,0x7F,0x12
0.958482916666667,0,0xFF,0x14
0.960434375000000,0,0xB0,0x12
0.960452416666667,0,0xFF,0x02
0.960470625000000,0,0xFF,0x04
0.962422125000000,0,0x98,0x1A
0.962440166666667,0,0xFF,0x12
0.962458375000000,0,0xFF,0x14
0.964409625000000,0,0x98,0x10
0.964427666666667,0,0xFF,0x02
0.964445875000000,0,0xFF,0x00
0.966397291666667,0,0xB0,0x12
0.966415333333333,0,0xFF,0x13
0.966433541666667,0,0xFF,0x10
0.968384916666667,0,0xB0,0x12
0.968402958333333,0,0xFF,0x10
0.968421166666667,0,0xFF,0x16
0.970372666666667,0,0xF0,0x12
0.970390708333333,0,0xFF,0x13
0.970408916666667,0,0xFF,0x10
0.972360291666667,0,0xB0,0x12
0.972378333333333,0,0xFF,0x12
0.972396541666667,0,0xFF,0x16
0.972421333333333,0,0x87,0x12
0.972439375000000,0,0xFF,0x00
0.972457583333333,0,0xFF,0x82
0.972478166666667,0,0x03,0x12
0.972496166666667,0,0x80,0x12
0.972514250000000,0,0x30,0x12
0.973343916666667,0,0x07,0x01
0.973361958333333,0,0x00,0x01
0.973380041666667,0,0x32,0x01
0.973400625000000,0,0x1C,0x01
0.973418666666667,0,0x80,0x01
0.973436750000000,0,0xC0,0x01
0.973457000000000,0,0xC3,0x01
0.973475000000000,0,0xFF,0x80
0.973493208333333,0,0xFF,0x32
0.973514125000000,0,0x03,0x00
0.973532125000000,0,0x00,0x01
0.973550208333333,0,0xB8,0x01
0.974347916666667,0,0x30,0x92
0.974365958333333,0,0xFF,0x10
0.974384166666667,0,0xFF,0x04
0.976335833333333,0,0x98,0x10
0.976353875000000,0,0xFF,0x12
0.976372083333333,0,0xFF,0x04
0.978323625000000,0,0xF0,0x02
0.978341666666667,0,0xFF,0x13
0.978359875000000,0,0xFF,0x04
0.980311250000000,0,0xB0,0x12
0.980329291666667,0,0xFF,0x13
0.980347500000000,0,0xFF,0x04
0.982298791666667,0,0xB0,0x12
0.982316833333333,0,0xFF,0x12
0.982335041666667,0,0xFF,0x04
0.984286416666667,0,0x98,0x10
0.984304458333333,0,0xFF,0x02
0.984322666666667,0,0xFF,0x00
0.986274000000000,0,0x98,0x1A
0.986292041666667,0,0xFF,0x12
0.986310250000000,0,0xFF,0x04
0.988261708333333,0,0xB0,0x12
0.988279750000000,0,0xFF,0x12
0.988297958333333,0,0xFF,0x00
0.990249375000000,0,0xB0,0x13
0.990267375000000,0,0x7F,0x1A
0.990285583333333,0,0xFF,0x04
0.992237125000000,0,0xB0,0x12
0.992255166666667,0,0xFF,0x12
0.992273375000000,0,0xFF,0x00
0.994224750000000,0,0x98,0x10
0.994242791666667,0,0xFF,0x12
0.994261000000000,0,0xFF,0x04
0.996212500000000,0,0xB0,0x12
0.996230541666667,0,0xFF,0x12
0.996248750000000,0,0xFF,0x06
0.998200333333333,0,0xF0,0x02
0.998218333333333,0,0x7F,0x12
0.998236583333333,0,0xFF,0x04
1.000187916666667,0,0xF0,0x02
1.000205916666667,0,0x7F,0x12
1.000224125000000,0,0xFF,0x04
1.002175500000000,0,0xF0,0x02
1.002193500000000,0,0x7F,0x12
1.002211750000000,0,0xFF,0x04
1.004163083333333,0,0xB0,0x12
1.004181125000000,0,0xFF,0x02
1.004199333333333,0,0xFF,0x00
1.004224125000000,0,0x87,0x12
1.004242166666667,0,0xFF,0x00
1.004260375000000,0,0xFF,0xB2
1.004280916666667,0,0x07,0x12
1.004298958333333,0,0x00,0x12
1.004317000000000,0,0x14,0x12
1.005146833333333,0,0x03,0x01
1.005164833333333,0,0x80,0x81
1.005182916666667,0,0x16,0x01
1.005203541666667,0,0x34,0x01
1.005221541666667,0,0x80,0x01
1.005239625000000,0,0xC0,0x01
1.005259875000000,0,0x83,0x00
1.005277875000000,0,0xFF,0x00
1.005296083333333,0,0xFF,0x16
1.005316958333333,0,0x07,0x01
1.005335000000000,0,0x00,0x00
1.005353041666667,0,0x14,0x81
1.006150666666667,0,0xB0,0x12
1.006168708333333,0,0xFF,0x13
1.006186916666667,0,0xFF,0x08
1.008138375000000,0,0x98,0x1A
1.008156416666667,0,0xFF,0x12
1.008174625000000,0,0xFF,0x08
1.010125875000000,0,0xF0,0x02
1.010143916666667,0,0xFF,0x12
1.010162125000000,0,0xFF,0x08
1.012113791666667,0,0xB0,0x13
1.012131791666667,0,0x7F,0x12
1.012150000000000,0,0xFF,0x08
1.014101375000000,0,0x98,0x10
1.014119416666667,0,0xFF,0x02
1.014137625000000,0,0xFF,0x08
1.016088916666667,0,0x98,0x10
1.016106958333333,0,0xFF,0x02
1.016125166666667,0,0xFF,0x08
1.018076625000000,0,0xB0,0x12
1.018094625000000,0,0x7F,0x12
1.018112833333333,0,0xFF,0x08
1.020064083333333,0,0xB0,0x12
1.020082125000000,0,0xFF,0x13
1.020100333333333,0,0xFF,0x08
1.022051625000000,0,0x98,0x10
1.022069666666667,0,0xFF,0x12
1.022087875000000,0,0xFF,0x08
1.024039166666667,0,0xB0,0x12
1.024057208333333,0,0xFF,0x12
1.024075375000000,0,0xFF,0x08
1.026026750000000,0,0xB0,0x12
1.026044791666667,0,0xFF,0x12
1.026063000000000,0,0xFF,0x08
1.028014291666667,0,0xB0,0x12
1.028032333333333,0,0xFF,0x10
1.028050541666667,0,0xFF,0x08
1.030001916666667,0,0xB0,0x12
1.030019958333333,0,0xFF,0x12
1.030038166666667,0,0xFF,0x08
1.031989666666667,0,0xB0,0x12
1.032007708333333,0,0xFF,0x02
1.032025916666667,0,0xFF,0x08
1.033977250000000,0,0x98,0x10
1.033995291666667,0,0xFF,0x12
1.034013500000000,0,0xFF,0x08
1.035964875000000,0,0x98,0x10
1.035982916666667,0,0xFF,0x12
1.036001125000000,0,0xFF,0x08
1.036025916666667,0,0x87,0x10
1.036043958333333,0,0xFF,0x00
1.036062166666667,0,0xFF,0xD4
1.036082708333333,0,0x87,0x12
1.036100750000000,0,0x00,0x12
1.036118833333333,0,0x3C,0x02
1.036948625000000,0,0x07,0x01
1.036966666666667,0,0x00,0x01
1.036984750000000,0,0x3C,0x01
1.037005333333333,0,0x1C,0x01
1.037023375000000,0,0x80,0x01
1.037041458333333,0,0xC0,0x01
1.037061708333333,0,0x83,0x00
1.037079708333333,0,0xFF,0x00
1.037097916666667,0,0xFF,0x1C
1.037118791666667,0,0x87,0x01
1.037136833333333,0,0x00,0x01
1.037154916666667,0,0xFC,0x01
1.037952583333333,0,0xB0,0x12
1.037970625000000,0,0xFF,0x02
1.037988833333333,0,0xFF,0x0C
1.039940333333333,0,0xF0,0x12
1.039958375000000,0,0xFF,0x12
1.039976583333333,0,0xFF,0x18
1.041928041666667,0,0xB0,0x12
1.041946083333333,0,0xFF,0x02
1.041964291666667,0,0xFF,0x18
1.043915875000000,0,0xF0,0x12
1.043933875000000,0,0x7F,0x12
1.043952083333333,0,0xFF,0x18
1.045903541666667,0,0xB0,0x13
1.045921541666667,0,0x7F,0x1A
1.045939750000000,0,0xFF,0x18
1.047891291666667,0,0xB0,0x13
1.047909291666667,0,0x7F,0x1A
1.047927500000000,0,0xFF,0x18
1.049879000000000,0,0xB0,0x13
1.049897000000000,0,0x7F,0x1A
1.049915208333333,0,0xFF,0x18
1.051866708333333,0,0xB0,0x13
1.051884708333333,0,0x7F,0x12
1.051902916666667,0,0xFF,0x18
1.053854666666667,0,0x98,0x1A
1.053872708333333,0,0xFF,0x12
1.053890916666667,0,0xFF,0x18
1.055842208333333,0,0xF0,0x12
1.055860250000000,0,0xFF,0x12
1.055878458333333,0,0xFF,0x18
1.057829916666667,0,0xF0,0x02
1.057847916666667,0,0x7F,0x12
1.057866166666667,0,0xFF,0x18
1.059817708333333,0,0x98,0x1A
1.059835750000000,0,0xFF,0x12
1.059853958333333,0,0xFF,0x18
1.061805500000000,0,0x90,0x12
1.061823541666667,0,0xFF,0x12
1.061841750000000,0,0xFF,0x18
1.063793208333333,0,0xB0,0x12
1.063811250000000,0,0xFF,0x10
1.063829458333333,0,0xFF,0x18
1.065780875000000,0,0xF0,0x02
1.065798916666667,0,0xFF,0x12
1.065817083333333,0,0xFF,0x18
1.067768583333333,0,0xF0,0x02
1.067786583333333,0,0x7F,0x12
1.067804833333333,0,0xFF,0x18
1.067829625000000,0,0xC7,0x12
1.067847666666667,0,0xFF,0x00
1.067865875000000,0,0xFF,0xBC
1.067886416666667,0,0x07,0x12
1.067904458333333,0,0x00,0x13
1.067922500000000,0,0x1E,0x12
1.068752333333333,0,0x07,0x01
1.068770375000000,0,0x00,0x01
1.068788458333333,0,0x0E,0x01
1.068809041666667,0,0x1E,0x01
1.068827083333333,0,0xC0,0x01
1.068845166666667,0,0x80,0x00
1.068865375000000,0,0x07,0x81
1.068883416666667,0,0xFF,0x00
1.068901625000000,0,0xFF,0x1E
1.068922500000000,0,0x07,0x01
1.068940541666667,0,0x00,0x01
1.068958625000000,0,0x8E,0x01
1.069756333333333,0,0x30,0x92
1.069774375000000,0,0xFF,0x12
1.069792583333333,0,0xFF,0x1C
1.071744083333333,0,0xB0,0x12
1.071762125000000,0,0xFF,0x10
1.071780333333333,0,0xFF,0x1E
1.073731833333333,0,0xF0,0x12
1.073749833333333,0,0x7F,0x12
1.073768041666667,0,0xFF,0x1C
1.075719458333333,0,0xB0,0x12
1.075737500000000,0,0xFF,0x13
1.075755708333333,0,0xFF,0x1C
1.077707250000000,0,0xB0,0x13
1.077725250000000,0,0x7F,0x1A
1.077743458333333,0,0xFF,0x1C
1.079694750000000,0,0x98,0x10
1.079712791666667,0,0xFF,0x12
1.079731000000000,0,0xFF,0x1C
1.081682791666667,0,0xF0,0x02
1.081700791666667,0,0x7F,0x12
1.081719000000000,0,0xFF,0x1C
1.083670500000000,0,0x98,0x1A
1.083688541666667,0,0xFF,0x12
1.083706750000000,0,0xFF,0x1C
1.085658458333333,0,0xF0,0x12
1.085676500000000,0,0xFF,0x13
1.085694708333333,0,0xFF,0x1C
1.087646125000000,0,0xF0,0x12
1.087664166666667,0,0xFF,0x13
1.087682375000000,0,0xFF,0x1C
1.089634083333333,0,0xB0,0x12
1.089652125000000,0,0xFF,0x12
1.089670333333333,0,0xFF,0x1E
1.091621750000000,0,0xB0,0x10
1.091639791666667,0,0xFF,0x02
1.091658000000000,0,0xFF,0x1C
1.093609541666667,0,0xB0,0x13
1.093627541666667,0,0x7F,0x1A
1.093645750000000,0,0xFF,0x1C
1.095597083333333,0,0xB0,0x12
1.095615125000000,0,0xFF,0x1A
1.095633333333333,0,0xFF,0x1C
1.097585125000000,0,0x98,0x10
1.097603166666667,0,0xFF,0x12
1.097621375000000,0,0xFF,0x1C
1.099572875000000,0,0x98,0x1A
1.099590916666667,0,0xFF,0x12
1.099609125000000,0,0xFF,0x1C
1.099633916666667,0,0x87,0x1A
1.099651958333333,0,0xFF,0x00
1.099670166666667,0,0xFF,0x9E
1.099690708333333,0,0x87,0x12
1.099708750000000,0,0x00,0x12
1.099726833333333,0,0x06,0x02
1.100556625000000,0,0x07,0x01
1.100574666666667,0,0x00,0x01
1.100592708333333,0,0x66,0x01
1.100613333333333,0,0x34,0x01
1.100631333333333,0,0x00,0x81
1.100649416666667,0,0x00,0x01
1.100669666666667,0,0x87,0x01
1.100687708333333,0,0xFF,0x00
1.100705916666667,0,0xFF,0x46
1.100726791666667,0,0x07,0x01
1.100744791666667,0,0x80,0x81
1.100762875000000,0,0x66,0x01
1.101560333333333,0,0xB0,0x13
1.101578333333333,0,0x7F,0x12
1.101596541666667,0,0xFF,0x0C
1.103548083333333,0,0xF0,0x02
1.103566083333333,0,0x7F,0x12
1.103584291666667,0,0xFF,0x0C
1.105535750000000,0,0x98,0x1A
1.105553791666667,0,0xFF,0x12
1.105572000000000,0,0xFF,0x0C
1.107523625000000,0,0x98,0x18
1.107541666666667,0,0xFF,0x12
1.107559875000000,0,0xFF,0x0C
1.109511333333333,0,0x98,0x10
1.109529375000000,0,0xFF,0x02
1.109547583333333,0,0xFF,0x0C
1.111499125000000,0,0xB0,0x13
1.111517125000000,0,0x7F,0x12
1.111535333333333,0,0xFF,0x0C
1.113486750000000,0,0xB0,0x12
1.113504791666667,0,0x7F,0x1A
1.113523000000000,0,0xFF,0x0C
1.115474583333333,0,0x98,0x1A
1.115492625000000,0,0xFF,0x12
1.115510833333333,0,0xFF,0x0C
1.117462458333333,0,0xB0,0x12
1.117480500000000,0,0xFF,0x13
1.117498708333333,0,0xFF,0x0C
1.119450291666667,0,0x98,0x10
1.119468333333333,0,0xFF,0x12
1.119486541666667,0,0xFF,0x0C
1.121438250000000,0,0xB0,0x12
1.121456291666667,0,0xFF,0x02
1.121474500000000,0,0xFF,0x0C
1.123425875000000,0,0xF0,0x02
1.123443916666667,0,0xFF,0x13
1.123462125000000,0,0xFF,0x0C
1.125413750000000,0,0xF0,0x02
1.125431791666667,0,0xFF,0x13
1.125450000000000,0,0xFF,0x0C
1.127401666666667,0,0xB0,0x12
1.127419708333333,0,0xFF,0x12
1.127437916666667,0,0xFF,0x0C
1.129389541666667,0,0x98,0x10
1.129407583333333,0,0xFF,0x12
1.129425791666667,0,0xFF,0x0C
1.131377000000000,0,0xB0,0x12
1.131395041666667,0,0xFF,0x10
1.131413250000000,0,0xFF,0x0C
1.131438041666667,0,0x87,0x12
1.131456083333333,0,0xFF,0x00
1.131474291666667,0,0xFF,0xE6
1.131494875000000,0,0x03,0x12
1.131512875000000,0,0x80,0x12
1.131530958333333,0,0x00,0x10
1.132360833333333,0,0x07,0x01
1.132378875000000,0,0x00,0x01
1.132396916666667,0,0x00,0x81
1.132417541666667,0,0x34,0x01
1.132435583333333,0,0x80,0x00
1.132453625000000,0,0x00,0x01
1.132473875000000,0,0x87,0x01
1.132491916666667,0,0xFF,0x00
1.132510125000000,0,0xFF,0x00
1.132531000000000,0,0x03,0x00
1.132549000000000,0,0x80,0x01
1.132567083333333,0,0x80,0x01
1.133364791666667,0,0xF0,0x02
1.133382833333333,0,0xFF,0x13
1.133401041666667,0,0xFF,0x00
1.135352708333333,0,0x90,0x12
1.135370750000000,0,0xFF,0x12
1.135388958333333,0,0xFF,0x00
1.137340125000000,0,0xF0,0x02
1.137358166666667,0,0xFF,0x12
1.137376375000000,0,0xFF,0x00
1.139327791666667,0,0xB0,0x12
1.139345791666667,0,0x7F,0x12
1.139364000000000,0,0xFF,0x00
1.141315625000000,0,0x98,0x18
1.141333666666667,0,0xFF,0x02
1.141351875000000,0,0xFF,0x00
1.143303375000000,0,0xF0,0x02
1.143321375000000,0,0x7F,0x12
1.143339583333333,0,0xFF,0x00
1.145291166666667,0,0xF0,0x02
1.145309166666667,0,0x7F,0x12
1.145327375000000,0,0xFF,0x00
1.147278583333333,0,0xF0,0x12
1.147296625000000,0,0xFF,0x13
1.147314833333333,0,0xFF,0x00
1.149266375000000,0,0xB0,0x12
1.149284416666667,0,0xFF,0x12
1.149302625000000,0,0xFF,0x00
1.151253750000000,0,0xB0,0x12
1.151271791666667,0,0xFF,0x12
1.151290000000000,0,0xFF,0x00
1.153241291666667,0,0xB0,0x12
1.153259333333333,0,0xFF,0x12
1.153277541666667,0,0xFF,0x00
1.155228666666667,0,0xF0,0x12
1.155246666666667,0,0x7F,0x12
1.155264875000000,0,0xFF,0x00
1.157216333333333,0,0xB0,0x12
1.157234375000000,0,0xFF,0x10
1.157252583333333,0,0xFF,0x00
1.159204083333333,0,0xF0,0x12
1.159222125000000,0,0xFF,0x12
1.159240291666667,0,0xFF,0x00
1.161191541666667,0,0xF0,0x12
1.161209583333333,0,0xFF,0x13
1.161227791666667,0,0xFF,0x00
1.163179333333333,0,0x90,0x12
1.163197375000000,0,0xFF,0x12
1.163215583333333,0,0xFF,0x00
1.163240375000000,0,0x87,0x12
1.163258416666667,0,0xFF,0x00
1.163276625000000,0,0xFF,0x80
1.163297208333333,0,0x03,0x13
1.163315208333333,0,0x80,0x1A
1.163333291666667,0,0x20,0x12
1.164162916666667,0,0x03,0x01
1.164180916666667,0,0x80,0x81
1.164199000000000,0,0x00,0x01
1.164219625000000,0,0x30,0x01
1.164237625000000,0,0x00,0x81
1.164255708333333,0,0x80,0x01
1.164275958333333,0,0x87,0x01
1.164294000000000,0,0xFF,0x00
1.164312208333333,0,0xFF,0x28
1.164333083333333,0,0x03,0x00
1.164351083333333,0,0x80,0x01
1.164369166666667,0,0x80,0x01
1.165166916666667,0,0xB0,0x13
1.165184916666667,0,0x7F,0x1A
1.165203125000000,0,0xFF,0x18
1.167154791666667,0,0xB0,0x12
1.167172833333333,0,0xFF,0x12
1.167191041666667,0,0xFF,0x00
1.169142500000000,0,0xB0,0x12
1.169160541666667,0,0xFF,0x12
1.169178750000000,0,0xFF,0x10
1.171130291666667,0,0xB0,0x12
1.171148333333333,0,0xFF,0x12
1.171166541666667,0,0xFF,0x10
1.173117791666667,0,0xB0,0x12
1.173135791666667,0,0xFF,0x10
1.173154000000000,0,0xFF,0x10
1.175105458333333,0,0xF0,0x02
1.175123458333333,0,0x7F,0x12
1.175141666666667,0,0xFF,0x10
1.177093208333333,0,0x98,0x1A
1.177111250000000,0,0xFF,0x12
1.177129458333333,0,0xFF,0x10
1.179080916666667,0,0xB0,0x13
1.179098916666667,0,0x7F,0x1A
1.179117125000000,0,0xFF,0x18
1.181068375000000,0,0xB0,0x13
1.181086375000000,0,0x7F,0x1A
1.181104583333333,0,0xFF,0x18
1.183056041666667,0,0xF0,0x12
1.183074083333333,0,0xFF,0x12
1.183092250000000,0,0xFF,0x10
1.185043666666667,0,0x98,0x10
1.185061708333333,0,0xFF,0x02
1.185079916666667,0,0xFF,0x10
1.187031000000000,0,0xB0,0x13
1.187049000000000,0,0x7F,0x12
1.187067208333333,0,0xFF,0x10
1.189018416666667,0,0x98,0x18
1.189036458333333,0,0xFF,0x02
1.189054666666667,0,0xFF,0x00
1.191005791666667,0,0x98,0x18
1.191023833333333,0,0xFF,0x12
1.191042041666667,0,0xFF,0x00
1.192993500000000,0,0xF0,0x13
1.193011500000000,0,0x7F,0x1A
1.193029708333333,0,0xFF,0x10
1.194980750000000,0,0xB0,0x12
1.194998791666667,0,0xFF,0x10
1.195017000000000,0,0xFF,0x10
1.195041791666667,0,0x87,0x12
1.195059833333333,0,0xFF,0x00
1.195078041666667,0,0xFF,0xA8
1.195098625000000,0,0x03,0x13
1.195116625000000,0,0x00,0x18
1.195134708333333,0,0x0A,0x12
1.195964458333333,0,0x07,0x01
1.195982500000000,0,0x00,0x01
1.196000583333333,0,0x0E,0x01
1.196021166666667,0,0x1C,0x01
1.196039208333333,0,0x80,0x01
1.196057291666667,0,0xC0,0x01
1.196077500000000,0,0x07,0x81
1.196095541666667,0,0xFF,0x00
1.196113750000000,0,0xFF,0x02
1.196134625000000,0,0x87,0x01
1.196152666666667,0,0x00,0x01
1.196170750000000,0,0xCE,0x01
1.196968375000000,0,0x30,0x92
1.196986416666667,0,0xFF,0x10
1.197004625000000,0,0xFF,0x14
1.198955916666667,0,0xF0,0x12
1.198973958333333,0,0xFF,0x12
1.198992125000000,0,0xFF,0x14
1.200943416666667,0,0xB0,0x12
1.200961458333333,0,0xFF,0x13
1.200979666666667,0,0xFF,0x14
1.202931000000000,0,0x98,0x10
1.202949041666667,0,0xFF,0x12
1.202967250000000,0,0xFF,0x14
1.204918583333333,0,0x98,0x10
1.204936625000000,0,0xFF,0x12
1.204954833333333,0,0xFF,0x14
1.206906541666667,0,0xF0,0x12
1.206924583333333,0,0xFF,0x12
1.206942791666667,0,0xFF,0x00
1.208894250000000,0,0xB0,0x12
1.208912291666667,0,0xFF,0x02
1.208930500000000,0,0xFF,0x04
1.210881750000000,0,0xB0,0x12
1.210899791666667,0,0xFF,0x12
1.210918000000000,0,0xFF,0x14
1.212869375000000,0,0x98,0x10
1.212887416666667,0,0xFF,0x02
1.212905625000000,0,0xFF,0x14
1.214857125000000,0,0x90,0x12
1.214875166666667,0,0xFF,0x10
1.214893375000000,0,0xFF,0x16
1.216844916666667,0,0xB0,0x12
1.216862958333333,0,0xFF,0x10
1.216881166666667,0,0xFF,0x1C
1.218832875000000,0,0x98,0x1A
1.218850916666667,0,0xFF,0x12
1.218869125000000,0,0xFF,0x16
1.220820875000000,0,0xF0,0x12
1.220838916666667,0,0xFF,0x12
1.220857125000000,0,0xFF,0x10
1.222808750000000,0,0xB0,0x12
1.222826791666667,0,0xFF,0x10
1.222845000000000,0,0xFF,0x16
1.224796625000000,0,0x98,0x1A
1.224814666666667,0,0xFF,0x12
1.224832875000000,0,0xFF,0x14
1.226784541666667,0,0x98,0x1A
1.226802583333333,0,0xFF,0x12
1.226820791666667,0,0xFF,0x04
1.226845583333333,0,0x87,0x12
1.226863625000000,0,0xFF,0x00
1.226881833333333,0,0xFF,0x8E
1.226902375000000,0,0x07,0x18
1.226920416666667,0,0x00,0x12
1.226938500000000,0,0x33,0x13
1.227768250000000,0,0x07,0x01
1.227786291666667,0,0x00,0x01
1.227804375000000,0,0x32,0x01
1.227824958333333,0,0x34,0x81
1.227843000000000,0,0x80,0x01
1.227861083333333,0,0xC0,0x01
1.227881333333333,0,0xC3,0x01
1.227899333333333,0,0xFF,0x80
1.227917541666667,0,0xFF,0x32
1.227938416666667,0,0x87,0x01
1.227956458333333,0,0x00,0x01
1.227974541666667,0,0xB0,0x01
1.228772125000000,0,0xF0,0x12
1.228790166666667,0,0xFF,0x13
1.228808375000000,0,0xFF,0x00
1.230759583333333,0,0x98,0x1A
1.230777625000000,0,0xFF,0x12
1.230795833333333,0,0xFF,0x04
1.232747208333333,0,0x98,0x18
1.232765250000000,0,0xFF,0x12
1.232783458333333,0,0xFF,0x04
1.234734791666667,0,0x98,0x1A
1.234752833333333,0,0xFF,0x12
1.234771041666667,0,0xFF,0x04
1.236722666666667,0,0xF0,0x02
1.236740708333333,0,0xFF,0x12
1.236758916666667,0,0xFF,0x04
1.238710291666667,0,0xB0,0x12
1.238728291666667,0,0x7F,0x12
1.238746500000000,0,0xFF,0x04
1.240697958333333,0,0x90,0x12
1.240716000000000,0,0xFF,0x12
1.240734208333333,0,0xFF,0x04
1.242685666666667,0,0xB0,0x12
1.242703708333333,0,0xFF,0x12
1.242721916666667,0,0xFF,0x00
1.244673458333333,0,0xB0,0x12
1.244691500000000,0,0xFF,0x12
1.244709708333333,0,0xFF,0x00
1.246661208333333,0,0xB0,0x12
1.246679208333333,0,0xFF,0x18
1.246697416666667,0,0xFF,0x06
1.248648750000000,0,0xB0,0x12
1.248666791666667,0,0xFF,0x12
1.248685000000000,0,0xFF,0x06
1.250636458333333,0,0xB0,0x13
1.250654458333333,0,0xFF,0x10
1.250672666666667,0,0xFF,0x06
1.252624166666667,0,0x98,0x1A
1.252642208333333,0,0xFF,0x12
1.252660416666667,0,0xFF,0x04
1.254612000000000,0,0xB0,0x12
1.254630041666667,0,0xFF,0x12
1.254648250000000,0,0xFF,0x04
1.256599833333333,0,0xB0,0x12
1.256617875000000,0,0xFF,0x10
1.256636083333333,0,0xFF,0x06
1.258587833333333,0,0xB0,0x12
1.258605875000000,0,0xFF,0x02
1.258624083333333,0,0xFF,0x04
1.258648875000000,0,0x87,0x1A
1.258666916666667,0,0xFF,0x00
1.258685125000000,0,0xFF,0xB2
1.258705666666667,0,0x87,0x12
1.258723708333333,0,0x00,0x1A
1.258741791666667,0,0x16,0x12
1.259571500000000,0,0x07,0x01
1.259589541666667,0,0x00,0x01
1.259607625000000,0,0x00,0x01
1.259628208333333,0,0x14,0x01
1.259646250000000,0,0x80,0x01
1.259664333333333,0,0xC0,0x01
1.259684583333333,0,0x83,0x01
1.259702583333333,0,0xFF,0x00
1.259720791666667,0,0xFF,0x14
1.259741666666667,0,0x87,0x01
1.259759708333333,0,0x00,0x01
1.259777791666667,0,0xD4,0x01
1.260575541666667,0,0x18,0x1A
1.260593583333333,0,0xFF,0x12
1.260611791666667,0,0xFF,0x08
1.262563375000000,0,0x98,0x1A
1.262581416666667,0,0xFF,0x12
1.262599625000000,0,0xFF,0x08
1.264551125000000,0,0xB0,0x12
1.264569166666667,0,0xFF,0x10
1.264587375000000,0,0xFF,0x08
1.266538916666667,0,0x98,0x10
1.266556958333333,0,0xFF,0x02
1.266575166666667,0,0xFF,0x08
1.268526625000000,0,0x90,0x12
1.268544666666667,0,0xFF,0x12
1.268562875000000,0,0xFF,0x08
1.270514416666667,0,0xB0,0x12
1.270532458333333,0,0xFF,0x12
1.270550666666667,0,0xFF,0x08
1.272502291666667,0,0x98,0x10
1.272520333333333,0,0xFF,0x12
1.272538541666667,0,0xFF,0x08
1.274490000000000,0,0x90,0x12
1.274508041666667,0,0xFF,0x12
1.274526250000000,0,0xFF,0x08
1.276477708333333,0,0xB0,0x12
1.276495750000000,0,0xFF,0x12
1.276513958333333,0,0xFF,0x0C
1.278465375000000,0,0xB0,0x13
1.278483375000000,0,0x7F,0x12
1.278501583333333,0,0xFF,0x08
1.280452791666667,0,0xB0,0x12
1.280470833333333,0,0xFF,0x10
1.280489041666667,0,0xFF,0x08
1.282440541666667,0,0x98,0x1A
1.282458583333333,0,0xFF,0x12
1.282476791666667,0,0xFF,0x08
1.284428208333333,0,0xB0,0x12
1.284446208333333,0,0x7F,0x12
1.284464416666667,0,0xFF,0x08
1.286415791666667,0,0xB0,0x12
1.286433833333333,0,0xFF,0x12
1.286452041666667,0,0xFF,0x08
1.288403250000000,0,0xB0,0x12
1.288421291666667,0,0xFF,0x12
1.288439500000000,0,0xFF,0x08
1.290390708333333,0,0x98,0x1A
1.290408750000000,0,0xFF,0x12
1.290426958333333,0,0xFF,0x08
1.290451750000000,0,0x87,0x10
1.290469791666667,0,0xFF,0x00
1.290488000000000,0,0xFF,0xC4
1.290508541666667,0,0x07,0x10
1.290526583333333,0,0x00,0x02
1.290544666666667,0,0x3C,0x12
1.291374458333333,0,0x03,0x00
1.291392458333333,0,0x80,0x01
1.291410541666667,0,0x3E,0x01
1.291431166666667,0,0x30,0x00
1.291449166666667,0,0x00,0x01
1.291467250000000,0,0x80,0x01
1.291487500000000,0,0xC7,0x01
1.291505541666667,0,0xFF,0x00
1.291523750000000,0,0xFF,0x3C
1.291544625000000,0,0x03,0x00
1.291562625000000,0,0x00,0x01
1.291580708333333,0,0xBE,0x01
1.292378625000000,0,0xB0,0x13
1.292396625000000,0,0x7F,0x1A
1.292414833333333,0,0xFF,0x18
1.294366083333333,0,0xB0,0x12
1.294384125000000,0,0xFF,0x13
1.294402333333333,0,0xFF,0x18
1.296353750000000,0,0xF0,0x12
1.296371750000000,0,0x7F,0x12
1.296389958333333,0,0xFF,0x18
1.298341333333333,0,0xB0,0x12
1.298359375000000,0,0xFF,0x13
1.298377583333333,0,0xFF,0x18
1.300328833333333,0,0xB0,0x12
1.300346833333333,0,0xFF,0x10
1.300365041666667,0,0xFF,0x18
1.302316291666667,0,0x98,0x1A
1.302334333333333,0,0xFF,0x12
1.302352541666667,0,0xFF,0x18
1.304303916666667,0,0xF0,0x12
1.304321916666667,0,0x7F,0x1A
1.304340125000000,0,0xFF,0x18
1.306291458333333,0,0xF0,0x02
1.306309458333333,0,0x7F,0x12
1.306327708333333,0,0xFF,0x18
1.308279083333333,0,0x90,0x12
1.308297125000000,0,0xFF,0x12
1.308315333333333,0,0xFF,0x18
1.310266708333333,0,0x90,0x12
1.310284750000000,0,0xFF,0x12
1.310302958333333,0,0xFF,0x18
1.312254416666667,0,0x90,0x12
1.312272458333333,0,0xFF,0x12
1.312290666666667,0,0xFF,0x18
1.314242083333333,0,0xB0,0x13
1.314260083333333,0,0x7F,0x1A
1.314278291666667,0,0xFF,0x18
1.316229833333333,0,0xB0,0x12
1.316247875000000,0,0xFF,0x13
1.316266083333333,0,0xFF,0x18
1.318217333333333,0,0xB0,0x12
1.318235375000000,0,0xFF,0x10
1.318253583333333,0,0xFF,0x18
1.320204708333333,0,0xB0,0x12
1.320222750000000,0,0xFF,0x10
1.320240958333333,0,0xFF,0x18
1.322192416666667,0,0xF0,0x02
1.322210458333333,0,0xFF,0x12
1.322228666666667,0,0xFF,0x18
1.322253458333333,0,0xC3,0x02
1.322271458333333,0,0xFF,0x00
1.322289666666667,0,0xFF,0x3C
1.322310250000000,0,0x07,0x12
1.322328291666667,0,0x00,0x12
1.322346333333333,0,0x1F,0x12
1.323176166666667,0,0x07,0x01
1.323194208333333,0,0x00,0x01
1.323212291666667,0,0x0F,0x00
1.323232875000000,0,0x3E,0x01
1.323250916666667,0,0xC0,0x01
1.323269000000000,0,0x80,0x00
1.323289208333333,0,0x07,0x81
1.323307250000000,0,0xFF,0x00
1.323325458333333,0,0xFF,0x1E
1.323346333333333,0,0x07,0x01
1.323364375000000,0,0x00,0x01
1.323382416666667,0,0x1F,0x81
1.324180083333333,0,0x18,0x1A
1.324198125000000,0,0xFF,0x12
1.324216333333333,0,0xFF,0x1C
1.326167750000000,0,0xB0,0x12
1.326185791666667,0,0xFF,0x12
1.326204000000000,0,0xFF,0x1C
1.328155458333333,0,0x98,0x10
1.328173500000000,0,0xFF,0x12
1.328191708333333,0,0xFF,0x1C
1.330143083333333,0,0xB0,0x12
1.330161125000000,0,0xFF,0x10
1.330179333333333,0,0xFF,0x1E
1.332130791666667,0,0xF0,0x02
1.332148833333333,0,0xFF,0x12
1.332167041666667,0,0xFF,0x1C
1.334118666666667,0,0x98,0x1A
1.334136708333333,0,0xFF,0x12
1.334154916666667,0,0xFF,0x1C
1.336106458333333,0,0x90,0x12
1.336124500000000,0,0xFF,0x12
1.336142708333333,0,0xFF,0x1C
1.338094208333333,0,0xB0,0x12
1.338112250000000,0,0xFF,0x10
1.338130458333333,0,0xFF,0x1E
1.340081958333333,0,0xF0,0x12
1.340100000000000,0,0xFF,0x13
1.340118208333333,0,0xFF,0x1C
1.342069666666667,0,0xF0,0x02
1.342087666666667,0,0x7F,0x12
1.342105875000000,0,0xFF,0x1C
1.344057416666667,0,0x98,0x10
1.344075458333333,0,0xFF,0x02
1.344093666666667,0,0xFF,0x0C
1.346045208333333,0,0xB0,0x12
1.346063250000000,0,0xFF,0x12
1.346081458333333,0,0xFF,0x1C
1.348032958333333,0,0x98,0x10
1.348051000000000,0,0xFF,0x12
1.348069208333333,0,0xFF,0x1C
1.350020708333333,0,0xF0,0x12
1.350038708333333,0,0x7F,0x12
1.350056916666667,0,0xFF,0x1C
1.352008458333333,0,0xB0,0x12
1.352026500000000,0,0xFF,0x10
1.352044708333333,0,0xFF,0x1E
1.353996375000000,0,0xB0,0x13
1.354014375000000,0,0x7F,0x12
1.354032583333333,0,0xFF,0x1C
1.354057416666667,0,0xC3,0x02
1.354075416666667,0,0xFF,0x00
1.354093625000000,0,0xFF,0x1E
1.354114208333333,0,0x07,0x12
1.354132250000000,0,0x00,0x12
1.354150291666667,0,0x47,0x12
1.354980166666667,0,0x03,0x00
1.354998166666667,0,0x80,0x01
1.355016250000000,0,0x46,0x01
1.355036875000000,0,0x30,0x01
1.355054875000000,0,0x00,0x01
1.355072958333333,0,0x80,0x01
1.355093208333333,0,0x87,0x01
1.355111250000000,0,0xFF,0x00
1.355129458333333,0,0xFF,0x46
1.355150333333333,0,0x07,0x01
1.355168375000000,0,0x00,0x00
1.355186416666667,0,0x47,0x01
1.355984125000000,0,0x10,0x12
1.356002166666667,0,0xFF,0x12
1.356020375000000,0,0xFF,0x0C
1.357971583333333,0,0xB0,0x13
1.357989583333333,0,0x7F,0x1A
1.358007791666667,0,0xFF,0x04
1.359959166666667,0,0xF0,0x02
1.359977166666667,0,0x7F,0x12
1.359995375000000,0,0xFF,0x0C
1.361946833333333,0,0xB0,0x12
1.361964833333333,0,0xFF,0x10
1.361983041666667,0,0xFF,0x0E
1.363934416666667,0,0xF0,0x12
1.363952458333333,0,0xFF,0x13
1.363970666666667,0,0xFF,0x0C
1.365922083333333,0,0xF0,0x12
1.365940083333333,0,0x7F,0x12
1.365958291666667,0,0xFF,0x0C
1.367909791666667,0,0xB0,0x13
1.367927791666667,0,0x7F,0x1A
1.367946000000000,0,0xFF,0x04
1.369897750000000,0,0xF0,0x02
1.369915791666667,0,0xFF,0x12
1.369934000000000,0,0xFF,0x0C
1.371885541666667,0,0xB0,0x12
1.371903583333333,0,0xFF,0x02
1.371921791666667,0,0xFF,0x0C
1.373873166666667,0,0x98,0x10
1.373891208333333,0,0xFF,0x12
1.373909416666667,0,0xFF,0x0C
1.375860875000000,0,0x98,0x1A
1.375878916666667,0,0xFF,0x12
1.375897125000000,0,0xFF,0x0C
1.377848750000000,0,0xF0,0x12
1.377866750000000,0,0x7F,0x12
1.377884958333333,0,0xFF,0x0C
1.379836333333333,0,0xB0,0x13
1.379854333333333,0,0x7F,0x12
1.379872541666667,0,0xFF,0x0C
1.381823875000000,0,0xF0,0x12
1.381841875000000,0,0x7F,0x12
1.381860083333333,0,0xFF,0x0C
1.383811625000000,0,0xB0,0x12
1.383829625000000,0,0xFF,0x1A
1.383847833333333,0,0xFF,0x04
1.385799291666667,0,0xB0,0x12
1.385817333333333,0,0xFF,0x12
1.385835541666667,0,0xFF,0x0C
1.385860333333333,0,0x87,0x10
1.385878375000000,0,0xFF,0x00
1.385896583333333,0,0xFF,0xC6
1.385917125000000,0,0x87,0x12
1.385935166666667,0,0x00,0x12
1.385953250000000,0,0x00,0x02
1.386783083333333,0,0x07,0x01
1.386801125000000,0,0x00,0x01
1.386819208333333,0,0x00,0x01
1.386839791666667,0,0x34,0x81
1.386857833333333,0,0x80,0x01
1.386875916666667,0,0x80,0x01
1.386896166666667,0,0xC3,0x01
1.386914166666667,0,0xFF,0x80
1.386932416666667,0,0xFF,0x00
1.386953291666667,0,0x03,0x00
1.386971291666667,0,0x80,0x01
1.386989375000000,0,0x80,0x01
1.387787125000000,0,0xB0,0x12
1.387805166666667,0,0xFF,0x13
1.387823375000000,0,0xFF,0x00
1.389775041666667,0,0xF0,0x12
1.389793083333333,0,0xFF,0x13
1.389811291666667,0,0xFF,0x00
1.391762750000000,0,0xF0,0x12
1.391780750000000,0,0x7F,0x12
1.391798958333333,0,0xFF,0x00
1.393750291666667,0,0x98,0x10
1.393768333333333,0,0xFF,0x02
1.393786541666667,0,0xFF,0x00
1.395738125000000,0,0x90,0x12
1.395756166666667,0,0xFF,0x10
1.395774375000000,0,0xFF,0x00
1.397726291666667,0,0xB0,0x12
1.397744333333333,0,0xFF,0x02
1.397762541666667,0,0xFF,0x00
1.399713833333333,0,0xB0,0x12
1.399731833333333,0,0x7F,0x12
1.399750041666667,0,0xFF,0x00
1.401701708333333,0,0xB0,0x13
1.401719708333333,0,0x7F,0x1A
1.401737916666667,0,0xFF,0x00
1.403689500000000,0,0xB0,0x13
1.403707500000000,0,0x7F,0x12
1.403725708333333,0,0xFF,0x00
1.405677416666667,0,0xB0,0x13
1.405695416666667,0,0x7F,0x1A
1.405713625000000,0,0xFF,0x00
1.407665291666667,0,0xF0,0x12
1.407683333333333,0,0xFF,0x12
1.407701541666667,0,0xFF,0x00
1.409653166666667,0,0x98,0x10
1.409671208333333,0,0xFF,0x02
1.409689416666667,0,0xFF,0x00
1.411641208333333,0,0x98,0x1A
1.411659250000000,0,0xFF,0x12
1.411677458333333,0,0xFF,0x00
1.413629000000000,0,0x98,0x10
1.413647041666667,0,0xFF,0x12
1.413665250000000,0,0xFF,0x00
1.415616750000000,0,0xF0,0x12
1.415634791666667,0,0xFF,0x13
1.415653000000000,0,0xFF,0x00
1.417604416666667,0,0xF0,0x02
1.417622416666667,0,0x7F,0x12
1.417640666666667,0,0xFF,0x00
1.417665458333333,0,0xC7,0x12
1.417683500000000,0,0xFF,0x00
1.417701708333333,0,0xFF,0x80
1.417722250000000,0,0x07,0x12
1.417740291666667,0,0x00,0x12
1.417758375000000,0,0x38,0x02
1.418588166666667,0,0x07,0x01
1.418606208333333,0,0x00,0x01
1.418624291666667,0,0x3C,0x01
1.418644875000000,0,0x14,0x01
1.418662916666667,0,0x80,0x01
1.418681000000000,0,0xC0,0x01
1.418701250000000,0,0x83,0x00
1.418719250000000,0,0xFF,0x00
1.418737458333333,0,0xFF,0x28
1.418758333333333,0,0x87,0x01
1.418776375000000,0,0x00,0x01
1.418794458333333,0,0xE8,0x01
1.419592458333333,0,0xB0,0x12
1.419610458333333,0,0x7F,0x12
1.419628666666667,0,0xFF,0x10
1.421579833333333,0,0x98,0x1A
1.421597875000000,0,0xFF,0x12
1.421616083333333,0,0xFF,0x10
1.423567541666667,0,0xB0,0x12
1.423585583333333,0,0xFF,0x02
1.423603791666667,0,0xFF,0x00
1.425555291666667,0,0x98,0x10
1.425573333333333,0,0xFF,0x12
1.425591541666667,0,0xFF,0x10
1.427543041666667,0,0x90,0x12
1.427561083333333,0,0xFF,0x12
1.427579291666667,0,0xFF,0x10
1.429530875000000,0,0x90,0x12
1.429548916666667,0,0xFF,0x12
1.429567125000000,0,0xFF,0x10
1.431518833333333,0,0x98,0x10
1.431536875000000,0,0xFF,0x12
1.431555083333333,0,0xFF,0x10
1.433506708333333,0,0xF0,0x12
1.433524750000000,0,0xFF,0x12
1.433542958333333,0,0xFF,0x10
1.435494500000000,0,0x98,0x10
1.435512541666667,0,0xFF,0x12
1.435530750000000,0,0xFF,0x10
1.437482250000000,0,0xB0,0x12
1.437500291666667,0,0xFF,0x1A
1.437518500000000,0,0xFF,0x18
1.439470208333333,0,0xF0,0x02
1.439488250000000,0,0xFF,0x13
1.439506458333333,0,0xFF,0x10
1.441458041666667,0,0x98,0x10
1.441476083333333,0,0xFF,0x12
1.441494291666667,0,0xFF,0x10
1.443445875000000,0,0xB0,0x12
1.443463916666667,0,0xFF,0x10
1.443482125000000,0,0xFF,0x18
1.445433583333333,0,0xB0,0x12
1.445451625000000,0,0xFF,0x10
1.445469833333333,0,0xFF,0x10
1.447421333333333,0,0xF0,0x12
1.447439333333333,0,0x7F,0x12
1.447457541666667,0,0xFF,0x10
1.449409166666667,0,0xB0,0x13
1.449427166666667,0,0x7F,0x1A
1.449445375000000,0,0xFF,0x10
1.449470208333333,0,0xC3,0x12
1.449488208333333,0,0xFF,0x00
1.449506416666667,0,0xFF,0x28
1.449527000000000,0,0x07,0x12
1.449545041666667,0,0x00,0x12
1.449563083333333,0,0x0B,0x12
1.450392916666667,0,0x07,0x01
1.450410958333333,0,0x00,0x00
1.450429000000000,0,0x02,0x01
1.450449625000000,0,0x30,0x01
1.450467625000000,0,0x00,0x81
1.450485708333333,0,0x00,0x01
1.450505958333333,0,0x87,0x01
1.450524000000000,0,0xFF,0x00
1.450542208333333,0,0xFF,0x0E
1.450563083333333,0,0x03,0x01
1.450581083333333,0,0x80,0x81
1.450599166666667,0,0x80,0x01
1.451396833333333,0,0xF0,0x02
1.451414833333333,0,0x7F,0x12
1.451433041666667,0,0xFF,0x14
1.453384541666667,0,0xF0,0x12
1.453402541666667,0,0x7F,0x12
1.453420750000000,0,0xFF,0x14
1.455371875000000,0,0x98,0x10
1.455389916666667,0,0xFF,0x02
1.455408125000000,0,0xFF,0x00
1.457359500000000,0,0xF0,0x12
1.457377500000000,0,0x7F,0x12
1.457395708333333,0,0xFF,0x14
1.459346958333333,0,0x98,0x10
1.459365000000000,0,0xFF,0x12
1.459383208333333,0,0xFF,0x14
1.461334666666667,0,0xF0,0x02
1.461352708333333,0,0xFF,0x12
1.461370916666667,0,0xFF,0x14
1.463322250000000,0,0x98,0x1A
1.463340291666667,0,0xFF,0x12
1.463358500000000,0,0xFF,0x14
1.465310000000000,0,0x98,0x10
1.465328041666667,0,0xFF,0x02
1.465346250000000,0,0xFF,0x00
1.467297875000000,0,0xB0,0x13
1.467315875000000,0,0x7F,0x1A
1.467334083333333,0,0xFF,0x1C
1.469285458333333,0,0xF0,0x12
1.469303500000000,0,0xFF,0x13
1.469321708333333,0,0xFF,0x14
1.471273333333333,0,0xB0,0x12
1.471291375000000,0,0xFF,0x10
1.471309583333333,0,0xFF,0x1E
1.473261291666667,0,0xB0,0x13
1.473279291666667,0,0x7F,0x1A
1.473297500000000,0,0xFF,0x14
1.475249041666667,0,0xB0,0x12
1.475267083333333,0,0xFF,0x12
1.475285291666667,0,0xFF,0x10
1.477236875000000,0,0xF0,0x12
1.477254916666667,0,0xFF,0x13
1.477273125000000,0,0xFF,0x14
1.479224708333333,0,0xB0,0x12
1.479242750000000,0,0xFF,0x12
1.479260958333333,0,0xFF,0x00
1.481212416666667,0,0xB0,0x13
1.481230416666667,0,0x7F,0x1A
1.481248625000000,0,0xFF,0x14
1.481273458333333,0,0xC3,0x02
1.481291458333333,0,0xFF,0x00
1.481309666666667,0,0xFF,0x0A
1.481330250000000,0,0x07,0x12
1.481348291666667,0,0x00,0x13
1.481366333333333,0,0x32,0x12
1.482196000000000,0,0x07,0x01
1.482214041666667,0,0x00,0x01
1.482232125000000,0,0x33,0x00
1.482252708333333,0,0x1E,0x01
1.482270750000000,0,0xC0,0x01
1.482288833333333,0,0x80,0x01
1.482309083333333,0,0x83,0x00
1.482327083333333,0,0xFF,0x00
1.482345291666667,0,0xFF,0x32
1.482366166666667,0,0x87,0x01
1.482384208333333,0,0x00,0x01
1.482402291666667,0,0xB0,0x01
1.483200291666667,0,0x18,0x1A
1.483218333333333,0,0xFF,0x12
1.483236541666667,0,0xFF,0x04
1.485187708333333,0,0xF0,0x12
1.485205750000000,0,0xFF,0x13
1.485223958333333,0,0xFF,0x00
1.487175500000000,0,0xB0,0x12
1.487193541666667,0,0xFF,0x12
1.487211750000000,0,0xFF,0x00
1.489163250000000,0,0xF0,0x12
1.489181250000000,0,0x7F,0x12
1.489199458333333,0,0xFF,0x04
1.491151166666667,0,0xF0,0x12
1.491169208333333,0,0xFF,0x12
1.491187416666667,0,0xFF,0x00
1.493139083333333,0,0xF0,0x12
1.493157125000000,0,0xFF,0x13
1.493175333333333,0,0xFF,0x04
1.495126791666667,0,0xB0,0x12
1.495144791666667,0,0x7F,0x12
1.495163000000000,0,0xFF,0x04
1.497114750000000,0,0xB0,0x12
1.497132791666667,0,0xFF,0x10
1.497151000000000,0,0xFF,0x06
1.499102166666667,0,0x98,0x10
1.499120208333333,0,0xFF,0x12
1.499138416666667,0,0xFF,0x04
1.501090166666667,0,0xB0,0x13
1.501108166666667,0,0x7F,0x1A
1.501126375000000,0,0xFF,0x04
1.503077583333333,0,0xB0,0x12
1.503095625000000,0,0xFF,0x10
1.503113833333333,0,0xFF,0x04
1.505065208333333,0,0x98,0x10
1.505083250000000,0,0xFF,0x02
1.505101458333333,0,0xFF,0x04
1.507052875000000,0,0x90,0x12
1.507070916666667,0,0xFF,0x12
1.507089125000000,0,0xFF,0x04
1.509040666666667,0,0xB0,0x12
1.509058708333333,0,0xFF,0x13
1.509076916666667,0,0xFF,0x00
1.511028375000000,0,0xB0,0x12
1.511046375000000,0,0x7F,0x1A
1.511064583333333,0,0xFF,0x04
1.513015958333333,0,0xB0,0x12
1.513034000000000,0,0xFF,0x02
1.513052208333333,0,0xFF,0x04
1.513077000000000,0,0x87,0x1A
1.513095041666667,0,0xFF,0x00
1.513113250000000,0,0xFF,0xB2
1.513133791666667,0,0x87,0x12
1.513151833333333,0,0x00,0x1A
1.513169916666667,0,0x16,0x12
1.513999750000000,0,0x03,0x01
1.514017750000000,0,0x80,0x01
1.514035833333333,0,0x1E,0x01
1.514056458333333,0,0x30,0x01
1.514074458333333,0,0x00,0x81
1.514092541666667,0,0x80,0x01
1.514112791666667,0,0x87,0x01
1.514130833333333,0,0xFF,0x00
1.514149041666667,0,0xFF,0x14
1.514169916666667,0,0x03,0x01
1.514187916666667,0,0x80,0x01
1.514206000000000,0,0x9E,0x01
1.515004000000000,0,0x18,0x1A
1.515022041666667,0,0xFF,0x12
1.515040250000000,0,0xFF,0x08
1.516991541666667,0,0xF0,0x02
1.517009583333333,0,0xFF,0x13
1.517027791666667,0,0xFF,0x08
1.518979291666667,0,0xB0,0x12
1.518997333333333,0,0xFF,0x02
1.519015541666667,0,0xFF,0x0C
1.520967083333333,0,0xF0,0x12
1.520985125000000,0,0xFF,0x13
1.521003333333333,0,0xFF,0x08
1.522954833333333,0,0xF0,0x12
1.522972875000000,0,0xFF,0x13
1.522991083333333,0,0xFF,0x08
1.524942458333333,0,0x98,0x10
1.524960500000000,0,0xFF,0x02
1.524978708333333,0,0xFF,0x0C
1.526930291666667,0,0xB0,0x12
1.526948333333333,0,0xFF,0x12
1.526966541666667,0,0xFF,0x08
1.528917833333333,0,0xB0,0x12
1.528935875000000,0,0xFF,0x02
1.528954083333333,0,0xFF,0x08
1.530905541666667,0,0xB0,0x13
1.530923541666667,0,0xFF,0x1A
1.530941750000000,0,0xFF,0x00
1.532893125000000,0,0xB0,0x12
1.532911166666667,0,0xFF,0x12
1.532929375000000,0,0xFF,0x08
1.534880750000000,0,0xB0,0x12
1.534898791666667,0,0xFF,0x10
1.534917000000000,0,0xFF,0x08
1.536868500000000,0,0xB0,0x12
1.536886541666667,0,0xFF,0x10
1.536904750000000,0,0xFF,0x00
1.538856208333333,0,0xB0,0x12
1.538874250000000,0,0xFF,0x02
1.538892458333333,0,0xFF,0x0C
1.540843958333333,0,0xF0,0x12
1.540861958333333,0,0x7F,0x12
1.540880166666667,0,0xFF,0x08
1.542831666666667,0,0xB0,0x12
1.542849708333333,0,0xFF,0x10
1.542867916666667,0,0xFF,0x08
1.544819291666667,0,0xB0,0x13
1.544837291666667,0,0x7F,0x12
1.544855500000000,0,0xFF,0x08
1.544880333333333,0,0x83,0x12
1.544898333333333,0,0xFF,0x00
1.544916541666667,0,0xFF,0x14
1.544937125000000,0,0x07,0x02
1.544955166666667,0,0x00,0x12
1.544973208333333,0,0x1C,0x1A
1.545803000000000,0,0x03,0x00
1.545821000000000,0,0x00,0x01
1.545839083333333,0,0x3C,0x01
1.545859666666667,0,0x1C,0x01
1.545877708333333,0,0x80,0x01
1.545895791666667,0,0x80,0x00
1.545916000000000,0,0x07,0x81
1.545934041666667,0,0xFF,0x00
1.545952250000000,0,0xFF,0x3C
1.545973125000000,0,0x07,0x01
1.545991166666667,0,0x00,0x01
1.546009208333333,0,0x3C,0x81
1.546807041666667,0,0x18,0x10
1.546825083333333,0,0xFF,0x02
1.546843291666667,0,0xFF,0x18
1.548794416666667,0,0xB0,0x12
1.548812458333333,0,0xFF,0x1A
1.548830666666667,0,0xFF,0x18
1.550782083333333,0,0xB0,0x12
1.550800083333333,0,0xFF,0x10
1.550818291666667,0,0xFF,0x18
1.552769708333333,0,0xB0,0x12
1.552787750000000,0,0xFF,0x02
1.552805958333333,0,0xFF,0x0C
1.554757375000000,0,0xB0,0x12
1.554775416666667,0,0xFF,0x10
1.554793625000000,0,0xFF,0x18
1.556745041666667,0,0xF0,0x12
1.556763083333333,0,0xFF,0x12
1.556781291666667,0,0xFF,0x18
1.558732625000000,0,0xB0,0x12
1.558750666666667,0,0xFF,0x12
1.558768875000000,0,0xFF,0x1C
1.560720291666667,0,0xB0,0x12
1.560738333333333,0,0xFF,0x13
1.560756541666667,0,0xFF,0x18
1.562708208333333,0,0x98,0x1A
1.562726250000000,0,0xFF,0x12
1.562744458333333,0,0xFF,0x18
1.564695750000000,0,0x98,0x10
1.564713791666667,0,0xFF,0x02
1.564732000000000,0,0xFF,0x18
1.566683416666667,0,0xF0,0x02
1.566701416666667,0,0x7F,0x12
1.566719625000000,0,0xFF,0x18
1.568671083333333,0,0x98,0x10
1.568689125000000,0,0xFF,0x02
1.568707333333333,0,0xFF,0x08
1.570658750000000,0,0xB0,0x12
1.570676791666667,0,0xFF,0x02
1.570695000000000,0,0xFF,0x0C
1.572646708333333,0,0xF0,0x12
1.572664750000000,0,0xFF,0x13
1.572682958333333,0,0xFF,0x18
1.574634583333333,0,0xF0,0x02
1.574652625000000,0,0xFF,0x13
1.574670833333333,0,0xFF,0x18
1.576622166666667,0,0xB0,0x12
1.576640208333333,0,0xFF,0x10
1.576658416666667,0,0xFF,0x18
1.576683250000000,0,0x83,0x13
1.576701250000000,0,0xFF,0x00
1.576719458333333,0,0xFF,0x9C
1.576740041666667,0,0x07,0x02
1.576758083333333,0,0x00,0x13
1.576776125000000,0,0x1E,0x12
1.577606000000000,0,0x03,0x01
1.577624000000000,0,0x80,0x81
1.577642083333333,0,0x1E,0x01
1.577662708333333,0,0x30,0x01
1.577680708333333,0,0x00,0x81
1.577698791666667,0,0x00,0x01
1.577719041666667,0,0x87,0x01
1.577737083333333,0,0xFF,0x00
1.577755291666667,0,0xFF,0x1E
1.577776166666667,0,0x03,0x01
1.577794166666667,0,0x80,0x81
1.577812250000000,0,0x9E,0x01
1.578609958333333,0,0x30,0x92
1.578628000000000,0,0xFF,0x10
1.578646208333333,0,0xFF,0x1E
1.580597750000000,0,0x98,0x1A
1.580615791666667,0,0xFF,0x12
1.580634000000000,0,0xFF,0x1C
1.582585833333333,0,0x90,0x12
1.582603875000000,0,0xFF,0x12
1.582622083333333,0,0xFF,0x1C
1.584573291666667,0,0xB0,0x13
1.584591291666667,0,0xFF,0x18
1.584609500000000,0,0xFF,0x1C
1.586560916666667,0,0xB0,0x12
1.586578958333333,0,0xFF,0x10
1.586597166666667,0,0xFF,0x1E
1.588548750000000,0,0xB0,0x12
1.588566750000000,0,0x7F,0x12
1.588584958333333,0,0xFF,0x1C
1.590536666666667,0,0xF0,0x02
1.590554666666667,0,0x7F,0x13
1.590572916666667,0,0xFF,0x1C
1.592524708333333,0,0xB0,0x12
1.592542750000000,0,0xFF,0x1A
1.592560958333333,0,0xFF,0x1C
1.594512750000000,0,0xB0,0x12
1.594530750000000,0,0x7F,0x12
1.594548958333333,0,0xFF,0x1C
1.596500708333333,0,0xB8,0x10
1.596518750000000,0,0xFF,0x02
1.596536958333333,0,0xFF,0x1C
1.598488541666667,0,0xB0,0x12
1.598506541666667,0,0x7F,0x12
1.598524750000000,0,0xFF,0x1C
1.600476458333333,0,0xB0,0x12
1.600494500000000,0,0xFF,0x12
1.600512708333333,0,0xFF,0x0C
1.602464458333333,0,0xB0,0x12
1.602482500000000,0,0xFF,0x13
1.602500708333333,0,0xFF,0x1C
1.604451916666667,0,0x98,0x1A
1.604469958333333,0,0xFF,0x12
1.604488166666667,0,0xFF,0x1C
1.606439875000000,0,0xB8,0x10
1.606457916666667,0,0xFF,0x02
1.606476125000000,0,0xFF,0x1C
1.608427916666667,0,0xB0,0x12
1.608445958333333,0,0xFF,0x02
1.608464166666667,0,0xFF,0x0C
1.608488958333333,0,0x87,0x1A
1.608507000000000,0,0xFF,0x00
1.608525208333333,0,0xFF,0x9E
1.608545791666667,0,0x03,0x13
1.608563791666667,0,0x80,0x1A
1.608581875000000,0,0x66,0x10
1.609411541666667,0,0x07,0x01
1.609429583333333,0,0x00,0x01
1.609447666666667,0,0x06,0x01
1.609468250000000,0,0x14,0x01
1.609486291666667,0,0x80,0x01
1.609504375000000,0,0xC0,0x01
1.609524625000000,0,0x83,0x00
1.609542625000000,0,0xFF,0x00
1.609560833333333,0,0xFF,0x66
1.609581708333333,0,0x87,0x01
1.609599750000000,0,0x00,0x01
1.609617833333333,0,0xC6,0x01
1.610415500000000,0,0x30,0x12
1.610433541666667,0,0xFF,0x12
1.610451750000000,0,0xFF,0x0C
1.612403416666667,0,0xF0,0x12
1.612421458333333,0,0xFF,0x13
1.612439666666667,0,0xFF,0x0C
1.614391291666667,0,0xB0,0x12
1.614409333333333,0,0xFF,0x10
1.614427541666667,0,0xFF,0x04
1.616378875000000,0,0x98,0x1A
1.616396916666667,0,0xFF,0x12
1.616415125000000,0,0xFF,0x0C
1.618366791666667,0,0xF0,0x02
1.618384833333333,0,0xFF,0x12
1.618403041666667,0,0xFF,0x0C
1.620354666666667,0,0xB0,0x12
1.620372666666667,0,0xFF,0x10
1.620390875000000,0,0xFF,0x0E
1.622342458333333,0,0xB0,0x13
1.622360458333333,0,0x7F,0x12
1.622378666666667,0,0xFF,0x0C
1.624330250000000,0,0xF0,0x02
1.624348291666667,0,0xFF,0x13
1.624366500000000,0,0xFF,0x0C
1.626318166666667,0,0xB0,0x12
1.626336208333333,0,0xFF,0x12
1.626354416666667,0,0xFF,0x0E
1.628306166666667,0,0xB0,0x13
1.628324166666667,0,0x7F,0x1A
1.628342375000000,0,0xFF,0x0C
1.630294125000000,0,0xB0,0x12
1.630312166666667,0,0xFF,0x02
1.630330375000000,0,0xFF,0x0C
1.632281916666667,0,0xB0,0x12
1.632299958333333,0,0xFF,0x13
1.632318166666667,0,0xFF,0x0C
1.634269625000000,0,0xF0,0x12
1.634287666666667,0,0xFF,0x13
1.634305875000000,0,0xFF,0x0C
1.636257666666667,0,0xB0,0x12
1.636275666666667,0,0x7F,0x12
1.636293875000000,0,0xFF,0x0C
1.638245291666667,0,0xB0,0x12
1.638263333333333,0,0xFF,0x10
1.638281541666667,0,0xFF,0x0E
1.640232875000000,0,0x98,0x10
1.640250916666667,0,0xFF,0x12
1.640269125000000,0,0xFF,0x0C
1.640293916666667,0,0x87,0x1A
1.640311958333333,0,0xFF,0x00
1.640330166666667,0,0xFF,0xC6
1.640350708333333,0,0x87,0x12
1.640368750000000,0,0x00,0x12
1.640386833333333,0,0x00,0x02
1.641216583333333,0,0x07,0x01
1.641234583333333,0,0x80,0x81
1.641252666666667,0,0x00,0x01
1.641273291666667,0,0x30,0x00
1.641291291666667,0,0x00,0x01
1.641309375000000,0,0x80,0x01
1.641329625000000,0,0xC3,0x01
1.641347625000000,0,0xFF,0x80
1.641365833333333,0,0xFF,0x00
1.641386708333333,0,0x87,0x01
1.641404750000000,0,0x00,0x01
1.641422833333333,0,0xC0,0x01
1.642220458333333,0,0xB0,0x12
1.642238500000000,0,0xFF,0x12
1.642256708333333,0,0xFF,0x00
1.644207916666667,0,0xB0,0x12
1.644225958333333,0,0xFF,0x12
1.644244166666667,0,0xFF,0x00
1.646195833333333,0,0x98,0x10
1.646213875000000,0,0xFF,0x12
1.646232083333333,0,0xFF,0x00
1.648183583333333,0,0x98,0x10
1.648201625000000,0,0xFF,0x12
1.648219833333333,0,0xFF,0x00
1.650171083333333,0,0xB0,0x13
1.650189083333333,0,0x7F,0x1A
1.650207291666667,0,0xFF,0x00
1.652158875000000,0,0xB0,0x12
1.652176916666667,0,0xFF,0x12
1.652195125000000,0,0xFF,0x00
1.654146625000000,0,0xF0,0x02
1.654164666666667,0,0xFF,0x12
1.654182833333333,0,0xFF,0x00
1.656133916666667,0,0x98,0x18
1.656151958333333,0,0xFF,0x02
1.656170166666667,0,0xFF,0x00
1.658121500000000,0,0x90,0x12
1.658139541666667,0,0xFF,0x12
1.658157750000000,0,0xFF,0x00
1.660109166666667,0,0x90,0x12
1.660127208333333,0,0xFF,0x12
1.660145416666667,0,0xFF,0x00
1.662096958333333,0,0xB0,0x12
1.662115000000000,0,0xFF,0x02
1.662133208333333,0,0xFF,0x00
1.664084625000000,0,0xB0,0x12
1.664102666666667,0,0xFF,0x12
1.664120875000000,0,0xFF,0x00
1.666072000000000,0,0xF0,0x12
1.666090000000000,0,0x7F,0x12
1.666108208333333,0,0xFF,0x00
1.668059958333333,0,0xF0,0x02
1.668077958333333,0,0x7F,0x12
1.668096166666667,0,0xFF,0x00
1.670047500000000,0,0xB0,0x12
1.670065541666667,0,0xFF,0x12
1.670083750000000,0,0xFF,0x00
1.672034958333333,0,0xB0,0x12
1.672053000000000,0,0xFF,0x12
1.672071208333333,0,0xFF,0x00
1.672096000000000,0,0x87,0x12
1.672114041666667,0,0xFF,0x00
1.672132250000000,0,0xFF,0x80
1.672152833333333,0,0x03,0x13
1.672170833333333,0,0x00,0x1A
1.672188916666667,0,0x28,0x12
1.673018750000000,0,0x07,0x01
1.673036791666667,0,0x00,0x00
1.673054833333333,0,0x08,0x01
1.673075458333333,0,0x34,0x01
1.673093500000000,0,0x80,0x00
1.673111541666667,0,0x00,0x01
1.673131791666667,0,0x07,0x01
1.673149833333333,0,0xFF,0x00
1.673168041666667,0,0xFF,0x28
1.673188916666667,0,0x07,0x01
1.673206958333333,0,0x00,0x00
1.673225000000000,0,0x28,0x81
1.674022875000000,0,0xF0,0x12
1.674040916666667,0,0xFF,0x13
1.674059125000000,0,0xFF,0x10
1.676010458333333,0,0xF0,0x02
1.676028458333333,0,0x7F,0x12
1.676046666666667,0,0xFF,0x10
1.677998083333333,0,0xB0,0x12
1.678016125000000,0,0xFF,0x13
1.678034333333333,0,0xFF,0x10
1.679985708333333,0,0xB0,0x12
1.680003750000000,0,0xFF,0x12
1.680021958333333,0,0xFF,0x10
1.681973500000000,0,0xF0,0x12
1.681991541666667,0,0xFF,0x13
1.682009750000000,0,0xFF,0x10
1.683960958333333,0,0xF0,0x12
1.683979000000000,0,0xFF,0x12
1.683997208333333,0,0xFF,0x10
1.685948625000000,0,0xB0,0x12
1.685966666666667,0,0xFF,0x10
1.685984875000000,0,0xFF,0x10
1.687936541666667,0,0xF0,0x02
1.687954541666667,0,0x7F,0x12
1.687972750000000,0,0xFF,0x10
1.689924041666667,0,0x90,0x12
1.689942083333333,0,0xFF,0x12
1.689960291666667,0,0xFF,0x10
1.691911458333333,0,0xB0,0x12
1.691929500000000,0,0xFF,0x13
1.691947708333333,0,0xFF,0x10
1.693898958333333,0,0x98,0x10
1.693917000000000,0,0xFF,0x02
1.693935208333333,0,0xFF,0x10
1.695886625000000,0,0xB0,0x13
1.695904625000000,0,0xFF,0x18
1.695922833333333,0,0xFF,0x10
1.697874458333333,0,0xF0,0x12
1.697892458333333,0,0x7F,0x12
1.697910666666667,0,0xFF,0x10
1.699862125000000,0,0xB0,0x12
1.699880166666667,0,0xFF,0x02
1.699898375000000,0,0xFF,0x10
1.701849708333333,0,0xF0,0x02
1.701867708333333,0,0x7F,0x12
1.701885958333333,0,0xFF,0x10
1.703837541666667,0,0xB0,0x12
1.703855583333333,0,0xFF,0x02
1.703873791666667,0,0xFF,0x10
1.703898583333333,0,0x87,0x1A
1.703916625000000,0,0xFF,0x00
1.703934833333333,0,0xFF,0xA8
1.703955375000000,0,0x87,0x12
1.703973416666667,0,0x00,0x1A
1.703991500000000,0,0x00,0x12
1.704821375000000,0,0x07,0x01
1.704839416666667,0,0x00,0x01
1.704857458333333,0,0x0B,0x81
1.704878083333333,0,0x36,0x01
1.704896125000000,0,0x80,0x01
1.704914166666667,0,0x00,0x81
1.704934416666667,0,0x07,0x01
1.704952458333333,0,0xFF,0x00
1.704970666666667,0,0xFF,0x0A
1.704991541666667,0,0x07,0x01
1.705009583333333,0,0x00,0x01
1.705027666666667,0,0x8E,0x01
1.705825541666667,0,0xB0,0x12
1.705843583333333,0,0xFF,0x02
1.705861791666667,0,0xFF,0x14
1.707813208333333,0,0x98,0x1A
1.707831250000000,0,0xFF,0x12
1.707849458333333,0,0xFF,0x14
1.709801041666667,0,0xF0,0x12
1.709819041666667,0,0x7F,0x12
1.709837250000000,0,0xFF,0x1C
1.711789041666667,0,0xB0,0x12
1.711807083333333,0,0xFF,0x12
1.711825291666667,0,0xFF,0x10
1.713776750000000,0,0xF0,0x12
1.713794750000000,0,0x7F,0x12
1.713812958333333,0,0xFF,0x14
1.715764500000000,0,0xF0,0x12
1.715782541666667,0,0xFF,0x13
1.715800750000000,0,0xFF,0x10
1.717752125000000,0,0x90,0x12
1.717770166666667,0,0xFF,0x12
1.717788375000000,0,0xFF,0x14
1.719739916666667,0,0xB0,0x12
1.719757958333333,0,0xFF,0x12
1.719776166666667,0,0xFF,0x00
1.721727541666667,0,0x98,0x10
1.721745583333333,0,0xFF,0x12
1.721763791666667,0,0xFF,0x14
1.723715333333333,0,0xB0,0x12
1.723733375000000,0,0xFF,0x12
1.723751583333333,0,0xFF,0x00
1.725703500000000,0,0x98,0x1A
1.725721541666667,0,0xFF,0x12
1.725739750000000,0,0xFF,0x16
1.727691166666667,0,0xF0,0x12
1.727709208333333,0,0xFF,0x13
1.727727416666667,0,0xFF,0x14
1.729678916666667,0,0x98,0x1A
1.729696958333333,0,0xFF,0x12
1.729715166666667,0,0xFF,0x16
1.731666875000000,0,0x98,0x10
1.731684916666667,0,0xFF,0x12
1.731703125000000,0,0xFF,0x14
1.733654750000000,0,0xF0,0x12
1.733672750000000,0,0x7F,0x12
1.733690958333333,0,0xFF,0x14
1.735642500000000,0,0xF0,0x02
1.735660500000000,0,0x7F,0x12
1.735678708333333,0,0xFF,0x14
1.735703541666667,0,0xC3,0x02
1.735721541666667,0,0xFF,0x00
1.735739750000000,0,0xFF,0x0A
1.735760333333333,0,0x07,0x12
1.735778375000000,0,0x00,0x13
1.735796416666667,0,0x33,0x12
1.736626125000000,0,0x03,0x01
1.736644125000000,0,0x80,0x01
1.736662208333333,0,0x18,0x01
1.736682833333333,0,0x30,0x01
1.736700833333333,0,0x00,0x81
1.736718916666667,0,0x00,0x01
1.736739166666667,0,0x87,0x01
1.736757208333333,0,0xFF,0x00
1.736775416666667,0,0xFF,0x32
1.736796291666667,0,0x07,0x01
1.736814333333333,0,0x00,0x01
1.736832375000000,0,0x1A,0x01
1.737630083333333,0,0x98,0x10
1.737648125000000,0,0xFF,0x02
1.737666333333333,0,0xFF,0x04
1.739617750000000,0,0xF0,0x12
1.739635791666667,0,0xFF,0x13
1.739654000000000,0,0xFF,0x04
1.741605458333333,0,0xF0,0x12
1.741623500000000,0,0xFF,0x13
1.741641708333333,0,0xFF,0x04
1.743593125000000,0,0xF0,0x12
1.743611166666667,0,0xFF,0x13
1.743629375000000,0,0xFF,0x04
1.745580541666667,0,0xB0,0x12
1.745598583333333,0,0xFF,0x12
1.745616791666667,0,0xFF,0x04
1.747568250000000,0,0x98,0x10
1.747586291666667,0,0xFF,0x02
1.747604500000000,0,0xFF,0x00
1.749555791666667,0,0xB0,0x12
1.749573791666667,0,0x7F,0x12
1.749592000000000,0,0xFF,0x04
1.751543000000000,0,0x98,0x1A
1.751561041666667,0,0xFF,0x12
1.751579250000000,0,0xFF,0x00
1.753530750000000,0,0xB0,0x12
1.753548750000000,0,0xFF,0x1A
1.753566958333333,0,0xFF,0x04
1.755518416666667,0,0xB0,0x12
1.755536458333333,0,0xFF,0x10
1.755554666666667,0,0xFF,0x06
1.757505916666667,0,0xF0,0x02
1.757523958333333,0,0xFF,0x12
1.757542166666667,0,0xFF,0x04
1.759493541666667,0,0xB0,0x12
1.759511583333333,0,0xFF,0x12
1.759529791666667,0,0xFF,0x04
1.761481166666667,0,0xB0,0x13
1.761499166666667,0,0xFF,0x10
1.761517375000000,0,0xFF,0x06
1.763468708333333,0,0xF0,0x12
1.763486750000000,0,0xFF,0x12
1.763504958333333,0,0xFF,0x04
1.765456416666667,0,0xB0,0x12
1.765474458333333,0,0xFF,0x12
1.765492666666667,0,0xFF,0x04
1.767443875000000,0,0x90,0x12
1.767461916666667,0,0xFF,0x12
1.767480125000000,0,0xFF,0x04
1.767504916666667,0,0x87,0x1A
1.767522958333333,0,0xFF,0x00
1.767541166666667,0,0xFF,0xF2
1.767561708333333,0,0x07,0x10
1.767579750000000,0,0x00,0x12
1.767597833333333,0,0x10,0x13
1.768427291666667,0,0x07,0x01
1.768445333333333,0,0x00,0x01
1.768463375000000,0,0x14,0x81
1.768484000000000,0,0x34,0x01
1.768502041666667,0,0x80,0x00
1.768520083333333,0,0x00,0x01
1.768540333333333,0,0x87,0x01
1.768558375000000,0,0xFF,0x00
1.768576583333333,0,0xFF,0x14
1.768597416666667,0,0x87,0x01
1.768615458333333,0,0x00,0x01
1.768633541666667,0,0xC0,0x01
1.769431166666667,0,0xB0,0x12
1.769449166666667,0,0xFF,0x12
1.769467375000000,0,0xFF,0x08
1.771418666666667,0,0xB0,0x12
1.771436708333333,0,0xFF,0x12
1.771454875000000,0,0xFF,0x08
1.773406166666667,0,0xB0,0x12
1.773424208333333,0,0xFF,0x12
1.773442416666667,0,0xFF,0x0C
1.775393750000000,0,0xF0,0x02
1.775411750000000,0,0x7F,0x12
1.775429958333333,0,0xFF,0x08
1.777381500000000,0,0x98,0x10
1.777399541666667,0,0xFF,0x12
1.777417750000000,0,0xFF,0x08
1.779369083333333,0,0x98,0x1A
1.779387125000000,0,0xFF,0x12
1.779405333333333,0,0xFF,0x08
1.781356625000000,0,0xB0,0x12
1.781374666666667,0,0xFF,0x10
1.781392875000000,0,0xFF,0x08
1.783344083333333,0,0xB0,0x12
1.783362125000000,0,0xFF,0x12
1.783380333333333,0,0xFF,0x08
1.785331500000000,0,0xF0,0x02
1.785349500000000,0,0x7F,0x12
1.785367708333333,0,0xFF,0x08
1.787318916666667,0,0xF0,0x12
1.787336916666667,0,0x7F,0x12
1.787355125000000,0,0xFF,0x00
1.789306500000000,0,0xF0,0x12
1.789324541666667,0,0xFF,0x13
1.789342750000000,0,0xFF,0x08
1.791294375000000,0,0xB0,0x13
1.791312375000000,0,0x7F,0x1A
1.791330583333333,0,0xFF,0x00
1.793281541666667,0,0x90,0x12
1.793299583333333,0,0xFF,0x12
1.793317791666667,0,0xFF,0x08
1.795269291666667,0,0xB0,0x12
1.795287333333333,0,0xFF,0x12
1.795305541666667,0,0xFF,0x08
1.797256500000000,0,0x98,0x18
1.797274541666667,0,0xFF,0x12
1.797292750000000,0,0xFF,0x08
1.799244166666667,0,0x98,0x1A
1.799262208333333,0,0xFF,0x12
1.799280416666667,0,0xFF,0x08
1.799305208333333,0,0x87,0x12
1.799323250000000,0,0xFF,0x00
1.799341458333333,0,0xFF,0x94
1.799362000000000,0,0x87,0x12
1.799380041666667,0,0x00,0x10
1.799398125000000,0,0x3E,0x12
1.800227916666667,0,0x07,0x01
1.800245958333333,0,0x00,0x01
1.800264041666667,0,0x3E,0x01
1.800284666666667,0,0x30,0x01
1.800302666666667,0,0x00,0x01
1.800320750000000,0,0x80,0x01
1.800341000000000,0,0x87,0x01
1.800359041666667,0,0xFF,0x00
1.800377250000000,0,0xFF,0x3C
1.800398125000000,0,0x03,0x01
1.800416125000000,0,0x80,0x01
1.800434208333333,0,0xBE,0x01
1.801232041666667,0,0xB0,0x12
1.801250083333333,0,0xFF,0x12
1.801268291666667,0,0xFF,0x18
1.803219333333333,0,0xB0,0x12
1.803237375000000,0,0xFF,0x12
1.803255583333333,0,0xFF,0x18
1.805206791666667,0,0x90,0x12
1.805224833333333,0,0xFF,0x12
1.805243041666667,0,0xFF,0x18
1.807194541666667,0,0xB0,0x12
1.807212583333333,0,0xFF,0x12
1.807230791666667,0,0xFF,0x18
1.809181791666667,0,0x98,0x10
1.809199833333333,0,0xFF,0x02
1.809218041666667,0,0xFF,0x0C
1.811169375000000,0,0xB0,0x12
1.811187375000000,0,0xFF,0x10
1.811205583333333,0,0xFF,0x18
1.813157125000000,0,0x98,0x10
1.813175166666667,0,0xFF,0x02
1.813193375000000,0,0xFF,0x0C
1.815144375000000,0,0xF0,0x13
1.815162375000000,0,0x7F,0x1A
1.815180583333333,0,0xFF,0x18
1.817131833333333,0,0xB0,0x12
1.817149875000000,0,0xFF,0x02
1.817168083333333,0,0xFF,0x08
1.819119416666667,0,0xB0,0x12
1.819137458333333,0,0xFF,0x12
1.819155666666667,0,0xFF,0x18
1.821106750000000,0,0xF0,0x02
1.821124750000000,0,0x7F,0x12
1.821142958333333,0,0xFF,0x18
1.823094208333333,0,0xB0,0x13
1.823112208333333,0,0x7F,0x18
1.823130416666667,0,0xFF,0x18
1.825081791666667,0,0xF0,0x12
1.825099791666667,0,0x7F,0x12
1.825118000000000,0,0xFF,0x18
1.827069291666667,0,0xB0,0x13
1.827087291666667,0,0x7F,0x1A
1.827105500000000,0,0xFF,0x18
1.829057000000000,0,0xB0,0x12
1.829075041666667,0,0xFF,0x10
1.829093250000000,0,0xFF,0x18
1.831045083333333,0,0xB0,0x12
1.831063125000000,0,0xFF,0x12
1.831081333333333,0,0xFF,0x18
1.831106125000000,0,0xC7,0x12
1.831124166666667,0,0xFF,0x00
1.831142333333333,0,0xFF,0x3C
1.831162916666667,0,0x07,0x12
1.831180958333333,0,0x00,0x13
1.831199000000000,0,0x1E,0x1A
1.832028791666667,0,0x07,0x01
1.832046833333333,0,0x00,0x01
1.832064916666667,0,0x0E,0x01
1.832085500000000,0,0x1E,0x01
1.832103541666667,0,0xC0,0x01
1.832121625000000,0,0x80,0x01
1.832141833333333,0,0x07,0x01
1.832159875000000,0,0xFF,0x00
1.832178083333333,0,0xFF,0x1E
1.832198958333333,0,0x07,0x01
1.832217000000000,0,0x00,0x00
1.832235041666667,0,0x1E,0x01
1.833032416666667,0,0xF0,0x02
1.833050416666667,0,0x7F,0x12
1.833068625000000,0,0xFF,0x1C
1.835019958333333,0,0xB0,0x12
1.835038000000000,0,0xFF,0x10
1.835056208333333,0,0xFF,0x1C
1.837007541666667,0,0xB0,0x12
1.837025583333333,0,0xFF,0x12
1.837043791666667,0,0xFF,0x1C
1.838995083333333,0,0x90,0x12
1.839013125000000,0,0xFF,0x12
1.839031333333333,0,0xFF,0x1C
1.840982625000000,0,0x90,0x12
1.841000666666667,0,0xFF,0x12
1.841018875000000,0,0xFF,0x1C
1.842970250000000,0,0xB0,0x12
1.842988291666667,0,0xFF,0x13
1.843006500000000,0,0xFF,0x1C
1.844958041666667,0,0xB0,0x12
1.844976083333333,0,0xFF,0x12
1.844994291666667,0,0xFF,0x1C
1.846945458333333,0,0x98,0x1A
1.846963500000000,0,0xFF,0x12
1.846981708333333,0,0xFF,0x1C
1.848932875000000,0,0x98,0x10
1.848950916666667,0,0xFF,0x12
1.848969125000000,0,0xFF,0x1C
1.850920375000000,0,0x98,0x10
1.850938416666667,0,0xFF,0x02
1.850956625000000,0,0xFF,0x0C
1.852907958333333,0,0xF0,0x02
1.852925958333333,0,0x7F,0x12
1.852944166666667,0,0xFF,0x1C
1.854895458333333,0,0xB0,0x12
1.854913500000000,0,0xFF,0x13
1.854931708333333,0,0xFF,0x1C
1.856883208333333,0,0xB0,0x12
1.856901250000000,0,0xFF,0x02
1.856919458333333,0,0xFF,0x0C
1.858870750000000,0,0x98,0x10
1.858888791666667,0,0xFF,0x02
1.858907000000000,0,0xFF,0x0C
1.860858375000000,0,0xB0,0x13
1.860876375000000,0,0x7F,0x18
1.860894583333333,0,0xFF,0x1E
1.862845833333333,0,0x90,0x12
1.862863875000000,0,0xFF,0x12
1.862882083333333,0,0xFF,0x1C
1.862906875000000,0,0x87,0x12
1.862924916666667,0,0xFF,0x00
1.862943125000000,0,0xFF,0x9E
1.862963708333333,0,0x03,0x12
1.862981708333333,0,0x80,0x12
1.862999791666667,0,0x66,0x10
1.863829541666667,0,0x07,0x01
1.863847541666667,0,0x80,0x81
1.863865625000000,0,0x66,0x01
1.863886250000000,0,0x30,0x01
1.863904250000000,0,0x80,0x01
1.863922333333333,0,0xC0,0x01
1.863942583333333,0,0x83,0x00
1.863960583333333,0,0xFF,0x00
1.863978791666667,0,0xFF,0x66
1.863999666666667,0,0x87,0x01
1.864017708333333,0,0x00,0x01
1.864035791666667,0,0xC3,0x00
1.864833625000000,0,0xF0,0x02
1.864851625000000,0,0x7F,0x12
1.864869833333333,0,0xFF,0x0C
1.866820958333333,0,0xB0,0x12
1.866839000000000,0,0xFF,0x12
1.866857208333333,0,0xFF,0x0C
1.868808291666667,0,0xB0,0x12
1.868826333333333,0,0xFF,0x12
1.868844541666667,0,0xFF,0x0C
1.870795916666667,0,0xF0,0x12
1.870813916666667,0,0x7F,0x12
1.870832125000000,0,0xFF,0x0C
1.872783416666667,0,0xB0,0x12
1.872801416666667,0,0xFF,0x10
1.872819625000000,0,0xFF,0x06
1.874770916666667,0,0xF0,0x02
1.874788916666667,0,0x7F,0x12
1.874807125000000,0,0xFF,0x0C
1.876758583333333,0,0xF0,0x02
1.876776625000000,0,0xFF,0x12
1.876794833333333,0,0xFF,0x0C
1.878746125000000,0,0xF0,0x12
1.878764125000000,0,0x7F,0x1A
1.878782333333333,0,0xFF,0x04
1.880733750000000,0,0xB0,0x13
1.880751750000000,0,0x7F,0x12
1.880769958333333,0,0xFF,0x0C
1.882721375000000,0,0xB0,0x12
1.882739416666667,0,0xFF,0x13
1.882757625000000,0,0xFF,0x0C
1.884709208333333,0,0x90,0x12
1.884727250000000,0,0xFF,0x12
1.884745458333333,0,0xFF,0x0C
1.886696541666667,0,0x90,0x12
1.886714583333333,0,0xFF,0x12
1.886732791666667,0,0xFF,0x0C
1.888684458333333,0,0x98,0x10
1.888702500000000,0,0xFF,0x12
1.888720708333333,0,0xFF,0x0C
1.890671958333333,0,0x90,0x12
1.890690000000000,0,0xFF,0x12
1.890708208333333,0,0xFF,0x0C
1.892659666666667,0,0xB0,0x12
1.892677666666667,0,0xFF,0x10
1.892695875000000,0,0xFF,0x0E
1.894647333333333,0,0xF0,0x12
1.894665333333333,0,0x7F,0x12
1.894683541666667,0,0xFF,0x0C
1.894708375000000,0,0xC3,0x02
1.894726375000000,0,0xFF,0x00
1.894744583333333,0,0xFF,0x46
1.894765166666667,0,0x07,0x12
1.894783208333333,0,0x00,0x12
1.894801250000000,0,0x00,0x12
1.895631125000000,0,0x07,0x01
1.895649166666667,0,0x00,0x00
1.895667208333333,0,0x00,0x01
1.895687833333333,0,0x34,0x01
1.895705833333333,0,0x00,0x81
1.895723916666667,0,0x00,0x01
1.895744166666667,0,0x87,0x01
1.895762208333333,0,0xFF,0x00
1.895780416666667,0,0xFF,0x00
1.895801291666667,0,0x03,0x00
1.895819291666667,0,0x80,0x01
1.895837375000000,0,0x80,0x01
1.896635041666667,0,0xB0,0x12
1.896653083333333,0,0xFF,0x12
1.896671291666667,0,0xFF,0x00
1.898622708333333,0,0xB0,0x12
1.898640750000000,0,0xFF,0x10
1.898658958333333,0,0xFF,0x00
1.900610291666667,0,0x98,0x10
1.900628333333333,0,0xFF,0x02
1.900646541666667,0,0xFF,0x00
1.902597875000000,0,0xB0,0x12
1.902615875000000,0,0xFF,0x10
1.902634083333333,0,0xFF,0x00
1.904585375000000,0,0xF0,0x12
1.904603375000000,0,0x7F,0x12
1.904621583333333,0,0xFF,0x00
1.906572916666667,0,0x98,0x1A
1.906590958333333,0,0xFF,0x12
1.906609166666667,0,0xFF,0x00
1.908560750000000,0,0xB0,0x12
1.908578791666667,0,0xFF,0x12
1.908597000000000,0,0xFF,0x00
1.910548416666667,0,0xB0,0x12
1.910566416666667,0,0x7F,0x12
1.910584625000000,0,0xFF,0x00
1.912536083333333,0,0x98,0x10
1.912554125000000,0,0xFF,0x02
1.912572333333333,0,0xFF,0x00
1.914523833333333,0,0xB0,0x12
1.914541833333333,0,0x7F,0x12
1.914560041666667,0,0xFF,0x00
1.916511416666667,0,0x98,0x1A
1.916529458333333,0,0xFF,0x12
1.916547666666667,0,0xFF,0x00
1.918498958333333,0,0xF0,0x02
1.918516958333333,0,0x7F,0x12
1.918535166666667,0,0xFF,0x00
1.920486416666667,0,0x98,0x1A
1.920504458333333,0,0xFF,0x12
1.920522666666667,0,0xFF,0x00
1.922474250000000,0,0xB0,0x12
1.922492250000000,0,0xFF,0x10
1.922510458333333,0,0xFF,0x00
1.924461750000000,0,0xB0,0x12
1.924479791666667,0,0xFF,0x13
1.924498000000000,0,0xFF,0x00
1.926449333333333,0,0xB0,0x12
1.926467375000000,0,0xFF,0x12
1.926485583333333,0,0xFF,0x00
1.926510375000000,0,0x87,0x1A
1.926528416666667,0,0xFF,0x00
1.926546625000000,0,0xFF,0x80
1.926567166666667,0,0x87,0x12
1.926585208333333,0,0x00,0x12
1.926603291666667,0,0x38,0x02
1.927432833333333,0,0x07,0x01
1.927450875000000,0,0x00,0x01
1.927468916666667,0,0x28,0x81
1.927489541666667,0,0x34,0x01
1.927507583333333,0,0x80,0x00
1.927525625000000,0,0x00,0x01
1.927545875000000,0,0x87,0x01
1.927563916666667,0,0xFF,0x00
1.927582125000000,0,0xFF,0x3C
1.927603000000000,0,0x03,0x01
1.927621000000000,0,0x80,0x01
1.927639083333333,0,0xA0,0x01
1.928436916666667,0,0x30,0x92
1.928454958333333,0,0xFF,0x12
1.928473166666667,0,0xFF,0x10
1.930424250000000,0,0x98,0x1A
1.930442291666667,0,0xFF,0x12
1.930460500000000,0,0xFF,0x10
1.932411833333333,0,0xF0,0x12
1.932429875000000,0,0xFF,0x13
1.932448083333333,0,0xFF,0x10
1.934399291666667,0,0xB0,0x12
1.934417291666667,0,0xFF,0x10
1.934435500000000,0,0xFF,0x10
1.936386875000000,0,0xF0,0x02
1.936404875000000,0,0x7F,0x12
1.936423083333333,0,0xFF,0x10
1.938374416666667,0,0x98,0x10
1.938392458333333,0,0xFF,0x02
1.938410666666667,0,0xFF,0x10
1.940362125000000,0,0xB0,0x12
1.940380166666667,0,0xFF,0x10
1.940398375000000,0,0xFF,0x10
1.942349791666667,0,0x98,0x1A
1.942367833333333,0,0xFF,0x12
1.942386041666667,0,0xFF,0x10
1.944337416666667,0,0x98,0x1A
1.944355458333333,0,0xFF,0x12
1.944373666666667,0,0xFF,0x10
1.946324750000000,0,0xB0,0x12
1.946342791666667,0,0xFF,0x02
1.946361000000000,0,0xFF,0x00
1.948312375000000,0,0xF0,0x12
1.948330416666667,0,0xFF,0x12
1.948348625000000,0,0xFF,0x10
1.950300041666667,0,0xF0,0x02
1.950318041666667,0,0x7F,0x12
1.950336250000000,0,0xFF,0x10
1.952287750000000,0,0xB0,0x10
1.952305791666667,0,0xFF,0x02
1.952324000000000,0,0xFF,0x00
1.954275583333333,0,0xF0,0x02
1.954293583333333,0,0x7F,0x12
1.954311791666667,0,0xFF,0x10
1.956263083333333,0,0xB0,0x12
1.956281125000000,0,0xFF,0x12
1.956299333333333,0,0xFF,0x10
1.958250833333333,0,0xF0,0x02
1.958268833333333,0,0x7F,0x12
1.958287041666667,0,0xFF,0x10
1.958311875000000,0,0xC7,0x02
1.958329916666667,0,0xFF,0x00
1.958348125000000,0,0xFF,0xA8
1.958368666666667,0,0x07,0x12
1.958386708333333,0,0x00,0x12
1.958404750000000,0,0x0A,0x12
1.959234625000000,0,0x03,0x01
1.959252625000000,0,0x80,0x81
1.959270708333333,0,0x02,0x01
1.959291333333333,0,0x30,0x01
1.959309333333333,0,0x00,0x81
1.959327416666667,0,0x80,0x01
1.959347666666667,0,0x87,0x01
1.959365708333333,0,0xFF,0x00
1.959383916666667,0,0xFF,0x0E
1.959404791666667,0,0x07,0x01
1.959422833333333,0,0x00,0x01
1.959440875000000,0,0x02,0x01
1.960238833333333,0,0xB0,0x12
1.960256875000000,0,0xFF,0x12
1.960275083333333,0,0xFF,0x04
1.962226250000000,0,0xB0,0x13
1.962244250000000,0,0x7F,0x1A
1.962262458333333,0,0xFF,0x1C
1.964213875000000,0,0xB0,0x12
1.964231916666667,0,0xFF,0x13
1.964250125000000,0,0xFF,0x14
1.966201625000000,0,0xF0,0x02
1.966219625000000,0,0x7F,0x12
1.966237875000000,0,0xFF,0x14
1.968189333333333,0,0x98,0x10
1.968207375000000,0,0xFF,0x12
1.968225583333333,0,0xFF,0x14
1.970176708333333,0,0xB0,0x12
1.970194750000000,0,0xFF,0x12
1.970212958333333,0,0xFF,0x10
1.972164250000000,0,0xF0,0x02
1.972182250000000,0,0x7F,0x12
1.972200458333333,0,0xFF,0x14
1.974151791666667,0,0xB0,0x12
1.974169833333333,0,0xFF,0x02
1.974188041666667,0,0xFF,0x00
1.976139416666667,0,0xB0,0x12
1.976157458333333,0,0xFF,0x02
1.976175666666667,0,0xFF,0x04
1.978127125000000,0,0xB0,0x12
1.978145125000000,0,0xFF,0x10
1.978163333333333,0,0xFF,0x14
1.980114750000000,0,0x90,0x12
1.980132791666667,0,0xFF,0x12
1.980151000000000,0,0xFF,0x14
1.982102625000000,0,0xB0,0x12
1.982120625000000,0,0x7F,0x12
1.982138833333333,0,0xFF,0x14
1.984090083333333,0,0xF0,0x12
1.984108125000000,0,0xFF,0x13
1.984126333333333,0,0xFF,0x14
1.986077958333333,0,0x98,0x10
1.986096000000000,0,0xFF,0x02
1.986114208333333,0,0xFF,0x14
1.988065458333333,0,0xF0,0x02
1.988083500000000,0,0xFF,0x12
1.988101708333333,0,0xFF,0x14
1.990053208333333,0,0xB0,0x12
1.990071250000000,0,0xFF,0x12
1.990089458333333,0,0xFF,0x14
1.990114250000000,0,0x87,0x12
1.990132291666667,0,0xFF,0x00
1.990150500000000,0,0xFF,0x8A
1.990171041666667,0,0x87,0x12
1.990189083333333,0,0x00,0x12
1.990207166666667,0,0x32,0x12
1.991036958333333,0,0x03,0x01
1.991054958333333,0,0x80,0x01
1.991073041666667,0,0x18,0x01
1.991093666666667,0,0x30,0x01
1.991111666666667,0,0x00,0x01
1.991129750000000,0,0x80,0x01
1.991150000000000,0,0x87,0x01
1.991168041666667,0,0xFF,0x00
1.991186250000000,0,0xFF,0x33
1.991207125000000,0,0x03,0x01
1.991225125000000,0,0x80,0x01
1.991243208333333,0,0x98,0x01
1.992041083333333,0,0x98,0x10
1.992059125000000,0,0xFF,0x02
1.992077333333333,0,0xFF,0x04
1.994028625000000,0,0xB0,0x12
1.994046625000000,0,0x7F,0x12
1.994064833333333,0,0xFF,0x04
1.996016333333333,0,0xB0,0x12
1.996034375000000,0,0xFF,0x12
1.996052583333333,0,0xFF,0x06
1.998004083333333,0,0xB0,0x12
1.998022125000000,0,0xFF,0x1A
1.998040333333333,0,0xFF,0x04
1.999992083333333,0,0xB0,0x12
2.000010125000000,0,0xFF,0x02
2.000028333333333,0,0xFF,0x04
2.001980166666667,0,0x98,0x10
2.001998208333333,0,0xFF,0x12
2.002016416666667,0,0xFF,0x04
2.003968125000000,0,0xF0,0x02
2.003986166666667,0,0xFF,0x13
2.004004375000000,0,0xFF,0x04
2.005956083333333,0,0xF0,0x12
2.005974125000000,0,0xFF,0x12
2.005992333333333,0,0xFF,0x00
2.007944000000000,0,0xB0,0x12
2.007962000000000,0,0xFF,0x18
2.007980208333333,0,0xFF,0x04
2.009931791666667,0,0xB0,0x12
2.009949833333333,0,0xFF,0x1A
2.009968041666667,0,0xFF,0x04
2.011919625000000,0,0x98,0x1A
2.011937666666667,0,0xFF,0x12
2.011955875000000,0,0xFF,0x04
2.013907583333333,0,0x98,0x10
2.013925625000000,0,0xFF,0x02
2.013943833333333,0,0xFF,0x04
2.015895625000000,0,0x98,0x10
2.015913666666667,0,0xFF,0x02
2.015931875000000,0,0xFF,0x04
2.017883375000000,0,0xB0,0x12
2.017901416666667,0,0xFF,0x12
2.017919625000000,0,0xFF,0x00
2.019871333333333,0,0x98,0x10
2.019889375000000,0,0xFF,0x12
2.019907583333334,0,0xFF,0x04
2.021859208333333,0,0x98,0x1A
2.021877250000000,0,0xFF,0x12
2.021895458333333,0,0xFF,0x04
2.021920250000000,0,0x87,0x12
2.021938291666667,0,0xFF,0x00
2.021956500000000,0,0xFF,0xB0
2.021977083333333,0,0x03,0x12
2.021995083333334,0,0x80,0x12
2.022013166666667,0,0x1C,0x1A
2.022842916666667,0,0x07,0x01
2.022860958333333,0,0x00,0x01
2.022879041666667,0,0x14,0x01
2.022899625000000,0,0x34,0x81
2.022917666666667,0,0x80,0x01
2.022935750000000,0,0x80,0x01
2.022956000000000,0,0xC7,0x01
2.022974041666667,0,0xFF,0x00
2.022992250000000,0,0xFF,0x00
2.023013125000000,0,0x07,0x01
2.023031166666667,0,0x00,0x00
2.023049208333333,0,0x14,0x01
2.023847000000000,0,0x98,0x10
2.023865041666667,0,0xFF,0x12
2.023883250000000,0,0xFF,0x08
2.025834916666667,0,0x98,0x1A
2.025852958333333,0,0xFF,0x12
2.025871166666667,0,0xFF,0x08
2.027822791666666,0,0xB0,0x12
2.027840833333333,0,0xFF,0x10
2.027859041666667,0,0xFF,0x08
2.029810541666667,0,0x98,0x1A
2.029828583333333,0,0xFF,0x12
2.029846791666666,0,0xFF,0x08
2.031798333333333,0,0xF0,0x12
2.031816375000000,0,0xFF,0x13
2.031834583333334,0,0xFF,0x08
2.033786125000000,0,0xF0,0x12
2.033804125000000,0,0x7F,0x12
2.033822333333333,0,0xFF,0x08
2.035773583333333,0,0xB0,0x12
2.035791625000000,0,0xFF,0x10
2.035809833333333,0,0xFF,0x08
2.037761333333334,0,0xB0,0x12
2.037779375000000,0,0xFF,0x12
2.037797583333333,0,0xFF,0x08
2.039749041666667,0,0x98,0x1A
2.039767083333333,0,0xFF,0x12
2.039785291666667,0,0xFF,0x08
2.041737041666666,0,0x98,0x10
2.041755083333333,0,0xFF,0x12
2.041773291666667,0,0xFF,0x08
2.043724625000000,0,0xB0,0x13
2.043742625000000,0,0x7F,0x12
2.043760833333333,0,0xFF,0x08
2.045712208333333,0,0xB0,0x12
2.045730250000000,0,0xFF,0x10
2.045748458333333,0,0xFF,0x08
2.047699916666667,0,0xB0,0x12
2.047717958333333,0,0xFF,0x12
2.047736166666667,0,0xFF,0x08
2.049687625000000,0,0xB0,0x12
2.049705666666667,0,0xFF,0x10
2.049723875000000,0,0xFF,0x08
2.051675250000000,0,0x98,0x10
2.051693291666667,0,0xFF,0x02
2.051711500000000,0,0xFF,0x0C
2.053662833333334,0,0xF0,0x02
2.053680833333333,0,0x7F,0x12
2.053699041666667,0,0xFF,0x08
2.053723875000000,0,0xC3,0x13
2.053741875000000,0,0xFF,0x00
2.053760083333333,0,0xFF,0x94
2.053780666666666,0,0x07,0x02
2.053798666666667,0,0x80,0x12
2.053816750000000,0,0x1C,0x1A
2.054646625000000,0,0x07,0x01
2.054664666666667,0,0x00,0x01
2.054682750000000,0,0x3E,0x01
2.054703375000000,0,0x30,0x00
2.054721375000000,0,0x00,0x01
2.054739458333333,0,0x80,0x01
2.054759708333334,0,0xC7,0x01
2.054777750000000,0,0xFF,0x00
2.054795958333334,0,0xFF,0x3C
2.054816833333333,0,0x07,0x01
2.054834875000000,0,0x00,0x00
2.054852916666666,0,0x3C,0x01
2.055650958333333,0,0x30,0x12
2.055669000000000,0,0xFF,0x12
2.055687208333334,0,0xFF,0x18
2.057638708333333,0,0xB0,0x12
2.057656708333333,0,0x7F,0x12
2.057674916666667,0,0xFF,0x18
2.059626583333333,0,0xB0,0x12
2.059644625000000,0,0xFF,0x12
2.059662833333333,0,0xFF,0x1C
2.061614291666667,0,0xF0,0x12
2.061632291666667,0,0x7F,0x12
2.061650500000000,0,0xFF,0x18
2.063602166666667,0,0xB0,0x12
2.063620166666666,0,0xFF,0x10
2.063638375000000,0,0xFF,0x18
2.065589833333333,0,0xB0,0x12
2.065607875000000,0,0xFF,0x10
2.065626083333334,0,0xFF,0x18
2.067577541666667,0,0xB0,0x12
2.067595583333333,0,0xFF,0x10
2.067613791666667,0,0xFF,0x18
2.069565083333333,0,0xB0,0x12
2.069583125000000,0,0xFF,0x02
2.069601333333333,0,0xFF,0x1C
2.071553083333333,0,0xF0,0x12
2.071571125000000,0,0xFF,0x12
2.071589333333333,0,0xFF,0x18
2.073540916666667,0,0xB0,0x12
2.073558958333333,0,0xFF,0x10
2.073577166666666,0,0xFF,0x18
2.075528375000000,0,0xF0,0x02
2.075546416666667,0,0xFF,0x12
2.075564583333333,0,0xFF,0x18
2.077516125000000,0,0xB0,0x12
2.077534166666667,0,0xFF,0x02
2.077552375000000,0,0xFF,0x0C
2.079503708333333,0,0xF0,0x02
2.079521750000000,0,0xFF,0x12
2.079539958333333,0,0xFF,0x18
2.081491208333333,0,0xB0,0x12
2.081509250000000,0,0xFF,0x12
2.081527458333333,0,0xFF,0x18
2.083478875000000,0,0xB0,0x12
2.083496916666667,0,0xFF,0x12
2.083515125000000,0,0xFF,0x1C
2.085466708333333,0,0x98,0x1A
2.085484750000000,0,0xFF,0x12
2.085502958333334,0,0xFF,0x18
2.085527750000000,0,0x87,0x12
2.085545791666667,0,0xFF,0x00
2.085564000000000,0,0xFF,0x9C
2.085584583333334,0,0x03,0x02
2.085602583333333,0,0x80,0x12
2.085620666666667,0,0x1E,0x1A
2.086450333333334,0,0x07,0x01
2.086468375000000,0,0x00,0x01
2.086486416666667,0,0x1F,0x81
2.086507041666667,0,0x34,0x01
2.086525083333334,0,0x80,0x01
2.086543125000000,0,0x00,0x01
2.086563375000000,0,0x87,0x01
2.086581416666667,0,0xFF,0x00
2.086599625000000,0,0xFF,0x0E
2.086620500000000,0,0x07,0x01
2.086638500000000,0,0x80,0x81
2.086656583333333,0,0x1E,0x01
2.087454291666667,0,0xB0,0x13
2.087472291666667,0,0x7F,0x12
2.087490500000000,0,0xFF,0x1C
2.089442125000000,0,0xB0,0x12
2.089460125000000,0,0x7F,0x12
2.089478333333334,0,0xFF,0x1C
2.091429666666667,0,0xB0,0x12
2.091447708333333,0,0xFF,0x12
2.091465916666666,0,0xFF,0x1C
2.093417333333333,0,0x90,0x12
2.093435375000000,0,0xFF,0x12
2.093453583333333,0,0xFF,0x1E
2.095405041666667,0,0x98,0x1A
2.095423083333333,0,0xFF,0x12
2.095441291666666,0,0xFF,0x1C
2.097392625000000,0,0xB0,0x12
2.097410666666667,0,0xFF,0x12
2.097428875000000,0,0xFF,0x1C
2.099380041666667,0,0xB0,0x12
2.099398083333333,0,0xFF,0x12
2.099416291666667,0,0xFF,0x0C
2.101367666666667,0,0x90,0x12
2.101385708333333,0,0xFF,0x12
2.101403916666666,0,0xFF,0x1C
2.103355291666666,0,0xB0,0x13
2.103373291666667,0,0x7F,0x18
2.103391500000000,0,0xFF,0x1E
2.105342958333333,0,0xB0,0x13
2.105360958333333,0,0x7F,0x1A
2.105379166666667,0,0xFF,0x1C
2.107330708333333,0,0xF0,0x12
2.107348708333333,0,0x7F,0x12
2.107366916666667,0,0xFF,0x1C
2.109318250000000,0,0xF0,0x12
2.109336250000000,0,0x7F,0x12
2.109354458333333,0,0xFF,0x1C
2.111305791666667,0,0x98,0x1A
2.111323833333334,0,0xFF,0x12
2.111342041666667,0,0xFF,0x1C
2.113293333333333,0,0x98,0x18
2.113311375000000,0,0xFF,0x12
2.113329583333333,0,0xFF,0x1C
2.115281000000000,0,0x98,0x1A
2.115299041666667,0,0xFF,0x12
2.115317250000000,0,0xFF,0x1C
2.117268666666666,0,0xB0,0x12
2.117286708333333,0,0xFF,0x13
2.117304916666667,0,0xFF,0x1C
2.117329708333333,0,0xC7,0x02
2.117347708333333,0,0xFF,0x00
2.117365916666667,0,0xFF,0x1E
2.117386500000000,0,0x07,0x02
2.117404541666667,0,0x00,0x13
2.117422583333334,0,0x46,0x12
2.118252416666667,0,0x07,0x01
2.118270458333333,0,0x00,0x01
2.118288541666667,0,0x43,0x00
2.118309125000000,0,0x1E,0x01
2.118327166666667,0,0x80,0x01
2.118345250000000,0,0xC0,0x01
2.118365500000000,0,0x83,0x00
2.118383500000000,0,0xFF,0x00
2.118401708333333,0,0xFF,0x46
2.118422583333333,0,0x87,0x01
2.118440625000000,0,0x00,0x01
2.118458708333333,0,0xC6,0x01
2.119256416666667,0,0x98,0x10
2.119274458333333,0,0xFF,0x12
2.119292666666666,0,0xFF,0x0C
2.121244416666667,0,0x98,0x1A
2.121262458333333,0,0xFF,0x12
2.121280666666667,0,0xFF,0x0C
2.123232000000000,0,0x98,0x1A
2.123250041666667,0,0xFF,0x12
2.123268250000000,0,0xFF,0x0C
2.125219708333333,0,0xF0,0x02
2.125237750000000,0,0xFF,0x13
2.125255958333333,0,0xFF,0x0C
2.127207458333333,0,0x98,0x1A
2.127225500000000,0,0xFF,0x12
2.127243708333333,0,0xFF,0x0C
2.129195041666667,0,0xB0,0x12
2.129213041666667,0,0xFF,0x10
2.129231250000000,0,0xFF,0x04
2.131182333333333,0,0x90,0x10
2.131200375000000,0,0xFF,0x02
2.131218583333333,0,0xFF,0x0C
2.133169916666667,0,0xB0,0x12
2.133187916666667,0,0xFF,0x10
2.133206125000000,0,0xFF,0x0E
2.135157875000000,0,0xB0,0x12
2.135175916666667,0,0xFF,0x10
2.135194125000000,0,0xFF,0x0E
2.137145208333334,0,0x98,0x1A
2.137163250000000,0,0xFF,0x12
2.137181458333334,0,0xFF,0x0C
2.139132958333333,0,0xB0,0x12
2.139151000000000,0,0xFF,0x02
2.139169208333333,0,0xFF,0x0C
2.141120750000000,0,0xB0,0x12
2.141138791666667,0,0xFF,0x12
2.141157000000000,0,0xFF,0x0C
2.143108458333333,0,0xB0,0x12
2.143126500000000,0,0xFF,0x12
2.143144708333333,0,0xFF,0x0C
2.145096583333333,0,0xB0,0x12
2.145114625000000,0,0xFF,0x02
2.145132833333333,0,0xFF,0x0C
2.147084291666667,0,0xF0,0x02
2.147102333333333,0,0xFF,0x13
2.147120541666667,0,0xFF,0x0C
2.149072083333333,0,0xB0,0x13
2.149090125000000,0,0x7F,0x1A
2.149108333333333,0,0xFF,0x04
2.149133166666667,0,0xC3,0x12
2.149151166666667,0,0xFF,0x00
2.149169375000000,0,0xFF,0xE6
2.149189958333333,0,0x07,0x02
2.149208000000000,0,0x00,0x12
2.149226041666667,0,0x00,0x1A
2.150055666666667,0,0x07,0x01
2.150073708333333,0,0x00,0x00
2.150091750000000,0,0x00,0x01
2.150112375000000,0,0x34,0x01
2.150130416666667,0,0x80,0x01
2.150148458333333,0,0x00,0x01
2.150168708333333,0,0x87,0x01
2.150186750000000,0,0xFF,0x00
2.150204958333333,0,0xFF,0x00
2.150225833333333,0,0x07,0x01
2.150243875000000,0,0x00,0x00
2.150261916666667,0,0x00,0x01
2.151059625000000,0,0x30,0x92
2.151077666666667,0,0xFF,0x1A
2.151095875000000,0,0xFF,0x00
2.153047625000000,0,0xB0,0x12
2.153065666666667,0,0xFF,0x12
2.153083875000000,0,0xFF,0x00
2.155035250000000,0,0xF0,0x12
2.155053291666666,0,0xFF,0x13
2.155071500000000,0,0xFF,0x00
2.157023083333333,0,0xF0,0x12
2.157041125000000,0,0xFF,0x12
2.157059333333333,0,0xFF,0x00
2.159011250000000,0,0xB0,0x12
2.159029291666667,0,0xFF,0x10
2.159047500000000,0,0xFF,0x00
2.160999166666667,0,0x98,0x10
2.161017208333333,0,0xFF,0x12
2.161035416666667,0,0xFF,0x00
2.162986958333333,0,0xB0,0x12
2.163005000000000,0,0xFF,0x10
2.163023208333333,0,0xFF,0x00
2.164974625000000,0,0xB0,0x12
2.164992666666667,0,0xFF,0x10
2.165010875000000,0,0xFF,0x00
2.166962458333333,0,0xB0,0x12
2.166980500000000,0,0xFF,0x10
2.166998708333333,0,0xFF,0x00
2.168950333333334,0,0xF0,0x12
2.168968333333333,0,0x7F,0x12
2.168986541666666,0,0xFF,0x00
2.170938208333333,0,0xB0,0x13
2.170956208333333,0,0x7F,0x1A
2.170974416666667,0,0xFF,0x00
2.172925916666667,0,0xB0,0x13
2.172943916666667,0,0x7F,0x1A
2.172962125000000,0,0xFF,0x00
2.174913500000000,0,0x98,0x10
2.174931541666667,0,0xFF,0x02
2.174949750000000,0,0xFF,0x00
2.176901000000000,0,0x98,0x10
2.176919041666667,0,0xFF,0x12
2.176937250000000,0,0xFF,0x00
2.178888708333333,0,0xB0,0x12
2.178906750000000,0,0xFF,0x02
2.178924958333333,0,0xFF,0x00
2.180876291666667,0,0x90,0x12
2.180894333333333,0,0xFF,0x12
2.180912541666667,0,0xFF,0x00
2.180937333333334,0,0x87,0x1A
2.180955375000000,0,0xFF,0x00
2.180973583333333,0,0xFF,0x80
2.180994125000000,0,0x87,0x1A
2.181012166666667,0,0x00,0x12
2.181030250000000,0,0x3C,0x12
2.181860041666666,0,0x07,0x01
2.181878083333333,0,0x00,0x01
2.181896166666667,0,0x3C,0x00
2.181916750000000,0,0x1E,0x01
2.181934791666666,0,0xC0,0x01
2.181952875000000,0,0x80,0x00
2.181973083333333,0,0x07,0x81
2.181991125000000,0,0xFF,0x00
2.182009333333333,0,0xFF,0x28
2.182030208333333,0,0x07,0x01
2.182048250000000,0,0x00,0x01
2.182066333333333,0,0xBC,0x00
2.182864041666666,0,0xB0,0x12
2.182882083333333,0,0xFF,0x02
2.182900291666667,0,0xFF,0x00
2.184852041666667,0,0xB0,0x12
2.184870083333333,0,0xFF,0x10
2.184888291666667,0,0xFF,0x10
2.186839708333333,0,0xB0,0x12
2.186857750000000,0,0xFF,0x12
2.186875958333333,0,0xFF,0x10
2.188827500000000,0,0x98,0x1A
2.188845541666667,0,0xFF,0x12
2.188863750000000,0,0xFF,0x10
2.190814875000000,0,0x98,0x10
2.190832916666666,0,0xFF,0x12
2.190851125000000,0,0xFF,0x10
2.192802583333334,0,0xB0,0x12
2.192820625000000,0,0xFF,0x12
2.192838833333334,0,0xFF,0x00
2.194790208333333,0,0x90,0x12
2.194808250000000,0,0xFF,0x12
2.194826458333333,0,0xFF,0x10
2.196777916666667,0,0xF0,0x12
2.196795958333333,0,0xFF,0x13
2.196814166666667,0,0xFF,0x10
2.198765625000000,0,0x98,0x10
2.198783666666666,0,0xFF,0x12
2.198801875000000,0,0xFF,0x10
2.200752875000000,0,0xF0,0x02
2.200770875000000,0,0x7F,0x12
2.200789083333333,0,0xFF,0x10
2.202740583333333,0,0xB0,0x12
2.202758625000000,0,0xFF,0x10
2.202776833333334,0,0xFF,0x18
2.204728083333333,0,0xF0,0x12
2.204746125000000,0,0xFF,0x13
2.204764333333333,0,0xFF,0x10
2.206715791666667,0,0xB0,0x12
2.206733833333333,0,0xFF,0x02
2.206752041666667,0,0xFF,0x00
2.208703583333333,0,0xB0,0x12
2.208721625000000,0,0xFF,0x10
2.208739833333333,0,0xFF,0x18
2.210691291666667,0,0x98,0x10
2.210709333333333,0,0xFF,0x12
2.210727541666667,0,0xFF,0x10
2.212679083333333,0,0xB0,0x12
2.212697083333333,0,0xFF,0x1A
2.212715291666667,0,0xFF,0x18
2.212740125000000,0,0x83,0x13
2.212758125000000,0,0xFF,0x00
2.212776333333333,0,0xFF,0xA0
2.212796916666667,0,0x03,0x13
2.212814916666667,0,0x80,0x12
2.212833000000000,0,0x00,0x10
2.213662833333333,0,0x07,0x01
2.213680875000000,0,0x00,0x01
2.213698958333334,0,0x0F,0x00
2.213719541666667,0,0x1E,0x01
2.213737583333333,0,0xC0,0x01
2.213755666666667,0,0x80,0x00
2.213775875000000,0,0x07,0x81
2.213793916666666,0,0xFF,0x00
2.213812125000000,0,0xFF,0x0A
2.213833000000000,0,0x07,0x01
2.213851041666667,0,0x00,0x01
2.213869125000000,0,0x8F,0x00
2.214667083333334,0,0xF0,0x02
2.214685083333333,0,0x7F,0x12
2.214703291666666,0,0xFF,0x14
2.216654583333333,0,0xB0,0x12
2.216672625000000,0,0xFF,0x12
2.216690833333333,0,0xFF,0x14
2.218642333333333,0,0x98,0x10
2.218660375000000,0,0xFF,0x12
2.218678583333333,0,0xFF,0x14
2.220630250000000,0,0xB0,0x12
2.220648291666667,0,0xFF,0x02
2.220666500000000,0,0xFF,0x00
2.222617916666667,0,0xB0,0x12
2.222635958333333,0,0xFF,0x12
2.222654166666667,0,0xFF,0x14
2.224605583333333,0,0x98,0x10
2.224623625000000,0,0xFF,0x02
2.224641833333334,0,0xFF,0x04
2.226593291666667,0,0x90,0x12
2.226611333333333,0,0xFF,0x12
2.226629541666667,0,0xFF,0x14
2.228581166666667,0,0xB0,0x12
2.228599208333333,0,0xFF,0x10
2.228617416666667,0,0xFF,0x1C
2.230568791666667,0,0x98,0x12
2.230586833333333,0,0xFF,0x02
2.230605041666667,0,0xFF,0x14
2.232556458333333,0,0xF0,0x12
2.232574500000000,0,0xFF,0x13
2.232592708333333,0,0xFF,0x14
2.234544166666667,0,0xB0,0x12
2.234562208333333,0,0xFF,0x13
2.234580416666667,0,0xFF,0x14
2.236531666666667,0,0xB0,0x12
2.236549708333333,0,0xFF,0x12
2.236567916666667,0,0xFF,0x14
2.238519208333333,0,0xF0,0x02
2.238537208333333,0,0x7F,0x12
2.238555416666667,0,0xFF,0x14
2.240506791666667,0,0xB0,0x13
2.240524791666667,0,0x7F,0x1A
2.240543000000000,0,0xFF,0x1E
2.242494375000000,0,0xB0,0x12
2.242512375000000,0,0xFF,0x10
2.242530583333334,0,0xFF,0x16
2.244481875000000,0,0xB0,0x12
2.244499916666667,0,0xFF,0x02
2.244518125000000,0,0xFF,0x00
2.244542916666667,0,0x87,0x10
2.244560958333333,0,0xFF,0x00
2.244579166666667,0,0xFF,0x8A
2.244599708333333,0,0x87,0x12
2.244617750000000,0,0x00,0x10
2.244635833333333,0,0x32,0x12
2.245465458333333,0,0x07,0x01
2.245483500000000,0,0x00,0x01
2.245501541666667,0,0x1A,0x01
2.245522166666666,0,0x34,0x01
2.245540208333333,0,0x80,0x01
2.245558250000000,0,0x00,0x01
2.245578500000000,0,0x87,0x01
2.245596541666667,0,0xFF,0x00
2.245614750000000,0,0xFF,0x32
2.245635625000000,0,0x07,0x01
2.245653666666667,0,0x00,0x00
2.245671708333334,0,0x12,0x01
2.246469375000000,0,0x30,0x92
2.246487416666667,0,0xFF,0x10
2.246505625000000,0,0xFF,0x04
2.248457041666667,0,0x98,0x1A
2.248475083333333,0,0xFF,0x12
2.248493291666667,0,0xFF,0x04
2.250444833333333,0,0xF0,0x02
2.250462833333333,0,0x7F,0x12
2.250481041666667,0,0xFF,0x04
2.252432583333333,0,0xF0,0x12
2.252450583333333,0,0x7F,0x12
2.252468791666667,0,0xFF,0x04
2.254420416666667,0,0xB0,0x13
2.254438458333333,0,0x7F,0x1A
2.254456666666667,0,0xFF,0x04
2.256408250000000,0,0xF0,0x02
2.256426250000000,0,0x7F,0x12
2.256444500000000,0,0xFF,0x04
2.258395958333333,0,0xB0,0x13
2.258413958333333,0,0xFF,0x1A
2.258432166666667,0,0xFF,0x04
2.260383708333333,0,0xF0,0x12
2.260401750000000,0,0xFF,0x13
2.260419958333333,0,0xFF,0x04
2.262371625000000,0,0xF0,0x02
2.262389666666667,0,0xFF,0x13
2.262407875000000,0,0xFF,0x04
2.264359250000000,0,0xB0,0x12
2.264377291666666,0,0xFF,0x10
2.264395500000000,0,0xFF,0x06
2.266347000000000,0,0xB0,0x12
2.266365041666667,0,0xFF,0x10
2.266383250000000,0,0xFF,0x04
2.268334541666666,0,0x98,0x1A
2.268352583333333,0,0xFF,0x12
2.268370791666667,0,0xFF,0x04
2.270322416666667,0,0x90,0x12
2.270340458333334,0,0xFF,0x12
2.270358666666667,0,0xFF,0x04
2.272310083333333,0,0xF0,0x02
2.272328125000000,0,0xFF,0x13
2.272346333333333,0,0xFF,0x04
2.274297583333333,0,0xB0,0x12
2.274315625000000,0,0xFF,0x13
2.274333833333333,0,0xFF,0x04
2.276285375000000,0,0x90,0x12
2.276303416666666,0,0xFF,0x12
2.276321625000000,0,0xFF,0x04
2.276346416666667,0,0x87,0x12
2.276364458333333,0,0xFF,0x00
2.276382666666667,0,0xFF,0xB2
2.276403208333333,0,0x87,0x12
2.276421250000000,0,0x00,0x12
2.276439333333333,0,0x04,0x02
2.277268958333333,0,0x03,0x00
2.277286958333333,0,0x80,0x01
2.277305041666667,0,0x16,0x01
2.277325666666667,0,0x30,0x00
2.277343666666667,0,0x00,0x01
2.277361750000000,0,0x80,0x01
2.277382000000000,0,0xC3,0x01
2.277400000000000,0,0xFF,0x00
2.277418208333333,0,0xFF,0x1C
2.277439083333333,0,0x07,0x01
2.277457125000000,0,0x00,0x01
2.277475208333333,0,0x80,0x00
2.278272875000000,0,0xF0,0x12
2.278290875000000,0,0x7F,0x12
2.278309083333333,0,0xFF,0x08
2.280260583333333,0,0xB0,0x12
2.280278625000000,0,0xFF,0x10
2.280296833333333,0,0xFF,0x08
2.282248208333333,0,0xF0,0x13
2.282266208333333,0,0x7F,0x1A
2.282284416666667,0,0xFF,0x00
2.284235708333333,0,0xF0,0x12
2.284253750000000,0,0xFF,0x13
2.284271958333334,0,0xFF,0x08
2.286223166666667,0,0x98,0x10
2.286241208333333,0,0xFF,0x02
2.286259416666667,0,0xFF,0x08
2.288210666666667,0,0xB0,0x13
2.288228666666666,0,0x7F,0x1A
2.288246875000000,0,0xFF,0x00
2.290198000000000,0,0x90,0x12
2.290216041666667,0,0xFF,0x12
2.290234250000000,0,0xFF,0x08
2.292185791666667,0,0x98,0x1A
2.292203833333333,0,0xFF,0x12
2.292222041666667,0,0xFF,0x08
2.294173250000000,0,0xF0,0x12
2.294191250000000,0,0x7F,0x12
2.294209458333333,0,0xFF,0x08
2.296160625000000,0,0xB0,0x12
2.296178625000000,0,0xFF,0x10
2.296196833333333,0,0xFF,0x08
2.298148083333333,0,0xF0,0x02
2.298166083333333,0,0x7F,0x12
2.298184291666667,0,0xFF,0x08
2.300135583333333,0,0xB0,0x12
2.300153625000000,0,0xFF,0x10
2.300171833333333,0,0xFF,0x08
2.302123125000000,0,0xB0,0x12
2.302141166666666,0,0xFF,0x12
2.302159375000000,0,0xFF,0x08
2.304110750000000,0,0xB0,0x13
2.304128750000000,0,0x7F,0x1A
2.304146958333333,0,0xFF,0x00
2.306098500000000,0,0xF0,0x12
2.306116541666666,0,0xFF,0x12
2.306134750000000,0,0xFF,0x0C
2.308085916666667,0,0xB0,0x13
2.308103916666667,0,0x7F,0x1A
2.308122125000000,0,0xFF,0x00
2.308146958333333,0,0x83,0x13
2.308164958333333,0,0xFF,0x00
2.308183166666667,0,0xFF,0x9C
2.308203750000000,0,0x03,0x12
2.308221750000000,0,0x80,0x12
2.308239833333333,0,0x1E,0x10
2.309069666666667,0,0x03,0x01
2.309087666666667,0,0x80,0x01
2.309105750000000,0,0x1E,0x01
2.309126375000000,0,0x30,0x00
2.309144375000000,0,0x00,0x01
2.309162458333333,0,0x80,0x01
2.309182708333333,0,0xC7,0x01
2.309200750000000,0,0xFF,0x00
2.309218958333333,0,0xFF,0x3C
2.309239833333333,0,0x03,0x00
2.309257833333333,0,0x00,0x01
2.309275916666667,0,0xBE,0x01
2.310073875000000,0,0xB0,0x13
2.310091875000000,0,0x7F,0x1A
2.310110083333333,0,0xFF,0x18
2.312061166666667,0,0xB0,0x12
2.312079208333333,0,0xFF,0x12
2.312097416666667,0,0xFF,0x18
2.314048666666667,0,0x90,0x12
2.314066708333333,0,0xFF,0x12
2.314084916666667,0,0xFF,0x18
2.316036291666667,0,0xB0,0x12
2.316054333333333,0,0xFF,0x10
2.316072541666667,0,0xFF,0x18
2.318023916666667,0,0x98,0x10
2.318041958333333,0,0xFF,0x02
2.318060166666667,0,0xFF,0x08
2.320011750000000,0,0xB0,0x13
2.320029750000000,0,0x7F,0x12
2.320047958333333,0,0xFF,0x18
2.321999375000000,0,0x98,0x10
2.322017416666667,0,0xFF,0x02
2.322035625000000,0,0xFF,0x0C
2.323987041666667,0,0xB0,0x12
2.324005083333333,0,0xFF,0x10
2.324023291666667,0,0xFF,0x18
2.325974500000000,0,0x98,0x1A
2.325992541666666,0,0xFF,0x12
2.326010750000000,0,0xFF,0x18
2.327962583333334,0,0xB0,0x12
2.327980625000000,0,0xFF,0x1A
2.327998833333333,0,0xFF,0x18
2.329950083333333,0,0x98,0x1A
2.329968125000000,0,0xFF,0x12
2.329986333333333,0,0xFF,0x18
2.331937666666667,0,0xB0,0x13
2.331955666666667,0,0x7F,0x12
2.331973875000000,0,0xFF,0x18
2.333925250000000,0,0xF0,0x12
2.333943291666666,0,0xFF,0x13
2.333961500000000,0,0xFF,0x18
2.335913083333333,0,0xB0,0x12
2.335931125000000,0,0xFF,0x12
2.335949333333333,0,0xFF,0x18
2.337900500000000,0,0x98,0x1A
2.337918541666667,0,0xFF,0x12
2.337936750000000,0,0xFF,0x18
2.339888333333333,0,0xF0,0x12
2.339906375000000,0,0xFF,0x12
2.339924583333334,0,0xFF,0x18
2.339949375000000,0,0xC7,0x02
2.339967416666667,0,0xFF,0x00
2.339985625000000,0,0xFF,0xBC
2.340006166666666,0,0x07,0x12
2.340024208333333,0,0x00,0x13
2.340042250000000,0,0x1E,0x12
2.340871833333333,0,0x07,0x01
2.340889833333333,0,0x80,0x81
2.340907916666667,0,0x1E,0x01
2.340928541666667,0,0x30,0x00
2.340946541666667,0,0x00,0x01
2.340964625000000,0,0xC0,0x01
2.340984875000000,0,0xC3,0x01
2.341002875000000,0,0xFF,0x00
2.341021083333333,0,0xFF,0x1E
2.341041958333333,0,0x07,0x01
2.341060000000000,0,0x00,0x01
2.341078083333333,0,0x9F,0x01
2.341875625000000,0,0xF0,0x12
2.341893625000000,0,0x7F,0x12
2.341911833333334,0,0xFF,0x1C
2.343863250000000,0,0xB0,0x12
2.343881291666666,0,0xFF,0x10
2.343899500000000,0,0xFF,0x1E
2.345850666666667,0,0xF0,0x12
2.345868708333333,0,0xFF,0x12
2.345886916666667,0,0xFF,0x1C
2.347838375000000,0,0xB0,0x12
2.347856416666667,0,0xFF,0x02
2.347874625000000,0,0xFF,0x0C
2.349826041666667,0,0xB0,0x12
2.349844083333333,0,0xFF,0x12
2.349862291666667,0,0xFF,0x1C
2.351813583333333,0,0x90,0x12
2.351831625000000,0,0xFF,0x12
2.351849833333334,0,0xFF,0x1C
2.353801125000000,0,0xF0,0x02
2.353819125000000,0,0x7F,0x12
2.353837333333333,0,0xFF,0x1C
2.355788666666667,0,0x98,0x1A
2.355806708333333,0,0xFF,0x12
2.355824916666667,0,0xFF,0x1C
2.357776250000000,0,0xB0,0x12
2.357794291666667,0,0xFF,0x12
2.357812500000000,0,0xFF,0x1C
2.359764000000000,0,0x90,0x12
2.359782041666667,0,0xFF,0x12
2.359800250000000,0,0xFF,0x1C
2.361751500000000,0,0x98,0x1A
2.361769541666667,0,0xFF,0x12
2.361787750000000,0,0xFF,0x0C
2.363739083333333,0,0xF0,0x02
2.363757125000000,0,0xFF,0x12
2.363775333333333,0,0xFF,0x1C
2.365726750000000,0,0xF0,0x02
2.365744750000000,0,0x7F,0x12
2.365762958333333,0,0xFF,0x1C
2.367714208333333,0,0xB0,0x12
2.367732250000000,0,0xFF,0x13
2.367750458333334,0,0xFF,0x1C
2.369701750000000,0,0xB0,0x12
2.369719791666667,0,0xFF,0x13
2.369738000000000,0,0xFF,0x1C
2.371689291666667,0,0xB0,0x12
2.371707291666667,0,0x7F,0x12
2.371725500000000,0,0xFF,0x1C
2.371750333333333,0,0xC3,0x12
2.371768333333333,0,0xFF,0x00
2.371786541666667,0,0xFF,0x1E
2.371807125000000,0,0x07,0x12
2.371825166666667,0,0x00,0x13
2.371843208333333,0,0x66,0x12
2.372673041666667,0,0x03,0x00
2.372691041666667,0,0x00,0x01
2.372709125000000,0,0x46,0x01
2.372729750000000,0,0x30,0x00
2.372747750000000,0,0x00,0x01
2.372765833333333,0,0x80,0x01
2.372786083333333,0,0xC7,0x01
2.372804125000000,0,0xFF,0x00
2.372822333333333,0,0xFF,0x46
2.372843208333333,0,0x03,0x00
2.372861208333333,0,0x00,0x01
2.372879291666667,0,0xC6,0x01
2.373676958333333,0,0xB0,0x12
2.373694958333334,0,0xFF,0x10
2.373713166666667,0,0xFF,0x0C
2.375664541666667,0,0x90,0x12
2.375682583333333,0,0xFF,0x12
2.375700791666667,0,0xFF,0x0C
2.377652166666667,0,0x98,0x10
2.377670208333333,0,0xFF,0x12
2.377688416666667,0,0xFF,0x0C
2.379640041666667,0,0xB0,0x12
2.379658083333333,0,0xFF,0x12
2.379676291666667,0,0xFF,0x0C
2.381627708333333,0,0x90,0x12
2.381645750000000,0,0xFF,0x12
2.381663958333333,0,0xFF,0x0C
2.383615041666667,0,0xF0,0x12
2.383633083333333,0,0xFF,0x13
2.383651291666667,0,0xFF,0x0C
2.385602708333333,0,0x98,0x1A
2.385620750000000,0,0xFF,0x12
2.385638958333333,0,0xFF,0x0C
2.387590541666667,0,0xF0,0x12
2.387608583333333,0,0xFF,0x12
2.387626750000000,0,0xFF,0x0C
2.389577833333334,0,0xB0,0x12
2.389595875000000,0,0xFF,0x12
2.389614083333333,0,0xFF,0x0C
2.391565291666667,0,0xF0,0x02
2.391583291666667,0,0x7F,0x12
2.391601500000000,0,0xFF,0x0C
2.393553000000000,0,0x90,0x12
2.393571041666667,0,0xFF,0x02
2.393589250000000,0,0xFF,0x0C
2.395540625000000,0,0xB0,0x12
2.395558666666667,0,0xFF,0x12
2.395576875000000,0,0xFF,0x0C
2.397527916666667,0,0xF0,0x12
2.397545958333333,0,0xFF,0x13
2.397564166666667,0,0xFF,0x0C
2.399515708333333,0,0xF0,0x12
2.399533708333333,0,0x7F,0x12
2.399551916666667,0,0xFF,0x0C
2.401503583333333,0,0xB0,0x13
2.401521583333333,0,0xFF,0x12
2.401539791666667,0,0xFF,0x04
2.403491250000000,0,0xB0,0x12
2.403509291666666,0,0xFF,0x02
2.403527500000000,0,0xFF,0x0C
2.403552291666667,0,0x87,0x10
2.403570333333333,0,0xFF,0x00
2.403588541666667,0,0xFF,0xC2
2.403609083333333,0,0x07,0x1A
2.403627125000000,0,0x00,0x12
2.403645208333333,0,0x00,0x12
2.404475000000000,0,0x07,0x01
2.404493041666667,0,0x00,0x01
2.404511125000000,0,0x00,0x01
2.404531708333333,0,0x36,0x01
2.404549750000000,0,0xC0,0x01
2.404567791666667,0,0x00,0x81
2.404588041666667,0,0x07,0x01
2.404606083333333,0,0xFF,0x00
2.404624291666666,0,0xFF,0x00
2.404645166666667,0,0x07,0x01
2.404663208333333,0,0x00,0x00
2.404681250000000,0,0x00,0x01
2.405478833333333,0,0xF0,0x12
2.405496875000000,0,0xFF,0x13
2.405515083333333,0,0xFF,0x00
2.407466416666667,0,0xB0,0x12
2.407484458333333,0,0xFF,0x1A
2.407502666666667,0,0xFF,0x00
2.409454208333333,0,0xB0,0x12
2.409472250000000,0,0xFF,0x12
2.409490458333333,0,0xFF,0x00
2.411442291666666,0,0xF0,0x12
2.411460333333333,0,0xFF,0x13
2.411478541666667,0,0xFF,0x00
2.413429750000000,0,0xF0,0x12
2.413447791666667,0,0xFF,0x12
2.413466000000000,0,0xFF,0x00
2.415417708333333,0,0xF0,0x12
2.415435750000000,0,0xFF,0x12
2.415453958333333,0,0xFF,0x00
2.417405375000000,0,0x98,0x10
2.417423416666667,0,0xFF,0x12
2.417441625000000,0,0xFF,0x00
2.419393208333333,0,0xB0,0x12
2.419411208333333,0,0xFF,0x1A
2.419429416666667,0,0xFF,0x00
2.421381208333333,0,0xB0,0x12
2.421399250000000,0,0xFF,0x10
2.421417458333333,0,0xFF,0x00
2.423369083333333,0,0xB0,0x12
2.423387125000000,0,0xFF,0x12
2.423405333333333,0,0xFF,0x00
2.425356958333333,0,0xB0,0x12
2.425375000000000,0,0xFF,0x10
2.425393208333333,0,0xFF,0x00
2.427344416666667,0,0x98,0x10
2.427362458333334,0,0xFF,0x02
2.427380666666667,0,0xFF,0x00
2.429332250000000,0,0xF0,0x12
2.429350291666667,0,0xFF,0x13
2.429368500000000,0,0xFF,0x00
2.431320000000000,0,0xB0,0x13
2.431338000000000,0,0x7F,0x1A
2.431356208333333,0,0xFF,0x00
2.433307666666667,0,0x98,0x10
2.433325708333333,0,0xFF,0x12
2.433343916666667,0,0xFF,0x00
2.435295416666666,0,0xB0,0x12
2.435313458333333,0,0xFF,0x10
2.435331666666666,0,0xFF,0x00
2.435356500000000,0,0x83,0x13
2.435374500000000,0,0xFF,0x00
2.435392708333334,0,0xFF,0x80
2.435413291666667,0,0x03,0x13
2.435431291666667,0,0x80,0x1A
2.435449375000000,0,0x20,0x12
2.436279250000000,0,0x07,0x01
2.436297291666667,0,0x00,0x01
2.436315375000000,0,0x28,0x01
2.436336000000000,0,0x30,0x00
2.436354000000000,0,0x00,0x01
2.436372083333334,0,0x80,0x01
2.436392333333333,0,0x87,0x01
2.436410375000000,0,0xFF,0x00
2.436428583333333,0,0xFF,0x28
2.436449458333333,0,0x07,0x01
2.436467500000000,0,0x00,0x01
2.436485583333333,0,0xBC,0x01
2.437283375000000,0,0xF0,0x12
2.437301416666667,0,0xFF,0x13
2.437319625000000,0,0xFF,0x10
2.439271333333333,0,0xF0,0x12
2.439289375000000,0,0xFF,0x13
2.439307583333334,0,0xFF,0x10
2.441259291666667,0,0x90,0x12
2.441277333333333,0,0xFF,0x10
2.441295541666667,0,0xFF,0x18
2.443247083333334,0,0xB0,0x12
2.443265083333333,0,0xFF,0x1A
2.443283291666666,0,0xFF,0x18
2.445234875000000,0,0xF0,0x02
2.445252875000000,0,0x7F,0x12
2.445271125000000,0,0xFF,0x10
2.447222208333333,0,0x98,0x1A
2.447240250000000,0,0xFF,0x12
2.447258458333333,0,0xFF,0x10
2.449210083333333,0,0xB0,0x13
2.449228083333333,0,0x7F,0x1A
2.449246291666667,0,0xFF,0x10
2.451197833333334,0,0xB0,0x13
2.451215875000000,0,0x7F,0x1A
2.451234083333333,0,0xFF,0x18
2.453185458333333,0,0xF0,0x12
2.453203500000000,0,0xFF,0x13
2.453221708333333,0,0xFF,0x10
2.455173458333333,0,0xB0,0x12
2.455191500000000,0,0xFF,0x10
2.455209708333333,0,0xFF,0x18
2.457161583333333,0,0xF0,0x12
2.457179625000000,0,0xFF,0x12
2.457197833333333,0,0xFF,0x00
2.459149208333333,0,0x98,0x10
2.459167250000000,0,0xFF,0x12
2.459185458333333,0,0xFF,0x10
2.461137250000000,0,0xB0,0x13
2.461155291666667,0,0x7F,0x1A
2.461173500000000,0,0xFF,0x10
2.463125125000000,0,0xB0,0x13
2.463143166666667,0,0x7F,0x1A
2.463161375000000,0,0xFF,0x10
2.465113041666667,0,0x98,0x1A
2.465131083333334,0,0xFF,0x12
2.465149291666667,0,0xFF,0x10
2.467100750000000,0,0xB0,0x12
2.467118750000000,0,0x7F,0x1A
2.467136958333333,0,0xFF,0x10
2.467161791666667,0,0xC3,0x02
2.467179791666667,0,0xFF,0x00
2.467198000000000,0,0xFF,0xA8
2.467218583333334,0,0x07,0x02
2.467236625000000,0,0x00,0x13
2.467254666666667,0,0x0A,0x12
2.468084583333333,0,0x07,0x01
2.468102625000000,0,0x00,0x00
2.468120666666667,0,0x0B,0x01
2.468141291666667,0,0x36,0x01
2.468159333333333,0,0xC0,0x01
2.468177416666667,0,0x80,0x00
2.468197625000000,0,0x07,0x81
2.468215666666667,0,0xFF,0x00
2.468233875000000,0,0xFF,0x02
2.468254750000000,0,0x87,0x01
2.468272791666667,0,0x00,0x01
2.468290875000000,0,0x88,0x01
2.469088958333333,0,0xF0,0x12
2.469106958333333,0,0x7F,0x12
2.469125208333333,0,0xFF,0x14
2.471076666666667,0,0xB0,0x12
2.471094666666667,0,0xFF,0x10
2.471112875000000,0,0xFF,0x1C
2.473064791666667,0,0xB0,0x13
2.473082791666667,0,0x7F,0x12
2.473101000000000,0,0xFF,0x14
2.475052750000000,0,0xF0,0x02
2.475070791666667,0,0xFF,0x13
2.475089000000000,0,0xFF,0x14
2.477040500000000,0,0xF0,0x12
2.477058541666667,0,0xFF,0x12
2.477076750000000,0,0xFF,0x00
2.479028625000000,0,0x98,0x10
2.479046666666667,0,0xFF,0x12
2.479064875000000,0,0xFF,0x14
2.481016375000000,0,0xB0,0x12
2.481034416666667,0,0xFF,0x1A
2.481052625000000,0,0xFF,0x14
2.483004125000000,0,0xB0,0x12
2.483022166666667,0,0xFF,0x12
2.483040375000000,0,0xFF,0x04
2.484991958333334,0,0xB0,0x12
2.485010000000000,0,0xFF,0x10
2.485028208333333,0,0xFF,0x1C
2.486979833333333,0,0xB0,0x12
2.486997875000000,0,0xFF,0x12
2.487016083333333,0,0xFF,0x10
2.488967750000000,0,0x98,0x10
2.488985791666666,0,0xFF,0x12
2.489004000000000,0,0xFF,0x14
2.490955625000000,0,0xF0,0x12
2.490973666666667,0,0xFF,0x12
2.490991875000000,0,0xFF,0x10
2.492943458333333,0,0xF0,0x02
2.492961500000000,0,0xFF,0x12
2.492979666666667,0,0xFF,0x14
2.494931458333333,0,0x98,0x1A
2.494949500000000,0,0xFF,0x12
2.494967708333333,0,0xFF,0x14
2.496919166666667,0,0xB0,0x12
2.496937208333333,0,0xFF,0x12
2.496955416666667,0,0xFF,0x14
2.498906958333333,0,0xB0,0x12
2.498925000000000,0,0xFF,0x1A
2.498943208333333,0,0xFF,0x1C
2.498968041666667,0,0x83,0x12
2.498986041666666,0,0xFF,0x00
2.499004250000000,0,0xFF,0x0A
2.499024833333333,0,0x07,0x02
2.499042875000000,0,0x00,0x13
2.499060916666667,0,0x32,0x12
2.499890791666667,0,0x07,0x01
2.499908833333333,0,0x00,0x01
2.499926916666667,0,0x32,0x01
2.499947500000000,0,0x1E,0x01
2.499965541666667,0,0xC0,0x01
2.499983625000000,0,0x80,0x01
2.500003875000000,0,0x83,0x00
2.500021875000000,0,0xFF,0x00
2.500040083333333,0,0xFF,0x32
2.500060958333334,0,0x87,0x01
2.500079000000000,0,0x00,0x01
2.500097083333333,0,0xF2,0x01
2.500894541666667,0,0x30,0x12
2.500912583333333,0,0xFF,0x10
2.500930791666667,0,0xFF,0x06
2.502882541666667,0,0xB0,0x12
2.502900583333334,0,0xFF,0x10
2.502918791666667,0,0xFF,0x06
2.504870083333333,0,0x98,0x10
2.504888125000000,0,0xFF,0x02
2.504906333333333,0,0xFF,0x04
2.506857958333333,0,0x98,0x1A
2.506876000000000,0,0xFF,0x12
2.506894208333333,0,0xFF,0x04
2.508845708333333,0,0xB0,0x12
2.508863750000000,0,0xFF,0x02
2.508881958333333,0,0xFF,0x04
2.510833458333333,0,0xF0,0x12
2.510851500000000,0,0xFF,0x12
2.510869708333333,0,0xFF,0x00
2.512821250000000,0,0x98,0x10
2.512839291666667,0,0xFF,0x12
2.512857500000000,0,0xFF,0x04
2.514809000000000,0,0xF0,0x12
2.514827000000000,0,0x7F,0x12
2.514845208333333,0,0xFF,0x04
2.516797041666667,0,0xB0,0x13
2.516815041666667,0,0x7F,0x1A
2.516833250000000,0,0xFF,0x04
2.518784583333333,0,0x98,0x10
2.518802625000000,0,0xFF,0x02
2.518820833333333,0,0xFF,0x04
2.520772333333333,0,0x98,0x10
2.520790375000000,0,0xFF,0x12
2.520808583333333,0,0xFF,0x04
2.522759958333333,0,0xB0,0x12
2.522777958333333,0,0x7F,0x12
2.522796166666667,0,0xFF,0x04
2.524747625000000,0,0xB0,0x12
2.524765666666667,0,0xFF,0x12
2.524783875000000,0,0xFF,0x00
2.526735291666667,0,0xB0,0x12
2.526753333333333,0,0xFF,0x12
2.526771541666667,0,0xFF,0x04
2.528723291666667,0,0xF0,0x12
2.528741291666667,0,0x7F,0x12
2.528759500000000,0,0xFF,0x04
2.530711041666667,0,0xB0,0x12
2.530729041666667,0,0x7F,0x12
2.530747250000000,0,0xFF,0x04
2.530772083333333,0,0xC7,0x02
2.530790125000000,0,0xFF,0x00
2.530808333333333,0,0xFF,0xB3
2.530828875000000,0,0x07,0x12
2.530846916666667,0,0x00,0x12
2.530864958333333,0,0x14,0x12
2.531694833333333,0,0x07,0x01
2.531712875000000,0,0x00,0x01
2.531730916666667,0,0x14,0x81
2.531751541666666,0,0x36,0x01
2.531769583333333,0,0xC0,0x01
2.531787666666667,0,0x80,0x00
2.531807875000000,0,0x07,0x81
2.531825916666667,0,0xFF,0x00
2.531844125000000,0,0xFF,0x14
2.531865000000000,0,0x07,0x01
2.531883041666667,0,0x00,0x01
2.531901125000000,0,0x90,0x00
2.532698500000000,0,0xB0,0x12
2.532716500000000,0,0xFF,0x10
2.532734708333333,0,0xFF,0x08
2.534686166666666,0,0xF0,0x02
2.534704208333333,0,0xFF,0x12
2.534722416666667,0,0xFF,0x08
2.536673791666667,0,0xB0,0x13
2.536691791666667,0,0x7F,0x12
2.536710000000000,0,0xFF,0x08
2.538661666666667,0,0xF0,0x12
2.538679708333333,0,0xFF,0x12
2.538697916666667,0,0xFF,0x08
2.540649375000000,0,0xB0,0x12
2.540667416666667,0,0xFF,0x02
2.540685625000000,0,0xFF,0x08
2.542636875000000,0,0x90,0x12
2.542654916666667,0,0xFF,0x12
2.542673125000000,0,0xFF,0x08
2.544624750000000,0,0x90,0x12
2.544642791666667,0,0xFF,0x12
2.544661000000000,0,0xFF,0x08
2.546612541666667,0,0xF0,0x02
2.546630541666667,0,0x7F,0x12
2.546648791666667,0,0xFF,0x08
2.548600416666666,0,0x98,0x18
2.548618458333333,0,0xFF,0x12
2.548636666666667,0,0xFF,0x08
2.550587916666667,0,0xB0,0x12
2.550605958333333,0,0xFF,0x12
2.550624166666667,0,0xFF,0x0C
2.552575708333333,0,0xF0,0x12
2.552593708333333,0,0x7F,0x12
2.552611958333333,0,0xFF,0x08
2.554563666666667,0,0xB0,0x13
2.554581666666667,0,0x7F,0x1A
2.554599875000000,0,0xFF,0x00
2.556551166666666,0,0xB0,0x12
2.556569166666667,0,0x7F,0x12
2.556587375000000,0,0xFF,0x08
2.558538791666667,0,0xB0,0x13
2.558556791666667,0,0x7F,0x1A
2.558575000000000,0,0xFF,0x08
2.560526583333333,0,0xF0,0x12
2.560544583333333,0,0x7F,0x12
2.560562791666666,0,0xFF,0x08
2.562514500000000,0,0xB0,0x12
2.562532541666667,0,0xFF,0x12
2.562550750000000,0,0xFF,0x08
2.562575541666666,0,0x87,0x12
2.562593583333333,0,0xFF,0x00
2.562611791666667,0,0xFF,0x96
2.562632375000000,0,0x03,0x12
2.562650375000000,0,0x00,0x1A
2.562668458333333,0,0x3E,0x12
2.563498125000000,0,0x03,0x00
2.563516125000000,0,0x80,0x01
2.563534208333333,0,0x1E,0x01
2.563554833333333,0,0x30,0x01
2.563572833333333,0,0x00,0x81
2.563590916666667,0,0x00,0x01
2.563611166666667,0,0x87,0x01
2.563629208333333,0,0xFF,0x00
2.563647416666667,0,0xFF,0x3C
2.563668291666667,0,0x07,0x01
2.563686333333334,0,0x00,0x01
2.563704375000000,0,0x3C,0x81
2.564502125000000,0,0xB0,0x13
2.564520125000000,0,0x7F,0x1A
2.564538333333333,0,0xFF,0x18
2.566490083333334,0,0xB0,0x13
2.566508083333333,0,0x7F,0x12
2.566526291666666,0,0xFF,0x18
2.568477875000000,0,0xB0,0x12
2.568495916666667,0,0xFF,0x12
2.568514125000000,0,0xFF,0x1C
2.570465791666667,0,0xB0,0x12
2.570483833333333,0,0xFF,0x12
2.570502041666667,0,0xFF,0x1C
2.572453208333333,0,0xF0,0x12
2.572471208333333,0,0x7F,0x12
2.572489416666667,0,0xFF,0x18
2.574441166666666,0,0xB0,0x10
2.574459208333333,0,0xFF,0x02
2.574477416666667,0,0xFF,0x18
2.576429041666667,0,0xB0,0x12
2.576447083333333,0,0xFF,0x12
2.576465291666667,0,0xFF,0x0C
2.578416708333333,0,0xB0,0x12
2.578434750000000,0,0xFF,0x1A
2.578452958333334,0,0xFF,0x18
2.580404750000000,0,0xF0,0x12
2.580422791666667,0,0xFF,0x13
2.580441000000000,0,0xFF,0x18
2.582392250000000,0,0xF0,0x12
2.582410291666667,0,0xFF,0x13
2.582428500000000,0,0xFF,0x18
2.584379916666667,0,0xB0,0x12
2.584397958333333,0,0xFF,0x12
2.584416166666667,0,0xFF,0x1C
2.586367541666667,0,0xB0,0x12
2.586385541666667,0,0x7F,0x12
2.586403750000000,0,0xFF,0x18
2.588355208333333,0,0x90,0x12
2.588373250000000,0,0xFF,0x12
2.588391458333333,0,0xFF,0x18
2.590342500000000,0,0x98,0x1A
2.590360541666667,0,0xFF,0x12
2.590378750000000,0,0xFF,0x18
2.592330250000000,0,0xF0,0x12
2.592348250000000,0,0x7F,0x1A
2.592366458333333,0,0xFF,0x18
2.594317583333333,0,0xB0,0x12
2.594335625000000,0,0xFF,0x13
2.594353833333333,0,0xFF,0x18
2.594378625000000,0,0x87,0x12
2.594396666666666,0,0xFF,0x00
2.594414875000000,0,0xFF,0xBC
2.594435416666667,0,0x07,0x12
2.594453458333333,0,0x00,0x13
2.594471500000000,0,0x1E,0x12
2.595301291666666,0,0x07,0x01
2.595319333333333,0,0x00,0x00
2.595337375000000,0,0x1E,0x01
2.595358000000000,0,0x34,0x01
2.595376041666666,0,0x80,0x00
2.595394083333333,0,0x00,0x01
2.595414333333333,0,0x87,0x01
2.595432375000000,0,0xFF,0x00
2.595450583333333,0,0xFF,0x0E
2.595471458333333,0,0x07,0x01
2.595489500000000,0,0x00,0x00
2.595507541666667,0,0x1F,0x01
2.596305500000000,0,0x90,0x12
2.596323541666667,0,0xFF,0x02
2.596341750000000,0,0xFF,0x1C
2.598292875000000,0,0xB0,0x12
2.598310875000000,0,0xFF,0x1A
2.598329083333333,0,0xFF,0x1C
2.600280625000000,0,0x90,0x12
2.600298666666667,0,0xFF,0x12
2.600316875000000,0,0xFF,0x1C
2.602268166666667,0,0x98,0x10
2.602286208333333,0,0xFF,0x12
2.602304416666667,0,0xFF,0x1C
2.604255666666667,0,0xF0,0x02
2.604273666666667,0,0x7F,0x12
2.604291875000000,0,0xFF,0x1C
2.606243166666667,0,0x98,0x1A
2.606261208333333,0,0xFF,0x12
2.606279416666667,0,0xFF,0x1C
2.608230416666667,0,0xB0,0x12
2.608248458333333,0,0xFF,0x12
2.608266666666667,0,0xFF,0x1C
2.610217916666667,0,0xF0,0x12
2.610235916666667,0,0x7F,0x12
2.610254125000000,0,0xFF,0x1C
2.612205750000000,0,0xF0,0x02
2.612223750000000,0,0x7F,0x12
2.612242000000000,0,0xFF,0x1C
2.614193333333333,0,0xB0,0x12
2.614211375000000,0,0xFF,0x10
2.614229583333334,0,0xFF,0x1C
2.616180708333333,0,0xF0,0x12
2.616198750000000,0,0xFF,0x12
2.616216916666667,0,0xFF,0x1C
2.618168416666667,0,0x98,0x10
2.618186458333333,0,0xFF,0x02
2.618204666666667,0,0xFF,0x1C
2.620156125000000,0,0xB0,0x12
2.620174166666667,0,0xFF,0x12
2.620192375000000,0,0xFF,0x1C
2.622144000000000,0,0xB0,0x13
2.622162000000000,0,0x7F,0x1A
2.622180208333333,0,0xFF,0x1C
2.624131791666667,0,0x90,0x12
2.624149833333334,0,0xFF,0x12
2.624168041666667,0,0xFF,0x1C
2.626119250000000,0,0x98,0x1A
2.626137291666667,0,0xFF,0x12
2.626155500000000,0,0xFF,0x1C
2.626180291666667,0,0x87,0x12
2.626198333333333,0,0xFF,0x00
2.626216541666667,0,0xFF,0x9E
2.626237125000000,0,0x03,0x13
2.626255125000000,0,0x00,0x10
2.626273208333334,0,0x46,0x12
2.627102958333333,0,0x03,0x01
2.627120958333333,0,0x80,0x81
2.627139041666667,0,0x66,0x01
2.627159666666667,0,0x30,0x01
2.627177666666667,0,0x00,0x01
2.627195750000000,0,0x80,0x01
2.627216000000000,0,0x87,0x01
2.627234041666667,0,0xFF,0x00
2.627252250000000,0,0xFF,0x46
2.627273125000000,0,0x07,0x01
2.627291166666667,0,0x00,0x01
2.627309208333333,0,0x66,0x01
2.628106958333333,0,0xB0,0x12
2.628125000000000,0,0xFF,0x02
2.628143208333333,0,0xFF,0x0C
2.630094833333333,0,0x98,0x1A
2.630112875000000,0,0xFF,0x12
2.630131083333333,0,0xFF,0x0C
2.632082250000000,0,0xB0,0x12
2.632100291666667,0,0xFF,0x13
2.632118500000000,0,0xFF,0x0C
2.634070000000000,0,0xB0,0x12
2.634088041666667,0,0xFF,0x13
2.634106250000000,0,0xFF,0x0C
2.636057541666667,0,0xB0,0x13
2.636075541666667,0,0x7F,0x1A
2.636093750000000,0,0xFF,0x04
2.638045000000000,0,0xB0,0x12
2.638063041666667,0,0xFF,0x12
2.638081250000000,0,0xFF,0x0C
2.640032708333333,0,0x98,0x1A
2.640050750000000,0,0xFF,0x12
2.640068958333333,0,0xFF,0x0C
2.642020416666667,0,0xB0,0x12
2.642038416666667,0,0xFF,0x1A
2.642056625000000,0,0xFF,0x04
2.644008291666667,0,0xF0,0x12
2.644026291666667,0,0x7F,0x12
2.644044500000000,0,0xFF,0x0C
2.645996125000000,0,0x90,0x12
2.646014166666667,0,0xFF,0x12
2.646032375000000,0,0xFF,0x0C
2.647984041666667,0,0x98,0x10
2.648002083333334,0,0xFF,0x12
2.648020291666667,0,0xFF,0x0C
2.649972083333333,0,0xB0,0x13
2.649990083333333,0,0x7F,0x12
2.650008291666667,0,0xFF,0x0C
2.651959666666666,0,0x98,0x1A
2.651977708333333,0,0xFF,0x12
2.651995916666666,0,0xFF,0x0C
2.653947541666667,0,0xB0,0x13
2.653965541666667,0,0x7F,0x1A
2.653983750000000,0,0xFF,0x04
2.655935125000000,0,0xF0,0x12
2.655953166666666,0,0xFF,0x13
2.655971375000000,0,0xFF,0x0C
2.657923041666667,0,0xF0,0x12
2.657941041666667,0,0x7F,0x12
2.657959250000000,0,0xFF,0x0C
2.657984083333333,0,0xC3,0x02
2.658002083333333,0,0xFF,0x00
2.658020291666667,0,0xFF,0x46
2.658040875000000,0,0x07,0x02
2.658058916666667,0,0x00,0x12
2.658076958333333,0,0x00,0x1A
2.658906583333333,0,0x07,0x01
2.658924625000000,0,0x00,0x00
2.658942666666666,0,0x00,0x81
2.658963291666667,0,0x34,0x01
2.658981333333333,0,0x80,0x01
2.658999375000000,0,0x00,0x01
2.659019625000000,0,0x87,0x01
2.659037666666667,0,0xFF,0x00
2.659055875000000,0,0xFF,0x00
2.659076750000000,0,0x07,0x01
2.659094791666667,0,0x00,0x01
2.659112875000000,0,0x80,0x00
2.659910583333333,0,0xB0,0x12
2.659928625000000,0,0xFF,0x12
2.659946833333333,0,0xFF,0x00
2.661898333333333,0,0xF0,0x12
2.661916333333334,0,0x7F,0x12
2.661934541666667,0,0xFF,0x00
2.663886166666667,0,0xF0,0x02
2.663904166666667,0,0x7F,0x12
2.663922416666667,0,0xFF,0x00
2.665873916666667,0,0xF0,0x02
2.665891958333333,0,0xFF,0x13
2.665910166666666,0,0xFF,0x00
2.667861750000000,0,0xB0,0x12
2.667879791666667,0,0xFF,0x13
2.667898000000000,0,0xFF,0x00
2.669849208333333,0,0xF0,0x02
2.669867208333333,0,0x7F,0x12
2.669885416666667,0,0xFF,0x00
2.671836708333333,0,0xF0,0x02
2.671854708333333,0,0x7F,0x12
2.671872958333333,0,0xFF,0x00
2.673824333333333,0,0xB0,0x12
2.673842375000000,0,0xFF,0x13
2.673860583333334,0,0xFF,0x00
2.675811750000000,0,0xB0,0x12
2.675829750000000,0,0xFF,0x12
2.675847958333333,0,0xFF,0x00
2.677799250000000,0,0xF0,0x02
2.677817250000000,0,0x7F,0x12
2.677835458333333,0,0xFF,0x00
2.679786875000000,0,0x90,0x12
2.679804916666667,0,0xFF,0x12
2.679823125000000,0,0xFF,0x00
2.681774166666667,0,0xF0,0x12
2.681792208333333,0,0xFF,0x12
2.681810375000000,0,0xFF,0x00
2.683761625000000,0,0xF0,0x12
2.683779625000000,0,0x7F,0x12
2.683797833333333,0,0xFF,0x00
2.685749000000000,0,0xF0,0x02
2.685767000000000,0,0x7F,0x12
2.685785208333333,0,0xFF,0x00
2.687736666666667,0,0xF0,0x02
2.687754666666667,0,0x7F,0x12
2.687772875000000,0,0xFF,0x00
2.689724083333333,0,0xB0,0x12
2.689742125000000,0,0xFF,0x12
2.689760333333334,0,0xFF,0x00
2.689785125000000,0,0x87,0x12
2.689803166666667,0,0xFF,0x00
2.689821375000000,0,0xFF,0x80
2.689841916666666,0,0x07,0x12
2.689859958333333,0,0x00,0x12
2.689878000000000,0,0x28,0x12
2.690707791666667,0,0x07,0x01
2.690725833333333,0,0x00,0x01
2.690743916666666,0,0x28,0x01
2.690764500000000,0,0x34,0x81
2.690782541666667,0,0x80,0x01
2.690800625000000,0,0xC0,0x01
2.690820875000000,0,0x83,0x00
2.690838875000000,0,0xFF,0x00
2.690857083333333,0,0xFF,0x20
2.690877958333334,0,0x07,0x01
2.690896000000000,0,0x00,0x01
2.690914083333333,0,0xBC,0x00
2.691711750000000,0,0xB0,0x13
2.691729750000000,0,0x7F,0x1A
2.691747958333333,0,0xFF,0x18
2.693699125000000,0,0x98,0x1A
2.693717166666667,0,0xFF,0x12
2.693735375000000,0,0xFF,0x10
2.695686875000000,0,0xB0,0x12
2.695704916666667,0,0xFF,0x12
2.695723125000000,0,0xFF,0x10
2.697674500000000,0,0xB0,0x12
2.697692541666667,0,0xFF,0x12
2.697710750000000,0,0xFF,0x10
2.699662041666667,0,0x98,0x18
2.699680083333333,0,0xFF,0x12
2.699698291666667,0,0xFF,0x10
2.701649708333334,0,0x90,0x12
2.701667750000000,0,0xFF,0x10
2.701685958333333,0,0xFF,0x10
2.703637541666667,0,0xB0,0x12
2.703655583333333,0,0xFF,0x12
2.703673791666667,0,0xFF,0x10
2.705625166666667,0,0x98,0x1A
2.705643208333333,0,0xFF,0x12
2.705661416666667,0,0xFF,0x00
2.707612875000000,0,0x98,0x10
2.707630916666667,0,0xFF,0x02
2.707649125000000,0,0xFF,0x00
2.709600458333334,0,0xB0,0x12
2.709618500000000,0,0xFF,0x12
2.709636708333333,0,0xFF,0x10
2.711588083333333,0,0x98,0x1A
2.711606125000000,0,0xFF,0x12
2.711624333333333,0,0xFF,0x10
2.713575958333333,0,0x90,0x12
2.713594000000000,0,0xFF,0x12
2.713612208333333,0,0xFF,0x10
2.715563666666667,0,0xB0,0x12
2.715581666666667,0,0x7F,0x12
2.715599875000000,0,0xFF,0x10
2.717551083333333,0,0xB0,0x12
2.717569125000000,0,0xFF,0x13
2.717587333333333,0,0xFF,0x10
2.719538541666667,0,0xF0,0x02
2.719556541666666,0,0x7F,0x12
2.719574750000000,0,0xFF,0x10
2.721526166666667,0,0x98,0x18
2.721544208333333,0,0xFF,0x12
2.721562416666667,0,0xFF,0x10
2.721587208333333,0,0x87,0x10
2.721605250000000,0,0xFF,0x00
2.721623458333333,0,0xFF,0xBC
2.721644000000000,0,0x07,0x10
2.721662041666667,0,0x00,0x02
2.721680083333333,0,0x0B,0x12
2.722509666666667,0,0x07,0x01
2.722527708333333,0,0x00,0x01
2.722545791666667,0,0x0F,0x00
2.722566375000000,0,0x1E,0x01
2.722584416666667,0,0xC0,0x01
2.722602500000000,0,0x80,0x00
2.722622708333333,0,0x07,0x81
2.722640750000000,0,0xFF,0x00
2.722658958333333,0,0xFF,0x0A
2.722679833333333,0,0x07,0x01
2.722697875000000,0,0x00,0x00
2.722715916666667,0,0x0A,0x01
2.723513583333333,0,0xB0,0x12
2.723531625000000,0,0xFF,0x13
2.723549833333333,0,0xFF,0x14
2.725501291666667,0,0x98,0x1A
2.725519333333333,0,0xFF,0x12
2.725537541666667,0,0xFF,0x14
2.727488833333333,0,0x98,0x10
2.727506875000000,0,0xFF,0x12
2.727525083333334,0,0xFF,0x04
2.729476333333333,0,0x90,0x12
2.729494375000000,0,0xFF,0x12
2.729512583333333,0,0xFF,0x14
2.731463875000000,0,0xB0,0x13
2.731481875000000,0,0x7F,0x1A
2.731500083333333,0,0xFF,0x1C
2.733451166666667,0,0xB0,0x12
2.733469208333333,0,0xFF,0x12
2.733487416666667,0,0xFF,0x14
2.735438625000000,0,0xF0,0x12
2.735456625000000,0,0x7F,0x12
2.735474833333333,0,0xFF,0x14
2.737426166666667,0,0xB0,0x12
2.737444208333333,0,0xFF,0x13
2.737462416666667,0,0xFF,0x14
2.739413666666667,0,0xB0,0x12
2.739431708333333,0,0xFF,0x10
2.739449916666667,0,0xFF,0x14
2.741401375000000,0,0xB0,0x13
2.741419375000000,0,0x7F,0x1A
2.741437583333334,0,0xFF,0x1C
2.743388833333333,0,0xF0,0x02
2.743406833333333,0,0x7F,0x12
2.743425041666667,0,0xFF,0x14
2.745376208333334,0,0xF0,0x12
2.745394208333333,0,0x7F,0x12
2.745412416666666,0,0xFF,0x1C
2.747363458333334,0,0x98,0x1A
2.747381500000000,0,0xFF,0x12
2.747399708333333,0,0xFF,0x14
2.749351166666667,0,0x98,0x1A
2.749369208333333,0,0xFF,0x12
2.749387416666667,0,0xFF,0x14
2.751338750000000,0,0xF0,0x12
2.751356791666667,0,0xFF,0x12
2.751374958333333,0,0xFF,0x14
2.753326250000000,0,0xB0,0x12
2.753344291666667,0,0xFF,0x12
2.753362458333333,0,0xFF,0x14
2.753387291666667,0,0x83,0x13
2.753405291666667,0,0xFF,0x00
2.753423500000000,0,0xFF,0x88
2.753444083333333,0,0x07,0x12
2.753462083333333,0,0x00,0x12
2.753480166666667,0,0x32,0x02
2.754309875000000,0,0x07,0x01
2.754327916666667,0,0x00,0x01
2.754346000000000,0,0x32,0x01
2.754366583333333,0,0x1E,0x01
2.754384625000000,0,0xC0,0x01
2.754402666666667,0,0x00,0x81
2.754422916666666,0,0x07,0x01
2.754440958333333,0,0xFF,0x00
2.754459166666666,0,0xFF,0x32
2.754480041666667,0,0x03,0x01
2.754498041666666,0,0x80,0x01
2.754516125000000,0,0xB8,0x01
2.755313750000000,0,0xB0,0x13
2.755331750000000,0,0xFF,0x18
2.755349958333333,0,0xFF,0x06
2.757301000000000,0,0xF0,0x02
2.757319000000000,0,0x7F,0x12
2.757337208333333,0,0xFF,0x04
2.759288750000000,0,0xB0,0x12
2.759306791666666,0,0xFF,0x10
2.759325000000000,0,0xFF,0x06
2.761276375000000,0,0xB0,0x12
2.761294375000000,0,0xFF,0x12
2.761312583333333,0,0xFF,0x04
2.763263458333333,0,0xF0,0x02
2.763281458333333,0,0x7F,0x12
2.763299666666667,0,0xFF,0x04
2.765251041666667,0,0x98,0x1A
2.765269083333334,0,0xFF,0x12
2.765287291666667,0,0xFF,0x04
2.767238500000000,0,0xB0,0x12
2.767256541666667,0,0xFF,0x10
2.767274750000000,0,0xFF,0x04
2.769226041666667,0,0xB0,0x12
2.769244083333333,0,0xFF,0x13
2.769262291666667,0,0xFF,0x04
2.771213625000000,0,0x98,0x1A
2.771231666666667,0,0xFF,0x12
2.771249875000000,0,0xFF,0x04
2.773201208333334,0,0xB0,0x13
2.773219208333333,0,0xFF,0x10
2.773237416666666,0,0xFF,0x06
2.775188750000000,0,0xB0,0x12
2.775206791666667,0,0xFF,0x12
2.775225000000000,0,0xFF,0x04
2.777176291666667,0,0xB0,0x12
2.777194291666667,0,0xFF,0x18
2.777212500000000,0,0xFF,0x04
2.779163500000000,0,0x98,0x10
2.779181541666667,0,0xFF,0x02
2.779199750000000,0,0xFF,0x04
2.781151041666666,0,0xB0,0x13
2.781169041666667,0,0x7F,0x18
2.781187250000000,0,0xFF,0x06
2.783138500000000,0,0xB0,0x13
2.783156500000000,0,0x7F,0x1A
2.783174708333333,0,0xFF,0x04
2.785126000000000,0,0x98,0x10
2.785144041666667,0,0xFF,0x02
2.785162250000000,0,0xFF,0x04
2.785187041666667,0,0x87,0x10
2.785205083333333,0,0xFF,0x00
2.785223291666667,0,0xFF,0xF2
2.785243833333333,0,0x07,0x10
2.785261875000000,0,0x00,0x12
2.785279958333333,0,0x10,0x13
2.786109750000000,0,0x03,0x01
2.786127750000000,0,0x80,0x81
2.786145833333333,0,0x1E,0x01
2.786166458333333,0,0x30,0x00
2.786184458333334,0,0x00,0x01
2.786202541666666,0,0x80,0x01
2.786222791666667,0,0xC7,0x01
2.786240833333333,0,0xFF,0x00
2.786259041666667,0,0xFF,0x14
2.786279916666667,0,0x03,0x00
2.786297916666667,0,0x00,0x01
2.786316000000000,0,0x96,0x01
2.787113833333333,0,0xF0,0x02
2.787131833333333,0,0x7F,0x12
2.787150041666667,0,0xFF,0x08
2.789101291666667,0,0xF0,0x02
2.789119291666667,0,0x7F,0x12
2.789137500000000,0,0xFF,0x08
2.791088791666667,0,0x98,0x10
2.791106833333334,0,0xFF,0x02
2.791125041666667,0,0xFF,0x08
2.793076625000000,0,0xB0,0x12
2.793094625000000,0,0xFF,0x1A
2.793112833333333,0,0xFF,0x00
2.795064208333333,0,0x90,0x12
2.795082250000000,0,0xFF,0x12
2.795100458333333,0,0xFF,0x08
2.797051791666667,0,0xF0,0x02
2.797069833333333,0,0xFF,0x12
2.797088041666667,0,0xFF,0x08
2.799039458333333,0,0xB0,0x13
2.799057458333333,0,0x7F,0x18
2.799075666666667,0,0xFF,0x08
2.801026833333333,0,0xB0,0x13
2.801044833333334,0,0x7F,0x1A
2.801063041666667,0,0xFF,0x00
2.803014375000000,0,0xF0,0x12
2.803032375000000,0,0x7F,0x12
2.803050583333333,0,0xFF,0x08
2.805002000000000,0,0xB0,0x12
2.805020000000000,0,0xFF,0x18
2.805038208333333,0,0xFF,0x00
2.806989625000000,0,0xB0,0x12
2.807007666666667,0,0xFF,0x12
2.807025875000000,0,0xFF,0x08
2.808977458333333,0,0xB0,0x12
2.808995500000000,0,0xFF,0x12
2.809013708333334,0,0xFF,0x08
2.810965083333334,0,0xF0,0x12
2.810983125000000,0,0xFF,0x13
2.811001333333333,0,0xFF,0x08
2.812952791666667,0,0xB0,0x12
2.812970791666667,0,0xFF,0x18
2.812989000000000,0,0xFF,0x00
2.814940500000000,0,0xF0,0x12
2.814958500000000,0,0x7F,0x12
2.814976708333333,0,0xFF,0x08
2.816928166666667,0,0x98,0x1A
2.816946208333333,0,0xFF,0x12
2.816964416666667,0,0xFF,0x08
2.816989208333333,0,0x87,0x1A
2.817007250000000,0,0xFF,0x00
2.817025458333333,0,0xFF,0xD4
2.817046000000000,0,0x07,0x1A
2.817064041666667,0,0x00,0x12
2.817082125000000,0,0x3C,0x13
2.817911916666667,0,0x03,0x00
2.817929916666666,0,0x80,0x01
2.817948000000000,0,0x1E,0x01
2.817968625000000,0,0x30,0x01
2.817986625000000,0,0x00,0x01
2.818004708333333,0,0x80,0x01
2.818024958333333,0,0x87,0x01
2.818043000000000,0,0xFF,0x00
2.818061208333333,0,0xFF,0x3C
2.818082083333334,0,0x03,0x01
2.818100083333333,0,0x80,0x81
2.818118166666667,0,0x1C,0x01
2.818916125000000,0,0x18,0x1A
2.818934166666667,0,0xFF,0x12
2.818952375000000,0,0xFF,0x18
2.820903541666667,0,0xB0,0x12
2.820921583333333,0,0xFF,0x10
2.820939791666667,0,0xFF,0x18
2.822891500000000,0,0xF0,0x02
2.822909500000000,0,0x7F,0x12
2.822927708333333,0,0xFF,0x18
2.824879250000000,0,0xB0,0x13
2.824897250000000,0,0x7F,0x12
2.824915458333333,0,0xFF,0x18
2.826867166666667,0,0xB0,0x12
2.826885208333333,0,0xFF,0x02
2.826903416666667,0,0xFF,0x08
2.828854666666667,0,0xB0,0x13
2.828872666666667,0,0xFF,0x1A
2.828890875000000,0,0xFF,0x18
2.830842458333333,0,0xB0,0x12
2.830860500000000,0,0xFF,0x12
2.830878708333334,0,0xFF,0x0C
2.832830208333333,0,0xB0,0x12
2.832848208333334,0,0xFF,0x10
2.832866416666667,0,0xFF,0x18
2.834817833333333,0,0xB0,0x12
2.834835875000000,0,0xFF,0x13
2.834854083333334,0,0xFF,0x18
2.836805666666667,0,0xB0,0x12
2.836823708333333,0,0xFF,0x12
2.836841916666667,0,0xFF,0x18
2.838793291666667,0,0x98,0x1A
2.838811333333333,0,0xFF,0x12
2.838829541666667,0,0xFF,0x18
2.840781041666667,0,0xF0,0x02
2.840799041666667,0,0x7F,0x12
2.840817250000000,0,0xFF,0x18
2.842768583333333,0,0x98,0x1A
2.842786625000000,0,0xFF,0x12
2.842804833333333,0,0xFF,0x18
2.844756625000000,0,0x98,0x10
2.844774666666666,0,0xFF,0x12
2.844792875000000,0,0xFF,0x18
2.846744583333333,0,0x98,0x1A
2.846762625000000,0,0xFF,0x12
2.846780833333333,0,0xFF,0x18
2.848732541666667,0,0xB0,0x12
2.848750583333334,0,0xFF,0x12
2.848768791666667,0,0xFF,0x0C
2.848793583333333,0,0x87,0x10
2.848811625000000,0,0xFF,0x00
2.848829833333333,0,0xFF,0xBC
2.848850416666667,0,0x03,0x13
2.848868416666666,0,0x80,0x1A
2.848886500000000,0,0x1E,0x10
2.849716416666667,0,0x07,0x01
2.849734458333333,0,0x00,0x01
2.849752541666667,0,0x1F,0x01
2.849773125000000,0,0x36,0x01
2.849791166666667,0,0xC0,0x01
2.849809250000000,0,0x80,0x01
2.849829458333333,0,0x07,0x01
2.849847500000000,0,0xFF,0x00
2.849865708333333,0,0xFF,0x1E
2.849886583333333,0,0x07,0x01
2.849904625000000,0,0x00,0x01
2.849922708333333,0,0x9F,0x00
2.850720083333333,0,0x18,0x1A
2.850738125000000,0,0xFF,0x12
2.850756333333333,0,0xFF,0x1C
2.852707583333333,0,0x98,0x10
2.852725625000000,0,0xFF,0x02
2.852743833333333,0,0xFF,0x1C
2.854695208333333,0,0xB0,0x12
2.854713250000000,0,0xFF,0x12
2.854731458333333,0,0xFF,0x1C
2.856682875000000,0,0xF0,0x12
2.856700916666667,0,0xFF,0x13
2.856719125000000,0,0xFF,0x1C
2.858670458333334,0,0xB0,0x12
2.858688500000000,0,0xFF,0x12
2.858706708333334,0,0xFF,0x1E
2.860658208333333,0,0xF0,0x12
2.860676208333333,0,0x7F,0x12
2.860694416666667,0,0xFF,0x1C
2.862646041666667,0,0x98,0x1A
2.862664083333333,0,0xFF,0x12
2.862682291666667,0,0xFF,0x1C
2.864633916666667,0,0xB0,0x12
2.864651916666667,0,0xFF,0x10
2.864670125000000,0,0xFF,0x1E
2.866621708333333,0,0xB0,0x10
2.866639750000000,0,0xFF,0x02
2.866657958333333,0,0xFF,0x1C
2.868609541666667,0,0xF0,0x12
2.868627541666667,0,0x7F,0x12
2.868645750000000,0,0xFF,0x1C
2.870597083333333,0,0x98,0x10
2.870615125000000,0,0xFF,0x02
2.870633333333333,0,0xFF,0x1C
2.872584791666667,0,0x98,0x10
2.872602833333334,0,0xFF,0x12
2.872621041666667,0,0xFF,0x1C
2.874572541666667,0,0x98,0x1A
2.874590583333333,0,0xFF,0x12
2.874608791666667,0,0xFF,0x1C
2.876560291666667,0,0xB0,0x12
2.876578291666667,0,0xFF,0x10
2.876596500000000,0,0xFF,0x1E
2.878548041666666,0,0xB8,0x10
2.878566083333333,0,0xFF,0x02
2.878584291666667,0,0xFF,0x1C
2.880535833333334,0,0xB0,0x12
2.880553875000000,0,0xFF,0x12
2.880572083333333,0,0xFF,0x1C
2.880596875000000,0,0x87,0x10
2.880614916666667,0,0xFF,0x00
2.880633125000000,0,0xFF,0xCE
2.880653666666666,0,0x87,0x1A
2.880671708333333,0,0x00,0x12
2.880689791666667,0,0x06,0x02
2.881519666666667,0,0x07,0x01
2.881537708333333,0,0x00,0x01
2.881555750000000,0,0x47,0x81
2.881576375000000,0,0x36,0x01
2.881594416666667,0,0xC0,0x01
2.881612500000000,0,0x80,0x01
2.881632750000000,0,0x83,0x00
2.881650750000000,0,0xFF,0x00
2.881668958333333,0,0xFF,0x46
2.881689875000000,0,0x03,0x00
2.881707875000000,0,0x00,0x01
2.881725958333333,0,0xE6,0x01
2.882523666666667,0,0xF0,0x02
2.882541666666667,0,0x7F,0x13
2.882559916666667,0,0xFF,0x0C
2.884511291666667,0,0x98,0x10
2.884529333333334,0,0xFF,0x12
2.884547541666667,0,0xFF,0x0C
2.886499041666667,0,0xF0,0x02
2.886517041666667,0,0x7F,0x12
2.886535250000000,0,0xFF,0x0C
2.888486833333333,0,0xB0,0x12
2.888504875000000,0,0xFF,0x12
2.888523083333333,0,0xFF,0x0C
2.890474583333333,0,0xB0,0x12
2.890492625000000,0,0xFF,0x1A
2.890510833333333,0,0xFF,0x04
2.892462416666667,0,0x90,0x12
2.892480458333333,0,0xFF,0x12
2.892498666666667,0,0xFF,0x0E
2.894450250000000,0,0x98,0x10
2.894468291666667,0,0xFF,0x12
2.894486500000000,0,0xFF,0x0C
2.896438375000000,0,0xB0,0x12
2.896456416666667,0,0xFF,0x02
2.896474625000000,0,0xFF,0x0C
2.898426291666667,0,0xB0,0x12
2.898444333333333,0,0xFF,0x02
2.898462541666667,0,0xFF,0x0C
2.900413916666666,0,0xF0,0x12
2.900431958333333,0,0xFF,0x13
2.900450166666667,0,0xFF,0x0C
2.902401791666667,0,0xB0,0x10
2.902419833333334,0,0xFF,0x02
2.902438041666667,0,0xFF,0x0C
2.904389666666667,0,0xB0,0x12
2.904407708333333,0,0xFF,0x12
2.904425916666667,0,0xFF,0x0C
2.906377458333333,0,0x98,0x1A
2.906395500000000,0,0xFF,0x12
2.906413708333333,0,0xFF,0x0C
2.908365375000000,0,0xB0,0x12
2.908383416666667,0,0xFF,0x10
2.908401625000000,0,0xFF,0x04
2.910353250000000,0,0xB0,0x12
2.910371291666667,0,0xFF,0x13
2.910389500000000,0,0xFF,0x0C
2.912341125000000,0,0xB0,0x12
2.912359166666667,0,0xFF,0x12
2.912377375000000,0,0xFF,0x0C
2.912402166666667,0,0x87,0x12
2.912420208333333,0,0xFF,0x00
2.912438416666667,0,0xFF,0xC6
2.912458958333333,0,0x07,0x12
2.912477000000000,0,0x00,0x02
2.912495041666667,0,0x00,0x12
2.913325000000000,0,0x03,0x00
2.913343000000000,0,0x00,0x01
2.913361083333333,0,0x00,0x01
2.913381708333334,0,0x30,0x01
2.913399750000000,0,0x80,0x00
2.913417791666667,0,0x00,0x01
2.913438041666667,0,0x07,0x01
2.913456083333333,0,0xFF,0x00
2.913474291666667,0,0xFF,0x00
2.913495166666667,0,0x87,0x01
2.913513208333333,0,0x00,0x01
2.913531291666667,0,0xC0,0x01
2.914329000000000,0,0xF0,0x12
2.914347041666667,0,0xFF,0x13
2.914365250000000,0,0xFF,0x00
2.916316875000000,0,0xB0,0x12
2.916334916666667,0,0xFF,0x10
2.916353125000000,0,0xFF,0x00
2.918304750000000,0,0x98,0x10
2.918322791666667,0,0xFF,0x02
2.918341000000000,0,0xFF,0x00
2.920292458333333,0,0x90,0x12
2.920310500000000,0,0xFF,0x10
2.920328708333333,0,0xFF,0x00
2.922280291666667,0,0xF0,0x02
2.922298333333333,0,0xFF,0x13
2.922316541666667,0,0xFF,0x00
2.924268083333333,0,0xB0,0x12
2.924286125000000,0,0xFF,0x02
2.924304333333333,0,0xFF,0x00
2.926255958333333,0,0x90,0x12
2.926274000000000,0,0xFF,0x10
2.926292208333333,0,0xFF,0x00
2.928243833333333,0,0xB0,0x12
2.928261875000000,0,0xFF,0x13
2.928280083333333,0,0xFF,0x00
2.930231666666667,0,0xF0,0x12
2.930249708333333,0,0xFF,0x12
2.930267916666667,0,0xFF,0x00
2.932219583333334,0,0xB0,0x12
2.932237625000000,0,0xFF,0x12
2.932255833333334,0,0xFF,0x00
2.934207583333333,0,0xB0,0x13
2.934225583333333,0,0x7F,0x12
2.934243791666667,0,0xFF,0x00
2.936195541666667,0,0xB0,0x12
2.936213541666667,0,0xFF,0x10
2.936231750000000,0,0xFF,0x00
2.938183291666667,0,0xB0,0x12
2.938201333333333,0,0xFF,0x12
2.938219541666667,0,0xFF,0x00
2.940171250000000,0,0x98,0x10
2.940189291666667,0,0xFF,0x12
2.940207500000000,0,0xFF,0x00
2.942159083333333,0,0xB0,0x13
2.942177083333333,0,0x7F,0x1A
2.942195291666667,0,0xFF,0x00
2.944146708333333,0,0x98,0x10
2.944164750000000,0,0xFF,0x02
2.944182958333333,0,0xFF,0x00
2.944207750000000,0,0x87,0x12
2.944225791666667,0,0xFF,0x00
2.944244000000000,0,0xFF,0x80
2.944264541666667,0,0x07,0x12
2.944282583333333,0,0x00,0x13
2.944300625000000,0,0x00,0x1A
2.945130250000000,0,0x03,0x00
2.945148250000000,0,0x80,0x01
2.945166333333333,0,0x20,0x01
2.945186958333333,0,0x30,0x00
2.945204958333334,0,0x00,0x01
2.945223041666666,0,0x80,0x01
2.945243291666667,0,0xC3,0x01
2.945261291666667,0,0xFF,0x00
2.945279500000000,0,0xFF,0x00
2.945300375000000,0,0x87,0x01
2.945318416666667,0,0x00,0x01
2.945336500000000,0,0xFC,0x01
2.946134458333333,0,0xB0,0x13
2.946152458333333,0,0x7F,0x12
2.946170666666667,0,0xFF,0x10
2.948121833333333,0,0x90,0x12
2.948139875000000,0,0xFF,0x02
2.948158083333333,0,0xFF,0x00
2.950109583333334,0,0xF0,0x02
2.950127625000000,0,0xFF,0x12
2.950145833333333,0,0xFF,0x10
2.952097416666667,0,0xB0,0x12
2.952115458333334,0,0xFF,0x02
2.952133666666667,0,0xFF,0x00
2.954085000000000,0,0xB0,0x12
2.954103041666666,0,0xFF,0x18
2.954121250000000,0,0xFF,0x18
2.956072791666667,0,0x98,0x1A
2.956090833333333,0,0xFF,0x12
2.956109041666667,0,0xFF,0x10
2.958060541666667,0,0xF0,0x02
2.958078541666667,0,0x7F,0x12
2.958096750000000,0,0xFF,0x10
2.960048250000000,0,0xB0,0x12
2.960066291666667,0,0xFF,0x12
2.960084500000000,0,0xFF,0x10
2.962035958333333,0,0xB0,0x12
2.962054000000000,0,0xFF,0x12
2.962072208333333,0,0xFF,0x00
2.964023708333333,0,0xF0,0x12
2.964041750000000,0,0xFF,0x13
2.964059958333333,0,0xFF,0x10
2.966011500000000,0,0xF0,0x02
2.966029500000000,0,0x7F,0x12
2.966047750000000,0,0xFF,0x10
2.967999208333334,0,0xB0,0x12
2.968017250000000,0,0xFF,0x13
2.968035458333333,0,0xFF,0x10
2.969987083333333,0,0xB0,0x12
2.970005125000000,0,0xFF,0x12
2.970023333333333,0,0xFF,0x10
2.971974583333334,0,0xF0,0x02
2.971992583333333,0,0x7F,0x12
2.972010791666666,0,0xFF,0x10
2.973962125000000,0,0xF0,0x12
2.973980125000000,0,0x7F,0x12
2.973998333333333,0,0xFF,0x10
2.975949708333333,0,0x98,0x10
2.975967750000000,0,0xFF,0x02
2.975985958333333,0,0xFF,0x10
2.976010750000000,0,0x87,0x1A
2.976028791666667,0,0xFF,0x00
2.976047000000000,0,0xFF,0xA8
2.976067541666667,0,0x87,0x12
2.976085583333334,0,0x00,0x12
2.976103666666666,0,0x0A,0x02
2.976933416666667,0,0x03,0x01
2.976951416666667,0,0x80,0x01
2.976969500000000,0,0x00,0x01
2.976990125000000,0,0x30,0x00
2.977008125000000,0,0x00,0x01
2.977026208333333,0,0x80,0x01
2.977046458333333,0,0xC3,0x01
2.977064458333333,0,0xFF,0x80
2.977082666666667,0,0xFF,0x0A
2.977103541666667,0,0x87,0x01
2.977121583333334,0,0x00,0x01
2.977139666666667,0,0xCE,0x01
2.977937291666667,0,0xB0,0x13
2.977955291666667,0,0xFF,0x10
2.977973500000000,0,0xFF,0x16
2.979924791666666,0,0xB0,0x12
2.979942833333333,0,0xFF,0x12
2.979961041666667,0,0xFF,0x14
2.981912416666667,0,0x98,0x10
2.981930458333333,0,0xFF,0x12
2.981948666666667,0,0xFF,0x14
2.983900083333333,0,0xB0,0x12
2.983918125000000,0,0xFF,0x10
2.983936333333333,0,0xFF,0x16
2.985887708333333,0,0x98,0x10
2.985905750000000,0,0xFF,0x12
2.985923958333333,0,0xFF,0x14
2.987875291666667,0,0xB0,0x10
2.987893333333334,0,0xFF,0x02
2.987911541666667,0,0xFF,0x04
2.989863166666667,0,0xB0,0x13
2.989881166666667,0,0x7F,0x1A
2.989899375000000,0,0xFF,0x1E
2.991850583333334,0,0x98,0x1A
2.991868625000000,0,0xFF,0x12
2.991886833333333,0,0xFF,0x14
2.993838208333333,0,0xB0,0x12
2.993856250000000,0,0xFF,0x12
2.993874458333333,0,0xFF,0x14
2.995825875000000,0,0xB0,0x12
2.995843916666667,0,0xFF,0x10
2.995862125000000,0,0xFF,0x1C
2.997813541666666,0,0xF0,0x02
2.997831541666667,0,0x7F,0x12
2.997849750000000,0,0xFF,0x14
2.999801208333333,0,0xF0,0x12
2.999819250000000,0,0xFF,0x13
2.999837458333333,0,0xFF,0x14
3.001788791666667,0,0xB0,0x12
3.001806791666667,0,0xFF,0x10
3.001825000000000,0,0xFF,0x16
3.003776333333333,0,0xF0,0x02
3.003794333333333,0,0x7F,0x12
3.003812541666667,0,0xFF,0x14
3.005763916666667,0,0x98,0x1A
3.005781958333333,0,0xFF,0x12
3.005800166666666,0,0xFF,0x14
3.007751541666666,0,0xB0,0x12
3.007769583333333,0,0xFF,0x13
3.007787791666667,0,0xFF,0x10
3.007812583333333,0,0x87,0x12
3.007830625000000,0,0xFF,0x00
3.007848833333334,0,0xFF,0xCA
3.007869375000000,0,0x87,0x1A
3.007887416666667,0,0x00,0x12
3.007905500000000,0,0x32,0x12
3.008735291666667,0,0x07,0x01
3.008753333333333,0,0x00,0x01
3.008771375000000,0,0x33,0x81
3.008792000000000,0,0x36,0x01
3.008810041666667,0,0xC0,0x01
3.008828083333333,0,0x00,0x81
3.008848333333333,0,0x07,0x01
3.008866375000000,0,0xFF,0x00
3.008884583333333,0,0xFF,0x32
3.008905458333333,0,0x07,0x01
3.008923500000000,0,0x00,0x01
3.008941583333333,0,0xB3,0x00
3.009739500000000,0,0x18,0x18
3.009757541666667,0,0xFF,0x12
3.009775750000000,0,0xFF,0x04
3.011727041666667,0,0xB0,0x12
3.011745083333333,0,0xFF,0x02
3.011763291666667,0,0xFF,0x04
3.013714708333334,0,0xB0,0x12
3.013732750000000,0,0xFF,0x10
3.013750958333334,0,0xFF,0x06
3.015702416666667,0,0x98,0x10
3.015720458333333,0,0xFF,0x02
3.015738666666667,0,0xFF,0x00
3.017690083333334,0,0x98,0x1A
3.017708125000000,0,0xFF,0x12
3.017726333333334,0,0xFF,0x04
3.019677958333333,0,0xB0,0x12
3.019696000000000,0,0xFF,0x1A
3.019714208333333,0,0xFF,0x04
3.021665708333333,0,0xF0,0x02
3.021683708333333,0,0x7F,0x12
3.021701916666667,0,0xFF,0x04
3.023653125000000,0,0x98,0x12
3.023671166666666,0,0xFF,0x02
3.023689375000000,0,0xFF,0x04
3.025640625000000,0,0xB0,0x12
3.025658666666667,0,0xFF,0x12
3.025676875000000,0,0xFF,0x04
3.027628291666667,0,0xB0,0x12
3.027646333333333,0,0xFF,0x13
3.027664541666667,0,0xFF,0x04
3.029615791666667,0,0x98,0x10
3.029633833333333,0,0xFF,0x12
3.029652041666667,0,0xFF,0x04
3.031603416666667,0,0xF0,0x12
3.031621416666667,0,0x7F,0x12
3.031639625000000,0,0xFF,0x04
3.033590958333333,0,0xB0,0x12
3.033609000000000,0,0xFF,0x13
3.033627208333333,0,0xFF,0x04
3.035578625000000,0,0xF0,0x12
3.035596666666667,0,0xFF,0x12
3.035614875000000,0,0xFF,0x04
3.037566166666667,0,0xF0,0x12
3.037584208333334,0,0xFF,0x12
3.037602375000000,0,0xFF,0x04
3.039553625000000,0,0xB0,0x12
3.039571666666667,0,0xFF,0x13
3.039589875000000,0,0xFF,0x04
3.039614666666667,0,0xC7,0x12
3.039632708333333,0,0xFF,0x00
3.039650916666667,0,0xFF,0xB2
3.039671458333333,0,0x07,0x12
3.039689500000000,0,0x00,0x12
3.039707541666667,0,0x1C,0x1A
3.040537250000000,0,0x07,0x01
3.040555291666667,0,0x00,0x01
3.040573333333333,0,0x14,0x81
3.040593958333333,0,0x34,0x01
3.040612000000000,0,0x80,0x01
3.040630041666667,0,0x00,0x01
3.040650291666667,0,0x87,0x01
3.040668333333334,0,0xFF,0x00
3.040686541666667,0,0xFF,0x10
3.040707416666667,0,0x03,0x01
3.040725416666667,0,0x80,0x01
3.040743500000000,0,0x96,0x01
3.041541333333333,0,0xF0,0x12
3.041559375000000,0,0xFF,0x13
3.041577583333333,0,0xFF,0x08
3.043528666666667,0,0x98,0x1A
3.043546708333333,0,0xFF,0x12
3.043564916666667,0,0xFF,0x08
3.045516208333333,0,0xF0,0x02
3.045534208333333,0,0x7F,0x12
3.045552416666667,0,0xFF,0x08
3.047503791666667,0,0x98,0x1A
3.047521833333333,0,0xFF,0x12
3.047540041666667,0,0xFF,0x08
3.049491500000000,0,0xB0,0x12
3.049509541666667,0,0xFF,0x12
3.049527750000000,0,0xFF,0x0C
3.051479250000000,0,0xB0,0x12
3.051497291666667,0,0xFF,0x10
3.051515500000000,0,0xFF,0x08
3.053467083333333,0,0xB0,0x12
3.053485125000000,0,0xFF,0x10
3.053503333333333,0,0xFF,0x08
3.055454875000000,0,0xF0,0x12
3.055472916666667,0,0xFF,0x13
3.055491125000000,0,0xFF,0x0C
3.057442708333333,0,0x98,0x10
3.057460750000000,0,0xFF,0x02
3.057478958333333,0,0xFF,0x08
3.059430458333333,0,0x90,0x12
3.059448500000000,0,0xFF,0x10
3.059466708333333,0,0xFF,0x08
3.061418083333333,0,0x98,0x10
3.061436125000000,0,0xFF,0x12
3.061454333333333,0,0xFF,0x08
3.063405750000000,0,0xB0,0x13
3.063423750000000,0,0xFF,0x1A
3.063441958333333,0,0xFF,0x00
3.065393333333333,0,0xF0,0x12
3.065411333333333,0,0x7F,0x12
3.065429541666667,0,0xFF,0x08
3.067380916666667,0,0xB0,0x13
3.067398916666667,0,0x7F,0x1A
3.067417125000000,0,0xFF,0x00
3.069368583333334,0,0xB0,0x12
3.069386625000000,0,0xFF,0x02
3.069404833333333,0,0xFF,0x08
3.071356208333333,0,0xF0,0x12
3.071374250000000,0,0xFF,0x12
3.071392416666667,0,0xFF,0x08
3.071417250000000,0,0xC7,0x02
3.071435291666667,0,0xFF,0x00
3.071453500000000,0,0xFF,0x94
3.071474041666667,0,0x07,0x12
3.071492083333333,0,0x00,0x12
3.071510125000000,0,0x3C,0x12
3.072339708333333,0,0x07,0x01
3.072357750000000,0,0x00,0x01
3.072375833333334,0,0x3C,0x01
3.072396416666667,0,0x1E,0x01
3.072414458333333,0,0xC0,0x01
3.072432541666667,0,0x80,0x00
3.072452750000000,0,0x07,0x81
3.072470791666666,0,0xFF,0x00
3.072489000000000,0,0xFF,0x3C
3.072509875000000,0,0x07,0x01
3.072527916666667,0,0x00,0x00
3.072545958333333,0,0x1C,0x01
3.073343583333333,0,0x98,0x10
3.073361625000000,0,0xFF,0x02
3.073379833333334,0,0xFF,0x08
3.075331333333333,0,0x98,0x10
3.075349375000000,0,0xFF,0x12
3.075367583333333,0,0xFF,0x18
3.077318916666667,0,0x98,0x10
3.077336958333333,0,0xFF,0x02
3.077355166666667,0,0xFF,0x0C
3.079306458333333,0,0xB0,0x12
3.079324500000000,0,0xFF,0x10
3.079342708333333,0,0xFF,0x18
3.081294208333333,0,0xB8,0x10
3.081312250000000,0,0xFF,0x02
3.081330458333333,0,0xFF,0x18
3.083282041666667,0,0xF0,0x02
3.083300041666666,0,0x7F,0x12
3.083318250000000,0,0xFF,0x18
3.085269625000000,0,0xB0,0x12
3.085287666666667,0,0xFF,0x10
3.085305875000000,0,0xFF,0x18
3.087257291666667,0,0xF0,0x12
3.087275291666667,0,0x7F,0x12
3.087293500000000,0,0xFF,0x18
3.089244916666666,0,0x98,0x10
3.089262958333333,0,0xFF,0x02
3.089281166666667,0,0xFF,0x0C
3.091232583333333,0,0xB0,0x12
3.091250625000000,0,0xFF,0x13
3.091268833333333,0,0xFF,0x18
3.093220208333333,0,0xB8,0x10
3.093238250000000,0,0xFF,0x12
3.093256458333333,0,0xFF,0x18
3.095207791666667,0,0xB0,0x12
3.095225791666667,0,0xFF,0x10
3.095244000000000,0,0xFF,0x18
3.097195458333333,0,0x98,0x10
3.097213500000000,0,0xFF,0x02
3.097231708333333,0,0xFF,0x18
3.099183000000000,0,0xB0,0x12
3.099201041666667,0,0xFF,0x13
3.099219250000000,0,0xFF,0x18
3.101170375000000,0,0xF0,0x12
3.101188375000000,0,0x7F,0x1A
3.101206583333334,0,0xFF,0x18
3.103157875000000,0,0xB0,0x12
3.103175916666667,0,0xFF,0x12
3.103194125000000,0,0xFF,0x1C
3.103218916666667,0,0x87,0x12
3.103236958333333,0,0xFF,0x00
3.103255166666667,0,0xFF,0xBC
3.103275708333333,0,0x07,0x12
3.103293750000000,0,0x00,0x12
3.103311791666667,0,0x1E,0x12
3.104141500000000,0,0x07,0x01
3.104159500000000,0,0x00,0x01
3.104177583333333,0,0x0E,0x01
3.104198166666666,0,0x1E,0x01
3.104216208333333,0,0xC0,0x01
3.104234250000000,0,0x00,0x81
3.104254500000000,0,0x07,0x01
3.104272541666667,0,0xFF,0x00
3.104290750000000,0,0xFF,0x0E
3.104311625000000,0,0x03,0x01
3.104329625000000,0,0x80,0x01
3.104347708333334,0,0x9E,0x01
3.105145583333333,0,0xF0,0x02
3.105163583333333,0,0x7F,0x12
3.105181791666667,0,0xFF,0x1C
3.107132750000000,0,0xB0,0x12
3.107150791666667,0,0xFF,0x12
3.107169000000000,0,0xFF,0x1C
3.109120166666667,0,0xB0,0x12
3.109138208333333,0,0xFF,0x13
3.109156416666667,0,0xFF,0x1C
3.111107666666667,0,0x98,0x1A
3.111125708333333,0,0xFF,0x12
3.111143916666667,0,0xFF,0x1C
3.113095125000000,0,0xB8,0x10
3.113113166666666,0,0xFF,0x02
3.113131375000000,0,0xFF,0x0C
3.115082666666667,0,0xB0,0x13
3.115100666666667,0,0x7F,0x1A
3.115118875000000,0,0xFF,0x1C
3.117070250000000,0,0xB0,0x12
3.117088291666667,0,0xFF,0x10
3.117106500000000,0,0xFF,0x1E
3.119057750000000,0,0xB0,0x12
3.119075791666666,0,0xFF,0x12
3.119094000000000,0,0xFF,0x1C
3.121045375000000,0,0x90,0x12
3.121063416666667,0,0xFF,0x12
3.121081625000000,0,0xFF,0x1C
3.123033166666667,0,0x98,0x1A
3.123051208333333,0,0xFF,0x12
3.123069416666667,0,0xFF,0x1C
3.125020791666667,0,0xB0,0x12
3.125038833333333,0,0xFF,0x13
3.125057041666667,0,0xFF,0x1C
3.127008500000000,0,0xF0,0x02
3.127026541666666,0,0xFF,0x12
3.127044708333333,0,0xFF,0x1C
3.128996250000000,0,0xB0,0x12
3.129014250000000,0,0x7F,0x12
3.129032458333334,0,0xFF,0x1C
3.130983791666667,0,0xF0,0x02
3.131001833333333,0,0xFF,0x12
3.131020041666666,0,0xFF,0x1C
3.132971416666666,0,0xB0,0x12
3.132989458333333,0,0xFF,0x12
3.133007666666667,0,0xFF,0x1C
3.134959166666667,0,0xF0,0x02
3.134977166666667,0,0x7F,0x12
3.134995375000000,0,0xFF,0x1C
3.135020208333333,0,0xC7,0x02
3.135038208333333,0,0xFF,0x00
3.135056458333333,0,0xFF,0x9E
3.135077000000000,0,0x07,0x12
3.135095041666667,0,0x00,0x12
3.135113083333333,0,0x46,0x12
3.135942958333333,0,0x03,0x00
3.135960958333333,0,0x80,0x01
3.135979041666667,0,0x66,0x01
3.135999666666667,0,0x30,0x01
3.136017666666667,0,0x00,0x01
3.136035750000000,0,0x80,0x01
3.136056000000000,0,0x87,0x01
3.136074041666667,0,0xFF,0x00
3.136092250000000,0,0xFF,0x42
3.136113125000000,0,0x07,0x01
3.136131125000000,0,0x80,0x81
3.136149208333333,0,0x66,0x01
3.136947083333333,0,0xF0,0x12
3.136965125000000,0,0xFF,0x13
3.136983333333333,0,0xFF,0x0C
3.138934625000000,0,0xF0,0x02
3.138952625000000,0,0x7F,0x12
3.138970833333333,0,0xFF,0x0C
3.140922458333333,0,0xF0,0x12
3.140940500000000,0,0xFF,0x13
3.140958708333333,0,0xFF,0x0C
3.142910291666666,0,0xF0,0x02
3.142928291666667,0,0x7F,0x12
3.142946500000000,0,0xFF,0x0C
3.144898291666667,0,0xB0,0x13
3.144916291666667,0,0x7F,0x12
3.144934500000000,0,0xFF,0x0C
3.146886083333333,0,0x98,0x10
3.146904125000000,0,0xFF,0x12
3.146922333333333,0,0xFF,0x0C
3.148873791666666,0,0xB0,0x12
3.148891791666667,0,0x7F,0x12
3.148910041666667,0,0xFF,0x0C
3.150861625000000,0,0xB0,0x12
3.150879666666667,0,0xFF,0x12
3.150897875000000,0,0xFF,0x0C
3.152849416666667,0,0xB0,0x12
3.152867458333333,0,0xFF,0x10
3.152885666666667,0,0xFF,0x0E
3.154837291666666,0,0xB0,0x12
3.154855333333333,0,0xFF,0x12
3.154873541666666,0,0xFF,0x0C
3.156825125000000,0,0x90,0x12
3.156843166666667,0,0xFF,0x12
3.156861375000000,0,0xFF,0x0C
3.158812916666667,0,0xB0,0x12
3.158830958333333,0,0xFF,0x10
3.158849166666667,0,0xFF,0x04
3.160800916666667,0,0xF0,0x12
3.160818916666666,0,0x7F,0x12
3.160837125000000,0,0xFF,0x0C
3.162788750000000,0,0xB0,0x12
3.162806791666667,0,0xFF,0x02
3.162825000000000,0,0xFF,0x0C
3.164776541666667,0,0xB8,0x10
3.164794583333333,0,0xFF,0x02
3.164812791666667,0,0xFF,0x0C
3.166764375000000,0,0xB0,0x12
3.166782416666666,0,0xFF,0x12
3.166800625000000,0,0xFF,0x04
3.166825458333333,0,0x83,0x12
3.166843458333333,0,0xFF,0x00
3.166861666666667,0,0xFF,0x46
3.166882250000000,0,0x07,0x12
3.166900291666667,0,0x00,0x12
3.166918333333333,0,0x00,0x12
3.167748208333333,0,0x07,0x01
3.167766250000000,0,0x00,0x01
3.167784333333334,0,0x00,0x01
3.167804916666667,0,0x1C,0x01
3.167822958333333,0,0xC0,0x01
3.167841041666667,0,0x80,0x01
3.167861291666667,0,0x87,0x01
3.167879291666666,0,0xFF,0x00
3.167897500000000,0,0xFF,0x00
3.167918375000000,0,0x87,0x01
3.167936416666667,0,0x00,0x01
3.167954500000000,0,0x80,0x01
3.168752416666667,0,0x18,0x1A
3.168770458333333,0,0xFF,0x12
3.168788666666666,0,0xFF,0x00
3.170740166666667,0,0xB0,0x13
3.170758166666667,0,0x7F,0x12
3.170776375000000,0,0xFF,0x00
3.172728291666667,0,0xB0,0x12
3.172746333333333,0,0xFF,0x12
3.172764541666667,0,0xFF,0x00
3.174715833333333,0,0x98,0x1A
3.174733875000000,0,0xFF,0x12
3.174752083333333,0,0xFF,0x00
3.176703791666667,0,0x98,0x1A
3.176721833333333,0,0xFF,0x12
3.176740041666667,0,0xFF,0x00
3.178691333333334,0,0xB0,0x12
3.178709375000000,0,0xFF,0x12
3.178727583333333,0,0xFF,0x00
3.180679125000000,0,0xB0,0x12
3.180697166666667,0,0xFF,0x02
3.180715375000000,0,0xFF,0x00
3.182666958333333,0,0x98,0x10
3.182685000000000,0,0xFF,0x02
3.182703208333333,0,0xFF,0x00
3.184654750000000,0,0xF0,0x02
3.184672791666667,0,0xFF,0x12
3.184691000000000,0,0xFF,0x00
3.186642583333333,0,0xB0,0x13
3.186660583333333,0,0x7F,0x12
3.186678791666667,0,0xFF,0x00
3.188630333333333,0,0xB0,0x12
3.188648375000000,0,0xFF,0x10
3.188666583333333,0,0xFF,0x00
3.190618333333333,0,0xB0,0x12
3.190636375000000,0,0xFF,0x12
3.190654583333334,0,0xFF,0x00
3.192606083333333,0,0xF0,0x02
3.192624125000000,0,0xFF,0x13
3.192642333333333,0,0xFF,0x00
3.194593750000000,0,0xF0,0x12
3.194611750000000,0,0x7F,0x12
3.194629958333334,0,0xFF,0x00
3.196581375000000,0,0xB0,0x12
3.196599375000000,0,0x7F,0x12
3.196617583333333,0,0xFF,0x00
3.198569041666667,0,0xB0,0x13
3.198587041666667,0,0x7F,0x12
3.198605250000000,0,0xFF,0x00
3.198630083333333,0,0xC3,0x02
3.198648083333334,0,0xFF,0x00
3.198666291666667,0,0xFF,0x00
3.198686875000000,0,0x07,0x12
3.198704916666667,0,0x00,0x13
3.198722958333333,0,0x08,0x12
3.199552833333333,0,0x03,0x00
3.199570833333333,0,0x80,0x01
3.199588916666666,0,0x00,0x01
3.199609541666667,0,0x30,0x00
3.199627541666667,0,0x00,0x01
3.199645625000000,0,0x80,0x01
3.199665875000000,0,0x87,0x01
3.199683916666667,0,0xFF,0x00
3.199702125000000,0,0xFF,0x2C
3.199723000000000,0,0x03,0x01
3.199741000000000,0,0x80,0x81
3.199759083333333,0,0x00,0x01
3.200556958333333,0,0x18,0x1A
3.200575000000000,0,0xFF,0x12
3.200593208333333,0,0xFF,0x10
3.202544625000000,0,0xB0,0x13
3.202562625000000,0,0xFF,0x1A
3.202580833333333,0,0xFF,0x18
3.204532375000000,0,0x98,0x1A
3.204550416666667,0,0xFF,0x12
3.204568625000000,0,0xFF,0x10
3.206520166666667,0,0xF0,0x12
3.206538208333333,0,0xFF,0x12
3.206556416666666,0,0xFF,0x00
3.208508000000000,0,0xF0,0x12
3.208526041666667,0,0xFF,0x13
3.208544250000000,0,0xFF,0x10
3.210495708333333,0,0x98,0x1A
3.210513750000000,0,0xFF,0x12
3.210531958333333,0,0xFF,0x10
3.212483458333333,0,0xF0,0x02
3.212501500000000,0,0xFF,0x13
3.212519708333333,0,0xFF,0x10
3.214471291666666,0,0xB0,0x12
3.214489333333333,0,0xFF,0x02
3.214507541666667,0,0xFF,0x00
3.216459125000000,0,0x90,0x12
3.216477166666666,0,0xFF,0x12
3.216495375000000,0,0xFF,0x10
3.218446958333333,0,0xF0,0x12
3.218465000000000,0,0xFF,0x13
3.218483208333333,0,0xFF,0x10
3.220434791666666,0,0xB0,0x12
3.220452833333333,0,0xFF,0x10
3.220471041666667,0,0xFF,0x18
3.222422708333333,0,0x98,0x1A
3.222440750000000,0,0xFF,0x12
3.222458958333333,0,0xFF,0x10
3.224410666666667,0,0x98,0x10
3.224428708333333,0,0xFF,0x12
3.224446916666666,0,0xFF,0x10
3.226398625000000,0,0x98,0x10
3.226416666666667,0,0xFF,0x12
3.226434875000000,0,0xFF,0x10
3.228386416666666,0,0xB0,0x12
3.228404458333333,0,0xFF,0x1A
3.228422666666667,0,0xFF,0x10
3.230374375000000,0,0xF0,0x02
3.230392416666667,0,0xFF,0x12
3.230410625000000,0,0xFF,0x10
3.230435416666666,0,0xC7,0x12
3.230453458333333,0,0xFF,0x00
3.230471666666667,0,0xFF,0xA8
3.230492208333333,0,0x07,0x10
3.230510250000000,0,0x00,0x02
3.230528333333333,0,0x0F,0x13
3.231358208333333,0,0x07,0x01
3.231376250000000,0,0x00,0x00
3.231394291666667,0,0x0B,0x01
3.231414916666667,0,0x36,0x01
3.231432958333333,0,0xC0,0x01
3.231451041666667,0,0x80,0x00
3.231471250000000,0,0x07,0x81
3.231489291666667,0,0xFF,0x00
3.231507500000000,0,0xFF,0x02
3.231528375000000,0,0x87,0x01
3.231546416666667,0,0x00,0x01
3.231564500000000,0,0xCA,0x01
3.232362541666667,0,0x10,0x12
3.232380583333333,0,0xFF,0x10
3.232398791666667,0,0xFF,0x16
3.234350125000000,0,0xB8,0x10
3.234368166666667,0,0xFF,0x12
3.234386375000000,0,0xFF,0x14
3.236338000000000,0,0xF0,0x12
3.236356041666667,0,0xFF,0x13
3.236374250000000,0,0xFF,0x10
3.238325750000000,0,0xF0,0x12
3.238343791666667,0,0xFF,0x13
3.238362000000000,0,0xFF,0x14
3.240313458333334,0,0x98,0x1A
3.240331500000000,0,0xFF,0x12
3.240349708333333,0,0xFF,0x14
3.242301250000000,0,0x98,0x10
3.242319291666667,0,0xFF,0x12
3.242337500000000,0,0xFF,0x14
3.244289041666667,0,0xB0,0x12
3.244307083333333,0,0xFF,0x10
3.244325291666667,0,0xFF,0x16
3.246276875000000,0,0x98,0x10
3.246294916666667,0,0xFF,0x12
3.246313125000000,0,0xFF,0x04
3.248264833333333,0,0xB0,0x12
3.248282875000000,0,0xFF,0x12
3.248301083333333,0,0xFF,0x10
3.250252666666666,0,0xF0,0x12
3.250270708333333,0,0xFF,0x12
3.250288916666667,0,0xFF,0x00
3.252240500000000,0,0xB0,0x12
3.252258541666667,0,0xFF,0x1A
3.252276750000000,0,0xFF,0x1C
3.254227916666667,0,0xB0,0x12
3.254245958333333,0,0xFF,0x13
3.254264166666667,0,0xFF,0x14
3.256215583333333,0,0xB0,0x12
3.256233625000000,0,0xFF,0x1A
3.256251833333333,0,0xFF,0x1C
3.258203333333333,0,0xB0,0x12
3.258221375000000,0,0xFF,0x12
3.258239583333333,0,0xFF,0x00
3.260191333333333,0,0x98,0x10
3.260209375000000,0,0xFF,0x12
3.260227583333333,0,0xFF,0x14
3.262178916666667,0,0x90,0x12
3.262196958333333,0,0xFF,0x02
3.262215166666667,0,0xFF,0x04
3.262239958333333,0,0x87,0x18
3.262258000000000,0,0xFF,0x00
3.262276208333333,0,0xFF,0x8A
3.262296750000000,0,0x87,0x12
3.262314791666667,0,0x00,0x10
3.262332875000000,0,0x32,0x12
3.263162666666667,0,0x07,0x01
3.263180708333334,0,0x00,0x01
3.263198791666666,0,0x32,0x01
3.263219375000000,0,0x34,0x81
3.263237416666667,0,0x80,0x01
3.263255500000000,0,0xC0,0x01
3.263275750000000,0,0xC3,0x01
3.263293750000000,0,0xFF,0x00
3.263311958333333,0,0xFF,0x32
3.263332833333333,0,0x87,0x01
3.263350875000000,0,0x00,0x01
3.263368958333333,0,0xB2,0x01
3.264166666666667,0,0xB0,0x13
3.264184666666667,0,0x7F,0x1A
3.264202875000000,0,0xFF,0x04
3.266154500000000,0,0x98,0x1A
3.266172541666667,0,0xFF,0x12
3.266190750000000,0,0xFF,0x04
3.268142166666667,0,0x98,0x10
3.268160208333333,0,0xFF,0x12
3.268178416666667,0,0xFF,0x04
3.270129500000000,0,0xF0,0x02
3.270147500000000,0,0x7F,0x12
3.270165750000000,0,0xFF,0x04
3.272117125000000,0,0xF0,0x02
3.272135125000000,0,0x7F,0x12
3.272153375000000,0,0xFF,0x04
3.274104708333333,0,0x98,0x1A
3.274122750000000,0,0xFF,0x12
3.274140958333333,0,0xFF,0x04
3.276092416666667,0,0x98,0x10
3.276110458333333,0,0xFF,0x02
3.276128666666667,0,0xFF,0x04
3.278080166666667,0,0xF0,0x12
3.278098208333333,0,0xFF,0x13
3.278116416666667,0,0xFF,0x04
3.280067708333333,0,0x90,0x12
3.280085750000000,0,0xFF,0x12
3.280103958333333,0,0xFF,0x04
3.282055250000000,0,0xB0,0x12
3.282073291666667,0,0xFF,0x12
3.282091500000000,0,0xFF,0x06
3.284042875000000,0,0xF0,0x12
3.284060916666667,0,0xFF,0x12
3.284079125000000,0,0xFF,0x04
3.286030500000000,0,0x98,0x10
3.286048541666667,0,0xFF,0x12
3.286066750000000,0,0xFF,0x04
3.288018250000000,0,0x90,0x12
3.288036291666667,0,0xFF,0x12
3.288054500000000,0,0xFF,0x04
3.290006250000000,0,0xB0,0x12
3.290024291666667,0,0xFF,0x12
3.290042500000000,0,0xFF,0x00
3.291993833333333,0,0xB0,0x13
3.292011833333333,0,0x7F,0x1A
3.292030041666667,0,0xFF,0x04
3.293981708333333,0,0xB0,0x12
3.293999750000000,0,0xFF,0x02
3.294017958333333,0,0xFF,0x04
3.294042750000000,0,0x87,0x10
3.294060791666667,0,0xFF,0x00
3.294079000000000,0,0xFF,0xF2
3.294099541666667,0,0x87,0x12
3.294117583333333,0,0x00,0x12
3.294135666666667,0,0x04,0x02
3.294965333333333,0,0x07,0x01
3.294983375000000,0,0x00,0x01
3.295001458333333,0,0x14,0x01
3.295022041666666,0,0x34,0x81
3.295040083333333,0,0x80,0x01
3.295058166666667,0,0x80,0x01
3.295078416666667,0,0xC7,0x01
3.295096458333334,0,0xFF,0x00
3.295114666666667,0,0xFF,0x14
3.295135541666667,0,0x03,0x01
3.295153541666667,0,0x80,0x01
3.295171625000000,0,0x9E,0x01
3.295969625000000,0,0xB8,0x10
3.295987666666667,0,0xFF,0x02
3.296005875000000,0,0xFF,0x08
3.297957125000000,0,0x90,0x12
3.297975166666667,0,0xFF,0x12
3.297993375000000,0,0xFF,0x08
3.299945041666667,0,0xB8,0x10
3.299963083333334,0,0xFF,0x12
3.299981291666667,0,0xFF,0x08
3.301933000000000,0,0xF0,0x02
3.301951000000000,0,0x7F,0x12
3.301969250000000,0,0xFF,0x08
3.303920666666667,0,0xB0,0x13
3.303938708333333,0,0x7F,0x12
3.303956916666666,0,0xFF,0x08
3.305908583333333,0,0xB0,0x12
3.305926625000000,0,0xFF,0x1A
3.305944833333333,0,0xFF,0x00
3.307896250000000,0,0x98,0x1A
3.307914291666667,0,0xFF,0x12
3.307932500000000,0,0xFF,0x08
3.309883833333333,0,0xB0,0x12
3.309901875000000,0,0xFF,0x10
3.309920083333334,0,0xFF,0x08
3.311871375000000,0,0xB0,0x12
3.311889416666667,0,0xFF,0x12
3.311907625000000,0,0xFF,0x08
3.313858916666667,0,0x98,0x1A
3.313876958333333,0,0xFF,0x12
3.313895166666667,0,0xFF,0x08
3.315846708333333,0,0xF0,0x12
3.315864708333333,0,0x7F,0x12
3.315882916666667,0,0xFF,0x08
3.317834333333333,0,0xB0,0x12
3.317852375000000,0,0xFF,0x10
3.317870583333333,0,0xFF,0x08
3.319822000000000,0,0xB0,0x12
3.319840041666667,0,0xFF,0x02
3.319858250000000,0,0xFF,0x08
3.321809583333333,0,0xF0,0x12
3.321827583333334,0,0x7F,0x12
3.321845791666667,0,0xFF,0x08
3.323797416666667,0,0xB0,0x12
3.323815458333333,0,0xFF,0x13
3.323833666666667,0,0xFF,0x08
3.325785083333333,0,0xB0,0x13
3.325803083333333,0,0x7F,0x1A
3.325821291666667,0,0xFF,0x08
3.325846125000000,0,0xC3,0x12
3.325864125000000,0,0xFF,0x00
3.325882375000000,0,0xFF,0x94
3.325902916666667,0,0x07,0x12
3.325920958333333,0,0x00,0x02
3.325939041666667,0,0x3C,0x13
3.326768708333333,0,0x07,0x01
3.326786750000000,0,0x00,0x01
3.326804791666667,0,0x3C,0x81
3.326825416666667,0,0x36,0x01
3.326843458333333,0,0xC0,0x01
3.326861541666667,0,0x80,0x00
3.326881750000000,0,0x07,0x81
3.326899791666666,0,0xFF,0x00
3.326918000000000,0,0xFF,0x1C
3.326938875000000,0,0x87,0x01
3.326956916666667,0,0x00,0x01
3.326975000000000,0,0xBC,0x01
3.327772750000000,0,0xB0,0x12
3.327790791666667,0,0xFF,0x02
3.327809000000000,0,0xFF,0x0C
3.329760666666667,0,0xB0,0x13
3.329778666666667,0,0xFF,0x1A
3.329796875000000,0,0xFF,0x18
3.331748333333334,0,0xF0,0x02
3.331766333333333,0,0x7F,0x12
3.331784541666666,0,0xFF,0x18
3.333735750000000,0,0x98,0x1A
3.333753791666667,0,0xFF,0x12
3.333772000000000,0,0xFF,0x18
3.335723375000000,0,0xB0,0x13
3.335741416666667,0,0x7F,0x1A
3.335759625000000,0,0xFF,0x18
3.337711125000000,0,0xB8,0x12
3.337729166666667,0,0xFF,0x02
3.337747375000000,0,0xFF,0x0C
3.339698750000000,0,0xF0,0x02
3.339716750000000,0,0x7F,0x12
3.339734958333333,0,0xFF,0x18
3.341686500000000,0,0xF0,0x12
3.341704541666667,0,0xFF,0x13
3.341722750000000,0,0xFF,0x18
3.343674125000000,0,0xB0,0x12
3.343692166666667,0,0xFF,0x12
3.343710375000000,0,0xFF,0x0C
3.345661708333334,0,0xB0,0x12
3.345679750000000,0,0xFF,0x10
3.345697958333333,0,0xFF,0x18
3.347649291666666,0,0x98,0x1A
3.347667333333333,0,0xFF,0x12
3.347685541666667,0,0xFF,0x18
3.349636958333333,0,0xB0,0x13
3.349654958333333,0,0x7F,0x12
3.349673166666667,0,0xFF,0x18
3.351624500000000,0,0xB0,0x12
3.351642541666667,0,0xFF,0x12
3.351660750000000,0,0xFF,0x1C
3.353612375000000,0,0xB0,0x12
3.353630375000000,0,0x7F,0x12
3.353648583333333,0,0xFF,0x18
3.355600083333333,0,0xF0,0x12
3.355618125000000,0,0xFF,0x13
3.355636333333333,0,0xFF,0x18
3.357587541666667,0,0xB0,0x12
3.357605583333333,0,0xFF,0x12
3.357623791666667,0,0xFF,0x1C
3.357648583333333,0,0x87,0x12
3.357666625000000,0,0xFF,0x00
3.357684833333333,0,0xFF,0xBC
3.357705375000000,0,0x07,0x12
3.357723416666667,0,0x00,0x12
3.357741458333333,0,0x1F,0x12
3.358571208333333,0,0x07,0x01
3.358589250000000,0,0x00,0x01
3.358607333333334,0,0x0E,0x01
3.358627916666667,0,0x1E,0x01
3.358645958333333,0,0xC0,0x01
3.358664041666667,0,0x80,0x00
3.358684250000000,0,0x07,0x81
3.358702291666666,0,0xFF,0x00
3.358720500000000,0,0xFF,0x1E
3.358741375000000,0,0x07,0x01
3.358759416666667,0,0x00,0x01
3.358777458333333,0,0x1F,0x81
3.359575125000000,0,0xB0,0x12
3.359593166666667,0,0xFF,0x13
3.359611375000000,0,0xFF,0x1C
3.361562625000000,0,0x98,0x18
3.361580666666667,0,0xFF,0x02
3.361598875000000,0,0xFF,0x0C
3.363550291666667,0,0xB0,0x12
3.363568333333333,0,0xFF,0x12
3.363586541666667,0,0xFF,0x1C
3.365537625000000,0,0xB0,0x13
3.365555625000000,0,0x7F,0x18
3.365573833333333,0,0xFF,0x1E
3.367525083333333,0,0xB0,0x13
3.367543083333334,0,0x7F,0x1A
3.367561291666667,0,0xFF,0x1E
3.369512500000000,0,0xB0,0x13
3.369530500000000,0,0xFF,0x10
3.369548708333333,0,0xFF,0x1E
3.371500041666667,0,0xF0,0x02
3.371518041666667,0,0x7F,0x12
3.371536250000000,0,0xFF,0x1C
3.373487541666667,0,0x98,0x1A
3.373505583333333,0,0xFF,0x12
3.373523791666666,0,0xFF,0x1C
3.375475125000000,0,0xB0,0x12
3.375493125000000,0,0xFF,0x10
3.375511333333333,0,0xFF,0x1E
3.377462666666667,0,0xF0,0x02
3.377480666666667,0,0x7F,0x12
3.377498916666667,0,0xFF,0x1C
3.379450291666667,0,0xB8,0x10
3.379468333333334,0,0xFF,0x12
3.379486541666667,0,0xFF,0x1C
3.381438125000000,0,0xF0,0x02
3.381456125000000,0,0x7F,0x12
3.381474375000000,0,0xFF,0x1C
3.383425791666667,0,0x90,0x12
3.383443833333333,0,0xFF,0x12
3.383462041666667,0,0xFF,0x1E
3.385413416666667,0,0xB0,0x12
3.385431458333333,0,0xFF,0x12
3.385449666666667,0,0xFF,0x1C
3.387401000000000,0,0xF0,0x02
3.387419000000000,0,0x7F,0x12
3.387437208333334,0,0xFF,0x1C
3.389388416666667,0,0x90,0x12
3.389406458333333,0,0xFF,0x12
3.389424666666667,0,0xFF,0x1C
3.389449458333333,0,0x87,0x12
3.389467500000000,0,0xFF,0x00
3.389485666666667,0,0xFF,0x1E
3.389506250000000,0,0x07,0x12
3.389524291666667,0,0x00,0x12
3.389542333333333,0,0x66,0x10
3.390372041666667,0,0x07,0x01
3.390390083333333,0,0x00,0x01
3.390408166666667,0,0x02,0x01
3.390428750000000,0,0x1E,0x01
3.390446791666667,0,0xC0,0x01
3.390464875000000,0,0x80,0x01
3.390485083333334,0,0x07,0x01
3.390503125000000,0,0xFF,0x00
3.390521333333333,0,0xFF,0x06
3.390542208333333,0,0x03,0x01
3.390560208333333,0,0x80,0x01
3.390578291666666,0,0xC6,0x01
3.391376125000000,0,0xB0,0x12
3.391394166666667,0,0xFF,0x13
3.391412375000000,0,0xFF,0x0C
3.393363250000000,0,0xB0,0x12
3.393381291666667,0,0xFF,0x12
3.393399500000000,0,0xFF,0x0C
3.395350666666667,0,0xF0,0x12
3.395368708333333,0,0xFF,0x12
3.395386875000000,0,0xFF,0x0C
3.397338208333333,0,0xF0,0x02
3.397356208333334,0,0x7F,0x12
3.397374416666667,0,0xFF,0x0C
3.399325750000000,0,0xF0,0x13
3.399343750000000,0,0x7F,0x1A
3.399361958333333,0,0xFF,0x04
3.401313291666667,0,0xB0,0x13
3.401331291666667,0,0x7F,0x1A
3.401349500000000,0,0xFF,0x04
3.403300916666667,0,0x90,0x12
3.403318958333333,0,0xFF,0x12
3.403337166666667,0,0xFF,0x0C
3.405288500000000,0,0xB0,0x12
3.405306541666667,0,0xFF,0x12
3.405324750000000,0,0xFF,0x0C
3.407276166666667,0,0xB0,0x12
3.407294208333334,0,0xFF,0x12
3.407312416666667,0,0xFF,0x0C
3.409263708333333,0,0x98,0x10
3.409281750000000,0,0xFF,0x02
3.409299958333333,0,0xFF,0x0C
3.411251291666667,0,0xF0,0x12
3.411269291666667,0,0x7F,0x12
3.411287500000000,0,0xFF,0x04
3.413238958333333,0,0xB0,0x12
3.413257000000000,0,0xFF,0x13
3.413275208333333,0,0xFF,0x0C
3.415226416666667,0,0xB0,0x12
3.415244458333333,0,0xFF,0x13
3.415262666666667,0,0xFF,0x0C
3.417213708333333,0,0xB0,0x12
3.417231750000000,0,0xFF,0x12
3.417249958333333,0,0xFF,0x0C
3.419201208333333,0,0xF0,0x12
3.419219208333333,0,0x7F,0x1A
3.419237416666667,0,0xFF,0x04
3.421188333333333,0,0x90,0x12
3.421206375000000,0,0xFF,0x12
3.421224583333333,0,0xFF,0x0C
3.421249375000000,0,0x87,0x1A
3.421267416666667,0,0xFF,0x00
3.421285625000000,0,0xFF,0xC6
3.421306166666667,0,0x07,0x10
3.421324208333334,0,0x00,0x02
3.421342291666666,0,0x00,0x12
3.422171958333333,0,0x07,0x01
3.422190000000000,0,0x00,0x01
3.422208041666666,0,0x00,0x01
3.422228666666667,0,0x30,0x01
3.422246666666667,0,0x00,0x81
3.422264750000000,0,0x80,0x01
3.422285000000000,0,0x87,0x01
3.422303041666667,0,0xFF,0x00
3.422321250000000,0,0xFF,0x00
3.422342083333333,0,0x87,0x01
3.422360125000000,0,0x00,0x01
3.422378208333333,0,0xC0,0x01
3.423175708333333,0,0xB0,0x12
3.423193750000000,0,0xFF,0x12
3.423211916666667,0,0xFF,0x00
3.425163083333334,0,0xB0,0x13
3.425181083333333,0,0xFF,0x1A
3.425199291666666,0,0xFF,0x00
3.427150541666667,0,0xF0,0x02
3.427168541666667,0,0x7F,0x1A
3.427186750000000,0,0xFF,0x00
3.429137875000000,0,0x98,0x1A
3.429155916666667,0,0xFF,0x12
3.429174125000000,0,0xFF,0x00
3.431125333333333,0,0xB0,0x12
3.431143375000000,0,0xFF,0x13
3.431161583333334,0,0xFF,0x00
3.433112791666667,0,0xF0,0x12
3.433130791666667,0,0x7F,0x12
3.433149000000000,0,0xFF,0x00
3.435100208333334,0,0xB0,0x12
3.435118250000000,0,0xFF,0x12
3.435136458333333,0,0xFF,0x00
3.437087666666667,0,0xB0,0x12
3.437105708333333,0,0xFF,0x13
3.437123916666667,0,0xFF,0x00
3.439075250000000,0,0xF0,0x12
3.439093250000000,0,0x7F,0x12
3.439111458333334,0,0xFF,0x00
3.441062833333334,0,0xF0,0x12
3.441080875000000,0,0xFF,0x13
3.441099083333333,0,0xFF,0x00
3.443050458333333,0,0x98,0x1A
3.443068500000000,0,0xFF,0x12
3.443086708333333,0,0xFF,0x00
3.445038000000000,0,0xB0,0x12
3.445056041666667,0,0xFF,0x13
3.445074250000000,0,0xFF,0x00
3.447025375000000,0,0xF0,0x02
3.447043375000000,0,0x7F,0x12
3.447061583333333,0,0xFF,0x00
3.449012958333333,0,0xB0,0x13
3.449030958333333,0,0x7F,0x1A
3.449049166666667,0,0xFF,0x00
3.451000625000000,0,0x98,0x1A
3.451018666666667,0,0xFF,0x12
3.451036875000000,0,0xFF,0x00
3.452988250000000,0,0x98,0x1A
3.453006291666667,0,0xFF,0x12
3.453024500000000,0,0xFF,0x00
3.453049291666667,0,0x87,0x12
3.453067333333333,0,0xFF,0x00
3.453085541666667,0,0xFF,0x80
3.453106083333333,0,0x87,0x12
3.453124125000000,0,0x00,0x12
3.453142208333333,0,0x3C,0x02
3.453972000000000,0,0x07,0x01
3.453990041666667,0,0x00,0x01
3.454008125000000,0,0x28,0x01
3.454028708333333,0,0x30,0x80
3.454046750000000,0,0x00,0x01
3.454064833333333,0,0x80,0x01
3.454085083333333,0,0x87,0x01
3.454103125000000,0,0xFF,0x00
3.454121333333333,0,0xFF,0x38
3.454142208333333,0,0x07,0x01
3.454160250000000,0,0x00,0x00
3.454178291666667,0,0x28,0x81
3.454976041666667,0,0x30,0x92
3.454994083333333,0,0xFF,0x18
3.455012291666667,0,0xFF,0x18
3.456963791666666,0,0xF0,0x12
3.456981791666667,0,0x7F,0x12
3.457000000000000,0,0xFF,0x10
3.458951416666667,0,0xB0,0x12
3.458969458333333,0,0xFF,0x12
3.458987666666667,0,0xFF,0x10
3.460939041666667,0,0xF0,0x12
3.460957083333333,0,0xFF,0x12
3.460975291666667,0,0xFF,0x10
3.462926833333333,0,0xF0,0x02
3.462944833333333,0,0x7F,0x12
3.462963041666667,0,0xFF,0x10
3.464914541666666,0,0xB0,0x12
3.464932583333333,0,0xFF,0x12
3.464950791666667,0,0xFF,0x00
3.466902250000000,0,0xB0,0x12
3.466920291666667,0,0xFF,0x12
3.466938500000000,0,0xFF,0x10
3.468889916666666,0,0x98,0x1A
3.468907958333333,0,0xFF,0x12
3.468926166666667,0,0xFF,0x10
3.470877625000000,0,0xF0,0x12
3.470895666666667,0,0xFF,0x13
3.470913875000000,0,0xFF,0x10
3.472865250000000,0,0xF0,0x02
3.472883250000000,0,0x7F,0x12
3.472901458333333,0,0xFF,0x10
3.474853000000000,0,0xF0,0x02
3.474871041666667,0,0xFF,0x13
3.474889250000000,0,0xFF,0x10
3.476840750000000,0,0x98,0x10
3.476858791666666,0,0xFF,0x02
3.476877000000000,0,0xFF,0x00
3.478828458333334,0,0xB0,0x12
3.478846500000000,0,0xFF,0x12
3.478864708333333,0,0xFF,0x10
3.480816250000000,0,0x90,0x12
3.480834291666667,0,0xFF,0x12
3.480852500000000,0,0xFF,0x10
3.482804041666667,0,0xB0,0x13
3.482822041666667,0,0x7F,0x1A
3.482840250000000,0,0xFF,0x18
3.484791875000000,0,0xB8,0x10
3.484809916666667,0,0xFF,0x02
3.484828125000000,0,0xFF,0x10
3.484852916666667,0,0x87,0x12
3.484870958333333,0,0xFF,0x00
3.484889166666667,0,0xFF,0xA8
3.484909708333333,0,0x87,0x12
3.484927750000000,0,0x00,0x10
3.484945833333333,0,0x0A,0x12
3.485775500000000,0,0x03,0x01
3.485793500000000,0,0x80,0x01
3.485811583333333,0,0x02,0x01
3.485832208333334,0,0x30,0x01
3.485850208333333,0,0x00,0x81
3.485868291666667,0,0x80,0x01
3.485888541666667,0,0x87,0x01
3.485906583333333,0,0xFF,0x00
3.485924791666667,0,0xFF,0x0B
3.485945666666667,0,0x03,0x00
3.485963666666667,0,0x00,0x01
3.485981750000000,0,0x88,0x01
3.486779416666667,0,0x18,0x1A
3.486797458333333,0,0xFF,0x12
3.486815666666667,0,0xFF,0x14
3.488767208333333,0,0x90,0x12
3.488785250000000,0,0xFF,0x10
3.488803458333333,0,0xFF,0x16
3.490755083333333,0,0x98,0x1A
3.490773125000000,0,0xFF,0x12
3.490791333333333,0,0xFF,0x14
3.492742958333333,0,0xB0,0x12
3.492761000000000,0,0xFF,0x12
3.492779208333333,0,0xFF,0x00
3.494730791666667,0,0xB0,0x13
3.494748791666667,0,0x7F,0x1A
3.494767000000000,0,0xFF,0x1C
3.496718416666666,0,0x98,0x10
3.496736458333333,0,0xFF,0x02
3.496754666666666,0,0xFF,0x14
3.498706083333333,0,0xB0,0x12
3.498724125000000,0,0xFF,0x12
3.498742333333333,0,0xFF,0x14
3.500693625000000,0,0xF0,0x02
3.500711625000000,0,0x7F,0x12
3.500729833333333,0,0xFF,0x14
3.502681291666667,0,0x98,0x10
3.502699333333333,0,0xFF,0x02
3.502717541666667,0,0xFF,0x14
3.504669000000000,0,0xB0,0x12
3.504687041666667,0,0xFF,0x10
3.504705250000000,0,0xFF,0x16
3.506656875000000,0,0xF0,0x12
3.506674875000000,0,0x7F,0x12
3.506693083333333,0,0xFF,0x1C
3.508644583333334,0,0xB0,0x12
3.508662625000000,0,0xFF,0x02
3.508680833333333,0,0xFF,0x00
3.510632083333333,0,0x98,0x10
3.510650125000000,0,0xFF,0x02
3.510668333333333,0,0xFF,0x04
3.512619750000000,0,0x98,0x10
3.512637791666667,0,0xFF,0x02
3.512656000000000,0,0xFF,0x10
3.514607375000000,0,0x98,0x18
3.514625416666667,0,0xFF,0x12
3.514643625000000,0,0xFF,0x14
3.516594875000000,0,0xB0,0x13
3.516612875000000,0,0x7F,0x1A
3.516631083333333,0,0xFF,0x14
3.516655916666667,0,0xC3,0x02
3.516673916666667,0,0xFF,0x00
3.516692125000000,0,0xFF,0x0A
3.516712708333333,0,0x03,0x02
3.516730708333333,0,0x80,0x12
3.516748791666667,0,0x18,0x18
3.517578583333334,0,0x07,0x01
3.517596625000000,0,0x00,0x01
3.517614708333333,0,0x32,0x01
3.517635291666667,0,0x34,0x01
3.517653333333334,0,0x80,0x01
3.517671416666666,0,0xC0,0x01
3.517691666666667,0,0xC3,0x01
3.517709666666667,0,0xFF,0x80
3.517727875000000,0,0xFF,0x32
3.517748750000000,0,0x87,0x01
3.517766791666667,0,0x00,0x01
3.517784875000000,0,0xB0,0x01
3.518582791666667,0,0x30,0x92
3.518600833333333,0,0xFF,0x12
3.518619041666667,0,0xFF,0x04
3.520570083333333,0,0xF0,0x13
3.520588083333333,0,0x7F,0x1A
3.520606291666667,0,0xFF,0x04
3.522557541666667,0,0xB0,0x12
3.522575583333333,0,0xFF,0x12
3.522593791666667,0,0xFF,0x04
3.524545083333333,0,0xF0,0x12
3.524563083333333,0,0x7F,0x12
3.524581291666667,0,0xFF,0x04
3.526532583333333,0,0xB0,0x12
3.526550625000000,0,0xFF,0x10
3.526568833333333,0,0xFF,0x04
3.528520291666667,0,0xB0,0x12
3.528538291666667,0,0x7F,0x12
3.528556500000000,0,0xFF,0x04
3.530507916666667,0,0xF0,0x02
3.530525916666666,0,0x7F,0x12
3.530544125000000,0,0xFF,0x04
3.532495541666667,0,0x90,0x12
3.532513583333333,0,0xFF,0x12
3.532531791666667,0,0xFF,0x04
3.534483333333333,0,0xB0,0x12
3.534501333333333,0,0xFF,0x1A
3.534519541666667,0,0xFF,0x04
3.536471083333333,0,0xF0,0x02
3.536489125000000,0,0xFF,0x13
3.536507333333333,0,0xFF,0x04
3.538458666666667,0,0x90,0x12
3.538476708333333,0,0xFF,0x12
3.538494916666667,0,0xFF,0x04
3.540446208333333,0,0x98,0x1A
3.540464250000000,0,0xFF,0x12
3.540482458333333,0,0xFF,0x04
3.542433708333333,0,0xB0,0x12
3.542451750000000,0,0xFF,0x12
3.542469958333333,0,0xFF,0x00
3.544421250000000,0,0x98,0x1A
3.544439291666666,0,0xFF,0x12
3.544457500000000,0,0xFF,0x04
3.546408833333333,0,0xB0,0x12
3.546426833333333,0,0xFF,0x10
3.546445041666667,0,0xFF,0x06
3.548396375000000,0,0xB0,0x12
3.548414416666667,0,0xFF,0x10
3.548432625000000,0,0xFF,0x06
3.548457416666666,0,0x87,0x12
3.548475458333333,0,0xFF,0x00
3.548493666666667,0,0xFF,0xB0
3.548514250000000,0,0x07,0x12
3.548532250000000,0,0x00,0x10
3.548550333333333,0,0x14,0x12
3.549380083333333,0,0x03,0x00
3.549398083333333,0,0x00,0x01
3.549416166666667,0,0x14,0x01
3.549436750000000,0,0x1C,0x01
3.549454791666667,0,0xC0,0x01
3.549472875000000,0,0x80,0x00
3.549493083333333,0,0x07,0x81
3.549511125000000,0,0xFF,0x00
3.549529333333334,0,0xFF,0x14
3.549550208333333,0,0x07,0x01
3.549568250000000,0,0x00,0x00
3.549586291666667,0,0x1C,0x01
3.550384083333333,0,0x10,0x12
3.550402125000000,0,0xFF,0x12
3.550420333333333,0,0xFF,0x08
3.552371583333333,0,0x98,0x10
3.552389625000000,0,0xFF,0x02
3.552407833333334,0,0xFF,0x08
3.554359291666667,0,0xB0,0x12
3.554377333333333,0,0xFF,0x10
3.554395541666667,0,0xFF,0x08
3.556346958333333,0,0x90,0x12
3.556365000000000,0,0xFF,0x12
3.556383208333334,0,0xFF,0x08
3.558334875000000,0,0xF0,0x02
3.558352875000000,0,0x7F,0x12
3.558371083333333,0,0xFF,0x08
3.560322666666667,0,0x98,0x1A
3.560340708333333,0,0xFF,0x12
3.560358916666666,0,0xFF,0x08
3.562310500000000,0,0xF0,0x12
3.562328500000000,0,0x7F,0x12
3.562346708333333,0,0xFF,0x08
3.564298500000000,0,0xF0,0x12
3.564316541666666,0,0xFF,0x13
3.564334750000000,0,0xFF,0x08
3.566286166666667,0,0xB0,0x13
3.566304166666667,0,0x7F,0x1A
3.566322375000000,0,0xFF,0x00
3.568273791666666,0,0xB0,0x12
3.568291833333333,0,0xFF,0x13
3.568310041666667,0,0xFF,0x08
3.570261375000000,0,0xF0,0x12
3.570279416666667,0,0xFF,0x13
3.570297625000000,0,0xFF,0x08
3.572249250000000,0,0xB0,0x12
3.572267291666666,0,0xFF,0x12
3.572285500000000,0,0xFF,0x08
3.574236875000000,0,0xF0,0x12
3.574254916666667,0,0xFF,0x13
3.574273125000000,0,0xFF,0x08
3.576224541666666,0,0xF0,0x02
3.576242541666667,0,0x7F,0x12
3.576260750000000,0,0xFF,0x08
3.578212166666667,0,0xF0,0x12
3.578230166666667,0,0x7F,0x12
3.578248375000000,0,0xFF,0x00
3.580199791666667,0,0x98,0x10
3.580217833333333,0,0xFF,0x02
3.580236041666667,0,0xFF,0x08
3.580260833333333,0,0x87,0x1A
3.580278875000000,0,0xFF,0x00
3.580297083333333,0,0xFF,0x94
3.580317666666667,0,0x03,0x12
3.580335666666667,0,0x00,0x1A
3.580353750000000,0,0x3E,0x12
3.581183458333333,0,0x03,0x01
3.581201458333333,0,0x80,0x01
3.581219541666667,0,0x1C,0x01
3.581240166666666,0,0x34,0x01
3.581258208333333,0,0x80,0x01
3.581276250000000,0,0x00,0x01
3.581296500000000,0,0x87,0x01
3.581314541666667,0,0xFF,0x00
3.581332750000000,0,0xFF,0x3C
3.581353625000000,0,0x07,0x01
3.581371666666667,0,0x00,0x01
3.581389750000000,0,0xBC,0x00
3.582187708333334,0,0x18,0x10
3.582205750000000,0,0xFF,0x12
3.582223958333334,0,0xFF,0x08
3.584175166666667,0,0xF0,0x12
3.584193166666667,0,0x7F,0x12
3.584211375000000,0,0xFF,0x18
3.586163041666667,0,0xF0,0x12
3.586181041666667,0,0x7F,0x12
3.586199250000000,0,0xFF,0x18
3.588150708333333,0,0xB0,0x12
3.588168750000000,0,0xFF,0x13
3.588186958333333,0,0xFF,0x1C
3.590138291666667,0,0xB0,0x12
3.590156333333333,0,0xFF,0x10
3.590174541666667,0,0xFF,0x18
3.592126000000000,0,0xF0,0x02
3.592144000000000,0,0x7F,0x12
3.592162250000000,0,0xFF,0x18
3.594113541666667,0,0x98,0x1A
3.594131583333333,0,0xFF,0x12
3.594149791666667,0,0xFF,0x18
3.596101250000000,0,0xB0,0x12
3.596119291666667,0,0xFF,0x12
3.596137500000000,0,0xFF,0x0C
3.598088708333333,0,0xF0,0x02
3.598106708333333,0,0x7F,0x12
3.598124916666666,0,0xFF,0x18
3.600076500000000,0,0xB0,0x13
3.600094500000000,0,0x7F,0x1A
3.600112708333334,0,0xFF,0x18
3.602064000000000,0,0xB0,0x12
3.602082041666667,0,0xFF,0x12
3.602100250000000,0,0xFF,0x18
3.604051750000000,0,0xB0,0x12
3.604069791666667,0,0xFF,0x12
3.604088000000000,0,0xFF,0x1C
3.606039458333334,0,0xB0,0x12
3.606057500000000,0,0xFF,0x10
3.606075708333333,0,0xFF,0x18
3.608027208333333,0,0x98,0x10
3.608045250000000,0,0xFF,0x12
3.608063458333334,0,0xFF,0x18
3.610014916666667,0,0xB0,0x12
3.610032958333333,0,0xFF,0x10
3.610051166666667,0,0xFF,0x18
3.612002583333333,0,0xF0,0x12
3.612020625000000,0,0xFF,0x13
3.612038833333334,0,0xFF,0x18
3.612063625000000,0,0x87,0x12
3.612081666666667,0,0xFF,0x00
3.612099875000000,0,0xFF,0xBC
3.612120416666667,0,0x07,0x10
3.612138458333333,0,0x00,0x02
3.612156541666667,0,0x1F,0x13
3.612986333333333,0,0x07,0x01
3.613004375000000,0,0x00,0x01
3.613022458333333,0,0x0E,0x01
3.613043041666667,0,0x1C,0x01
3.613061083333333,0,0x80,0x01
3.613079166666667,0,0xC0,0x01
3.613099416666667,0,0x83,0x00
3.613117416666667,0,0xFF,0x00
3.613135625000000,0,0xFF,0x1E
3.613156500000000,0,0x87,0x01
3.613174541666667,0,0x00,0x01
3.613192625000000,0,0xDE,0x01
3.613990333333333,0,0xF0,0x12
3.614008333333333,0,0x7F,0x12
3.614026541666667,0,0xFF,0x1C
3.615978125000000,0,0xB0,0x12
3.615996166666667,0,0xFF,0x12
3.616014375000000,0,0xFF,0x1C
3.617965791666667,0,0xB0,0x12
3.617983833333333,0,0xFF,0x12
3.618002041666667,0,0xFF,0x0C
3.619953958333333,0,0xB0,0x10
3.619972000000000,0,0xFF,0x02
3.619990208333333,0,0xFF,0x1C
3.621941791666667,0,0xB0,0x12
3.621959791666667,0,0x7F,0x12
3.621978000000000,0,0xFF,0x1C
3.623929208333333,0,0x98,0x1A
3.623947250000000,0,0xFF,0x12
3.623965458333333,0,0xFF,0x1C
3.625916916666667,0,0xF0,0x12
3.625934958333333,0,0xFF,0x13
3.625953166666667,0,0xFF,0x1C
3.627904666666667,0,0xF0,0x02
3.627922666666667,0,0x7F,0x12
3.627940875000000,0,0xFF,0x1C
3.629892416666667,0,0xF0,0x12
3.629910416666667,0,0x7F,0x12
3.629928625000000,0,0xFF,0x1C
3.631880083333333,0,0x98,0x10
3.631898125000000,0,0xFF,0x12
3.631916333333333,0,0xFF,0x1C
3.633867791666667,0,0xB0,0x12
3.633885833333333,0,0xFF,0x02
3.633904041666667,0,0xFF,0x0C
3.635855666666667,0,0xB0,0x12
3.635873708333333,0,0xFF,0x02
3.635891916666667,0,0xFF,0x0C
3.637843083333333,0,0xB0,0x12
3.637861125000000,0,0xFF,0x02
3.637879333333333,0,0xFF,0x0C
3.639830791666667,0,0x90,0x12
3.639848833333333,0,0xFF,0x12
3.639867041666667,0,0xFF,0x1E
3.641818458333333,0,0xB8,0x10
3.641836500000000,0,0xFF,0x02
3.641854708333333,0,0xFF,0x0C
3.643806125000000,0,0xB0,0x13
3.643824125000000,0,0x7F,0x1A
3.643842333333333,0,0xFF,0x1C
3.643867166666667,0,0x83,0x12
3.643885166666667,0,0xFF,0x00
3.643903375000000,0,0xFF,0x9E
3.643923958333333,0,0x03,0x13
3.643941958333333,0,0x80,0x1A
3.643960041666667,0,0x46,0x12
3.644789791666667,0,0x07,0x01
3.644807833333333,0,0x00,0x01
3.644825875000000,0,0x66,0x01
3.644846500000000,0,0x30,0x01
3.644864500000000,0,0x00,0x01
3.644882583333333,0,0x80,0x01
3.644902833333334,0,0xC7,0x01
3.644920875000000,0,0xFF,0x00
3.644939041666666,0,0xFF,0x46
3.644959916666667,0,0x87,0x01
3.644977958333333,0,0x00,0x01
3.644996041666666,0,0xC2,0x01
3.645793833333333,0,0xF0,0x02
3.645811833333333,0,0x7F,0x12
3.645830041666667,0,0xFF,0x0C
3.647781250000000,0,0x98,0x10
3.647799291666667,0,0xFF,0x12
3.647817500000000,0,0xFF,0x0C
3.649768916666666,0,0xF0,0x02
3.649786916666667,0,0x7F,0x12
3.649805125000000,0,0xFF,0x0C
3.651756416666667,0,0xB0,0x12
3.651774458333333,0,0xFF,0x12
3.651792666666667,0,0xFF,0x0C
3.653744083333333,0,0xF0,0x12
3.653762083333334,0,0x7F,0x12
3.653780291666667,0,0xFF,0x0C
3.655731708333333,0,0xB0,0x12
3.655749750000000,0,0xFF,0x13
3.655767958333333,0,0xFF,0x0C
3.657719375000000,0,0xB0,0x13
3.657737375000000,0,0x7F,0x1A
3.657755583333334,0,0xFF,0x04
3.659707000000000,0,0xB0,0x12
3.659725041666666,0,0xFF,0x02
3.659743250000000,0,0xFF,0x0C
3.661694708333334,0,0xB0,0x12
3.661712750000000,0,0xFF,0x12
3.661730958333334,0,0xFF,0x0C
3.663682041666667,0,0x98,0x10
3.663700083333334,0,0xFF,0x12
3.663718291666667,0,0xFF,0x0C
3.665669916666667,0,0x98,0x10
3.665687958333333,0,0xFF,0x12
3.665706166666667,0,0xFF,0x0C
3.667657250000000,0,0xB0,0x12
3.667675291666667,0,0xFF,0x12
3.667693500000000,0,0xFF,0x0C
3.669645125000000,0,0x98,0x1A
3.669663166666667,0,0xFF,0x12
3.669681375000000,0,0xFF,0x0C
3.671632500000000,0,0x90,0x12
3.671650541666667,0,0xFF,0x12
3.671668750000000,0,0xFF,0x0C
3.673620208333333,0,0xB0,0x12
3.673638250000000,0,0xFF,0x12
3.673656458333333,0,0xFF,0x0C
3.675607875000000,0,0xB0,0x12
3.675625916666667,0,0xFF,0x10
3.675644125000000,0,0xFF,0x0E
3.675668958333334,0,0x87,0x12
3.675686958333333,0,0xFF,0x00
3.675705166666666,0,0xFF,0xC6
3.675725750000000,0,0x03,0x12
3.675743750000000,0,0x80,0x12
3.675761833333334,0,0x00,0x12
3.676591625000000,0,0x03,0x01
3.676609625000000,0,0x80,0x81
3.676627708333333,0,0x00,0x01
3.676648333333334,0,0x30,0x01
3.676666333333333,0,0x00,0x81
3.676684416666667,0,0x80,0x01
3.676704666666667,0,0xC7,0x01
3.676722708333333,0,0xFF,0x00
3.676740916666667,0,0xFF,0x00
3.676761791666667,0,0x03,0x00
3.676779791666667,0,0x00,0x01
3.676797875000000,0,0x80,0x01
3.677595625000000,0,0x18,0x10
3.677613666666667,0,0xFF,0x02
3.677631875000000,0,0xFF,0x00
3.679583250000000,0,0xB0,0x12
3.679601250000000,0,0xFF,0x10
3.679619458333333,0,0xFF,0x00
3.681570750000000,0,0xB0,0x12
3.681588750000000,0,0x7F,0x12
3.681606958333334,0,0xFF,0x00
3.683558416666667,0,0x98,0x10
3.683576458333333,0,0xFF,0x02
3.683594666666667,0,0xFF,0x00
3.685545958333333,0,0xB0,0x12
3.685564000000000,0,0xFF,0x10
3.685582208333333,0,0xFF,0x00
3.687533750000000,0,0x90,0x12
3.687551791666666,0,0xFF,0x12
3.687570000000000,0,0xFF,0x00
3.689521458333333,0,0xB8,0x10
3.689539500000000,0,0xFF,0x02
3.689557708333334,0,0xFF,0x00
3.691509208333333,0,0x98,0x10
3.691527250000000,0,0xFF,0x12
3.691545458333333,0,0xFF,0x00
3.693497083333333,0,0xB0,0x12
3.693515125000000,0,0xFF,0x12
3.693533333333333,0,0xFF,0x00
3.695484500000000,0,0xB0,0x12
3.695502541666666,0,0xFF,0x12
3.695520750000000,0,0xFF,0x00
3.697472083333333,0,0xB0,0x12
3.697490125000000,0,0xFF,0x12
3.697508333333333,0,0xFF,0x00
3.699459625000000,0,0xF0,0x12
3.699477666666667,0,0xFF,0x12
3.699495833333333,0,0xFF,0x00
3.701447333333333,0,0xF0,0x12
3.701465333333333,0,0x7F,0x12
3.701483541666667,0,0xFF,0x00
3.703434958333333,0,0xB0,0x12
3.703453000000000,0,0xFF,0x12
3.703471208333333,0,0xFF,0x00
3.705422416666666,0,0x98,0x1A
3.705440458333333,0,0xFF,0x12
3.705458666666666,0,0xFF,0x00
3.707413208333334,0,0xB0,0x12
3.707431250000000,0,0xFF,0x13
3.707449458333334,0,0xFF,0x00
3.707474250000000,0,0x87,0x12
3.707492291666667,0,0xFF,0x00
3.707510500000000,0,0xFF,0x80
3.707531041666666,0,0x07,0x12
3.707549083333333,0,0x00,0x02
3.707567166666667,0,0x28,0x12
3.708393583333333,0,0x07,0x01
3.708411625000000,0,0x00,0x01
3.708429708333334,0,0x38,0x01
3.708450291666667,0,0x1C,0x01
3.708468333333333,0,0x80,0x01
3.708486416666667,0,0xC0,0x01
3.708506666666667,0,0x87,0x01
3.708524666666666,0,0xFF,0x00
3.708542875000000,0,0xFF,0x20
3.708563750000000,0,0x07,0x01
3.708581791666667,0,0x00,0x01
3.708599875000000,0,0xBC,0x00
3.709401000000000,0,0x98,0x10
3.709419041666667,0,0xFF,0x12
3.709437250000000,0,0xFF,0x10
3.711394416666667,0,0xB0,0x12
3.711412458333333,0,0xFF,0x12
3.711430666666667,0,0xFF,0x10
3.713389208333334,0,0xB0,0x12
3.713407208333333,0,0xFF,0x10
3.713425416666666,0,0xFF,0x10
3.715386583333333,0,0x90,0x12
3.715404625000000,0,0xFF,0x12
3.715422833333333,0,0xFF,0x10
3.717377583333333,0,0xF0,0x02
3.717395583333333,0,0x7F,0x12
3.717413791666667,0,0xFF,0x10
3.719364833333333,0,0x98,0x10
3.719382875000000,0,0xFF,0x12
3.719401083333334,0,0xFF,0x00
3.721354916666667,0,0xF0,0x02
3.721372916666667,0,0x7F,0x12
3.721391125000000,0,0xFF,0x10
3.723350916666667,0,0xB0,0x12
3.723368916666667,0,0xFF,0x12
3.723387125000000,0,0xFF,0x18
3.725339875000000,0,0x98,0x1A
3.725357916666667,0,0xFF,0x12
3.725376125000000,0,0xFF,0x10
3.727331416666666,0,0xB0,0x12
3.727349416666667,0,0xFF,0x10
3.727367625000000,0,0xFF,0x10
3.729322375000000,0,0xB0,0x12
3.729340416666667,0,0xFF,0x12
3.729358625000000,0,0xFF,0x10
3.731311875000000,0,0xB0,0x12
3.731329875000000,0,0xFF,0x18
3.731348083333333,0,0xFF,0x10
3.733298875000000,0,0x98,0x10
3.733316916666667,0,0xFF,0x02
3.733335125000000,0,0xFF,0x00
3.735293416666666,0,0x98,0x1A
3.735311458333333,0,0xFF,0x12
3.735329666666667,0,0xFF,0x10
3.737291708333333,0,0xF0,0x12
3.737309708333334,0,0x7F,0x12
3.737327916666667,0,0xFF,0x10
3.739289416666667,0,0xB0,0x12
3.739307458333333,0,0xFF,0x12
3.739325666666667,0,0xFF,0x10
3.739350458333333,0,0x87,0x12
3.739368500000000,0,0xFF,0x00
3.739386708333333,0,0xFF,0xAC
3.739407250000000,0,0x07,0x12
3.739425291666667,0,0x00,0x02
3.739443333333333,0,0x0B,0x12
3.740194041666667,0,0x07,0x01
3.740212083333333,0,0x00,0x01
3.740230125000000,0,0x0B,0x81
3.740250750000000,0,0x34,0x01
3.740268791666667,0,0x80,0x01
3.740286833333333,0,0x00,0x01
3.740307083333333,0,0x87,0x01
3.740325125000000,0,0xFF,0x00
3.740343333333333,0,0xFF,0x0B
3.740364208333333,0,0x03,0x00
3.740382208333333,0,0x00,0x01
3.740400291666667,0,0x88,0x01
3.741788833333333,0,0xB0,0x13
3.741806833333333,0,0xFF,0x18
3.741825041666667,0,0xFF,0x1E
3.743776250000000,0,0x90,0x12
3.743794291666667,0,0xFF,0x12
3.743812500000000,0,0xFF,0x14
3.745775208333333,0,0xF0,0x12
3.745793208333333,0,0x7F,0x12
3.745811416666667,0,0xFF,0x14
3.747762666666667,0,0xF0,0x12
3.747780708333333,0,0xFF,0x13
3.747798916666667,0,0xFF,0x14
3.749754333333333,0,0xB0,0x13
3.749772333333333,0,0xFF,0x1A
3.749790541666667,0,0xFF,0x1E
3.751745041666667,0,0xF0,0x02
3.751763041666667,0,0x7F,0x12
3.751781250000000,0,0xFF,0x14
3.753741208333333,0,0x98,0x10
3.753759250000000,0,0xFF,0x02
3.753777458333333,0,0xFF,0x04
3.755733041666667,0,0x98,0x1A
3.755751083333333,0,0xFF,0x12
3.755769291666667,0,0xFF,0x14
3.757729250000000,0,0xB0,0x12
3.757747291666667,0,0xFF,0x10
3.757765500000000,0,0xFF,0x16
3.759719958333333,0,0x90,0x12
3.759738000000000,0,0xFF,0x12
3.759756208333333,0,0xFF,0x14
3.761715875000000,0,0x98,0x10
3.761733916666667,0,0xFF,0x12
3.761752125000000,0,0xFF,0x14
3.763703500000000,0,0xB0,0x13
3.763721500000000,0,0xFF,0x10
3.763739708333333,0,0xFF,0x16
3.765694041666667,0,0xB0,0x12
3.765712041666667,0,0xFF,0x10
3.765730250000000,0,0xFF,0x16
3.767690750000000,0,0xB0,0x13
3.767708750000000,0,0xFF,0x1A
3.767726958333333,0,0xFF,0x16
3.769683041666667,0,0xB0,0x12
3.769701041666667,0,0xFF,0x10
3.769719250000000,0,0xFF,0x16
3.771678041666667,0,0xF0,0x02
3.771696041666666,0,0x7F,0x12
3.771714250000000,0,0xFF,0x14
3.771739083333333,0,0xC3,0x02
3.771757083333333,0,0xFF,0x00
3.771775291666667,0,0xFF,0x0A
3.771795875000000,0,0x07,0x12
3.771813916666667,0,0x00,0x13
3.771831958333333,0,0x32,0x12
3.771993083333333,0,0x07,0x01
3.772011125000000,0,0x00,0x01
3.772029208333334,0,0x33,0x00
3.772049791666667,0,0x3E,0x01
3.772067833333333,0,0xC0,0x01
3.772085916666667,0,0x80,0x00
3.772106125000000,0,0x07,0x01
3.772124166666667,0,0xFF,0x00
3.772142375000000,0,0xFF,0x30
3.772163250000000,0,0x07,0x01
3.772181291666667,0,0x00,0x01
3.772199375000000,0,0xB2,0x01
3.773667541666667,0,0x18,0x1A
3.773685583333333,0,0xFF,0x12
3.773703791666667,0,0xFF,0x04
3.775659083333333,0,0xB0,0x13
3.775677083333334,0,0x7F,0x1A
3.775695291666667,0,0xFF,0x04
3.777658958333333,0,0xF0,0x12
3.777677000000000,0,0xFF,0x12
3.777695208333333,0,0xFF,0x04
3.779647000000000,0,0xF0,0x12
3.779665000000000,0,0x7F,0x1A
3.779683208333333,0,0xFF,0x04
3.781644208333333,0,0xB0,0x12
3.781662250000000,0,0xFF,0x12
3.781680458333333,0,0xFF,0x04
3.783637416666667,0,0xF0,0x02
3.783655416666666,0,0x7F,0x12
3.783673625000000,0,0xFF,0x04
3.785636666666667,0,0xB0,0x12
3.785654708333333,0,0xFF,0x13
3.785672916666666,0,0xFF,0x04
3.787630958333333,0,0xB0,0x12
3.787648958333333,0,0xFF,0x12
3.787667166666667,0,0xFF,0x04
3.789626416666667,0,0xB0,0x12
3.789644458333334,0,0xFF,0x12
3.789662666666667,0,0xFF,0x04
3.791619083333333,0,0xB0,0x12
3.791637125000000,0,0xFF,0x13
3.791655333333333,0,0xFF,0x04
3.793617750000000,0,0xF0,0x02
3.793635750000000,0,0x7F,0x12
3.793653958333334,0,0xFF,0x04
3.795613708333333,0,0xB0,0x12
3.795631750000000,0,0xFF,0x12
3.795649958333333,0,0xFF,0x04
3.797604916666667,0,0xF0,0x12
3.797622958333333,0,0xFF,0x12
3.797641166666667,0,0xFF,0x04
3.799599000000000,0,0xF0,0x12
3.799617041666667,0,0xFF,0x12
3.799635208333333,0,0xFF,0x04
3.801586708333333,0,0x98,0x10
3.801604750000000,0,0xFF,0x02
3.801622958333333,0,0xFF,0x04
3.803581625000000,0,0xB0,0x12
3.803599625000000,0,0xFF,0x10
3.803617833333333,0,0xFF,0x06
3.803642625000000,0,0x87,0x12
3.803660666666667,0,0xFF,0x00
3.803678875000000,0,0xFF,0xB2
3.803699416666667,0,0x87,0x12
3.803717458333333,0,0x00,0x12
3.803735541666667,0,0x04,0x02
3.803791250000000,0,0x03,0x01
3.803809250000000,0,0x80,0x01
3.803827333333333,0,0x1E,0x01
3.803847958333333,0,0x30,0x01
3.803865958333333,0,0x00,0x01
3.803884041666667,0,0x80,0x01
3.803904291666667,0,0xC7,0x01
3.803922333333333,0,0xFF,0x00
3.803940541666667,0,0xFF,0x14
3.803961416666667,0,0x03,0x00
3.803979416666667,0,0x00,0x01
3.803997500000000,0,0x94,0x01
3.805571041666667,0,0x30,0x92
3.805589083333333,0,0xFF,0x12
3.805607291666667,0,0xFF,0x08
3.807562666666667,0,0xF0,0x12
3.807580708333334,0,0xFF,0x12
3.807598875000000,0,0xFF,0x08
3.809559291666667,0,0x98,0x10
3.809577333333333,0,0xFF,0x12
3.809595541666666,0,0xFF,0x08
3.811556333333333,0,0xB0,0x12
3.811574333333333,0,0x7F,0x12
3.811592541666667,0,0xFF,0x00
3.813554208333333,0,0x98,0x1A
3.813572250000000,0,0xFF,0x12
3.813590458333334,0,0xFF,0x08
3.815546500000000,0,0xB0,0x12
3.815564500000000,0,0xFF,0x10
3.815582708333333,0,0xFF,0x08
3.817544625000000,0,0xB0,0x12
3.817562666666667,0,0xFF,0x13
3.817580875000000,0,0xFF,0x08
3.819542291666667,0,0xB0,0x12
3.819560333333333,0,0xFF,0x12
3.819578541666667,0,0xFF,0x08
3.821529833333333,0,0x90,0x12
3.821547875000000,0,0xFF,0x12
3.821566083333333,0,0xFF,0x08
3.823525083333333,0,0xF0,0x02
3.823543125000000,0,0xFF,0x13
3.823561333333333,0,0xFF,0x08
3.825516125000000,0,0xB0,0x12
3.825534166666666,0,0xFF,0x12
3.825552375000000,0,0xFF,0x08
3.827510125000000,0,0xB0,0x12
3.827528125000000,0,0xFF,0x10
3.827546333333333,0,0xFF,0x08
3.829501083333333,0,0xB0,0x13
3.829519083333333,0,0x7F,0x1A
3.829537291666667,0,0xFF,0x08
3.831496250000000,0,0x98,0x1A
3.831514291666667,0,0xFF,0x12
3.831532500000000,0,0xFF,0x08
3.833484166666667,0,0xF0,0x12
3.833502166666667,0,0x7F,0x12
3.833520375000000,0,0xFF,0x08
3.835477708333333,0,0xB0,0x12
3.835495750000000,0,0xFF,0x12
3.835513958333333,0,0xFF,0x08
3.835538750000000,0,0x87,0x12
3.835556791666667,0,0xFF,0x00
3.835575000000000,0,0xFF,0x90
3.835595666666667,0,0x87,0x12
3.835613708333333,0,0x00,0x10
3.835631791666667,0,0x3E,0x12
3.836585791666667,0,0x07,0x01
3.836603833333333,0,0x00,0x01
3.836621916666667,0,0x3C,0x01
3.836642500000000,0,0x1E,0x01
3.836660541666667,0,0xC0,0x01
3.836678583333333,0,0x00,0x81
3.836698833333333,0,0x87,0x01
3.836716875000000,0,0xFF,0x00
3.836735083333333,0,0xFF,0x3C
3.836755958333333,0,0x03,0x01
3.836773958333333,0,0x80,0x01
3.836792041666667,0,0xBE,0x01
3.838182541666667,0,0x18,0x1A
3.838200583333333,0,0xFF,0x12
3.838218791666667,0,0xFF,0x18
3.840174375000000,0,0xB0,0x13
3.840192375000000,0,0x7F,0x12
3.840210583333334,0,0xFF,0x18
3.842170708333333,0,0x98,0x10
3.842188750000000,0,0xFF,0x02
3.842206958333333,0,0xFF,0x18
3.844163208333333,0,0x98,0x10
3.844181250000000,0,0xFF,0x12
3.844199458333333,0,0xFF,0x18
3.846161833333333,0,0xB0,0x13
3.846179833333333,0,0x7F,0x1A
3.846198041666667,0,0xFF,0x18
3.848157583333333,0,0xF0,0x02
3.848175583333334,0,0x7F,0x12
3.848193791666667,0,0xFF,0x18
3.850153291666667,0,0xB0,0x12
3.850171333333333,0,0xFF,0x12
3.850189541666666,0,0xFF,0x1C
3.852146541666666,0,0x98,0x10
3.852164583333333,0,0xFF,0x02
3.852182791666667,0,0xFF,0x0C
3.854145083333333,0,0xB0,0x12
3.854163125000000,0,0xFF,0x10
3.854181333333333,0,0xFF,0x18
3.856138041666667,0,0x90,0x12
3.856156083333333,0,0xFF,0x12
3.856174291666667,0,0xFF,0x18
3.858136375000000,0,0xB0,0x13
3.858154375000000,0,0x7F,0x1A
3.858172583333333,0,0xFF,0x18
3.860127166666667,0,0x98,0x1A
3.860145208333333,0,0xFF,0x12
3.860163416666667,0,0xFF,0x18
3.862124500000000,0,0xB0,0x12
3.862142541666667,0,0xFF,0x10
3.862160750000000,0,0xFF,0x18
3.864117541666667,0,0xB0,0x13
3.864135541666667,0,0x7F,0x12
3.864153750000000,0,0xFF,0x18
3.866109333333333,0,0x98,0x1A
3.866127375000000,0,0xFF,0x12
3.866145583333333,0,0xFF,0x0C
3.868103333333333,0,0xF0,0x12
3.868121375000000,0,0xFF,0x12
3.868139583333333,0,0xFF,0x0C
3.868164375000000,0,0x87,0x10
3.868182416666667,0,0xFF,0x00
3.868200625000000,0,0xFF,0xBC
3.868221166666667,0,0x87,0x12
3.868239208333333,0,0x00,0x10
3.868257291666667,0,0x1E,0x12
3.868386750000000,0,0x07,0x01
3.868404791666667,0,0x00,0x01
3.868422875000000,0,0x0F,0x00
3.868443458333333,0,0x1E,0x01
3.868461500000000,0,0xC0,0x01
3.868479583333333,0,0x80,0x00
3.868499791666667,0,0x07,0x81
3.868517833333333,0,0xFF,0x00
3.868536041666667,0,0xFF,0x1E
3.868556916666666,0,0x07,0x01
3.868574958333333,0,0x00,0x01
3.868593041666667,0,0x8F,0x00
3.870102958333333,0,0xB0,0x12
3.870121000000000,0,0xFF,0x02
3.870139208333333,0,0xFF,0x0C
3.872093958333333,0,0x90,0x12
3.872112000000000,0,0xFF,0x12
3.872130208333334,0,0xFF,0x1C
3.874093166666666,0,0xF0,0x12
3.874111166666667,0,0x7F,0x12
3.874129375000000,0,0xFF,0x1C
3.876087625000000,0,0xB0,0x12
3.876105666666667,0,0xFF,0x12
3.876123875000000,0,0xFF,0x1C
3.878083333333334,0,0x98,0x10
3.878101375000000,0,0xFF,0x02
3.878119583333334,0,0xFF,0x0C
3.880077083333333,0,0xB0,0x12
3.880095083333333,0,0x7F,0x12
3.880113291666667,0,0xFF,0x1C
3.882076666666667,0,0xB0,0x12
3.882094708333333,0,0xFF,0x12
3.882112916666667,0,0xFF,0x1E
3.884072000000000,0,0xF0,0x02
3.884090000000000,0,0x7F,0x12
3.884108208333333,0,0xFF,0x1C
3.886060500000000,0,0xB0,0x13
3.886078500000000,0,0xFF,0x1A
3.886096708333334,0,0xFF,0x1C
3.888055583333333,0,0xB0,0x12
3.888073625000000,0,0xFF,0x12
3.888091833333333,0,0xFF,0x1C
3.890053625000000,0,0xB0,0x12
3.890071666666667,0,0xFF,0x13
3.890089875000000,0,0xFF,0x1C
3.892048416666666,0,0x98,0x1A
3.892066458333333,0,0xFF,0x12
3.892084666666667,0,0xFF,0x1C
3.894042500000000,0,0xF0,0x02
3.894060500000000,0,0x7F,0x12
3.894078750000000,0,0xFF,0x1C
3.896036291666667,0,0xF0,0x02
3.896054291666667,0,0x7F,0x12
3.896072500000000,0,0xFF,0x1C
3.898033458333333,0,0xF0,0x12
3.898051458333333,0,0x7F,0x12
3.898069666666667,0,0xFF,0x1C
3.900025125000000,0,0xB0,0x12
3.900043125000000,0,0xFF,0x10
3.900061333333333,0,0xFF,0x1C
3.900086166666667,0,0x83,0x13
3.900104166666666,0,0xFF,0x00
3.900122375000000,0,0xFF,0x9E
3.900142958333333,0,0x03,0x12
3.900160958333333,0,0x80,0x12
3.900179041666667,0,0x66,0x18
3.901181291666667,0,0x07,0x01
3.901199333333333,0,0x00,0x01
3.901217416666667,0,0x46,0x01
3.901238041666667,0,0x30,0x00
3.901256041666667,0,0x00,0x01
3.901274125000000,0,0x80,0x01
3.901294375000000,0,0xC7,0x01
3.901312416666667,0,0xFF,0x00
3.901330625000000,0,0xFF,0x46
3.901351500000000,0,0x03,0x01
3.901369500000000,0,0x80,0x01
3.901387583333333,0,0xE6,0x01
3.902775000000000,0,0x98,0x1A
3.902793041666667,0,0xFF,0x12
3.902811250000000,0,0xFF,0x0C
3.904763041666667,0,0xB0,0x12
3.904781041666667,0,0xFF,0x10
3.904799250000000,0,0xFF,0x06
3.906759291666666,0,0xB0,0x12
3.906777333333333,0,0xFF,0x12
3.906795541666667,0,0xFF,0x0C
3.908750416666666,0,0x98,0x1A
3.908768458333333,0,0xFF,0x12
3.908786666666667,0,0xFF,0x0C
3.910741375000000,0,0x98,0x10
3.910759416666667,0,0xFF,0x02
3.910777625000000,0,0xFF,0x0C
3.912730083333333,0,0xB0,0x12
3.912748125000000,0,0xFF,0x12
3.912766333333333,0,0xFF,0x0C
3.914728250000000,0,0x98,0x1A
3.914746291666667,0,0xFF,0x12
3.914764500000000,0,0xFF,0x0C
3.916722666666667,0,0xB0,0x12
3.916740708333333,0,0xFF,0x12
3.916758916666667,0,0xFF,0x0C
3.918721750000000,0,0xB0,0x12
3.918739791666667,0,0xFF,0x12
3.918758000000000,0,0xFF,0x0C
3.920711125000000,0,0xB0,0x12
3.920729125000000,0,0x7F,0x1A
3.920747333333333,0,0xFF,0x04
3.922700041666667,0,0xB0,0x12
3.922718083333333,0,0xFF,0x10
3.922736291666667,0,0xFF,0x04
3.924690666666667,0,0x98,0x10
3.924708708333333,0,0xFF,0x12
3.924726916666667,0,0xFF,0x0C
3.926682500000000,0,0xB0,0x12
3.926700541666666,0,0xFF,0x10
3.926718750000000,0,0xFF,0x0E
3.928670333333333,0,0x98,0x1A
3.928688375000000,0,0xFF,0x12
3.928706583333333,0,0xFF,0x0C
3.930657583333333,0,0xB0,0x13
3.930675583333333,0,0x7F,0x1A
3.930693791666667,0,0xFF,0x0C
3.932645791666667,0,0xB0,0x12
3.932663833333333,0,0xFF,0x12
3.932682041666667,0,0xFF,0x0C
3.932706833333333,0,0x87,0x10
3.932724875000000,0,0xFF,0x00
3.932743083333333,0,0xFF,0xC6
3.932763625000000,0,0x87,0x12
3.932781666666667,0,0x00,0x10
3.932799750000000,0,0x00,0x12
3.932982916666667,0,0x07,0x01
3.933000958333333,0,0x00,0x01
3.933019041666667,0,0x00,0x01
3.933039625000000,0,0x1C,0x01
3.933057666666667,0,0x80,0x01
3.933075750000000,0,0xC0,0x01
3.933096000000000,0,0xC3,0x01
3.933114000000000,0,0xFF,0x80
3.933132250000000,0,0xFF,0x00
3.933153125000000,0,0x03,0x01
3.933171125000000,0,0x80,0x01
3.933189208333333,0,0x00,0x01
3.934644666666667,0,0xB0,0x12
3.934662666666667,0,0x7F,0x12
3.934680875000000,0,0xFF,0x00
3.936636375000000,0,0xB0,0x12
3.936654375000000,0,0x7F,0x12
3.936672583333333,0,0xFF,0x00
3.938627958333333,0,0x98,0x10
3.938646000000000,0,0xFF,0x02
3.938664208333333,0,0xFF,0x00
3.940620583333333,0,0xB0,0x12
3.940638625000000,0,0x7F,0x1A
3.940656833333333,0,0xFF,0x00
3.942613833333333,0,0xB0,0x12
3.942631875000000,0,0xFF,0x12
3.942650083333334,0,0xFF,0x00
3.944607416666666,0,0x98,0x1A
3.944625458333333,0,0xFF,0x12
3.944643666666667,0,0xFF,0x00
3.946596625000000,0,0xB0,0x12
3.946614625000000,0,0x7F,0x12
3.946632833333333,0,0xFF,0x00
3.948591333333333,0,0xB0,0x12
3.948609375000000,0,0xFF,0x1A
3.948627583333333,0,0xFF,0x00
3.950586041666666,0,0xB0,0x12
3.950604083333333,0,0xFF,0x12
3.950622291666666,0,0xFF,0x00
3.952583666666666,0,0x98,0x10
3.952601708333333,0,0xFF,0x02
3.952619916666666,0,0xFF,0x00
3.954574750000000,0,0x98,0x1A
3.954592791666667,0,0xFF,0x12
3.954611000000000,0,0xFF,0x00
3.956565458333333,0,0xF0,0x12
3.956583500000000,0,0xFF,0x13
3.956601708333333,0,0xFF,0x00
3.958555041666667,0,0xF0,0x12
3.958573041666666,0,0x7F,0x12
3.958591250000000,0,0xFF,0x00
3.960547500000000,0,0xF0,0x12
3.960565541666667,0,0xFF,0x13
3.960583750000000,0,0xFF,0x00
3.962542541666667,0,0xB0,0x12
3.962560583333333,0,0xFF,0x12
3.962578791666667,0,0xFF,0x00
3.964534541666667,0,0xB0,0x12
3.964552583333333,0,0xFF,0x12
3.964570791666667,0,0xFF,0x00
3.964595583333333,0,0x87,0x12
3.964613625000000,0,0xFF,0x00
3.964631833333333,0,0xFF,0x80
3.964652375000000,0,0x07,0x18
3.964670416666667,0,0x00,0x12
3.964688500000000,0,0x3C,0x12
3.964784708333333,0,0x07,0x01
3.964802750000000,0,0x00,0x00
3.964820791666666,0,0x08,0x01
3.964841416666667,0,0x34,0x01
3.964859458333333,0,0x80,0x00
3.964877500000000,0,0x00,0x01
3.964897750000000,0,0x87,0x01
3.964915791666667,0,0xFF,0x00
3.964934000000000,0,0xFF,0x28
3.964954875000000,0,0x07,0x01
3.964972916666667,0,0x00,0x00
3.964990958333333,0,0x28,0x01
3.966521583333333,0,0xB0,0x12
3.966539625000000,0,0xFF,0x13
3.966557833333333,0,0xFF,0x10
3.968515375000000,0,0xB0,0x12
3.968533375000000,0,0xFF,0x10
3.968551583333333,0,0xFF,0x10
3.970511083333333,0,0xB0,0x12
3.970529083333334,0,0xFF,0x12
3.970547291666667,0,0xFF,0x10
3.972506375000000,0,0x98,0x1A
3.972524416666666,0,0xFF,0x12
3.972542625000000,0,0xFF,0x00
3.974504625000000,0,0xB0,0x12
3.974522625000000,0,0xFF,0x10
3.974540833333333,0,0xFF,0x10
3.976500625000000,0,0x98,0x18
3.976518666666667,0,0xFF,0x02
3.976536875000000,0,0xFF,0x00
3.978491833333333,0,0xB0,0x13
3.978509833333333,0,0x7F,0x1A
3.978528041666667,0,0xFF,0x10
3.980482625000000,0,0x98,0x10
3.980500666666666,0,0xFF,0x02
3.980518875000000,0,0xFF,0x10
3.982473958333333,0,0x98,0x1A
3.982492000000000,0,0xFF,0x12
3.982510208333333,0,0xFF,0x10
3.984469875000000,0,0xF0,0x02
3.984487875000000,0,0x7F,0x12
3.984506083333333,0,0xFF,0x10
3.986456791666667,0,0x98,0x12
3.986474833333333,0,0xFF,0x12
3.986493041666667,0,0xFF,0x10
3.988449750000000,0,0xB0,0x12
3.988467791666667,0,0xFF,0x12
3.988486000000000,0,0xFF,0x10
3.990447000000000,0,0x98,0x1A
3.990465041666666,0,0xFF,0x12
3.990483250000000,0,0xFF,0x10
3.992438250000000,0,0xB0,0x13
3.992456250000000,0,0x7F,0x1A
3.992474458333333,0,0xFF,0x18
3.994436958333333,0,0x98,0x1A
3.994455000000000,0,0xFF,0x12
3.994473208333333,0,0xFF,0x10
3.996434583333333,0,0xF0,0x13
3.996452583333333,0,0x7F,0x1A
3.996470791666667,0,0xFF,0x10
3.996495583333334,0,0x87,0x12
3.996513625000000,0,0xFF,0x00
3.996531833333334,0,0xFF,0xA8
3.996552375000000,0,0x87,0x12
3.996570416666667,0,0x00,0x12
3.996588625000000,0,0x0A,0x12
3.997576541666667,0,0x07,0x01
3.997594583333334,0,0x00,0x01
3.997612666666666,0,0x0F,0x00
3.997633250000000,0,0x1E,0x01
3.997651291666667,0,0xC0,0x01
3.997669333333334,0,0x00,0x81
3.997689583333333,0,0x07,0x01
3.997707625000000,0,0xFF,0x00
3.997725833333333,0,0xFF,0x0A
3.997746708333333,0,0x03,0x01
3.997764708333333,0,0x80,0x01
3.997782791666667,0,0x80,0x01
3.999160958333333,0,0x30,0x12
3.999179000000000,0,0xFF,0x12
3.999197208333333,0,0xFF,0x14
4.001149541666667,0,0xF0,0x12
4.001167541666667,0,0x7F,0x12
4.001185750000000,0,0xFF,0x1C
4.003148625000000,0,0xB0,0x13
4.003166625000000,0,0x7F,0x1A
4.003184833333333,0,0xFF,0x1C
4.005142083333333,0,0xB0,0x12
4.005160125000000,0,0xFF,0x13
4.005178333333333,0,0xFF,0x14
4.007141708333333,0,0x98,0x18
4.007159750000000,0,0xFF,0x12
4.007177958333333,0,0xFF,0x04
4.009132500000000,0,0x98,0x1A
4.009150541666667,0,0xFF,0x12
4.009168750000000,0,0xFF,0x14
4.011126750000000,0,0xF0,0x12
4.011144750000000,0,0x7F,0x12
4.011162958333333,0,0xFF,0x14
4.013121916666667,0,0xF0,0x12
4.013139916666667,0,0x7F,0x1A
4.013158125000000,0,0xFF,0x16
4.015113083333333,0,0xB0,0x13
4.015131083333333,0,0xFF,0x1A
4.015149291666667,0,0xFF,0x1C
4.017108708333334,0,0xB0,0x13
4.017126708333334,0,0x7F,0x1A
4.017144916666667,0,0xFF,0x1C
4.019100416666666,0,0x98,0x10
4.019118458333334,0,0xFF,0x02
4.019136666666666,0,0xFF,0x04
4.021090791666666,0,0xB0,0x12
4.021108833333333,0,0xFF,0x10
4.021127041666666,0,0xFF,0x16
4.023089250000000,0,0x98,0x18
4.023107291666666,0,0xFF,0x12
4.023125500000000,0,0xFF,0x14
4.025079208333334,0,0xF0,0x02
4.025097208333333,0,0x7F,0x12
4.025115416666667,0,0xFF,0x14
4.027075833333333,0,0xF0,0x02
4.027093875000000,0,0xFF,0x12
4.027112083333333,0,0xFF,0x14
4.029065833333333,0,0xF0,0x02
4.029083833333333,0,0x7F,0x12
4.029102041666667,0,0xFF,0x14
4.029126875000000,0,0xC7,0x02
4.029144875000000,0,0xFF,0x00
4.029163125000000,0,0xFF,0x8A
4.029183666666666,0,0x07,0x12
4.029201708333333,0,0x00,0x12
4.029219750000000,0,0x32,0x12
4.029375500000000,0,0x07,0x01
4.029393541666667,0,0x00,0x00
4.029411583333333,0,0x1A,0x01
4.029432208333334,0,0x30,0x01
4.029450208333333,0,0x00,0x81
4.029468291666666,0,0x00,0x01
4.029488541666667,0,0x87,0x01
4.029506583333333,0,0xFF,0x00
4.029524791666667,0,0xFF,0x32
4.029545666666666,0,0x07,0x01
4.029563708333334,0,0x00,0x00
4.029581750000000,0,0x33,0x01
4.031056166666667,0,0x30,0x92
4.031074208333333,0,0xFF,0x10
4.031092416666667,0,0xFF,0x04
4.033048708333333,0,0xB0,0x12
4.033066708333333,0,0xFF,0x10
4.033084916666667,0,0xFF,0x04
4.035040833333333,0,0xF0,0x02
4.035058875000000,0,0xFF,0x13
4.035077083333333,0,0xFF,0x04
4.037037625000000,0,0xF0,0x02
4.037055625000000,0,0x7F,0x12
4.037073833333333,0,0xFF,0x04
4.039030875000000,0,0xB0,0x12
4.039048916666666,0,0xFF,0x12
4.039067125000000,0,0xFF,0x04
4.041023916666667,0,0xF0,0x02
4.041041916666667,0,0x7F,0x12
4.041060125000000,0,0xFF,0x04
4.043012625000000,0,0xB0,0x12
4.043030666666667,0,0xFF,0x12
4.043048875000000,0,0xFF,0x04
4.045007708333333,0,0x98,0x1A
4.045025750000000,0,0xFF,0x12
4.045043958333333,0,0xFF,0x04
4.047004958333333,0,0x98,0x10
4.047023000000000,0,0xFF,0x02
4.047041208333333,0,0xFF,0x00
4.049001291666666,0,0xF0,0x02
4.049019291666666,0,0x7F,0x12
4.049037500000000,0,0xFF,0x04
4.050993541666666,0,0x90,0x12
4.051011583333334,0,0xFF,0x12
4.051029791666667,0,0xFF,0x04
4.052986916666667,0,0xB0,0x13
4.053004916666667,0,0x7F,0x1A
4.053023125000000,0,0xFF,0x04
4.054977750000000,0,0x98,0x10
4.054995791666666,0,0xFF,0x12
4.055014000000000,0,0xFF,0x04
4.056969166666667,0,0xB0,0x12
4.056987208333333,0,0xFF,0x12
4.057005416666667,0,0xFF,0x00
4.058958958333333,0,0x98,0x1A
4.058977000000000,0,0xFF,0x12
4.058995208333333,0,0xFF,0x04
4.060950625000000,0,0xB0,0x12
4.060968625000000,0,0xFF,0x12
4.060986833333334,0,0xFF,0x04
4.061011625000000,0,0x87,0x1A
4.061029666666666,0,0xFF,0x00
4.061047875000000,0,0xFF,0xF2
4.061068416666667,0,0x07,0x18
4.061086458333333,0,0x00,0x12
4.061104541666666,0,0x10,0x12
4.061173958333334,0,0x03,0x00
4.061191958333334,0,0x80,0x01
4.061210041666667,0,0x16,0x01
4.061230666666667,0,0x30,0x01
4.061248666666667,0,0x00,0x01
4.061266750000000,0,0x80,0x01
4.061287000000000,0,0xC7,0x01
4.061305000000000,0,0xFF,0x80
4.061323250000000,0,0xFF,0x14
4.061344083333333,0,0x87,0x01
4.061362125000000,0,0x00,0x01
4.061380208333333,0,0x94,0x01
4.062942583333333,0,0xB0,0x12
4.062960625000000,0,0xFF,0x13
4.062978833333333,0,0xFF,0x08
4.064939083333333,0,0x98,0x10
4.064957125000000,0,0xFF,0x02
4.064975333333333,0,0xFF,0x0C
4.066930916666666,0,0xB0,0x12
4.066948958333334,0,0xFF,0x12
4.066967166666666,0,0xFF,0x08
4.068925750000000,0,0x98,0x10
4.068943791666666,0,0xFF,0x12
4.068962000000000,0,0xFF,0x08
4.070917583333333,0,0xB0,0x12
4.070935625000000,0,0xFF,0x13
4.070953833333333,0,0xFF,0x08
4.072909458333333,0,0xB0,0x12
4.072927500000000,0,0xFF,0x12
4.072945708333333,0,0xFF,0x08
4.074905666666667,0,0xF0,0x13
4.074923666666667,0,0x7F,0x12
4.074941875000000,0,0xFF,0x08
4.076898291666667,0,0xF0,0x12
4.076916333333333,0,0xFF,0x12
4.076934541666667,0,0xFF,0x08
4.078890791666667,0,0x98,0x10
4.078908833333333,0,0xFF,0x02
4.078927041666667,0,0xFF,0x08
4.080883250000000,0,0xB0,0x12
4.080901291666667,0,0xFF,0x13
4.080919500000000,0,0xFF,0x08
4.082882125000000,0,0xB0,0x12
4.082900125000000,0,0xFF,0x10
4.082918333333334,0,0xFF,0x00
4.084871916666667,0,0x90,0x12
4.084889958333333,0,0xFF,0x02
4.084908166666667,0,0xFF,0x0C
4.086859250000000,0,0x98,0x1A
4.086877291666666,0,0xFF,0x12
4.086895500000000,0,0xFF,0x08
4.088853791666667,0,0xB0,0x13
4.088871791666667,0,0x7F,0x18
4.088890000000000,0,0xFF,0x00
4.090850625000000,0,0xF0,0x12
4.090868625000000,0,0x7F,0x12
4.090886833333333,0,0xFF,0x00
4.092843416666667,0,0x98,0x1A
4.092861458333333,0,0xFF,0x12
4.092879666666667,0,0xFF,0x08
4.092904458333333,0,0x87,0x10
4.092922500000000,0,0xFF,0x00
4.092940708333333,0,0xFF,0x80
4.092961250000000,0,0x07,0x18
4.092979500000000,0,0x80,0x1A
4.092997583333333,0,0x3E,0x12
4.093966416666666,0,0x07,0x01
4.093984458333333,0,0x00,0x01
4.094002541666667,0,0x3C,0x00
4.094023125000000,0,0x36,0x01
4.094041166666667,0,0x80,0x00
4.094059208333333,0,0x00,0x01
4.094079458333334,0,0x87,0x01
4.094097500000000,0,0xFF,0x00
4.094115708333334,0,0xFF,0x3C
4.094136583333333,0,0x03,0x00
4.094154583333333,0,0x00,0x01
4.094172666666666,0,0xBE,0x01
4.095552458333334,0,0x30,0x92
4.095570500000000,0,0xFF,0x10
4.095588708333334,0,0xFF,0x18
4.097543125000000,0,0xB0,0x12
4.097561166666667,0,0xFF,0x10
4.097579375000000,0,0xFF,0x18
4.099540250000000,0,0x98,0x1A
4.099558291666667,0,0xFF,0x12
4.099576500000000,0,0xFF,0x18
4.101537125000000,0,0x90,0x12
4.101555166666667,0,0xFF,0x12
4.101573375000000,0,0xFF,0x18
4.103527500000000,0,0x98,0x10
4.103545541666667,0,0xFF,0x02
4.103563750000000,0,0xFF,0x18
4.105523208333334,0,0xF0,0x02
4.105541208333333,0,0x7F,0x12
4.105559416666667,0,0xFF,0x18
4.107511625000000,0,0xF0,0x02
4.107529625000000,0,0x7F,0x12
4.107547833333333,0,0xFF,0x18
4.109500000000000,0,0xB0,0x12
4.109518041666667,0,0xFF,0x12
4.109536250000000,0,0xFF,0x1C
4.111496125000000,0,0xB8,0x10
4.111514166666667,0,0xFF,0x02
4.111532375000000,0,0xFF,0x18
4.113490333333333,0,0x98,0x1A
4.113508375000000,0,0xFF,0x02
4.113526583333333,0,0xFF,0x0C
4.115487375000000,0,0xB0,0x12
4.115505416666666,0,0xFF,0x12
4.115523625000000,0,0xFF,0x18
4.117476041666666,0,0xF0,0x12
4.117494083333334,0,0xFF,0x12
4.117512250000000,0,0xFF,0x18
4.119475166666667,0,0xB0,0x12
4.119493208333333,0,0xFF,0x12
4.119511375000000,0,0xFF,0x18
4.121467416666666,0,0xB0,0x12
4.121485416666666,0,0xFF,0x10
4.121503625000000,0,0xFF,0x18
4.123454833333334,0,0xB0,0x12
4.123472875000000,0,0xFF,0x13
4.123491083333334,0,0xFF,0x18
4.125446041666667,0,0x98,0x1A
4.125464083333333,0,0xFF,0x12
4.125482291666667,0,0xFF,0x18
4.125507083333333,0,0x87,0x12
4.125525125000000,0,0xFF,0x00
4.125543333333333,0,0xFF,0xBE
4.125563916666667,0,0x03,0x13
4.125581916666667,0,0x80,0x1A
4.125600000000000,0,0x1E,0x12
4.125765708333334,0,0x07,0x01
4.125783750000000,0,0x00,0x01
4.125801833333333,0,0x1F,0x01
4.125822416666667,0,0x36,0x01
4.125840458333333,0,0x80,0x00
4.125858500000000,0,0x00,0x81
4.125878750000000,0,0x07,0x01
4.125896791666666,0,0xFF,0x00
4.125915000000000,0,0xFF,0x0E
4.125935875000000,0,0x03,0x01
4.125953875000000,0,0x80,0x81
4.125971958333333,0,0x1E,0x01
4.127444416666667,0,0x18,0x1A
4.127462458333333,0,0xFF,0x12
4.127480666666667,0,0xFF,0x0C
4.129438791666667,0,0x98,0x10
4.129456833333333,0,0xFF,0x02
4.129475041666667,0,0xFF,0x0C
4.131428666666666,0,0x90,0x12
4.131446708333334,0,0xFF,0x12
4.131464916666666,0,0xFF,0x1E
4.133417541666667,0,0xB0,0x12
4.133435583333333,0,0xFF,0x12
4.133453791666667,0,0xFF,0x1C
4.135410083333333,0,0xB0,0x12
4.135428083333333,0,0xFF,0x1A
4.135446291666667,0,0xFF,0x1E
4.137403166666667,0,0xB0,0x12
4.137421208333333,0,0xFF,0x10
4.137439416666667,0,0xFF,0x1C
4.139391333333333,0,0x98,0x10
4.139409375000000,0,0xFF,0x02
4.139427583333333,0,0xFF,0x0C
4.141381916666667,0,0xB0,0x12
4.141399916666667,0,0x7F,0x12
4.141418125000000,0,0xFF,0x1C
4.143381166666667,0,0xB0,0x12
4.143399208333333,0,0xFF,0x10
4.143417416666667,0,0xFF,0x1C
4.145376916666667,0,0xB0,0x12
4.145394958333333,0,0xFF,0x12
4.145413166666667,0,0xFF,0x1C
4.147366541666667,0,0xB0,0x12
4.147384583333333,0,0xFF,0x02
4.147402791666667,0,0xFF,0x0C
4.149359666666666,0,0x98,0x10
4.149377708333334,0,0xFF,0x02
4.149395916666666,0,0xFF,0x0C
4.151349416666666,0,0xB0,0x13
4.151367416666667,0,0x7F,0x1A
4.151385625000000,0,0xFF,0x1C
4.153345916666667,0,0xB0,0x12
4.153363916666667,0,0xFF,0x10
4.153382125000000,0,0xFF,0x1E
4.155337916666666,0,0xB0,0x12
4.155355958333334,0,0xFF,0x12
4.155374166666666,0,0xFF,0x1C
4.157333250000000,0,0xB0,0x12
4.157351291666667,0,0xFF,0x12
4.157369500000000,0,0xFF,0x1C
4.157394291666667,0,0x87,0x12
4.157412333333333,0,0xFF,0x00
4.157430541666667,0,0xFF,0x9E
4.157451125000000,0,0x07,0x13
4.157469125000000,0,0x00,0x1A
4.157487208333333,0,0x46,0x12
4.157565416666666,0,0x03,0x01
4.157583416666666,0,0x80,0x81
4.157601500000000,0,0x66,0x01
4.157622125000000,0,0x30,0x01
4.157640125000000,0,0x00,0x81
4.157658208333333,0,0x00,0x01
4.157678458333334,0,0x87,0x01
4.157696500000000,0,0xFF,0x00
4.157714708333334,0,0xFF,0x06
4.157735583333333,0,0x07,0x01
4.157753625000000,0,0x00,0x01
4.157771666666667,0,0x47,0x81
4.159326500000000,0,0x98,0x10
4.159344541666667,0,0xFF,0x02
4.159362750000000,0,0xFF,0x0C
4.161324791666667,0,0x98,0x10
4.161342833333333,0,0xFF,0x02
4.161361041666667,0,0xFF,0x0C
4.163318708333334,0,0xF0,0x12
4.163336750000000,0,0xFF,0x12
4.163354958333334,0,0xFF,0x0C
4.165313791666667,0,0x90,0x12
4.165331833333333,0,0xFF,0x12
4.165350041666667,0,0xFF,0x0C
4.167306041666667,0,0xF0,0x12
4.167324041666666,0,0x7F,0x12
4.167342250000000,0,0xFF,0x04
4.169298541666667,0,0xF0,0x02
4.169316541666666,0,0x7F,0x12
4.169334750000000,0,0xFF,0x0C
4.171297291666667,0,0x98,0x1A
4.171315333333333,0,0xFF,0x12
4.171333541666667,0,0xFF,0x0C
4.173290333333333,0,0xB0,0x12
4.173308333333333,0,0xFF,0x10
4.173326541666667,0,0xFF,0x0E
4.175280625000000,0,0xB0,0x12
4.175298666666666,0,0xFF,0x02
4.175316875000000,0,0xFF,0x0C
4.177274875000000,0,0xB0,0x12
4.177292875000000,0,0xFF,0x1A
4.177311083333334,0,0xFF,0x04
4.179268541666667,0,0xB0,0x12
4.179286583333333,0,0xFF,0x12
4.179304791666667,0,0xFF,0x0C
4.181268083333333,0,0x98,0x10
4.181286125000000,0,0xFF,0x02
4.181304333333333,0,0xFF,0x0C
4.183266250000000,0,0xF0,0x12
4.183284291666666,0,0xFF,0x12
4.183302458333333,0,0xFF,0x0C
4.185260875000000,0,0xB0,0x13
4.185278875000000,0,0x7F,0x1A
4.185297083333333,0,0xFF,0x06
4.187254166666666,0,0x98,0x10
4.187272208333333,0,0xFF,0x12
4.187290416666666,0,0xFF,0x0C
4.189243541666666,0,0xF0,0x12
4.189261541666666,0,0x7F,0x12
4.189279750000000,0,0xFF,0x04
4.189304583333334,0,0x83,0x13
4.189322583333333,0,0xFF,0x00
4.189340791666667,0,0xFF,0xE6
4.189363416666667,0,0x07,0x12
4.189381416666667,0,0x00,0x10
4.189399500000000,0,0x00,0x12
4.190357083333334,0,0x07,0x01
4.190375125000000,0,0x00,0x01
4.190393208333333,0,0x00,0x01
4.190413791666667,0,0x1E,0x01
4.190431833333333,0,0xC0,0x01
4.190449916666667,0,0x80,0x01
4.190470125000000,0,0x07,0x01
4.190488166666666,0,0xFF,0x00
4.190506375000000,0,0xFF,0x00
4.190527250000000,0,0x07,0x01
4.190545250000000,0,0x80,0x81
4.190563333333333,0,0x00,0x01
4.191987541666666,0,0xF0,0x12
4.192005583333334,0,0xFF,0x12
4.192023791666666,0,0xFF,0x00
4.193976833333333,0,0xF0,0x02
4.193994833333333,0,0x7F,0x12
4.194013041666667,0,0xFF,0x00
4.195973666666666,0,0xB0,0x12
4.195991708333334,0,0xFF,0x12
4.196009916666666,0,0xFF,0x00
4.197964750000000,0,0x98,0x1A
4.197982791666667,0,0xFF,0x12
4.198001000000000,0,0xFF,0x00
4.199961291666667,0,0xB0,0x12
4.199979333333333,0,0xFF,0x10
4.199997541666667,0,0xFF,0x00
4.201952250000000,0,0xF0,0x13
4.201970250000000,0,0x7F,0x1A
4.201988458333333,0,0xFF,0x00
4.203948875000000,0,0xB0,0x12
4.203966916666666,0,0xFF,0x12
4.203985125000000,0,0xFF,0x00
4.205940333333333,0,0x98,0x10
4.205958375000000,0,0xFF,0x02
4.205976583333333,0,0xFF,0x00
4.207928041666666,0,0xB0,0x12
4.207946083333334,0,0xFF,0x10
4.207964291666666,0,0xFF,0x00
4.209915708333333,0,0xF0,0x12
4.209933750000000,0,0xFF,0x13
4.209951958333333,0,0xFF,0x00
4.211903375000000,0,0x98,0x1A
4.211921416666667,0,0xFF,0x12
4.211939625000000,0,0xFF,0x00
4.213890833333333,0,0x98,0x1A
4.213908875000000,0,0xFF,0x12
4.213927083333333,0,0xFF,0x00
4.215890708333333,0,0xF0,0x02
4.215908708333333,0,0x7F,0x12
4.215926916666667,0,0xFF,0x00
4.217883208333333,0,0xB0,0x12
4.217901250000000,0,0xFF,0x13
4.217919458333333,0,0xFF,0x00
4.219874416666666,0,0xF0,0x12
4.219892458333334,0,0xFF,0x13
4.219910666666666,0,0xFF,0x00
4.221862916666667,0,0xF0,0x12
4.221880916666667,0,0x7F,0x12
4.221899125000000,0,0xFF,0x00
4.221923958333333,0,0xC7,0x12
4.221942000000000,0,0xFF,0x00
4.221960208333333,0,0xFF,0x80
4.221980750000000,0,0x07,0x10
4.221998791666667,0,0x00,0x02
4.222016875000000,0,0x3C,0x13
4.222156375000000,0,0x03,0x00
4.222174416666666,0,0x00,0x01
4.222192500000000,0,0x00,0x01
4.222213125000000,0,0x30,0x01
4.222231125000000,0,0x00,0x81
4.222249208333333,0,0x00,0x01
4.222269458333333,0,0x07,0x01
4.222287500000000,0,0xFF,0x00
4.222305708333334,0,0xFF,0x28
4.222326583333333,0,0x07,0x01
4.222344625000000,0,0x00,0x01
4.222362708333334,0,0xBC,0x01
4.223850583333333,0,0xF0,0x02
4.223868625000000,0,0xFF,0x12
4.223886833333333,0,0xFF,0x10
4.225842375000000,0,0xF0,0x02
4.225860375000000,0,0x7F,0x12
4.225878625000000,0,0xFF,0x10
4.227833708333334,0,0xB0,0x12
4.227851750000000,0,0xFF,0x12
4.227869958333334,0,0xFF,0x00
4.229830625000000,0,0xB0,0x12
4.229848666666666,0,0xFF,0x12
4.229866875000000,0,0xFF,0x10
4.231825000000000,0,0xF0,0x02
4.231843000000000,0,0x7F,0x12
4.231861208333333,0,0xFF,0x10
4.233814375000000,0,0xB0,0x12
4.233832416666667,0,0xFF,0x12
4.233850625000000,0,0xFF,0x10
4.235808458333334,0,0x98,0x10
4.235826500000000,0,0xFF,0x02
4.235844708333333,0,0xFF,0x00
4.237801625000000,0,0xB0,0x13
4.237819625000000,0,0x7F,0x1A
4.237837833333334,0,0xFF,0x10
4.239790500000000,0,0xB0,0x13
4.239808500000000,0,0xFF,0x10
4.239826708333333,0,0xFF,0x10
4.241780000000000,0,0xB0,0x12
4.241798041666667,0,0xFF,0x12
4.241816250000000,0,0xFF,0x10
4.243776125000000,0,0xF0,0x02
4.243794125000000,0,0x7F,0x12
4.243812333333334,0,0xFF,0x18
4.245772000000000,0,0xB0,0x12
4.245790000000000,0,0xFF,0x10
4.245808208333333,0,0xFF,0x10
4.247761708333333,0,0xF0,0x02
4.247779708333334,0,0x7F,0x12
4.247797916666666,0,0xFF,0x10
4.249759125000000,0,0xB0,0x12
4.249777125000000,0,0xFF,0x10
4.249795333333333,0,0xFF,0x10
4.251747333333333,0,0xF0,0x12
4.251765333333333,0,0x7F,0x12
4.251783541666667,0,0xFF,0x10
4.253742958333333,0,0xF0,0x12
4.253761000000000,0,0xFF,0x12
4.253779208333333,0,0xFF,0x10
4.253804000000000,0,0xC3,0x02
4.253822000000000,0,0xFF,0x00
4.253840208333333,0,0xFF,0x28
4.253860791666667,0,0x03,0x02
4.253878791666667,0,0x80,0x12
4.253896875000000,0,0x02,0x12
4.253956708333333,0,0x07,0x01
4.253974750000000,0,0x00,0x01
4.253992833333333,0,0x0A,0x01
4.254013416666667,0,0x1C,0x01
4.254031458333333,0,0x80,0x01
4.254049541666666,0,0xC0,0x01
4.254069791666667,0,0x83,0x00
4.254087791666667,0,0xFF,0x00
4.254106000000000,0,0xFF,0x0A
4.254126875000000,0,0x87,0x01
4.254144916666666,0,0x00,0x01
4.254163000000000,0,0xCA,0x01
4.255738083333333,0,0x18,0x1A
4.255756125000000,0,0xFF,0x12
4.255774333333333,0,0xFF,0x14
4.257734041666667,0,0x98,0x10
4.257752083333333,0,0xFF,0x02
4.257770291666667,0,0xFF,0x14
4.259730750000000,0,0xB0,0x13
4.259748750000000,0,0xFF,0x1A
4.259766958333334,0,0xFF,0x1E
4.261726500000000,0,0xF0,0x02
4.261744500000000,0,0x7F,0x12
4.261762708333333,0,0xFF,0x14
4.263715750000000,0,0x98,0x1A
4.263733791666667,0,0xFF,0x12
4.263752000000000,0,0xFF,0x04
4.265709750000000,0,0x98,0x1A
4.265727791666666,0,0xFF,0x12
4.265746000000000,0,0xFF,0x14
4.267700791666667,0,0xB0,0x13
4.267718791666667,0,0x7F,0x1A
4.267737000000000,0,0xFF,0x1E
4.269691333333333,0,0xF0,0x02
4.269709333333333,0,0x7F,0x12
4.269727541666667,0,0xFF,0x1C
4.271687875000000,0,0xB0,0x12
4.271705916666667,0,0xFF,0x13
4.271724125000000,0,0xFF,0x14
4.273684958333333,0,0x98,0x1A
4.273703000000000,0,0xFF,0x12
4.273721208333333,0,0xFF,0x14
4.275678666666667,0,0xB0,0x12
4.275696708333333,0,0xFF,0x12
4.275714875000000,0,0xFF,0x14
4.277671916666667,0,0xF0,0x13
4.277689916666667,0,0x7F,0x1A
4.277708125000000,0,0xFF,0x16
4.279667791666666,0,0xB0,0x12
4.279685833333334,0,0xFF,0x12
4.279704041666666,0,0xFF,0x14
4.281663541666667,0,0xB0,0x12
4.281681541666667,0,0x7F,0x12
4.281699750000000,0,0xFF,0x14
4.283659333333333,0,0xF0,0x02
4.283677333333333,0,0x7F,0x12
4.283695541666667,0,0xFF,0x14
4.285653458333333,0,0x98,0x10
4.285671500000000,0,0xFF,0x02
4.285689708333333,0,0xFF,0x04
4.285714500000000,0,0x87,0x12
4.285732541666667,0,0xFF,0x00
4.285752916666667,0,0xFF,0x8A
4.285773458333333,0,0x07,0x10
4.285791500000000,0,0x00,0x02
4.285809583333333,0,0x33,0x12
4.286748083333333,0,0x03,0x00
4.286766083333333,0,0x00,0x01
4.286784166666667,0,0x30,0x01
4.286804750000000,0,0x34,0x81
4.286822791666666,0,0x80,0x01
4.286840875000000,0,0xC0,0x01
4.286861125000000,0,0x83,0x01
4.286879125000000,0,0xFF,0x00
4.286897333333333,0,0xFF,0x1A
4.286918208333334,0,0x87,0x01
4.286936250000000,0,0x00,0x01
4.286954333333333,0,0xB3,0x00
4.288348750000000,0,0xB0,0x12
4.288366791666666,0,0xFF,0x13
4.288385000000000,0,0xFF,0x04
4.290343458333333,0,0xF0,0x02
4.290361458333333,0,0x7F,0x12
4.290379666666666,0,0xFF,0x04
4.292333041666667,0,0xF0,0x02
4.292351083333333,0,0xFF,0x12
4.292369250000000,0,0xFF,0x04
4.294324083333334,0,0x90,0x12
4.294342125000000,0,0xFF,0x12
4.294360333333334,0,0xFF,0x04
4.296321666666667,0,0xB0,0x12
4.296339708333333,0,0xFF,0x10
4.296357916666667,0,0xFF,0x06
4.298317458333333,0,0xB0,0x12
4.298335500000000,0,0xFF,0x12
4.298353708333333,0,0xFF,0x04
4.300309666666666,0,0xF0,0x02
4.300327666666667,0,0x7F,0x12
4.300345875000000,0,0xFF,0x04
4.302301666666667,0,0xB0,0x12
4.302319708333333,0,0xFF,0x10
4.302337916666667,0,0xFF,0x06
4.304298833333333,0,0x98,0x1A
4.304316875000000,0,0xFF,0x12
4.304335083333333,0,0xFF,0x00
4.306295291666666,0,0xB0,0x12
4.306313333333334,0,0xFF,0x12
4.306331541666666,0,0xFF,0x00
4.308284666666666,0,0xB0,0x13
4.308302666666667,0,0xFF,0x10
4.308320875000000,0,0xFF,0x06
4.310276250000000,0,0x98,0x10
4.310294291666667,0,0xFF,0x02
4.310312500000000,0,0xFF,0x00
4.312266083333333,0,0xB0,0x12
4.312284125000000,0,0xFF,0x10
4.312302333333333,0,0xFF,0x06
4.314258583333333,0,0x98,0x1A
4.314276625000000,0,0xFF,0x12
4.314294833333333,0,0xFF,0x04
4.316253625000000,0,0xB8,0x10
4.316271666666666,0,0xFF,0x02
4.316289875000000,0,0xFF,0x00
4.318253666666667,0,0x90,0x10
4.318271708333334,0,0xFF,0x02
4.318289916666667,0,0xFF,0x04
4.318314708333333,0,0x87,0x10
4.318332750000000,0,0xFF,0x00
4.318350958333333,0,0xFF,0xB2
4.318371500000000,0,0x07,0x1A
4.318389541666667,0,0x00,0x12
4.318407625000000,0,0x00,0x12
4.318547250000000,0,0x07,0x01
4.318565250000000,0,0x00,0x01
4.318583333333334,0,0x14,0x01
4.318603916666667,0,0x34,0x81
4.318621958333333,0,0x80,0x01
4.318640041666667,0,0xC0,0x01
4.318660291666666,0,0x83,0x00
4.318678291666667,0,0xFF,0x00
4.318696500000000,0,0xFF,0x1C
4.318717375000000,0,0x07,0x01
4.318735416666667,0,0x00,0x01
4.318753500000000,0,0xC0,0x01
4.320243291666666,0,0xF0,0x12
4.320261291666666,0,0x7F,0x12
4.320279500000000,0,0xFF,0x00
4.322238375000000,0,0xB0,0x12
4.322256416666667,0,0xFF,0x12
4.322274625000000,0,0xFF,0x08
4.324236833333333,0,0x98,0x10
4.324254875000000,0,0xFF,0x02
4.324273083333333,0,0xFF,0x08
4.326229416666667,0,0x90,0x12
4.326247458333333,0,0xFF,0x13
4.326265666666667,0,0xFF,0x08
4.328216625000000,0,0xB0,0x12
4.328234625000000,0,0xFF,0x12
4.328252833333333,0,0xFF,0x08
4.330210208333333,0,0x98,0x1A
4.330228250000000,0,0xFF,0x12
4.330246458333334,0,0xFF,0x08
4.332205666666667,0,0xB0,0x12
4.332223708333333,0,0xFF,0x12
4.332241916666667,0,0xFF,0x08
4.334197083333334,0,0x98,0x1A
4.334215125000000,0,0xFF,0x12
4.334233333333334,0,0xFF,0x08
4.336193000000000,0,0xB0,0x12
4.336211041666667,0,0xFF,0x12
4.336229250000000,0,0xFF,0x08
4.338183666666667,0,0xB0,0x12
4.338201708333333,0,0xFF,0x13
4.338219916666667,0,0xFF,0x08
4.340174125000000,0,0xB0,0x13
4.340192125000000,0,0x7F,0x12
4.340210333333333,0,0xFF,0x08
4.342163291666667,0,0x98,0x10
4.342181333333333,0,0xFF,0x02
4.342199541666667,0,0xFF,0x08
4.344152458333333,0,0x90,0x12
4.344170500000000,0,0xFF,0x12
4.344188708333333,0,0xFF,0x08
4.346147000000000,0,0xF0,0x12
4.346165000000000,0,0x7F,0x12
4.346183208333334,0,0xFF,0x08
4.348143583333333,0,0xB0,0x12
4.348161625000000,0,0xFF,0x13
4.348179833333333,0,0xFF,0x08
4.350133916666667,0,0x98,0x10
4.350151958333333,0,0xFF,0x12
4.350170166666667,0,0xFF,0x08
4.350194958333334,0,0x87,0x12
4.350213000000000,0,0xFF,0x00
4.350231208333334,0,0xFF,0x90
4.350251750000000,0,0x07,0x12
4.350269791666666,0,0x00,0x02
4.350287833333334,0,0x3C,0x12
4.350344875000000,0,0x07,0x01
4.350362875000000,0,0x00,0x01
4.350380958333333,0,0x3C,0x01
4.350401541666667,0,0x34,0x01
4.350419583333333,0,0x80,0x01
4.350437666666667,0,0xC0,0x01
4.350457916666667,0,0x83,0x00
4.350475916666666,0,0xFF,0x00
4.350494125000000,0,0xFF,0x3C
4.350515000000000,0,0x87,0x01
4.350533041666667,0,0x00,0x01
4.350551125000000,0,0xFC,0x01
4.352128625000000,0,0x18,0x10
4.352146666666667,0,0xFF,0x12
4.352164875000000,0,0xFF,0x18
4.354122083333333,0,0x90,0x12
4.354140125000000,0,0xFF,0x12
4.354158333333333,0,0xFF,0x18
4.356119041666667,0,0xB0,0x12
4.356137083333333,0,0xFF,0x13
4.356155291666667,0,0xFF,0x18
4.358111000000000,0,0xF0,0x02
4.358129000000000,0,0x7F,0x12
4.358147208333333,0,0xFF,0x18
4.360102166666667,0,0xB0,0x12
4.360120208333333,0,0xFF,0x12
4.360138416666667,0,0xFF,0x1C
4.362093458333334,0,0xF0,0x02
4.362111458333334,0,0x7F,0x12
4.362129666666666,0,0xFF,0x18
4.364084250000000,0,0xB0,0x12
4.364102291666667,0,0xFF,0x12
4.364120500000000,0,0xFF,0x18
4.366073458333333,0,0xF0,0x12
4.366091500000000,0,0xFF,0x12
4.366109666666667,0,0xFF,0x18
4.368067208333334,0,0xB0,0x12
4.368085250000000,0,0xFF,0x13
4.368103458333334,0,0xFF,0x18
4.370059500000000,0,0xF0,0x02
4.370077500000000,0,0x7F,0x12
4.370095708333333,0,0xFF,0x18
4.372056791666667,0,0x98,0x10
4.372074833333333,0,0xFF,0x02
4.372093041666667,0,0xFF,0x0C
4.374048291666667,0,0xB0,0x12
4.374066291666667,0,0xFF,0x10
4.374084500000000,0,0xFF,0x18
4.376037333333334,0,0x98,0x10
4.376055375000000,0,0xFF,0x02
4.376073583333334,0,0xFF,0x08
4.378026291666667,0,0xF0,0x12
4.378044291666667,0,0x7F,0x12
4.378062500000000,0,0xFF,0x18
4.380015583333333,0,0x98,0x1A
4.380033625000000,0,0xFF,0x12
4.380051833333333,0,0xFF,0x18
4.382010958333334,0,0xB0,0x13
4.382028958333334,0,0x7F,0x1A
4.382047166666666,0,0xFF,0x18
4.382072000000000,0,0x83,0x13
4.382090000000000,0,0xFF,0x00
4.382108208333333,0,0xFF,0xBE
4.382128791666666,0,0x03,0x13
4.382147000000000,0,0x00,0x12
4.382165041666667,0,0x1E,0x12
4.383136791666667,0,0x07,0x01
4.383154833333333,0,0x00,0x01
4.383172916666667,0,0x0F,0x00
4.383193500000000,0,0x1E,0x01
4.383211541666666,0,0xC0,0x01
4.383229625000000,0,0x80,0x01
4.383249875000000,0,0x83,0x00
4.383267875000000,0,0xFF,0x00
4.383286083333333,0,0xFF,0x1E
4.383306958333334,0,0x87,0x01
4.383325000000000,0,0x00,0x01
4.383343083333333,0,0xDE,0x01
4.384725166666667,0,0x18,0x1A
4.384743208333333,0,0xFF,0x12
4.384761416666667,0,0xFF,0x1C
4.386713083333333,0,0x90,0x12
4.386731125000000,0,0xFF,0x12
4.386749333333333,0,0xFF,0x1C
4.388711666666667,0,0xB0,0x12
4.388729708333333,0,0xFF,0x12
4.388747875000000,0,0xFF,0x1C
4.390705458333334,0,0xF0,0x02
4.390723458333333,0,0x7F,0x12
4.390741666666667,0,0xFF,0x1C
4.392696833333333,0,0x98,0x10
4.392714875000000,0,0xFF,0x02
4.392733083333333,0,0xFF,0x1C
4.394690708333333,0,0xF0,0x12
4.394708750000000,0,0xFF,0x13
4.394726958333333,0,0xFF,0x1C
4.396689333333334,0,0xB0,0x13
4.396707333333334,0,0xFF,0x1A
4.396725541666667,0,0xFF,0x1C
4.398682166666666,0,0xB0,0x13
4.398700166666667,0,0xFF,0x18
4.398718375000000,0,0xFF,0x1E
4.400679208333333,0,0xB0,0x12
4.400697250000000,0,0xFF,0x12
4.400715458333333,0,0xFF,0x1C
4.402671291666667,0,0xB0,0x12
4.402689333333333,0,0xFF,0x13
4.402707541666667,0,0xFF,0x1C
4.404659625000000,0,0xB0,0x12
4.404677666666666,0,0xFF,0x13
4.404695875000000,0,0xFF,0x1C
4.406650708333333,0,0xB0,0x13
4.406668708333333,0,0x7F,0x18
4.406686916666667,0,0xFF,0x1E
4.408649375000000,0,0xB0,0x12
4.408667416666667,0,0xFF,0x13
4.408685625000000,0,0xFF,0x1C
4.410645500000000,0,0xB0,0x12
4.410663541666667,0,0xFF,0x12
4.410681750000000,0,0xFF,0x1C
4.412636166666666,0,0xB0,0x13
4.412654166666667,0,0x7F,0x1A
4.412672375000000,0,0xFF,0x1E
4.414633291666667,0,0xF0,0x12
4.414651333333333,0,0xFF,0x13
4.414669541666667,0,0xFF,0x1C
4.414694333333333,0,0xC7,0x12
4.414712375000000,0,0xFF,0x00
4.414730583333333,0,0xFF,0x9F
4.414751125000000,0,0x07,0x12
4.414769166666667,0,0x00,0x13
4.414787208333333,0,0x66,0x12
4.414935041666666,0,0x07,0x01
4.414953083333334,0,0x00,0x01
4.414971125000000,0,0x47,0x81
4.414991750000000,0,0x34,0x01
4.415009791666667,0,0x80,0x01
4.415027833333333,0,0x00,0x01
4.415048083333334,0,0x87,0x01
4.415066125000000,0,0xFF,0x00
4.415084333333334,0,0xFF,0x42
4.415105208333333,0,0x03,0x01
4.415123208333333,0,0x80,0x01
4.415141291666667,0,0xC6,0x01
4.416628958333333,0,0xB0,0x13
4.416646958333334,0,0x7F,0x1A
4.416665166666666,0,0xFF,0x04
4.418622375000000,0,0xB0,0x12
4.418640416666666,0,0xFF,0x12
4.418658625000000,0,0xFF,0x0C
4.420617583333334,0,0x98,0x1A
4.420635625000000,0,0xFF,0x02
4.420653833333334,0,0xFF,0x0C
4.422612625000000,0,0xB0,0x12
4.422630666666667,0,0xFF,0x13
4.422648875000000,0,0xFF,0x0C
4.424610750000000,0,0xB0,0x13
4.424628750000000,0,0x7F,0x1A
4.424646958333334,0,0xFF,0x04
4.426604375000000,0,0xB0,0x12
4.426622416666667,0,0xFF,0x12
4.426640625000000,0,0xFF,0x0C
4.428594041666667,0,0xB0,0x13
4.428612041666667,0,0x7F,0x1A
4.428630250000000,0,0xFF,0x04
4.430586250000000,0,0xB0,0x12
4.430604291666667,0,0xFF,0x12
4.430622500000000,0,0xFF,0x0C
4.432576291666667,0,0xF0,0x02
4.432594291666667,0,0x7F,0x12
4.432612500000000,0,0xFF,0x0C
4.434571833333333,0,0xF0,0x12
4.434589875000000,0,0xFF,0x13
4.434608083333333,0,0xFF,0x0C
4.436565583333334,0,0x98,0x18
4.436583625000000,0,0xFF,0x02
4.436601833333333,0,0xFF,0x0C
4.438560416666666,0,0x98,0x1A
4.438578458333334,0,0xFF,0x12
4.438596666666666,0,0xFF,0x0C
4.440549250000000,0,0xF0,0x12
4.440567291666667,0,0xFF,0x12
4.440585500000000,0,0xFF,0x0C
4.442548666666666,0,0x98,0x1A
4.442566708333334,0,0xFF,0x12
4.442584916666667,0,0xFF,0x0C
4.444540250000000,0,0x90,0x12
4.444558291666667,0,0xFF,0x12
4.444576500000000,0,0xFF,0x0C
4.446536250000000,0,0xB0,0x12
4.446554291666667,0,0xFF,0x12
4.446572500000000,0,0xFF,0x0C
4.446597291666667,0,0x87,0x12
4.446615333333333,0,0xFF,0x00
4.446633541666666,0,0xFF,0xC7
4.446654083333334,0,0x07,0x12
4.446672125000000,0,0x00,0x13
4.446690166666666,0,0x00,0x12
4.446733583333334,0,0x07,0x01
4.446751625000000,0,0x00,0x01
4.446769708333333,0,0x00,0x01
4.446790291666667,0,0x1E,0x01
4.446808333333333,0,0xC0,0x01
4.446826416666666,0,0x80,0x00
4.446846625000000,0,0x07,0x81
4.446864666666666,0,0xFF,0x00
4.446882875000000,0,0xFF,0x00
4.446903750000000,0,0x07,0x01
4.446921791666667,0,0x00,0x01
4.446939833333333,0,0x00,0x81
4.448531541666667,0,0xB8,0x10
4.448549583333334,0,0xFF,0x02
4.448567791666667,0,0xFF,0x00
4.450525333333333,0,0x90,0x12
4.450543375000000,0,0xFF,0x12
4.450561583333333,0,0xFF,0x00
4.452523625000000,0,0xB0,0x12
4.452541666666667,0,0xFF,0x12
4.452559875000000,0,0xFF,0x00
4.454517625000000,0,0x98,0x1A
4.454535666666667,0,0xFF,0x12
4.454553875000000,0,0xFF,0x00
4.456514791666667,0,0xB0,0x12
4.456532833333333,0,0xFF,0x12
4.456551041666667,0,0xFF,0x00
4.458508541666666,0,0x90,0x12
4.458526583333334,0,0xFF,0x12
4.458544791666666,0,0xFF,0x00
4.460501500000000,0,0xB0,0x12
4.460519541666667,0,0xFF,0x13
4.460537750000000,0,0xFF,0x00
4.462495041666667,0,0xB0,0x13
4.462513041666667,0,0x7F,0x1A
4.462531250000000,0,0xFF,0x00
4.464489375000000,0,0xB0,0x12
4.464507416666667,0,0xFF,0x13
4.464525625000000,0,0xFF,0x00
4.466484708333334,0,0xB0,0x12
4.466502750000000,0,0xFF,0x13
4.466520958333334,0,0xFF,0x00
4.468477208333334,0,0xB0,0x10
4.468495250000000,0,0xFF,0x02
4.468513458333334,0,0xFF,0x00
4.470469958333333,0,0xB0,0x12
4.470488000000000,0,0xFF,0x12
4.470506208333333,0,0xFF,0x00
4.472468125000000,0,0x90,0x12
4.472486166666667,0,0xFF,0x12
4.472504375000000,0,0xFF,0x00
4.474463375000000,0,0x98,0x1A
4.474481416666666,0,0xFF,0x12
4.474499625000000,0,0xFF,0x00
4.476457541666667,0,0xF0,0x02
4.476475541666667,0,0x7F,0x12
4.476493750000000,0,0xFF,0x00
4.478451041666666,0,0xF0,0x12
4.478469041666667,0,0x7F,0x12
4.478487250000000,0,0xFF,0x00
4.478512083333333,0,0xC3,0x02
4.478532041666667,0,0xFF,0x00
4.478550250000000,0,0xFF,0x80
4.478570833333333,0,0x07,0x12
4.478588833333333,0,0x00,0x10
4.478606916666667,0,0x28,0x12
4.479526875000000,0,0x07,0x01
4.479544916666667,0,0x00,0x00
4.479562958333333,0,0x00,0x01
4.479583583333334,0,0x30,0x01
4.479601583333333,0,0x00,0x81
4.479619666666666,0,0x80,0x01
4.479639916666667,0,0x87,0x01
4.479657958333333,0,0xFF,0x00
4.479676166666667,0,0xFF,0x28
4.479697041666666,0,0x03,0x00
4.479715041666666,0,0x80,0x01
4.479733125000000,0,0xA8,0x01
4.481113583333333,0,0xF0,0x02
4.481131583333333,0,0x7F,0x12
4.481149791666667,0,0xFF,0x10
4.483101333333333,0,0x98,0x10
4.483119375000000,0,0xFF,0x02
4.483137583333333,0,0xFF,0x10
4.485089541666667,0,0xF0,0x12
4.485107541666666,0,0x7F,0x12
4.485125750000000,0,0xFF,0x10
4.487083750000000,0,0xF0,0x13
4.487101750000000,0,0x7F,0x1A
4.487119958333333,0,0xFF,0x10
4.489082916666667,0,0x98,0x10
4.489100958333333,0,0xFF,0x02
4.489119166666667,0,0xFF,0x00
4.491082583333333,0,0xB0,0x12
4.491100625000000,0,0xFF,0x12
4.491118833333333,0,0xFF,0x10
4.493079333333333,0,0x98,0x1A
4.493097375000000,0,0xFF,0x12
4.493115583333333,0,0xFF,0x00
4.495070500000000,0,0xF0,0x12
4.495088500000000,0,0x7F,0x1A
4.495106708333333,0,0xFF,0x10
4.497067208333333,0,0xF0,0x12
4.497085250000000,0,0xFF,0x12
4.497103416666667,0,0xFF,0x10
4.499054708333333,0,0xB0,0x12
4.499072708333333,0,0xFF,0x10
4.499090916666667,0,0xFF,0x10
4.501053166666667,0,0x98,0x1A
4.501071208333333,0,0xFF,0x12
4.501089416666667,0,0xFF,0x10
4.503046666666667,0,0xB0,0x12
4.503064708333333,0,0xFF,0x12
4.503082916666667,0,0xFF,0x10
4.505044583333333,0,0xF0,0x12
4.505062583333333,0,0x7F,0x12
4.505080791666667,0,0xFF,0x10
4.507035750000000,0,0x90,0x12
4.507053791666666,0,0xFF,0x12
4.507072000000000,0,0xFF,0x10
4.509025833333333,0,0xF0,0x02
4.509043833333333,0,0x7F,0x12
4.509062041666667,0,0xFF,0x10
4.511015375000000,0,0xF0,0x12
4.511033375000000,0,0x7F,0x12
4.511051583333333,0,0xFF,0x18
4.511076375000000,0,0x87,0x12
4.511094416666666,0,0xFF,0x00
4.511112625000000,0,0xFF,0xA8
4.511133166666666,0,0x87,0x12
4.511151208333334,0,0x00,0x12
4.511169291666667,0,0x0E,0x12
4.511325208333333,0,0x03,0x01
4.511343208333333,0,0x80,0x81
4.511361291666667,0,0x00,0x01
4.511381916666667,0,0x30,0x00
4.511399916666667,0,0x00,0x01
4.511418000000000,0,0x80,0x01
4.511438250000000,0,0xC7,0x01
4.511456291666667,0,0xFF,0x00
4.511474500000000,0,0xFF,0x0A
4.511495333333333,0,0x87,0x01
4.511513375000000,0,0x00,0x01
4.511531458333334,0,0xCA,0x01
4.513006458333333,0,0x98,0x10
4.513024500000000,0,0xFF,0x02
4.513042708333334,0,0xFF,0x04
4.515002916666667,0,0x98,0x1A
4.515020958333333,0,0xFF,0x12
4.515039166666667,0,0xFF,0x14
4.516990250000000,0,0xB0,0x12
4.517008291666667,0,0xFF,0x12
4.517026500000000,0,0xFF,0x14
4.518982083333333,0,0x98,0x10
4.519000125000000,0,0xFF,0x02
4.519018333333333,0,0xFF,0x10
4.520978125000000,0,0xF0,0x12
4.520996166666666,0,0xFF,0x13
4.521014375000000,0,0xFF,0x14
4.522970000000000,0,0xB0,0x12
4.522988041666666,0,0xFF,0x12
4.523006250000000,0,0xFF,0x14
4.524967208333333,0,0xB0,0x12
4.524985250000000,0,0xFF,0x02
4.525003458333333,0,0xFF,0x00
4.526963958333333,0,0xB0,0x12
4.526981958333334,0,0xFF,0x12
4.527000166666666,0,0xFF,0x14
4.528955666666667,0,0xF0,0x12
4.528973666666666,0,0x7F,0x1A
4.528991875000000,0,0xFF,0x1E
4.530946791666667,0,0xF0,0x02
4.530964791666666,0,0x7F,0x12
4.530983000000000,0,0xFF,0x14
4.532945708333333,0,0xF0,0x12
4.532963750000000,0,0xFF,0x12
4.532981916666666,0,0xFF,0x14
4.534938625000000,0,0xB0,0x13
4.534956625000000,0,0x7F,0x1A
4.534974833333333,0,0xFF,0x1C
4.536937458333333,0,0xB0,0x12
4.536955500000000,0,0xFF,0x12
4.536973708333333,0,0xFF,0x14
4.538932541666667,0,0xB0,0x12
4.538950541666667,0,0xFF,0x18
4.538968750000000,0,0xFF,0x1C
4.540929250000000,0,0xF0,0x12
4.540947250000000,0,0x7F,0x12
4.540965458333333,0,0xFF,0x14
4.542926875000000,0,0x98,0x1A
4.542944916666666,0,0xFF,0x12
4.542963125000000,0,0xFF,0x14
4.542987916666666,0,0x87,0x10
4.543005958333334,0,0xFF,0x00
4.543024166666667,0,0xFF,0x8A
4.543044708333333,0,0x07,0x10
4.543062750000000,0,0x00,0x02
4.543080833333334,0,0x33,0x13
4.543123500000000,0,0x07,0x01
4.543141541666667,0,0x00,0x01
4.543159583333333,0,0x33,0x81
4.543180208333333,0,0x34,0x01
4.543198250000000,0,0x80,0x01
4.543216291666667,0,0x00,0x01
4.543236541666666,0,0x87,0x01
4.543254583333334,0,0xFF,0x00
4.543272791666666,0,0xFF,0x32
4.543293625000000,0,0x87,0x01
4.543311666666667,0,0x00,0x01
4.543329750000000,0,0xF2,0x01
4.544920833333333,0,0x18,0x1A
4.544938875000000,0,0xFF,0x12
4.544957083333333,0,0xFF,0x04
4.546914833333333,0,0x98,0x10
4.546932875000000,0,0xFF,0x02
4.546951083333333,0,0xFF,0x04
4.548905041666667,0,0xB8,0x12
4.548923083333333,0,0xFF,0x02
4.548941291666667,0,0xFF,0x00
4.550902000000000,0,0xB0,0x13
4.550920000000000,0,0x7F,0x1A
4.550938208333333,0,0xFF,0x04
4.552898791666666,0,0x98,0x12
4.552916833333334,0,0xFF,0x02
4.552935041666666,0,0xFF,0x00
4.554889166666666,0,0x98,0x1A
4.554907208333334,0,0xFF,0x12
4.554925416666666,0,0xFF,0x04
4.556886666666666,0,0xB0,0x12
4.556904708333334,0,0xFF,0x12
4.556922916666666,0,0xFF,0x04
4.558877375000000,0,0xB0,0x12
4.558895416666667,0,0xFF,0x12
4.558913625000000,0,0xFF,0x04
4.560867791666666,0,0xB0,0x12
4.560885833333334,0,0xFF,0x10
4.560904041666666,0,0xFF,0x06
4.562861166666667,0,0xB0,0x12
4.562879166666667,0,0x7F,0x12
4.562897375000000,0,0xFF,0x04
4.564854333333333,0,0xB0,0x12
4.564872375000000,0,0xFF,0x12
4.564890583333334,0,0xFF,0x00
4.566848166666666,0,0xB0,0x12
4.566866208333333,0,0xFF,0x12
4.566884416666666,0,0xFF,0x04
4.568842666666667,0,0xB0,0x12
4.568860708333333,0,0xFF,0x13
4.568878916666667,0,0xFF,0x04
4.570836458333333,0,0x98,0x10
4.570854500000000,0,0xFF,0x02
4.570872708333333,0,0xFF,0x04
4.572823750000000,0,0xF0,0x02
4.572841750000000,0,0x7F,0x12
4.572859958333333,0,0xFF,0x04
4.574814666666667,0,0xF0,0x12
4.574832708333333,0,0xFF,0x12
4.574850916666667,0,0xFF,0x04
4.574875708333333,0,0xC7,0x02
4.574893708333334,0,0xFF,0x00
4.574911916666666,0,0xFF,0x32
4.574932333333333,0,0x03,0x13
4.574950333333334,0,0x00,0x18
4.574968416666667,0,0x14,0x12
4.575915833333333,0,0x07,0x01
4.575933875000000,0,0x00,0x01
4.575951916666667,0,0x1C,0x01
4.575972541666666,0,0x30,0x01
4.575990541666667,0,0x00,0x01
4.576008625000000,0,0x80,0x01
4.576028875000000,0,0xC3,0x01
4.576046875000000,0,0xFF,0x80
4.576065083333333,0,0xFF,0x1C
4.576085958333334,0,0x87,0x01
4.576104000000000,0,0x00,0x01
4.576122083333333,0,0x80,0x00
4.577504083333333,0,0x18,0x1A
4.577522125000000,0,0xFF,0x12
4.577540333333333,0,0xFF,0x08
4.579497791666666,0,0xF0,0x12
4.579515833333334,0,0xFF,0x12
4.579534000000000,0,0xFF,0x08
4.581491291666667,0,0xB0,0x12
4.581509333333333,0,0xFF,0x12
4.581527541666667,0,0xFF,0x08
4.583484375000000,0,0x98,0x18
4.583502416666667,0,0xFF,0x02
4.583520625000000,0,0xFF,0x0C
4.585475875000000,0,0xF0,0x13
4.585493875000000,0,0x7F,0x18
4.585512083333334,0,0xFF,0x08
4.587467208333333,0,0xF0,0x02
4.587485208333334,0,0x7F,0x12
4.587503416666666,0,0xFF,0x00
4.589462708333333,0,0xB0,0x13
4.589480708333333,0,0x7F,0x18
4.589498916666667,0,0xFF,0x08
4.591454125000000,0,0x98,0x10
4.591472166666667,0,0xFF,0x12
4.591490375000000,0,0xFF,0x08
4.593446750000000,0,0xF0,0x12
4.593464791666666,0,0xFF,0x12
4.593483000000000,0,0xFF,0x08
4.595438250000000,0,0xF0,0x12
4.595456291666666,0,0xFF,0x13
4.595474500000000,0,0xFF,0x08
4.597435875000000,0,0xB0,0x13
4.597453875000000,0,0xFF,0x10
4.597472083333333,0,0xFF,0x08
4.599430166666667,0,0xB0,0x12
4.599448208333333,0,0xFF,0x12
4.599466416666667,0,0xFF,0x08
4.601422833333333,0,0xB0,0x12
4.601440875000000,0,0xFF,0x10
4.601459083333333,0,0xFF,0x08
4.603413958333333,0,0x98,0x10
4.603432000000000,0,0xFF,0x02
4.603450208333333,0,0xFF,0x0C
4.605409375000000,0,0xB0,0x12
4.605427416666667,0,0xFF,0x12
4.605445625000000,0,0xFF,0x08
4.607402958333333,0,0xB0,0x12
4.607421000000000,0,0xFF,0x12
4.607439208333333,0,0xFF,0x08
4.607464000000000,0,0x87,0x18
4.607482041666667,0,0xFF,0x00
4.607500250000000,0,0xFF,0x90
4.607520791666667,0,0x07,0x12
4.607538833333333,0,0x00,0x12
4.607556875000000,0,0x1E,0x10
4.607712291666667,0,0x03,0x01
4.607730291666667,0,0x80,0x01
4.607748375000000,0,0x3E,0x01
4.607768958333334,0,0x34,0x81
4.607787000000000,0,0x80,0x01
4.607805083333333,0,0xC0,0x01
4.607825291666667,0,0x07,0x81
4.607843333333333,0,0xFF,0x00
4.607861541666667,0,0xFF,0x3C
4.607882416666667,0,0x07,0x01
4.607900458333333,0,0x00,0x00
4.607918500000000,0,0x1C,0x01
4.609396666666667,0,0xB0,0x12
4.609414708333333,0,0xFF,0x12
4.609432875000000,0,0xFF,0x18
4.611392000000000,0,0xB0,0x12
4.611410041666667,0,0xFF,0x13
4.611428250000000,0,0xFF,0x18
4.613382083333334,0,0xB0,0x12
4.613400125000000,0,0xFF,0x13
4.613418333333334,0,0xFF,0x18
4.615373791666666,0,0xB0,0x13
4.615391791666666,0,0x7F,0x1A
4.615410000000000,0,0xFF,0x18
4.617360458333334,0,0xB0,0x12
4.617378500000000,0,0xFF,0x12
4.617396708333334,0,0xFF,0x18
4.619353833333333,0,0xB0,0x12
4.619371875000000,0,0xFF,0x12
4.619390041666667,0,0xFF,0x18
4.621349583333333,0,0x90,0x12
4.621367625000000,0,0xFF,0x12
4.621385833333333,0,0xFF,0x18
4.623340583333333,0,0xB0,0x12
4.623358625000000,0,0xFF,0x12
4.623376833333333,0,0xFF,0x18
4.625337083333333,0,0xF0,0x12
4.625355083333333,0,0x7F,0x12
4.625373291666667,0,0xFF,0x18
4.627328083333333,0,0x98,0x12
4.627346125000000,0,0xFF,0x12
4.627364333333333,0,0xFF,0x18
4.629315375000000,0,0xB0,0x12
4.629333416666666,0,0xFF,0x12
4.629351625000000,0,0xFF,0x18
4.631309125000000,0,0xB0,0x12
4.631327166666667,0,0xFF,0x13
4.631345375000000,0,0xFF,0x18
4.633296208333333,0,0xB0,0x12
4.633314250000000,0,0xFF,0x12
4.633332458333333,0,0xFF,0x18
4.635288166666666,0,0x98,0x10
4.635306208333334,0,0xFF,0x02
4.635324416666666,0,0xFF,0x18
4.637278583333333,0,0xB0,0x12
4.637296625000000,0,0xFF,0x13
4.637314833333333,0,0xFF,0x18
4.639272125000000,0,0x98,0x1A
4.639290166666667,0,0xFF,0x02
4.639308375000000,0,0xFF,0x0C
4.639333166666667,0,0x87,0x12
4.639351208333333,0,0xFF,0x00
4.639369375000000,0,0xFF,0x1C
4.639389958333333,0,0x07,0x12
4.639407958333333,0,0x00,0x12
4.639426041666667,0,0x0E,0x12
4.639508083333333,0,0x07,0x01
4.639526125000000,0,0x00,0x01
4.639544166666667,0,0x1E,0x01
4.639564791666666,0,0x30,0x01
4.639582791666666,0,0x80,0x01
4.639600875000000,0,0xC0,0x01
4.639621125000000,0,0x87,0x01
4.639639125000000,0,0xFF,0x00
4.639657333333333,0,0xFF,0x1E
4.639678208333334,0,0x07,0x01
4.639696250000000,0,0x00,0x00
4.639714291666666,0,0x1E,0x01
4.641267416666667,0,0x18,0x1A
4.641285458333333,0,0xFF,0x12
4.641303666666666,0,0xFF,0x0C
4.643259458333334,0,0xF0,0x12
4.643277500000000,0,0xFF,0x12
4.643295708333333,0,0xFF,0x1C
4.645255083333334,0,0xB0,0x12
4.645273125000000,0,0xFF,0x12
4.645291291666667,0,0xFF,0x1C
4.647247000000000,0,0xF0,0x02
4.647265000000000,0,0x7F,0x12
4.647283208333334,0,0xFF,0x1C
4.649241458333333,0,0xB0,0x12
4.649259500000000,0,0xFF,0x13
4.649277708333333,0,0xFF,0x1C
4.651234500000000,0,0x98,0x10
4.651252541666667,0,0xFF,0x02
4.651270750000000,0,0xFF,0x1C
4.653222875000000,0,0xB0,0x13
4.653240875000000,0,0x7F,0x1A
4.653259083333333,0,0xFF,0x1C
4.655217708333334,0,0xB8,0x10
4.655235750000000,0,0xFF,0x02
4.655253958333334,0,0xFF,0x0C
4.657208583333333,0,0xB0,0x12
4.657226625000000,0,0xFF,0x13
4.657244833333333,0,0xFF,0x1C
4.659199708333333,0,0xB0,0x12
4.659217750000000,0,0xFF,0x1A
4.659235958333333,0,0xFF,0x1C
4.661190833333333,0,0xB0,0x12
4.661208833333333,0,0xFF,0x10
4.661227041666667,0,0xFF,0x1C
4.663180416666667,0,0x98,0x10
4.663198458333333,0,0xFF,0x02
4.663216666666667,0,0xFF,0x0C
4.665171041666667,0,0xB0,0x13
4.665189041666666,0,0x7F,0x1A
4.665207250000000,0,0xFF,0x1C
4.667163500000000,0,0x98,0x1A
4.667181541666666,0,0xFF,0x12
4.667199750000000,0,0xFF,0x1C
4.669160375000000,0,0xF0,0x02
4.669178375000000,0,0x7F,0x12
4.669196583333333,0,0xFF,0x1C
4.671151250000000,0,0x90,0x12
4.671169291666667,0,0xFF,0x12
4.671187500000000,0,0xFF,0x1C
4.671212291666667,0,0x87,0x1A
4.671230333333333,0,0xFF,0x00
4.671248541666666,0,0xFF,0xDE
4.671269083333334,0,0x87,0x1A
4.671287125000000,0,0x00,0x12
4.671305000000000,0,0x46,0x12
4.672298041666667,0,0x07,0x01
4.672316083333333,0,0x00,0x01
4.672334166666666,0,0x03,0x00
4.672354750000000,0,0x1E,0x01
4.672372791666667,0,0xC0,0x01
4.672390833333333,0,0x00,0x81
4.672411083333333,0,0x07,0x01
4.672429125000000,0,0xFF,0x00
4.672447333333333,0,0xFF,0x46
4.672468208333333,0,0x07,0x01
4.672486250000000,0,0x00,0x00
4.672504291666667,0,0x66,0x01
4.673925875000000,0,0xB0,0x12
4.673943916666667,0,0xFF,0x13
4.673962125000000,0,0xFF,0x0C
4.675919416666667,0,0xF0,0x12
4.675937458333333,0,0xFF,0x13
4.675955666666667,0,0xFF,0x0C
4.677918208333334,0,0x98,0x1A
4.677936250000000,0,0xFF,0x12
4.677954458333334,0,0xFF,0x0C
4.679910083333334,0,0xB0,0x12
4.679928083333333,0,0xFF,0x18
4.679946291666667,0,0xFF,0x0E
4.681907291666667,0,0xB0,0x12
4.681925333333333,0,0xFF,0x12
4.681943541666667,0,0xFF,0x0C
4.683894375000000,0,0x90,0x12
4.683912416666667,0,0xFF,0x12
4.683930625000000,0,0xFF,0x0C
4.685884333333333,0,0x98,0x10
4.685902375000000,0,0xFF,0x12
4.685920583333333,0,0xFF,0x0C
4.687877250000000,0,0xB0,0x12
4.687895291666667,0,0xFF,0x12
4.687913500000000,0,0xFF,0x0C
4.689868791666667,0,0xF0,0x02
4.689886791666667,0,0x7F,0x12
4.689905000000000,0,0xFF,0x04
4.691856541666667,0,0xB0,0x12
4.691874583333333,0,0xFF,0x12
4.691892791666667,0,0xFF,0x0C
4.693844416666667,0,0xF0,0x13
4.693862416666667,0,0x7F,0x1A
4.693880625000000,0,0xFF,0x04
4.695833416666667,0,0xB0,0x12
4.695851458333333,0,0xFF,0x13
4.695869666666667,0,0xFF,0x0C
4.697823458333334,0,0xF0,0x02
4.697841458333333,0,0x7F,0x12
4.697859666666667,0,0xFF,0x0C
4.699814291666667,0,0xB0,0x12
4.699832333333333,0,0xFF,0x12
4.699850541666667,0,0xFF,0x0C
4.701810750000000,0,0x98,0x18
4.701828791666666,0,0xFF,0x12
4.701847000000000,0,0xFF,0x0C
4.703806208333333,0,0x98,0x10
4.703824250000000,0,0xFF,0x02
4.703842458333333,0,0xFF,0x0C
4.703867250000000,0,0x87,0x12
4.703885291666666,0,0xFF,0x00
4.703903500000000,0,0xFF,0xC7
4.703924041666666,0,0x07,0x12
4.703942083333334,0,0x00,0x13
4.703960125000000,0,0x00,0x12
4.704095958333333,0,0x07,0x01
4.704114000000000,0,0x00,0x00
4.704132041666667,0,0x00,0x81
4.704152666666666,0,0x34,0x01
4.704170708333334,0,0x80,0x00
4.704188750000000,0,0x00,0x01
4.704209000000000,0,0x87,0x01
4.704227041666667,0,0xFF,0x00
4.704245250000000,0,0xFF,0x00
4.704266125000000,0,0x07,0x01
4.704284166666667,0,0x00,0x01
4.704302208333333,0,0x00,0x81
4.705801208333333,0,0x98,0x12
4.705819250000000,0,0xFF,0x12
4.705837458333333,0,0xFF,0x00
4.707794291666667,0,0xB0,0x12
4.707812333333333,0,0xFF,0x12
4.707830541666667,0,0xFF,0x00
4.709783458333333,0,0xB0,0x12
4.709801500000000,0,0xFF,0x13
4.709819708333334,0,0xFF,0x00
4.711779666666667,0,0xF0,0x12
4.711797666666667,0,0x7F,0x12
4.711815875000000,0,0xFF,0x00
4.713766875000000,0,0xB0,0x12
4.713784916666667,0,0xFF,0x12
4.713803125000000,0,0xFF,0x00
4.715761125000000,0,0xF0,0x02
4.715779125000000,0,0x7F,0x12
4.715797333333334,0,0xFF,0x00
4.717753916666667,0,0xB0,0x12
4.717771958333334,0,0xFF,0x12
4.717790166666667,0,0xFF,0x00
4.719750541666667,0,0xB8,0x12
4.719768583333333,0,0xFF,0x02
4.719786791666666,0,0xFF,0x00
4.721742583333334,0,0xB0,0x12
4.721760625000000,0,0xFF,0x12
4.721778833333333,0,0xFF,0x00
4.723733958333334,0,0xF0,0x12
4.723752000000000,0,0xFF,0x13
4.723770208333334,0,0xFF,0x00
4.725727125000000,0,0xB0,0x12
4.725745166666667,0,0xFF,0x13
4.725763375000000,0,0xFF,0x00
4.727717625000000,0,0xB0,0x13
4.727735625000000,0,0x7F,0x1A
4.727753833333334,0,0xFF,0x00
4.729712666666667,0,0xF0,0x02
4.729730666666667,0,0x7F,0x12
4.729748875000000,0,0xFF,0x00
4.731708541666666,0,0xB0,0x13
4.731726541666666,0,0x7F,0x1A
4.731744750000000,0,0xFF,0x00
4.733700416666666,0,0xB0,0x13
4.733718416666667,0,0xFF,0x18
4.733736625000000,0,0xFF,0x00
4.735693250000000,0,0xB0,0x12
4.735711291666667,0,0xFF,0x13
4.735729500000000,0,0xFF,0x00
4.735754291666667,0,0xC7,0x12
4.735772333333333,0,0xFF,0x00
4.735790541666667,0,0xFF,0x80
4.735811083333333,0,0x07,0x12
4.735829125000000,0,0x00,0x13
4.735847166666667,0,0x08,0x12
4.735894291666667,0,0x07,0x01
4.735912333333333,0,0x00,0x01
4.735930416666666,0,0x3C,0x00
4.735951000000000,0,0x1E,0x01
4.735969041666666,0,0xC0,0x01
4.735987125000000,0,0x80,0x00
4.736007333333333,0,0x07,0x81
4.736025375000000,0,0xFF,0x00
4.736043583333333,0,0xFF,0x28
4.736064458333333,0,0x07,0x01
4.736082500000000,0,0x00,0x01
4.736100583333333,0,0xA8,0x01
4.737691083333333,0,0x18,0x1A
4.737709125000000,0,0xFF,0x12
4.737727333333333,0,0xFF,0x10
4.739686750000000,0,0x98,0x1A
4.739704791666667,0,0xFF,0x12
4.739723000000000,0,0xFF,0x10
4.741673958333333,0,0xF0,0x12
4.741691958333333,0,0x7F,0x12
4.741710166666667,0,0xFF,0x18
4.743672083333333,0,0xB0,0x12
4.743690125000000,0,0xFF,0x13
4.743708333333333,0,0xFF,0x10
4.745665458333334,0,0xB0,0x12
4.745683500000000,0,0xFF,0x12
4.745701708333334,0,0xFF,0x10
4.747657000000000,0,0xF0,0x02
4.747675000000000,0,0x7F,0x12
4.747693208333334,0,0xFF,0x10
4.749649916666667,0,0x98,0x10
4.749667958333333,0,0xFF,0x12
4.749686166666667,0,0xFF,0x10
4.751643166666667,0,0x98,0x1A
4.751661208333333,0,0xFF,0x12
4.751679416666667,0,0xFF,0x00
4.753641208333334,0,0xB0,0x12
4.753659208333334,0,0xFF,0x12
4.753677416666667,0,0xFF,0x10
4.755634708333333,0,0xF0,0x12
4.755652708333334,0,0x7F,0x12
4.755670916666666,0,0xFF,0x10
4.757626208333333,0,0xB0,0x12
4.757644250000000,0,0xFF,0x13
4.757662458333333,0,0xFF,0x10
4.759622875000000,0,0xF0,0x02
4.759640875000000,0,0x7F,0x12
4.759659083333333,0,0xFF,0x10
4.761615750000000,0,0xF0,0x02
4.761633750000000,0,0x7F,0x12
4.761651958333333,0,0xFF,0x18
4.763608125000000,0,0xF0,0x02
4.763626125000000,0,0x7F,0x12
4.763644333333334,0,0xFF,0x10
4.765603666666666,0,0xF0,0x02
4.765621708333334,0,0xFF,0x13
4.765639916666666,0,0xFF,0x10
4.767595541666667,0,0xF0,0x12
4.767613583333334,0,0xFF,0x13
4.767631791666667,0,0xFF,0x10
4.767656583333333,0,0x87,0x12
4.767674625000000,0,0xFF,0x00
4.767692666666667,0,0xFF,0xA8
4.767713208333333,0,0x07,0x12
4.767731250000000,0,0x00,0x12
4.767749333333334,0,0x0B,0x12
4.768686666666667,0,0x07,0x01
4.768704666666666,0,0x80,0x81
4.768722750000000,0,0x02,0x01
4.768743375000000,0,0x30,0x01
4.768761375000000,0,0x00,0x01
4.768779458333333,0,0x80,0x01
4.768799708333334,0,0xC7,0x01
4.768817750000000,0,0xFF,0x00
4.768835958333334,0,0xFF,0x0A
4.768856833333333,0,0x07,0x01
4.768874833333333,0,0x00,0x01
4.768892916666666,0,0x8A,0x01
4.770284333333334,0,0xB0,0x13
4.770302333333333,0,0x7F,0x1A
4.770320541666667,0,0xFF,0x1C
4.772274041666667,0,0x90,0x12
4.772292083333333,0,0xFF,0x12
4.772310291666667,0,0xFF,0x14
4.774263375000000,0,0x98,0x1A
4.774281416666667,0,0xFF,0x12
4.774299625000000,0,0xFF,0x14
4.776263875000000,0,0xB0,0x12
4.776281916666667,0,0xFF,0x12
4.776300125000000,0,0xFF,0x14
4.778253125000000,0,0xB0,0x13
4.778271125000000,0,0x7F,0x1A
4.778289333333333,0,0xFF,0x1C
4.780245791666666,0,0xB0,0x13
4.780263791666667,0,0x7F,0x1A
4.780282000000000,0,0xFF,0x14
4.782236708333333,0,0xB0,0x13
4.782254708333333,0,0x7F,0x1A
4.782272916666667,0,0xFF,0x1C
4.784230083333333,0,0xB0,0x12
4.784248125000000,0,0xFF,0x02
4.784266333333333,0,0xFF,0x00
4.786226458333333,0,0x98,0x1A
4.786244500000000,0,0xFF,0x12
4.786262708333333,0,0xFF,0x14
4.788216041666667,0,0xB0,0x12
4.788234083333333,0,0xFF,0x12
4.788252291666667,0,0xFF,0x10
4.790205416666667,0,0xB0,0x12
4.790223458333333,0,0xFF,0x12
4.790241666666667,0,0xFF,0x10
4.792196041666666,0,0xB0,0x12
4.792214083333334,0,0xFF,0x12
4.792232291666667,0,0xFF,0x00
4.794185083333334,0,0xF0,0x12
4.794203083333334,0,0x7F,0x12
4.794221291666667,0,0xFF,0x14
4.796176166666666,0,0xF0,0x12
4.796194166666667,0,0x7F,0x12
4.796212375000000,0,0xFF,0x14
4.798163375000000,0,0xF0,0x02
4.798181416666667,0,0xFF,0x12
4.798199625000000,0,0xFF,0x14
4.800154333333333,0,0xF0,0x02
4.800172375000000,0,0xFF,0x13
4.800190583333333,0,0xFF,0x10
4.800215375000000,0,0x87,0x10
4.800233416666667,0,0xFF,0x00
4.800251625000000,0,0xFF,0xCA
4.800272166666667,0,0x87,0x12
4.800290208333333,0,0x00,0x10
4.800308291666667,0,0x32,0x12
4.800489041666666,0,0x03,0x00
4.800507041666667,0,0x80,0x01
4.800525125000000,0,0x38,0x01
4.800545750000000,0,0x30,0x00
4.800563750000000,0,0x00,0x01
4.800581833333333,0,0x80,0x01
4.800602083333334,0,0xC7,0x01
4.800620125000000,0,0xFF,0x00
4.800638333333334,0,0xFF,0x32
4.800659208333333,0,0x03,0x01
4.800677208333333,0,0x80,0x81
4.800695291666667,0,0x1A,0x01
4.802145958333333,0,0xF0,0x12
4.802164000000000,0,0xFF,0x13
4.802182208333333,0,0xFF,0x04
4.804137291666667,0,0xB0,0x12
4.804155291666667,0,0x7F,0x12
4.804173500000000,0,0xFF,0x04
4.806133583333334,0,0xF0,0x02
4.806151625000000,0,0xFF,0x13
4.806169833333334,0,0xFF,0x04
4.808124125000000,0,0x98,0x1A
4.808142166666666,0,0xFF,0x12
4.808160375000000,0,0xFF,0x04
4.810111333333333,0,0xB0,0x12
4.810129375000000,0,0xFF,0x10
4.810147583333333,0,0xFF,0x04
4.812101166666666,0,0xB0,0x12
4.812119208333334,0,0xFF,0x10
4.812137416666666,0,0xFF,0x06
4.814099708333333,0,0x98,0x1A
4.814117750000000,0,0xFF,0x12
4.814135958333333,0,0xFF,0x04
4.816094375000000,0,0x98,0x1A
4.816112416666667,0,0xFF,0x12
4.816130625000000,0,0xFF,0x04
4.818085708333333,0,0xB0,0x12
4.818103750000000,0,0xFF,0x13
4.818121958333333,0,0xFF,0x04
4.820081708333333,0,0xB0,0x12
4.820099750000000,0,0xFF,0x13
4.820117958333333,0,0xFF,0x04
4.822078375000000,0,0xF0,0x12
4.822096375000000,0,0x7F,0x12
4.822114583333334,0,0xFF,0x04
4.824069375000000,0,0x98,0x1A
4.824087416666667,0,0xFF,0x12
4.824105625000000,0,0xFF,0x04
4.826066625000000,0,0x98,0x1A
4.826084666666667,0,0xFF,0x12
4.826102875000000,0,0xFF,0x04
4.828061708333333,0,0xF0,0x02
4.828079708333333,0,0x7F,0x12
4.828097916666667,0,0xFF,0x04
4.830051958333334,0,0xB0,0x13
4.830069958333334,0,0x7F,0x12
4.830088166666667,0,0xFF,0x04
4.832046250000000,0,0xB0,0x12
4.832064291666667,0,0xFF,0x10
4.832082500000000,0,0xFF,0x06
4.832107291666667,0,0x87,0x12
4.832125333333333,0,0xFF,0x00
4.832143541666666,0,0xFF,0x92
4.832164125000000,0,0x07,0x02
4.832182166666667,0,0x00,0x12
4.832200208333333,0,0x1C,0x1A
4.832289708333334,0,0x07,0x01
4.832307750000000,0,0x00,0x01
4.832325791666666,0,0x14,0x81
4.832346416666667,0,0x36,0x01
4.832364458333333,0,0xC0,0x01
4.832382541666667,0,0x80,0x00
4.832402750000000,0,0x07,0x81
4.832420791666666,0,0xFF,0x00
4.832439000000000,0,0xFF,0x1C
4.832459875000000,0,0x07,0x01
4.832477916666667,0,0x00,0x01
4.832496000000000,0,0x90,0x00
4.834045708333333,0,0xF0,0x12
4.834063708333334,0,0x7F,0x12
4.834081916666666,0,0xFF,0x08
4.836035500000000,0,0x98,0x10
4.836053541666667,0,0xFF,0x02
4.836071750000000,0,0xFF,0x08
4.838026083333333,0,0xB0,0x12
4.838044125000000,0,0xFF,0x13
4.838062333333333,0,0xFF,0x08
4.840017041666667,0,0x98,0x10
4.840035083333333,0,0xFF,0x02
4.840053291666667,0,0xFF,0x08
4.842013708333333,0,0xB0,0x13
4.842031708333334,0,0x7F,0x1A
4.842049916666666,0,0xFF,0x08
4.844010333333333,0,0xB0,0x12
4.844028375000000,0,0xFF,0x10
4.844046583333333,0,0xFF,0x08
4.846007000000000,0,0xB0,0x13
4.846025000000000,0,0xFF,0x1A
4.846043208333334,0,0xFF,0x08
4.847998625000000,0,0xF0,0x02
4.848016666666667,0,0xFF,0x12
4.848034833333333,0,0xFF,0x08
4.849986333333334,0,0xB0,0x12
4.850004375000000,0,0xFF,0x12
4.850022583333334,0,0xFF,0x08
4.851980208333333,0,0xB0,0x12
4.851998250000000,0,0xFF,0x02
4.852016458333333,0,0xFF,0x0C
4.853970416666667,0,0xB0,0x12
4.853988416666667,0,0xFF,0x1A
4.854006625000000,0,0xFF,0x00
4.855963833333333,0,0xB0,0x12
4.855981875000000,0,0xFF,0x12
4.856000083333333,0,0xFF,0x08
4.857951250000000,0,0x98,0x10
4.857969291666667,0,0xFF,0x02
4.857987500000000,0,0xFF,0x0C
4.859944166666667,0,0x90,0x12
4.859962208333333,0,0xFF,0x12
4.859980416666667,0,0xFF,0x08
4.861936583333334,0,0xF0,0x12
4.861954625000000,0,0xFF,0x12
4.861972791666667,0,0xFF,0x08
4.863931166666666,0,0xB0,0x12
4.863949166666667,0,0xFF,0x10
4.863967375000000,0,0xFF,0x00
4.863992208333333,0,0x87,0x12
4.864010208333333,0,0xFF,0x00
4.864028416666667,0,0xFF,0x96
4.864049000000000,0,0x03,0x13
4.864067000000000,0,0x00,0x1A
4.864085083333333,0,0x3E,0x12
4.865083500000000,0,0x07,0x01
4.865101541666666,0,0x00,0x00
4.865119583333334,0,0x3C,0x01
4.865140208333333,0,0x34,0x01
4.865158250000000,0,0x80,0x00
4.865176291666667,0,0x00,0x01
4.865196541666666,0,0x87,0x01
4.865214583333334,0,0xFF,0x00
4.865232791666666,0,0xFF,0x3C
4.865253666666667,0,0x07,0x01
4.865271708333333,0,0x00,0x00
4.865289750000000,0,0x3C,0x01
4.866669375000000,0,0x18,0x10
4.866687416666666,0,0xFF,0x02
4.866705625000000,0,0xFF,0x0C
4.868666000000000,0,0xB0,0x12
4.868684041666667,0,0xFF,0x13
4.868702250000000,0,0xFF,0x18
4.870656291666666,0,0xB0,0x12
4.870674333333334,0,0xFF,0x10
4.870692541666667,0,0xFF,0x18
4.872652208333333,0,0x98,0x1A
4.872670250000000,0,0xFF,0x12
4.872688458333333,0,0xFF,0x18
4.874648333333333,0,0xB0,0x12
4.874666375000000,0,0xFF,0x02
4.874684583333333,0,0xFF,0x0C
4.876641750000000,0,0xB0,0x12
4.876659791666667,0,0xFF,0x13
4.876678000000000,0,0xFF,0x18
4.878632250000000,0,0x98,0x1A
4.878650291666666,0,0xFF,0x12
4.878668500000000,0,0xFF,0x18
4.880621416666667,0,0xF0,0x02
4.880639458333333,0,0xFF,0x13
4.880657666666667,0,0xFF,0x18
4.882613833333333,0,0xB0,0x13
4.882631833333333,0,0xFF,0x18
4.882650041666666,0,0xFF,0x18
4.884606250000000,0,0xB0,0x13
4.884624250000000,0,0x7F,0x12
4.884642458333333,0,0xFF,0x18
4.886600500000000,0,0xB0,0x12
4.886618500000000,0,0xFF,0x10
4.886636708333334,0,0xFF,0x18
4.888592291666667,0,0xB0,0x12
4.888610333333333,0,0xFF,0x12
4.888628541666667,0,0xFF,0x18
4.890586375000000,0,0x98,0x10
4.890604416666666,0,0xFF,0x02
4.890622625000000,0,0xFF,0x0C
4.892581291666667,0,0x90,0x12
4.892599333333333,0,0xFF,0x12
4.892617541666667,0,0xFF,0x18
4.894577458333333,0,0xB0,0x12
4.894595500000000,0,0xFF,0x10
4.894613708333333,0,0xFF,0x18
4.896572791666666,0,0xF0,0x02
4.896590791666667,0,0x7F,0x12
4.896609000000000,0,0xFF,0x18
4.896633833333333,0,0xC3,0x02
4.896651833333333,0,0xFF,0x00
4.896670041666667,0,0xFF,0x3C
4.896690625000000,0,0x07,0x12
4.896708666666667,0,0x00,0x13
4.896726708333333,0,0x1E,0x12
4.896884000000000,0,0x07,0x01
4.896902041666666,0,0x00,0x00
4.896920083333334,0,0x1E,0x01
4.896940708333333,0,0x30,0x01
4.896958708333333,0,0x00,0x81
4.896976791666667,0,0x80,0x01
4.896997041666666,0,0xC7,0x01
4.897015041666666,0,0xFF,0x80
4.897033250000000,0,0xFF,0x1E
4.897054125000000,0,0x87,0x01
4.897072166666667,0,0x00,0x01
4.897090250000000,0,0xCE,0x01
4.898562291666667,0,0x30,0x12
4.898580333333333,0,0xFF,0x12
4.898598541666667,0,0xFF,0x1C
4.900556000000000,0,0xF0,0x12
4.900574000000000,0,0x7F,0x12
4.900592208333333,0,0xFF,0x1C
4.902546833333333,0,0xB0,0x13
4.902564833333333,0,0x7F,0x1A
4.902583041666666,0,0xFF,0x1C
4.904537625000000,0,0xB0,0x13
4.904555625000000,0,0x7F,0x1A
4.904573833333333,0,0xFF,0x1C
4.906533416666667,0,0xF0,0x12
4.906551458333333,0,0xFF,0x12
4.906569666666667,0,0xFF,0x1C
4.908525750000000,0,0x90,0x12
4.908543791666666,0,0xFF,0x12
4.908562000000000,0,0xFF,0x1C
4.910522291666667,0,0xF0,0x02
4.910540291666667,0,0x7F,0x12
4.910558500000000,0,0xFF,0x1C
4.912514583333333,0,0xB0,0x12
4.912532583333333,0,0xFF,0x1A
4.912550791666667,0,0xFF,0x1C
4.914503791666666,0,0xB0,0x12
4.914521833333334,0,0xFF,0x13
4.914540041666666,0,0xFF,0x1C
4.916496833333333,0,0xB0,0x12
4.916514875000000,0,0xFF,0x13
4.916533083333333,0,0xFF,0x1C
4.918493416666666,0,0xF0,0x13
4.918511416666667,0,0x7F,0x1A
4.918529625000000,0,0xFF,0x1C
4.920488208333333,0,0xB0,0x12
4.920506250000000,0,0xFF,0x12
4.920524458333333,0,0xFF,0x1C
4.922488666666666,0,0xF0,0x02
4.922506666666667,0,0x7F,0x12
4.922524875000000,0,0xFF,0x1C
4.924479833333334,0,0xB0,0x12
4.924497875000000,0,0xFF,0x12
4.924516083333334,0,0xFF,0x1C
4.926473250000000,0,0x98,0x1A
4.926491291666666,0,0xFF,0x12
4.926509500000000,0,0xFF,0x1C
4.928473333333334,0,0xF0,0x02
4.928491375000000,0,0xFF,0x12
4.928509583333334,0,0xFF,0x1C
4.928534375000000,0,0xC7,0x02
4.928552375000000,0,0xFF,0x00
4.928570583333333,0,0xFF,0x1E
4.928591166666667,0,0x07,0x02
4.928609166666667,0,0x80,0x12
4.928627250000000,0,0x66,0x18
4.928684208333333,0,0x07,0x01
4.928702250000000,0,0x00,0x01
4.928720333333334,0,0x02,0x01
4.928740916666666,0,0x1C,0x01
4.928758958333334,0,0xC0,0x01
4.928777041666667,0,0x80,0x00
4.928797250000000,0,0x07,0x81
4.928815291666667,0,0xFF,0x00
4.928833500000000,0,0xFF,0x46
4.928854375000000,0,0x07,0x01
4.928872416666667,0,0x00,0x01
4.928890458333333,0,0x47,0x81
4.930465625000000,0,0xB0,0x12
4.930483625000000,0,0xFF,0x18
4.930501833333333,0,0xFF,0x0E
4.932463000000000,0,0xB0,0x12
4.932481041666667,0,0xFF,0x10
4.932499250000000,0,0xFF,0x0C
4.934456208333334,0,0xB0,0x13
4.934474208333334,0,0x7F,0x1A
4.934492416666667,0,0xFF,0x04
4.936451958333334,0,0xB0,0x12
4.936470000000000,0,0xFF,0x10
4.936488208333333,0,0xFF,0x04
4.938439041666666,0,0xF0,0x02
4.938457083333334,0,0xFF,0x12
4.938475291666666,0,0xFF,0x0C
4.940437541666666,0,0xB0,0x13
4.940455541666666,0,0x7F,0x1A
4.940473750000000,0,0xFF,0x04
4.942425333333333,0,0xB0,0x13
4.942443333333333,0,0x7F,0x1A
4.942461541666667,0,0xFF,0x04
4.944418083333334,0,0xB0,0x12
4.944436125000000,0,0xFF,0x02
4.944454333333334,0,0xFF,0x0C
4.946417916666666,0,0xB0,0x12
4.946435958333334,0,0xFF,0x12
4.946454166666666,0,0xFF,0x0E
4.948407750000000,0,0xB0,0x12
4.948425791666667,0,0xFF,0x12
4.948444000000000,0,0xFF,0x0C
4.950399416666666,0,0xB0,0x12
4.950417458333333,0,0xFF,0x02
4.950435666666666,0,0xFF,0x0C
4.952389166666666,0,0xF0,0x02
4.952407166666666,0,0x7F,0x12
4.952425375000000,0,0xFF,0x0C
4.954379375000000,0,0xB0,0x12
4.954397416666667,0,0xFF,0x13
4.954415625000000,0,0xFF,0x0C
4.956375041666667,0,0x98,0x10
4.956393083333333,0,0xFF,0x12
4.956411291666667,0,0xFF,0x0C
4.958365166666667,0,0xB0,0x13
4.958383166666667,0,0xFF,0x1A
4.958401375000000,0,0xFF,0x0E
4.960358916666666,0,0xB0,0x12
4.960376958333334,0,0xFF,0x12
4.960395166666666,0,0xFF,0x0C
4.960419958333333,0,0x87,0x12
4.960438000000000,0,0xFF,0x00
4.960456208333333,0,0xFF,0xC2
4.960476750000000,0,0x07,0x10
4.960494916666667,0,0x00,0x12
4.960513000000000,0,0x00,0x02
4.961479916666667,0,0x07,0x01
4.961497958333333,0,0x00,0x01
4.961516000000000,0,0x00,0x81
4.961536625000000,0,0x36,0x01
4.961554666666666,0,0xC0,0x01
4.961572708333334,0,0x00,0x81
4.961592958333333,0,0x07,0x01
4.961611000000000,0,0xFF,0x00
4.961629208333333,0,0xFF,0x00
4.961650083333334,0,0x07,0x01
4.961668125000000,0,0x00,0x01
4.961686208333333,0,0x80,0x00
4.963077125000000,0,0xF0,0x02
4.963095125000000,0,0x7F,0x12
4.963113333333333,0,0xFF,0x00
4.965068916666667,0,0xB0,0x13
4.965086916666666,0,0x7F,0x1A
4.965105125000000,0,0xFF,0x00
4.967068666666667,0,0xB0,0x12
4.967086708333333,0,0xFF,0x13
4.967104916666667,0,0xFF,0x00
4.969057875000000,0,0xB0,0x13
4.969075875000000,0,0x7F,0x1A
4.969094083333333,0,0xFF,0x00
4.971044958333334,0,0xB0,0x12
4.971062958333333,0,0x7F,0x12
4.971081208333334,0,0xFF,0x00
4.973034875000000,0,0xB0,0x12
4.973052916666667,0,0xFF,0x02
4.973071125000000,0,0xFF,0x00
4.975022666666667,0,0xF0,0x12
4.975040708333333,0,0xFF,0x13
4.975058916666667,0,0xFF,0x00
4.977013708333334,0,0xF0,0x12
4.977031750000000,0,0xFF,0x13
4.977049958333334,0,0xFF,0x00
4.979000666666667,0,0xB0,0x12
4.979018708333333,0,0xFF,0x10
4.979036916666667,0,0xFF,0x00
4.980990250000000,0,0xB0,0x13
4.981008250000000,0,0x7F,0x12
4.981026458333333,0,0xFF,0x00
4.982979250000000,0,0x98,0x18
4.982997291666667,0,0xFF,0x12
4.983015500000000,0,0xFF,0x00
4.984978791666666,0,0xB0,0x12
4.984996791666667,0,0xFF,0x18
4.985015000000000,0,0xFF,0x00
4.986970291666666,0,0xB0,0x12
4.986988333333334,0,0xFF,0x1A
4.987006541666666,0,0xFF,0x00
4.988965291666666,0,0xB0,0x12
4.988983333333334,0,0xFF,0x1A
4.989001541666667,0,0xFF,0x00
4.990963041666666,0,0xB0,0x13
4.990981041666666,0,0x7F,0x1A
4.990999250000000,0,0xFF,0x00
4.992957125000000,0,0xF0,0x12
4.992975166666667,0,0xFF,0x12
4.992993333333334,0,0xFF,0x00
4.993018166666666,0,0xC3,0x12
4.993036166666666,0,0xFF,0x00
4.993054375000000,0,0xFF,0x80
4.993074958333334,0,0x03,0x12
4.993092958333333,0,0x80,0x1A
4.993111041666666,0,0x28,0x12
4.993281625000000,0,0x07,0x01
4.993299666666666,0,0x00,0x01
4.993317750000000,0,0x3C,0x00
4.993338333333333,0,0x3E,0x01
4.993356375000000,0,0xC0,0x01
4.993374416666667,0,0x00,0x81
4.993394666666667,0,0x07,0x01
4.993412708333334,0,0xFF,0x00
4.993430916666667,0,0xFF,0x28
4.993451791666667,0,0x07,0x01
4.993469833333333,0,0x00,0x00
4.993487875000000,0,0x08,0x01
4.994953458333334,0,0xB0,0x12
4.994971500000000,0,0xFF,0x02
4.994989708333334,0,0xFF,0x00
4.996945333333334,0,0x98,0x10
4.996963375000000,0,0xFF,0x12
4.996981583333334,0,0xFF,0x00
4.998937625000000,0,0xB0,0x12
4.998955666666666,0,0xFF,0x12
4.998973875000000,0,0xFF,0x10
5.000929708333334,0,0xB0,0x13
5.000947708333333,0,0x7F,0x1A
5.000965916666667,0,0xFF,0x10
5.002923458333333,0,0xB0,0x12
5.002941458333333,0,0x7F,0x12
5.002959666666666,0,0xFF,0x10
5.004918333333333,0,0x90,0x12
5.004936375000000,0,0xFF,0x12
5.004954583333333,0,0xFF,0x10
5.006915708333334,0,0xF0,0x12
5.006933708333333,0,0x7F,0x12
5.006951916666667,0,0xFF,0x10
5.008910333333334,0,0xB0,0x12
5.008928375000000,0,0xFF,0x02
5.008946583333334,0,0xFF,0x00
5.010898291666667,0,0x98,0x1A
5.010916333333333,0,0xFF,0x12
5.010934541666667,0,0xFF,0x10
5.012890833333334,0,0xF0,0x12
5.012908833333333,0,0x7F,0x12
5.012927041666667,0,0xFF,0x10
5.014883791666667,0,0xB0,0x12
5.014901791666666,0,0x7F,0x12
5.014920000000000,0,0xFF,0x10
5.016876375000000,0,0xB0,0x12
5.016894416666666,0,0xFF,0x12
5.016912625000000,0,0xFF,0x10
5.018864666666667,0,0xF0,0x02
5.018882666666666,0,0x7F,0x12
5.018900916666666,0,0xFF,0x10
5.020859375000000,0,0xF0,0x12
5.020877416666667,0,0xFF,0x12
5.020895625000000,0,0xFF,0x10
5.022850250000000,0,0xB0,0x13
5.022868250000000,0,0xFF,0x1A
5.022886458333334,0,0xFF,0x18
5.024843500000000,0,0xB0,0x12
5.024861541666667,0,0xFF,0x12
5.024879750000000,0,0xFF,0x10
5.024904541666666,0,0x87,0x12
5.024922583333334,0,0xFF,0x00
5.024940791666666,0,0xFF,0xBC
5.024961333333334,0,0x07,0x10
5.024979375000000,0,0x00,0x02
5.024997458333333,0,0x0F,0x13
5.025083291666666,0,0x07,0x01
5.025101333333334,0,0x00,0x01
5.025119416666667,0,0x0A,0x01
5.025140000000000,0,0x14,0x01
5.025158041666667,0,0x80,0x01
5.025176125000000,0,0xC0,0x01
5.025196375000000,0,0x87,0x01
5.025214375000000,0,0xFF,0x00
5.025232583333334,0,0xFF,0x02
5.025253458333333,0,0x07,0x01
5.025271500000000,0,0x00,0x01
5.025289583333334,0,0x8F,0x00
5.026842750000000,0,0x90,0x10
5.026860791666667,0,0xFF,0x02
5.026879000000000,0,0xFF,0x04
5.028836875000000,0,0xB0,0x12
5.028854916666667,0,0xFF,0x10
5.028873125000000,0,0xFF,0x16
5.030830041666666,0,0xB0,0x12
5.030848083333334,0,0xFF,0x10
5.030866291666666,0,0xFF,0x16
5.032823375000000,0,0x98,0x1A
5.032841416666667,0,0xFF,0x12
5.032859625000000,0,0xFF,0x14
5.034815333333333,0,0xB0,0x12
5.034833375000000,0,0xFF,0x13
5.034851583333333,0,0xFF,0x14
5.036811291666667,0,0x98,0x10
5.036829333333333,0,0xFF,0x02
5.036847541666667,0,0xFF,0x00
5.038803416666667,0,0xF0,0x02
5.038821458333334,0,0xFF,0x12
5.038839666666667,0,0xFF,0x14
5.040800125000000,0,0xF0,0x02
5.040818166666667,0,0xFF,0x12
5.040836333333333,0,0xFF,0x14
5.042795750000000,0,0xB0,0x12
5.042813791666667,0,0xFF,0x12
5.042832000000000,0,0xFF,0x14
5.044792375000000,0,0xF0,0x02
5.044810375000000,0,0x7F,0x12
5.044828583333334,0,0xFF,0x14
5.046781250000000,0,0xB0,0x12
5.046799291666667,0,0xFF,0x12
5.046817500000000,0,0xFF,0x14
5.048774666666667,0,0x98,0x10
5.048792708333333,0,0xFF,0x02
5.048810916666667,0,0xFF,0x10
5.050766500000000,0,0x98,0x10
5.050784541666666,0,0xFF,0x02
5.050802750000000,0,0xFF,0x04
5.052763333333333,0,0x98,0x1A
5.052781375000000,0,0xFF,0x12
5.052799583333333,0,0xFF,0x14
5.054756583333333,0,0xF0,0x12
5.054774625000000,0,0xFF,0x13
5.054792833333333,0,0xFF,0x14
5.056748166666667,0,0xB0,0x12
5.056766208333333,0,0xFF,0x12
5.056784416666667,0,0xFF,0x14
5.056809208333333,0,0x87,0x12
5.056827250000000,0,0xFF,0x00
5.056845458333333,0,0xFF,0x8A
5.056866000000000,0,0x87,0x12
5.056884208333333,0,0x80,0x12
5.056902291666667,0,0x30,0x12
5.057877708333334,0,0x07,0x01
5.057895750000000,0,0x00,0x01
5.057913833333333,0,0x32,0x01
5.057934416666667,0,0x14,0x01
5.057952458333333,0,0x80,0x01
5.057970541666666,0,0xC0,0x01
5.057990791666667,0,0x87,0x01
5.058008791666667,0,0xFF,0x00
5.058027000000000,0,0xFF,0x30
5.058047875000000,0,0x07,0x01
5.058065916666667,0,0x00,0x01
5.058084000000000,0,0xB3,0x01
5.059477791666667,0,0xF0,0x02
5.059495791666667,0,0x7F,0x12
5.059514041666667,0,0xFF,0x04
5.061472250000000,0,0xB0,0x12
5.061490291666667,0,0xFF,0x10
5.061508500000000,0,0xFF,0x04
5.063461458333333,0,0xF0,0x12
5.063479500000000,0,0xFF,0x12
5.063497666666667,0,0xFF,0x04
5.065454083333333,0,0x98,0x10
5.065472125000000,0,0xFF,0x02
5.065490333333333,0,0xFF,0x00
5.067442291666667,0,0x98,0x10
5.067460333333333,0,0xFF,0x02
5.067478541666667,0,0xFF,0x00
5.069434250000000,0,0xF0,0x12
5.069452250000000,0,0x7F,0x12
5.069470458333333,0,0xFF,0x04
5.071425333333333,0,0xB0,0x12
5.071443375000000,0,0xFF,0x10
5.071461583333333,0,0xFF,0x06
5.073414708333333,0,0xF0,0x12
5.073432750000000,0,0xFF,0x13
5.073450958333333,0,0xFF,0x04
5.075406958333334,0,0xB0,0x12
5.075424958333334,0,0xFF,0x10
5.075443166666667,0,0xFF,0x06
5.077397708333334,0,0xB0,0x12
5.077415750000000,0,0xFF,0x12
5.077433958333334,0,0xFF,0x04
5.079393041666667,0,0xB0,0x13
5.079411041666667,0,0xFF,0x1A
5.079429250000000,0,0xFF,0x04
5.081381833333333,0,0xB0,0x12
5.081399875000000,0,0xFF,0x13
5.081418083333333,0,0xFF,0x04
5.083378458333334,0,0xF0,0x12
5.083396458333334,0,0x7F,0x12
5.083414666666667,0,0xFF,0x04
5.085366041666667,0,0xB0,0x13
5.085384041666667,0,0x7F,0x10
5.085402250000000,0,0xFF,0x06
5.087364041666667,0,0xF0,0x12
5.087382083333333,0,0xFF,0x12
5.087400250000000,0,0xFF,0x04
5.089354208333333,0,0xF0,0x02
5.089372208333334,0,0x7F,0x12
5.089390416666666,0,0xFF,0x04
5.089415250000000,0,0xC3,0x02
5.089433250000000,0,0xFF,0x00
5.089451458333333,0,0xFF,0x32
5.089472041666666,0,0x07,0x02
5.089490041666667,0,0x80,0x12
5.089508125000000,0,0x1C,0x1A
5.089677166666666,0,0x03,0x01
5.089695166666667,0,0x80,0x81
5.089713250000000,0,0x16,0x01
5.089733875000000,0,0x34,0x01
5.089751875000000,0,0x80,0x01
5.089769958333333,0,0xC0,0x01
5.089790208333334,0,0xC3,0x01
5.089808208333333,0,0xFF,0x00
5.089826416666667,0,0xFF,0x1C
5.089847291666667,0,0x07,0x01
5.089865333333333,0,0x00,0x01
5.089883416666667,0,0x94,0x01
5.091342416666667,0,0xB0,0x12
5.091360458333333,0,0xFF,0x12
5.091378666666666,0,0xFF,0x08
5.093331333333333,0,0xB0,0x12
5.093349375000000,0,0xFF,0x12
5.093367583333333,0,0xFF,0x08
5.095323875000000,0,0xB0,0x12
5.095341916666666,0,0xFF,0x12
5.095360083333333,0,0xFF,0x08
5.097311291666666,0,0xB0,0x13
5.097329291666667,0,0xFF,0x18
5.097347500000000,0,0xFF,0x08
5.099308833333334,0,0xB0,0x12
5.099326875000000,0,0xFF,0x12
5.099345083333334,0,0xFF,0x08
5.101305166666666,0,0x98,0x18
5.101323208333334,0,0xFF,0x02
5.101341416666667,0,0xFF,0x0C
5.103295541666666,0,0xF0,0x12
5.103313583333334,0,0xFF,0x12
5.103331750000000,0,0xFF,0x08
5.105283375000000,0,0xF0,0x02
5.105301375000000,0,0x7F,0x12
5.105319583333333,0,0xFF,0x08
5.107274625000000,0,0xB0,0x12
5.107292666666667,0,0xFF,0x12
5.107310875000000,0,0xFF,0x0C
5.109267333333333,0,0x98,0x1A
5.109285375000000,0,0xFF,0x12
5.109303583333333,0,0xFF,0x08
5.111263166666666,0,0xB0,0x12
5.111281208333334,0,0xFF,0x12
5.111299416666666,0,0xFF,0x08
5.113258833333333,0,0xF0,0x12
5.113276875000000,0,0xFF,0x12
5.113295041666666,0,0xFF,0x08
5.115253250000000,0,0xB0,0x13
5.115271250000000,0,0x7F,0x1A
5.115289458333334,0,0xFF,0x00
5.117244291666666,0,0xB0,0x13
5.117262291666667,0,0x7F,0x1A
5.117280500000000,0,0xFF,0x00
5.119242000000000,0,0x98,0x10
5.119260041666666,0,0xFF,0x12
5.119278250000000,0,0xFF,0x08
5.121240083333333,0,0xB0,0x12
5.121258125000000,0,0xFF,0x12
5.121276291666667,0,0xFF,0x08
5.121301125000000,0,0xC3,0x13
5.121319125000000,0,0xFF,0x00
5.121337333333333,0,0xFF,0x96
5.121357916666667,0,0x03,0x12
5.121375916666667,0,0x00,0x10
5.121394000000000,0,0x3C,0x12
5.121475416666667,0,0x07,0x01
5.121493458333333,0,0x00,0x01
5.121511541666667,0,0x3C,0x00
5.121532125000000,0,0x1E,0x01
5.121550166666666,0,0xC0,0x01
5.121568208333334,0,0x00,0x81
5.121588458333333,0,0x07,0x01
5.121606500000000,0,0xFF,0x00
5.121624708333333,0,0xFF,0x3C
5.121645583333334,0,0x03,0x01
5.121663583333333,0,0x80,0x81
5.121681666666666,0,0x9E,0x01
5.123233208333334,0,0xB0,0x12
5.123251208333333,0,0x7F,0x12
5.123269416666667,0,0xFF,0x18
5.125224000000000,0,0xB0,0x12
5.125242041666667,0,0xFF,0x12
5.125260250000000,0,0xFF,0x18
5.127215416666667,0,0x98,0x1A
5.127233458333333,0,0xFF,0x12
5.127251666666667,0,0xFF,0x18
5.129210291666666,0,0xF0,0x02
5.129228291666666,0,0x7F,0x12
5.129246500000000,0,0xFF,0x18
5.131201833333333,0,0x98,0x10
5.131219875000000,0,0xFF,0x02
5.131238083333334,0,0xFF,0x0C
5.133198208333333,0,0xB0,0x12
5.133216250000000,0,0xFF,0x13
5.133234458333333,0,0xFF,0x18
5.135189791666667,0,0xB0,0x12
5.135207833333333,0,0xFF,0x12
5.135226041666667,0,0xFF,0x18
5.137184000000000,0,0xB0,0x12
5.137202041666667,0,0xFF,0x12
5.137220250000000,0,0xFF,0x18
5.139181416666666,0,0x98,0x10
5.139199458333334,0,0xFF,0x12
5.139217666666666,0,0xFF,0x18
5.141173541666666,0,0xB0,0x12
5.141191583333334,0,0xFF,0x12
5.141209791666666,0,0xFF,0x18
5.143173041666667,0,0x98,0x1A
5.143191083333333,0,0xFF,0x12
5.143209291666667,0,0xFF,0x18
5.145170083333333,0,0xB0,0x12
5.145188125000000,0,0xFF,0x12
5.145206333333333,0,0xFF,0x18
5.147161541666667,0,0xB0,0x13
5.147179541666667,0,0x7F,0x1A
5.147197750000000,0,0xFF,0x18
5.149154000000000,0,0xB0,0x13
5.149172000000000,0,0x7F,0x1A
5.149190208333334,0,0xFF,0x18
5.151143541666666,0,0xF0,0x12
5.151161583333334,0,0xFF,0x13
5.151179791666666,0,0xFF,0x18
5.153140708333333,0,0xF0,0x02
5.153158708333334,0,0x7F,0x12
5.153176958333333,0,0xFF,0x18
5.153201750000000,0,0xC7,0x12
5.153219791666666,0,0xFF,0x00
5.153238000000000,0,0xFF,0xBC
5.153258541666666,0,0x07,0x12
5.153276375000000,0,0x80,0x12
5.153294458333334,0,0x1E,0x12
5.154267791666666,0,0x03,0x00
5.154285791666666,0,0x00,0x01
5.154303875000000,0,0x1E,0x01
5.154324458333333,0,0x34,0x01
5.154342500000000,0,0x80,0x01
5.154360583333333,0,0xC0,0x01
5.154380833333334,0,0x83,0x01
5.154398833333333,0,0xFF,0x00
5.154417041666667,0,0xFF,0x1E
5.154437916666667,0,0x07,0x01
5.154455958333333,0,0x00,0x01
5.154474000000000,0,0x1F,0x81
5.155894500000000,0,0xF0,0x02
5.155912500000000,0,0x7F,0x12
5.155930708333333,0,0xFF,0x1C
5.157887791666667,0,0xF0,0x12
5.157905791666667,0,0x7F,0x12
5.157924000000000,0,0xFF,0x1C
5.159880083333333,0,0xF0,0x02
5.159898083333333,0,0x7F,0x12
5.159916291666667,0,0xFF,0x1C
5.161867958333334,0,0xF0,0x12
5.161886000000000,0,0xFF,0x12
5.161904208333334,0,0xFF,0x1C
5.163863958333334,0,0xB0,0x12
5.163882000000000,0,0xFF,0x10
5.163900208333334,0,0xFF,0x1C
5.165851916666667,0,0xB0,0x12
5.165869958333333,0,0xFF,0x12
5.165888166666667,0,0xFF,0x1C
5.167850500000000,0,0xB0,0x12
5.167868500000000,0,0xFF,0x10
5.167886708333334,0,0xFF,0x1E
5.169842500000000,0,0xF0,0x02
5.169860500000000,0,0x7F,0x12
5.169878708333333,0,0xFF,0x1C
5.171842166666667,0,0xF0,0x02
5.171860166666667,0,0x7F,0x12
5.171878416666667,0,0xFF,0x1C
5.173833458333333,0,0x98,0x10
5.173851500000000,0,0xFF,0x02
5.173869708333333,0,0xFF,0x0C
5.175831291666666,0,0xF0,0x12
5.175849291666666,0,0x7F,0x1A
5.175867500000000,0,0xFF,0x1C
5.177822916666667,0,0xB0,0x12
5.177840958333333,0,0xFF,0x12
5.177859166666667,0,0xFF,0x1C
5.179818208333334,0,0xB0,0x12
5.179836250000000,0,0xFF,0x13
5.179854458333334,0,0xFF,0x1C
5.181809458333333,0,0xF0,0x02
5.181827500000000,0,0xFF,0x12
5.181845708333333,0,0xFF,0x1C
5.183807333333333,0,0xB0,0x12
5.183825375000000,0,0xFF,0x12
5.183843583333333,0,0xFF,0x1C
5.185799375000000,0,0xF0,0x02
5.185817375000000,0,0x7F,0x12
5.185835583333334,0,0xFF,0x1C
5.185860416666666,0,0xC7,0x02
5.185878416666666,0,0xFF,0x00
5.185896625000000,0,0xFF,0x1E
5.185917208333334,0,0x07,0x12
5.185935250000000,0,0x00,0x13
5.185953291666666,0,0x66,0x12
5.186066166666667,0,0x07,0x01
5.186084208333333,0,0x00,0x01
5.186102291666667,0,0x46,0x01
5.186122875000000,0,0x34,0x81
5.186140916666667,0,0x80,0x01
5.186159000000000,0,0xC0,0x01
5.186179250000000,0,0xC3,0x01
5.186197250000000,0,0xFF,0x80
5.186215458333334,0,0xFF,0x46
5.186236333333333,0,0x87,0x01
5.186254375000000,0,0x00,0x01
5.186272458333334,0,0xC6,0x01
5.187797833333334,0,0xF0,0x12
5.187815875000000,0,0xFF,0x13
5.187834083333334,0,0xFF,0x0C
5.189785750000000,0,0xB0,0x12
5.189803791666667,0,0xFF,0x10
5.189822000000000,0,0xFF,0x06
5.191775125000000,0,0xB0,0x12
5.191793166666667,0,0xFF,0x12
5.191811375000000,0,0xFF,0x0C
5.193768541666667,0,0xF0,0x02
5.193786541666666,0,0x7F,0x12
5.193804750000000,0,0xFF,0x0C
5.195767583333334,0,0xF0,0x12
5.195785583333334,0,0x7F,0x12
5.195803791666667,0,0xFF,0x04
5.197760166666667,0,0xF0,0x13
5.197778166666667,0,0x7F,0x1A
5.197796375000000,0,0xFF,0x04
5.199750166666667,0,0xB0,0x12
5.199768208333333,0,0xFF,0x10
5.199786416666667,0,0xFF,0x0E
5.201744166666667,0,0xB0,0x13
5.201762166666667,0,0x7F,0x1A
5.201780375000000,0,0xFF,0x04
5.203733125000000,0,0x98,0x1A
5.203751166666667,0,0xFF,0x12
5.203769375000000,0,0xFF,0x0C
5.205730458333333,0,0xF0,0x02
5.205748458333334,0,0x7F,0x12
5.205766666666666,0,0xFF,0x0C
5.207727250000000,0,0xF0,0x12
5.207745250000000,0,0x7F,0x12
5.207763500000000,0,0xFF,0x0C
5.209719333333333,0,0x90,0x10
5.209737375000000,0,0xFF,0x02
5.209755583333333,0,0xFF,0x0C
5.211716166666666,0,0xB0,0x12
5.211734166666667,0,0x7F,0x12
5.211752375000000,0,0xFF,0x0C
5.213708291666666,0,0xB0,0x12
5.213726333333334,0,0xFF,0x02
5.213744541666666,0,0xFF,0x0C
5.215703916666667,0,0xB0,0x12
5.215721958333333,0,0xFF,0x12
5.215740166666667,0,0xFF,0x0C
5.217694541666667,0,0xF0,0x02
5.217712541666667,0,0x7F,0x12
5.217730750000000,0,0xFF,0x0C
5.217755583333333,0,0xC3,0x12
5.217773583333333,0,0xFF,0x00
5.217791791666667,0,0xFF,0xE6
5.217812375000000,0,0x03,0x02
5.217830375000000,0,0x80,0x12
5.217848458333333,0,0x00,0x1A
5.218860541666666,0,0x07,0x01
5.218878583333334,0,0x00,0x01
5.218896666666667,0,0x00,0x01
5.218917250000000,0,0x34,0x81
5.218935291666667,0,0x80,0x01
5.218953375000000,0,0xC0,0x01
5.218973625000000,0,0xC7,0x01
5.218991666666667,0,0xFF,0x00
5.219009875000000,0,0xFF,0x00
5.219030750000000,0,0x03,0x01
5.219048750000000,0,0x80,0x01
5.219066833333334,0,0x80,0x01
5.220444833333334,0,0xB0,0x12
5.220462875000000,0,0xFF,0x02
5.220481083333333,0,0xFF,0x00
5.222443458333333,0,0xB0,0x12
5.222461500000000,0,0xFF,0x12
5.222479708333333,0,0xFF,0x00
5.224431875000000,0,0xB0,0x12
5.224449916666667,0,0xFF,0x12
5.224468125000000,0,0xFF,0x00
5.226424125000000,0,0xF0,0x12
5.226442166666667,0,0xFF,0x12
5.226460375000000,0,0xFF,0x00
5.228412708333333,0,0xF0,0x12
5.228430708333334,0,0x7F,0x12
5.228448916666666,0,0xFF,0x00
5.230412291666667,0,0xB0,0x12
5.230430333333334,0,0xFF,0x02
5.230448541666667,0,0xFF,0x00
5.232412208333334,0,0xF0,0x02
5.232430208333334,0,0x7F,0x12
5.232448416666666,0,0xFF,0x00
5.234406208333334,0,0xF0,0x12
5.234424250000000,0,0xFF,0x13
5.234442458333334,0,0xFF,0x00
5.236403958333334,0,0xF0,0x12
5.236421958333334,0,0x7F,0x12
5.236440166666666,0,0xFF,0x00
5.238403708333333,0,0x98,0x1A
5.238421750000000,0,0xFF,0x12
5.238439958333333,0,0xFF,0x00
5.240399125000000,0,0xF0,0x02
5.240417125000000,0,0x7F,0x12
5.240435375000000,0,0xFF,0x00
5.242388666666667,0,0x98,0x10
5.242406708333333,0,0xFF,0x02
5.242424916666667,0,0xFF,0x00
5.244389000000000,0,0x98,0x1A
5.244407041666666,0,0xFF,0x12
5.244425250000000,0,0xFF,0x00
5.246377083333333,0,0xB0,0x13
5.246395083333334,0,0x7F,0x1A
5.246413291666666,0,0xFF,0x00
5.248364583333333,0,0x98,0x1A
5.248382625000000,0,0xFF,0x12
5.248400833333333,0,0xFF,0x00
5.250360750000000,0,0xB0,0x13
5.250378750000000,0,0x7F,0x12
5.250396958333333,0,0xFF,0x00
5.250421791666667,0,0x83,0x12
5.250439791666667,0,0xFF,0x00
5.250458000000000,0,0xFF,0x80
5.250478583333333,0,0x03,0x13
5.250496583333334,0,0x80,0x1A
5.250514666666667,0,0x20,0x12
5.250662166666666,0,0x03,0x01
5.250680166666666,0,0x00,0x01
5.250698250000000,0,0x28,0x01
5.250718833333333,0,0x34,0x81
5.250736875000000,0,0x80,0x01
5.250754958333333,0,0xC0,0x01
5.250775208333334,0,0xC3,0x01
5.250793208333334,0,0xFF,0x80
5.250811416666667,0,0xFF,0x28
5.250832291666667,0,0x87,0x01
5.250850333333333,0,0x00,0x01
5.250868416666667,0,0xE8,0x01
5.252353000000000,0,0xF0,0x12
5.252371041666667,0,0xFF,0x13
5.252389250000000,0,0xFF,0x10
5.254343916666667,0,0xF0,0x12
5.254361958333333,0,0xFF,0x13
5.254380166666667,0,0xFF,0x10
5.256331708333334,0,0xB0,0x12
5.256349750000000,0,0xFF,0x10
5.256367958333334,0,0xFF,0x18
5.258327291666666,0,0xF0,0x02
5.258345291666667,0,0x7F,0x12
5.258363500000000,0,0xFF,0x10
5.260323666666666,0,0xB0,0x12
5.260341708333334,0,0xFF,0x13
5.260359916666666,0,0xFF,0x10
5.262320916666667,0,0xB0,0x12
5.262338916666667,0,0xFF,0x10
5.262357125000000,0,0xFF,0x18
5.264317125000000,0,0xB0,0x12
5.264335166666666,0,0xFF,0x02
5.264353375000000,0,0xFF,0x00
5.266313916666666,0,0xB0,0x12
5.266331958333334,0,0xFF,0x12
5.266350166666666,0,0xFF,0x10
5.268305291666667,0,0xF0,0x02
5.268323333333333,0,0xFF,0x12
5.268341541666667,0,0xFF,0x10
5.270301500000000,0,0xB0,0x12
5.270319541666667,0,0xFF,0x13
5.270337750000000,0,0xFF,0x10
5.272293666666667,0,0xF0,0x02
5.272311666666667,0,0x7F,0x12
5.272329875000000,0,0xFF,0x10
5.274286875000000,0,0x98,0x18
5.274304916666667,0,0xFF,0x12
5.274323125000000,0,0xFF,0x10
5.276280416666666,0,0x98,0x10
5.276298458333334,0,0xFF,0x02
5.276316666666666,0,0xFF,0x00
5.278278791666667,0,0xB0,0x12
5.278296833333333,0,0xFF,0x12
5.278315041666667,0,0xFF,0x10
5.280267416666667,0,0xB0,0x12
5.280285458333333,0,0xFF,0x10
5.280303666666667,0,0xFF,0x10
5.282261458333333,0,0x98,0x1A
5.282279500000000,0,0xFF,0x12
5.282297708333333,0,0xFF,0x10
5.282322500000000,0,0x87,0x12
5.282340541666667,0,0xFF,0x00
5.282358750000000,0,0xFF,0xA8
5.282379333333333,0,0x07,0x12
5.282397333333333,0,0x00,0x1A
5.282415416666667,0,0x08,0x12
5.282463166666667,0,0x07,0x01
5.282481208333333,0,0x00,0x01
5.282499291666666,0,0x0F,0x00
5.282519875000000,0,0x1E,0x01
5.282537916666667,0,0xC0,0x01
5.282556000000000,0,0xC0,0x01
5.282576250000000,0,0x83,0x00
5.282594250000000,0,0xFF,0x00
5.282612458333333,0,0xFF,0x02
5.282633333333333,0,0x87,0x01
5.282651375000000,0,0x00,0x01
5.282669458333333,0,0xCE,0x01
5.284249333333333,0,0xB0,0x13
5.284267333333333,0,0x7F,0x1A
5.284285541666667,0,0xFF,0x1C
5.286240333333334,0,0xF0,0x12
5.286258333333334,0,0x7F,0x12
5.286276541666667,0,0xFF,0x14
5.288235500000000,0,0xF0,0x12
5.288253500000000,0,0x7F,0x12
5.288271708333333,0,0xFF,0x14
5.290232375000000,0,0x98,0x10
5.290250416666667,0,0xFF,0x02
5.290268625000000,0,0xFF,0x04
5.292225875000000,0,0xB0,0x12
5.292243916666667,0,0xFF,0x13
5.292262125000000,0,0xFF,0x14
5.294218083333333,0,0x98,0x1A
5.294236125000000,0,0xFF,0x12
5.294254333333333,0,0xFF,0x14
5.296211375000000,0,0x98,0x1A
5.296229416666667,0,0xFF,0x12
5.296247625000000,0,0xFF,0x14
5.298206041666667,0,0xF0,0x02
5.298224041666667,0,0x7F,0x12
5.298242250000000,0,0xFF,0x14
5.300202208333333,0,0xF0,0x02
5.300220208333333,0,0x7F,0x12
5.300238416666667,0,0xFF,0x14
5.302194041666667,0,0xB0,0x12
5.302212083333333,0,0xFF,0x13
5.302230291666667,0,0xFF,0x14
5.304185708333334,0,0xB0,0x12
5.304203708333334,0,0xFF,0x10
5.304221916666667,0,0xFF,0x16
5.306181500000000,0,0x90,0x10
5.306199541666667,0,0xFF,0x02
5.306217750000000,0,0xFF,0x04
5.308179625000000,0,0xB0,0x13
5.308197625000000,0,0x7F,0x1A
5.308215833333334,0,0xFF,0x14
5.310178000000000,0,0xF0,0x02
5.310196041666667,0,0xFF,0x13
5.310214250000000,0,0xFF,0x14
5.312172250000000,0,0xF0,0x13
5.312190250000000,0,0x7F,0x1A
5.312208458333333,0,0xFF,0x1C
5.314163041666666,0,0xB0,0x12
5.314181083333334,0,0xFF,0x13
5.314199291666666,0,0xFF,0x14
5.314224083333333,0,0xC7,0x02
5.314242083333333,0,0xFF,0x00
5.314262375000000,0,0xFF,0x82
5.314282958333333,0,0x03,0x13
5.314300958333333,0,0x80,0x18
5.314319041666667,0,0x32,0x12
5.315257416666666,0,0x07,0x01
5.315275458333334,0,0x00,0x01
5.315293541666667,0,0x32,0x01
5.315314125000000,0,0x1C,0x01
5.315332166666667,0,0xC0,0x01
5.315350250000000,0,0x80,0x01
5.315370458333334,0,0x07,0x01
5.315388500000000,0,0xFF,0x00
5.315406708333334,0,0xFF,0x32
5.315427583333333,0,0x07,0x01
5.315445625000000,0,0x00,0x01
5.315463666666667,0,0x18,0x01
5.316888666666666,0,0xF0,0x02
5.316906666666666,0,0x7F,0x12
5.316924875000000,0,0xFF,0x04
5.318879416666666,0,0xF0,0x12
5.318897458333334,0,0xFF,0x12
5.318915666666666,0,0xFF,0x04
5.320874041666666,0,0xB0,0x12
5.320892083333334,0,0xFF,0x1A
5.320910291666666,0,0xFF,0x04
5.322867041666667,0,0xB0,0x13
5.322885041666667,0,0x7F,0x12
5.322903250000000,0,0xFF,0x04
5.324862416666667,0,0xB0,0x13
5.324880416666667,0,0x7F,0x1A
5.324898625000000,0,0xFF,0x04
5.326858166666667,0,0xB0,0x12
5.326876166666667,0,0x7F,0x12
5.326894375000000,0,0xFF,0x04
5.328856083333333,0,0xB0,0x13
5.328874083333333,0,0x7F,0x1A
5.328892291666667,0,0xFF,0x04
5.330846833333333,0,0xB0,0x12
5.330864875000000,0,0xFF,0x10
5.330883083333333,0,0xFF,0x06
5.332844833333334,0,0xF0,0x12
5.332862875000000,0,0xFF,0x13
5.332881083333334,0,0xFF,0x04
5.334837458333333,0,0x98,0x1A
5.334855500000000,0,0xFF,0x12
5.334873708333333,0,0xFF,0x04
5.336825083333333,0,0xB0,0x13
5.336843083333333,0,0x7F,0x12
5.336861291666667,0,0xFF,0x04
5.338813000000000,0,0x98,0x10
5.338831041666666,0,0xFF,0x02
5.338849250000000,0,0xFF,0x04
5.340806541666667,0,0x98,0x1A
5.340824583333333,0,0xFF,0x12
5.340842791666667,0,0xFF,0x06
5.342796083333333,0,0xB0,0x12
5.342814125000000,0,0xFF,0x12
5.342832333333333,0,0xFF,0x00
5.344790333333333,0,0xB0,0x12
5.344808375000000,0,0xFF,0x02
5.344826583333333,0,0xFF,0x04
5.346783750000000,0,0xB0,0x12
5.346801791666667,0,0xFF,0x12
5.346820000000000,0,0xFF,0x06
5.346844791666666,0,0x87,0x12
5.346862833333334,0,0xFF,0x00
5.346881041666666,0,0xFF,0xB0
5.346901625000000,0,0x03,0x12
5.346919625000000,0,0x80,0x12
5.346937708333333,0,0x1C,0x1A
5.347058916666667,0,0x07,0x01
5.347076958333333,0,0x00,0x01
5.347095041666667,0,0x00,0x00
5.347115625000000,0,0x1E,0x01
5.347133666666666,0,0xC0,0x01
5.347151750000000,0,0x80,0x00
5.347171958333333,0,0x07,0x81
5.347190000000000,0,0xFF,0x00
5.347208208333333,0,0xFF,0x1C
5.347229083333334,0,0x87,0x01
5.347247125000000,0,0x00,0x01
5.347265208333333,0,0xC0,0x01
5.348782750000000,0,0xB0,0x13
5.348800750000000,0,0x7F,0x12
5.348818958333333,0,0xFF,0x08
5.350773000000000,0,0xF0,0x02
5.350791000000000,0,0x7F,0x12
5.350809250000000,0,0xFF,0x08
5.352773458333333,0,0x98,0x1A
5.352791500000000,0,0xFF,0x12
5.352809708333333,0,0xFF,0x08
5.354766541666667,0,0x90,0x12
5.354784583333333,0,0xFF,0x12
5.354802791666667,0,0xFF,0x08
5.356763208333334,0,0xF0,0x02
5.356781208333333,0,0x7F,0x12
5.356799458333334,0,0xFF,0x08
5.358752166666667,0,0xB0,0x13
5.358770166666667,0,0x7F,0x1A
5.358788375000000,0,0xFF,0x00
5.360743458333333,0,0x98,0x10
5.360761500000000,0,0xFF,0x02
5.360779708333333,0,0xFF,0x08
5.362736666666667,0,0xB0,0x13
5.362754666666667,0,0x7F,0x1A
5.362772875000000,0,0xFF,0x00
5.364730416666666,0,0xB0,0x12
5.364748416666667,0,0xFF,0x1A
5.364766625000000,0,0xFF,0x00
5.366725625000000,0,0xB0,0x13
5.366743625000000,0,0x7F,0x1A
5.366761833333333,0,0xFF,0x08
5.368717458333333,0,0xF0,0x02
5.368735458333333,0,0x7F,0x12
5.368753666666667,0,0xFF,0x08
5.370706500000000,0,0x98,0x1A
5.370724541666666,0,0xFF,0x12
5.370742750000000,0,0xFF,0x08
5.372700583333334,0,0xF0,0x12
5.372718583333334,0,0x7F,0x12
5.372736791666667,0,0xFF,0x08
5.374689041666667,0,0x98,0x10
5.374707083333333,0,0xFF,0x02
5.374725291666667,0,0xFF,0x08
5.376682083333334,0,0xB0,0x12
5.376700125000000,0,0xFF,0x12
5.376718333333334,0,0xFF,0x08
5.378676541666667,0,0xB0,0x12
5.378694583333333,0,0xFF,0x02
5.378712791666667,0,0xFF,0x08
5.378737583333334,0,0x87,0x10
5.378755625000000,0,0xFF,0x00
5.378773833333334,0,0xFF,0xD4
5.378794375000000,0,0x87,0x12
5.378812416666666,0,0x00,0x12
5.378830500000000,0,0x3C,0x02
5.378860625000000,0,0x07,0x01
5.378878666666667,0,0x00,0x01
5.378896750000000,0,0x3C,0x00
5.378917333333334,0,0x1E,0x01
5.378935375000000,0,0xC0,0x01
5.378953458333333,0,0x80,0x00
5.378973666666667,0,0x07,0x81
5.378991708333333,0,0xFF,0x00
5.379009916666667,0,0xFF,0x3C
5.379030791666667,0,0x87,0x01
5.379048833333333,0,0x00,0x01
5.379066916666667,0,0xFC,0x01
5.380676250000000,0,0x18,0x1A
5.380694291666667,0,0xFF,0x12
5.380712500000000,0,0xFF,0x18
5.382668291666667,0,0xB0,0x12
5.382686291666666,0,0xFF,0x10
5.382704500000000,0,0xFF,0x18
5.384656666666666,0,0xB0,0x12
5.384674708333334,0,0xFF,0x12
5.384692916666666,0,0xFF,0x0C
5.386653291666667,0,0xF0,0x12
5.386671291666667,0,0x7F,0x12
5.386689500000000,0,0xFF,0x18
5.388646125000000,0,0xB0,0x12
5.388664125000000,0,0xFF,0x10
5.388682333333334,0,0xFF,0x18
5.390637916666667,0,0xF0,0x12
5.390655958333333,0,0xFF,0x13
5.390674166666667,0,0xFF,0x18
5.392630416666667,0,0xF0,0x02
5.392648458333333,0,0xFF,0x13
5.392666666666667,0,0xFF,0x18
5.394626083333334,0,0xB0,0x12
5.394644125000000,0,0xFF,0x02
5.394662333333334,0,0xFF,0x1C
5.396621500000000,0,0xB0,0x12
5.396639500000000,0,0x7F,0x12
5.396657708333334,0,0xFF,0x18
5.398617833333334,0,0xB0,0x12
5.398635875000000,0,0xFF,0x1A
5.398654083333334,0,0xFF,0x18
5.400612708333333,0,0xF0,0x02
5.400630750000000,0,0xFF,0x13
5.400648958333333,0,0xFF,0x18
5.402609458333333,0,0xB0,0x12
5.402627500000000,0,0xFF,0x10
5.402645708333333,0,0xFF,0x18
5.404605041666667,0,0xB0,0x12
5.404623041666667,0,0xFF,0x10
5.404641250000000,0,0xFF,0x18
5.406602875000000,0,0xB0,0x13
5.406620875000000,0,0x7F,0x1A
5.406639083333333,0,0xFF,0x18
5.408593291666667,0,0xB0,0x12
5.408611291666666,0,0x7F,0x12
5.408629500000000,0,0xFF,0x18
5.410588958333333,0,0x98,0x1A
5.410607000000000,0,0xFF,0x12
5.410625208333333,0,0xFF,0x18
5.410650000000000,0,0x83,0x12
5.410668291666667,0,0xFF,0x00
5.410686500000000,0,0xFF,0xBC
5.410707041666667,0,0x07,0x12
5.410725083333333,0,0x00,0x12
5.410743125000000,0,0x1F,0x12
5.411657333333333,0,0x07,0x01
5.411675375000000,0,0x00,0x00
5.411693416666667,0,0x1E,0x01
5.411714041666666,0,0x34,0x01
5.411732083333334,0,0x80,0x00
5.411750125000000,0,0x00,0x01
5.411770375000000,0,0x07,0x01
5.411788416666667,0,0xFF,0x00
5.411806625000000,0,0xFF,0x1E
5.411827500000000,0,0x07,0x01
5.411845541666667,0,0x00,0x01
5.411863583333333,0,0x1F,0x81
5.413245375000000,0,0x98,0x10
5.413263416666667,0,0xFF,0x12
5.413281625000000,0,0xFF,0x1C
5.415239666666666,0,0x98,0x1A
5.415257708333334,0,0xFF,0x12
5.415275916666666,0,0xFF,0x1C
5.417239166666667,0,0xB0,0x13
5.417257166666666,0,0x7F,0x1A
5.417275375000000,0,0xFF,0x1C
5.419230791666667,0,0x98,0x10
5.419248833333334,0,0xFF,0x12
5.419267041666667,0,0xFF,0x1C
5.421222250000000,0,0xB0,0x12
5.421240291666667,0,0xFF,0x12
5.421258500000000,0,0xFF,0x1C
5.423215083333333,0,0xF0,0x02
5.423233083333334,0,0x7F,0x12
5.423251291666666,0,0xFF,0x1C
5.425207291666666,0,0xB0,0x13
5.425225291666667,0,0x7F,0x1A
5.425243500000000,0,0xFF,0x1C
5.427202750000000,0,0x98,0x10
5.427220791666667,0,0xFF,0x02
5.427239000000000,0,0xFF,0x0C
5.429195000000000,0,0x98,0x12
5.429213041666666,0,0xFF,0x02
5.429231250000000,0,0xFF,0x0C
5.431188583333333,0,0xF0,0x12
5.431206583333333,0,0x7F,0x12
5.431224791666667,0,0xFF,0x1C
5.433186583333334,0,0xF0,0x12
5.433204583333334,0,0x7F,0x12
5.433222791666667,0,0xFF,0x1C
5.435180750000000,0,0xB0,0x12
5.435198791666667,0,0xFF,0x02
5.435217000000000,0,0xFF,0x0C
5.437175791666666,0,0xB0,0x12
5.437193833333334,0,0xFF,0x12
5.437212041666666,0,0xFF,0x1C
5.439171375000000,0,0xF0,0x12
5.439189416666666,0,0xFF,0x12
5.439207583333333,0,0xFF,0x1C
5.441161500000000,0,0x98,0x1A
5.441179541666667,0,0xFF,0x12
5.441197750000000,0,0xFF,0x1C
5.443156125000000,0,0x98,0x1A
5.443174166666667,0,0xFF,0x12
5.443192375000000,0,0xFF,0x1C
5.443217166666667,0,0x87,0x10
5.443235208333333,0,0xFF,0x00
5.443253416666667,0,0xFF,0xCE
5.443273958333333,0,0x87,0x1A
5.443292000000000,0,0x00,0x12
5.443310083333333,0,0x43,0x13
5.443457541666667,0,0x07,0x01
5.443475583333333,0,0x00,0x00
5.443493625000000,0,0x66,0x01
5.443514250000000,0,0x34,0x01
5.443532291666667,0,0x80,0x00
5.443550333333333,0,0x00,0x01
5.443570583333333,0,0x87,0x01
5.443588625000000,0,0xFF,0x00
5.443606833333333,0,0xFF,0x06
5.443627708333334,0,0x07,0x01
5.443645750000000,0,0x00,0x00
5.443663791666666,0,0x67,0x01
5.445150708333333,0,0x30,0x92
5.445168750000000,0,0xFF,0x12
5.445186958333333,0,0xFF,0x0C
5.447144458333334,0,0x98,0x1A
5.447162500000000,0,0xFF,0x12
5.447180708333334,0,0xFF,0x0C
5.449136291666667,0,0xB0,0x13
5.449154291666667,0,0x7F,0x1A
5.449172500000000,0,0xFF,0x04
5.451126333333334,0,0xB0,0x12
5.451144375000000,0,0xFF,0x12
5.451162583333334,0,0xFF,0x0C
5.453122041666667,0,0xF0,0x12
5.453140083333333,0,0xFF,0x13
5.453158291666667,0,0xFF,0x0C
5.455115708333333,0,0xB0,0x12
5.455133750000000,0,0xFF,0x13
5.455151958333333,0,0xFF,0x0C
5.457112000000000,0,0xB0,0x12
5.457130000000000,0,0x7F,0x12
5.457148208333333,0,0xFF,0x0C
5.459101875000000,0,0xF0,0x12
5.459119916666666,0,0xFF,0x13
5.459138125000000,0,0xFF,0x0C
5.461088708333333,0,0xF0,0x02
5.461106708333333,0,0x7F,0x12
5.461124916666667,0,0xFF,0x0C
5.463079083333334,0,0xF0,0x12
5.463097083333333,0,0x7F,0x12
5.463115291666667,0,0xFF,0x0C
5.465077625000000,0,0xB0,0x12
5.465095666666667,0,0xFF,0x13
5.465113875000000,0,0xFF,0x0C
5.467072666666667,0,0xB0,0x12
5.467090708333333,0,0xFF,0x10
5.467108916666667,0,0xFF,0x0E
5.469072000000000,0,0xF0,0x12
5.469090041666667,0,0xFF,0x13
5.469108250000000,0,0xFF,0x0C
5.471065166666667,0,0xB0,0x12
5.471083208333333,0,0xFF,0x12
5.471101416666666,0,0xFF,0x0C
5.473062083333334,0,0xB0,0x13
5.473080083333334,0,0x7F,0x1A
5.473098291666667,0,0xFF,0x0C
5.475054583333334,0,0xB0,0x13
5.475072583333334,0,0x7F,0x1A
5.475090791666666,0,0xFF,0x0C
5.475115625000000,0,0xC3,0x12
5.475133625000000,0,0xFF,0x00
5.475151833333333,0,0xFF,0x46
5.475172416666667,0,0x07,0x12
5.475190458333334,0,0x00,0x12
5.475208500000000,0,0x00,0x12
5.475258166666666,0,0x07,0x01
5.475276208333334,0,0x00,0x01
5.475294291666667,0,0x00,0x01
5.475314875000000,0,0x1E,0x01
5.475332916666667,0,0x80,0x01
5.475351000000000,0,0xC0,0x01
5.475371250000000,0,0x83,0x01
5.475389250000000,0,0xFF,0x00
5.475407458333334,0,0xFF,0x00
5.475428333333333,0,0x87,0x01
5.475446375000000,0,0x00,0x01
5.475464458333334,0,0x80,0x01
5.477054333333333,0,0xF0,0x02
5.477072333333333,0,0x7F,0x12
5.477090541666667,0,0xFF,0x00
5.479045250000000,0,0x98,0x1A
5.479063291666667,0,0xFF,0x12
5.479081500000000,0,0xFF,0x00
5.481042458333333,0,0xB0,0x12
5.481060500000000,0,0xFF,0x10
5.481078708333333,0,0xFF,0x00
5.483037458333333,0,0x90,0x12
5.483055500000000,0,0xFF,0x12
5.483073708333333,0,0xFF,0x00
5.485025458333333,0,0xF0,0x12
5.485043500000000,0,0xFF,0x12
5.485061708333333,0,0xFF,0x00
5.487014041666667,0,0xF0,0x02
5.487032041666667,0,0x7F,0x12
5.487050250000000,0,0xFF,0x00
5.489007041666667,0,0xB0,0x13
5.489025041666666,0,0x7F,0x1A
5.489043250000000,0,0xFF,0x00
5.491001166666667,0,0xF0,0x02
5.491019166666667,0,0x7F,0x12
5.491037375000000,0,0xFF,0x00
5.492990708333333,0,0xF0,0x12
5.493008750000000,0,0xFF,0x12
5.493026958333333,0,0xFF,0x00
5.494982708333334,0,0xF0,0x12
5.495000750000000,0,0xFF,0x13
5.495018958333334,0,0xFF,0x00
5.496976458333333,0,0xF0,0x02
5.496994458333333,0,0x7F,0x12
5.497012666666667,0,0xFF,0x00
5.498967875000000,0,0xB0,0x12
5.498985916666666,0,0xFF,0x12
5.499004125000000,0,0xFF,0x00
5.500963375000000,0,0xB0,0x12
5.500981375000000,0,0x7F,0x12
5.500999583333333,0,0xFF,0x00
5.502953250000000,0,0x98,0x1A
5.502971291666666,0,0xFF,0x12
5.502989500000000,0,0xFF,0x00
5.504946750000000,0,0xB0,0x12
5.504964750000000,0,0xFF,0x1A
5.504982958333334,0,0xFF,0x00
5.506939458333333,0,0xB0,0x12
5.506957500000000,0,0xFF,0x13
5.506975708333333,0,0xFF,0x00
5.507000500000000,0,0xC7,0x12
5.507018541666667,0,0xFF,0x00
5.507036750000000,0,0xFF,0x80
5.507059375000000,0,0x03,0x02
5.507077375000000,0,0x80,0x12
5.507095458333334,0,0x20,0x10
5.508053791666667,0,0x07,0x01
5.508071833333333,0,0x00,0x00
5.508089875000000,0,0x28,0x01
5.508110500000000,0,0x34,0x01
5.508128541666666,0,0x80,0x00
5.508146583333334,0,0x00,0x01
5.508166833333333,0,0x87,0x01
5.508184875000000,0,0xFF,0x00
5.508203083333333,0,0xFF,0x38
5.508223958333334,0,0x03,0x01
5.508241958333334,0,0x80,0x81
5.508260041666666,0,0x00,0x01
5.509650250000000,0,0xB0,0x12
5.509668250000000,0,0x7F,0x12
5.509686458333333,0,0xFF,0x10
5.511639083333334,0,0x90,0x12
5.511657125000000,0,0xFF,0x12
5.511675333333334,0,0xFF,0x10
5.513630750000000,0,0xB0,0x12
5.513648750000000,0,0xFF,0x10
5.513666958333333,0,0xFF,0x10
5.515622125000000,0,0x98,0x10
5.515640166666667,0,0xFF,0x02
5.515658375000000,0,0xFF,0x00
5.517620166666667,0,0xF0,0x02
5.517638208333334,0,0xFF,0x13
5.517656416666667,0,0xFF,0x10
5.519610833333333,0,0xF0,0x12
5.519628833333333,0,0x7F,0x12
5.519647041666667,0,0xFF,0x10
5.521599375000000,0,0xB0,0x12
5.521617416666667,0,0xFF,0x12
5.521635625000000,0,0xFF,0x10
5.523598125000000,0,0x98,0x18
5.523616166666667,0,0xFF,0x12
5.523634375000000,0,0xFF,0x10
5.525596666666667,0,0xB0,0x12
5.525614708333333,0,0xFF,0x12
5.525632916666667,0,0xFF,0x10
5.527586291666666,0,0xF0,0x13
5.527604291666667,0,0x7F,0x1A
5.527622500000000,0,0xFF,0x18
5.529581916666666,0,0xB0,0x13
5.529599916666666,0,0x7F,0x12
5.529618125000000,0,0xFF,0x10
5.531576416666667,0,0x98,0x10
5.531594458333333,0,0xFF,0x12
5.531612666666667,0,0xFF,0x10
5.533575166666667,0,0x90,0x12
5.533593208333333,0,0xFF,0x12
5.533611416666667,0,0xFF,0x10
5.535568958333333,0,0xB0,0x12
5.535587000000000,0,0xFF,0x10
5.535605208333333,0,0xFF,0x10
5.537568583333333,0,0xB0,0x12
5.537586625000000,0,0xFF,0x02
5.537604833333333,0,0xFF,0x00
5.539560583333333,0,0xB0,0x12
5.539578583333333,0,0xFF,0x10
5.539596791666667,0,0xFF,0x10
5.539621583333333,0,0x87,0x12
5.539639625000000,0,0xFF,0x00
5.539657833333333,0,0xFF,0xA8
5.539678375000000,0,0x87,0x12
5.539696416666667,0,0x00,0x10
5.539714500000000,0,0x0A,0x12
5.539853750000000,0,0x07,0x01
5.539871791666667,0,0x00,0x01
5.539889875000000,0,0x0A,0x01
5.539910458333333,0,0x34,0x81
5.539928500000000,0,0x00,0x01
5.539946583333333,0,0x80,0x01
5.539966833333334,0,0xC7,0x01
5.539984875000000,0,0xFF,0x00
5.540003083333334,0,0xFF,0x0A
5.540023958333333,0,0x03,0x01
5.540041958333333,0,0x80,0x01
5.540060041666667,0,0x02,0x01
5.541560041666667,0,0xB0,0x10
5.541578083333333,0,0xFF,0x02
5.541596291666667,0,0xFF,0x14
5.543553041666667,0,0x98,0x1A
5.543571083333333,0,0xFF,0x12
5.543589291666667,0,0xFF,0x14
5.545540708333333,0,0xB0,0x12
5.545558750000000,0,0xFF,0x1A
5.545576958333333,0,0xFF,0x14
5.547535791666666,0,0xB0,0x12
5.547553833333334,0,0xFF,0x02
5.547572041666666,0,0xFF,0x04
5.549533208333333,0,0xB0,0x12
5.549551208333333,0,0xFF,0x18
5.549569416666666,0,0xFF,0x1C
5.551523541666667,0,0xB0,0x12
5.551541583333333,0,0xFF,0x10
5.551559791666667,0,0xFF,0x14
5.553523208333333,0,0xF0,0x12
5.553541250000000,0,0xFF,0x13
5.553559458333333,0,0xFF,0x14
5.555518875000000,0,0xB0,0x12
5.555536916666667,0,0xFF,0x12
5.555555125000000,0,0xFF,0x14
5.557507583333333,0,0xB0,0x13
5.557525583333334,0,0x7F,0x1A
5.557543791666666,0,0xFF,0x1C
5.559504333333333,0,0x98,0x1A
5.559522375000000,0,0xFF,0x12
5.559540583333333,0,0xFF,0x14
5.561498333333334,0,0xF0,0x02
5.561516375000000,0,0xFF,0x13
5.561534583333334,0,0xFF,0x14
5.563494958333333,0,0xB0,0x13
5.563512958333333,0,0x7F,0x10
5.563531166666666,0,0xFF,0x16
5.565491333333333,0,0xB0,0x12
5.565509375000000,0,0xFF,0x12
5.565527583333333,0,0xFF,0x10
5.567484791666667,0,0xB0,0x12
5.567502791666667,0,0x7F,0x12
5.567521000000000,0,0xFF,0x14
5.569484250000000,0,0xF0,0x02
5.569502291666667,0,0xFF,0x13
5.569520500000000,0,0xFF,0x14
5.571478291666667,0,0xF0,0x12
5.571496333333333,0,0xFF,0x13
5.571514541666667,0,0xFF,0x14
5.571539333333333,0,0xC7,0x12
5.571557333333334,0,0xFF,0x00
5.571575541666666,0,0xFF,0x0A
5.571596125000000,0,0x07,0x12
5.571614166666667,0,0x00,0x12
5.571632208333333,0,0x12,0x12
5.571656458333333,0,0x03,0x01
5.571674458333334,0,0x80,0x01
5.571692541666667,0,0x18,0x01
5.571713166666667,0,0x30,0x01
5.571731166666667,0,0x00,0x81
5.571749250000000,0,0x00,0x01
5.571769500000000,0,0x87,0x01
5.571787541666667,0,0xFF,0x00
5.571805750000000,0,0xFF,0x32
5.571826625000000,0,0x07,0x01
5.571844666666666,0,0x00,0x01
5.571862708333334,0,0x33,0x81
5.573468083333333,0,0xB0,0x12
5.573486125000000,0,0xFF,0x02
5.573504333333333,0,0xFF,0x04
5.575461166666667,0,0xB0,0x12
5.575479166666667,0,0x7F,0x12
5.575497375000000,0,0xFF,0x04
5.577456250000000,0,0xB0,0x12
5.577474291666666,0,0xFF,0x10
5.577492500000000,0,0xFF,0x04
5.579449708333334,0,0xB8,0x10
5.579467750000000,0,0xFF,0x12
5.579485958333334,0,0xFF,0x04
5.581445250000000,0,0xF0,0x02
5.581463250000000,0,0x7F,0x12
5.581481458333333,0,0xFF,0x04
5.583438125000000,0,0xB0,0x12
5.583456125000000,0,0xFF,0x1A
5.583474333333333,0,0xFF,0x04
5.585431125000000,0,0x90,0x12
5.585449166666667,0,0xFF,0x12
5.585467375000000,0,0xFF,0x04
5.587424583333333,0,0xB0,0x12
5.587442625000000,0,0xFF,0x10
5.587460833333333,0,0xFF,0x06
5.589420500000000,0,0xF0,0x02
5.589438500000000,0,0x7F,0x12
5.589456708333334,0,0xFF,0x04
5.591414125000000,0,0xB0,0x12
5.591432166666666,0,0xFF,0x13
5.591450375000000,0,0xFF,0x04
5.593405208333333,0,0xB0,0x12
5.593423250000000,0,0xFF,0x02
5.593441458333333,0,0xFF,0x00
5.595400583333333,0,0xB0,0x12
5.595418625000000,0,0xFF,0x02
5.595436833333333,0,0xFF,0x00
5.597396583333333,0,0xF0,0x02
5.597414583333333,0,0x7F,0x12
5.597432791666667,0,0xFF,0x04
5.599388875000000,0,0xB0,0x12
5.599406875000000,0,0xFF,0x10
5.599425083333333,0,0xFF,0x04
5.601386208333333,0,0xF0,0x12
5.601404250000000,0,0xFF,0x13
5.601422458333333,0,0xFF,0x04
5.603380208333333,0,0xF0,0x02
5.603398208333333,0,0x7F,0x12
5.603416416666667,0,0xFF,0x04
5.603441250000000,0,0x83,0x13
5.603459083333333,0,0xFF,0x00
5.603477291666667,0,0xFF,0xB2
5.603497833333333,0,0x87,0x12
5.603515875000000,0,0x00,0x12
5.603533958333333,0,0x00,0x02
5.604451125000000,0,0x07,0x01
5.604469166666667,0,0x00,0x01
5.604487250000000,0,0x10,0x01
5.604507833333333,0,0x36,0x01
5.604525875000000,0,0x80,0x01
5.604543916666667,0,0x00,0x81
5.604564166666667,0,0x07,0x01
5.604582208333333,0,0xFF,0x00
5.604600416666667,0,0xFF,0x14
5.604621291666667,0,0x07,0x01
5.604639333333333,0,0x00,0x00
5.604657375000000,0,0x14,0x01
5.606049541666667,0,0x98,0x10
5.606067583333333,0,0xFF,0x02
5.606085791666667,0,0xFF,0x08
5.608040875000000,0,0xB0,0x12
5.608058875000000,0,0xFF,0x10
5.608077083333334,0,0xFF,0x08
5.610038916666666,0,0x98,0x1A
5.610056958333334,0,0xFF,0x12
5.610075166666666,0,0xFF,0x08
5.612032791666667,0,0xB0,0x12
5.612050833333333,0,0xFF,0x13
5.612069041666667,0,0xFF,0x08
5.614023916666667,0,0xF0,0x02
5.614041916666666,0,0x7F,0x12
5.614060125000000,0,0xFF,0x08
5.616022500000000,0,0xB0,0x12
5.616040541666667,0,0xFF,0x12
5.616058750000000,0,0xFF,0x08
5.618011375000000,0,0xB0,0x12
5.618029416666666,0,0xFF,0x12
5.618047625000000,0,0xFF,0x0C
5.620003875000000,0,0xB8,0x10
5.620021916666667,0,0xFF,0x02
5.620040125000000,0,0xFF,0x08
5.621999166666667,0,0xF0,0x02
5.622017208333333,0,0xFF,0x13
5.622035416666667,0,0xFF,0x08
5.623998833333333,0,0x98,0x1A
5.624016875000000,0,0xFF,0x12
5.624035083333333,0,0xFF,0x08
5.625991666666667,0,0xB0,0x12
5.626009708333333,0,0xFF,0x12
5.626027916666667,0,0xFF,0x0C
5.627986375000000,0,0xF0,0x02
5.628004375000000,0,0x7F,0x12
5.628022583333333,0,0xFF,0x08
5.629984333333334,0,0xB0,0x12
5.630002375000000,0,0xFF,0x12
5.630020583333334,0,0xFF,0x0C
5.631975500000000,0,0x98,0x10
5.631993541666667,0,0xFF,0x02
5.632011750000000,0,0xFF,0x08
5.633967250000000,0,0xB0,0x13
5.633985250000000,0,0xFF,0x1A
5.634003458333333,0,0xFF,0x08
5.635963125000000,0,0xF0,0x12
5.635981166666666,0,0xFF,0x12
5.635999375000000,0,0xFF,0x08
5.636024166666667,0,0xC7,0x02
5.636042208333333,0,0xFF,0x00
5.636060416666667,0,0xFF,0x94
5.636080958333333,0,0x07,0x12
5.636099000000000,0,0x00,0x12
5.636117041666667,0,0x3C,0x12
5.636252875000000,0,0x03,0x01
5.636270875000000,0,0x00,0x01
5.636288958333333,0,0x3E,0x01
5.636309583333333,0,0x34,0x01
5.636327583333333,0,0x80,0x01
5.636345666666666,0,0x80,0x01
5.636365916666667,0,0xC7,0x01
5.636383958333333,0,0xFF,0x00
5.636402166666667,0,0xFF,0x3C
5.636423041666666,0,0x03,0x00
5.636441041666667,0,0x80,0x01
5.636459125000000,0,0x9E,0x01
5.637958000000000,0,0xB0,0x12
5.637976041666667,0,0xFF,0x13
5.637994250000000,0,0xFF,0x18
5.639946166666666,0,0xB0,0x13
5.639964166666666,0,0x7F,0x1A
5.639982375000000,0,0xFF,0x18
5.641937000000000,0,0x98,0x10
5.641955041666667,0,0xFF,0x02
5.641973250000000,0,0xFF,0x0C
5.643928833333334,0,0xF0,0x02
5.643946833333334,0,0x7F,0x12
5.643965083333334,0,0xFF,0x18
5.645928291666666,0,0xF0,0x12
5.645946291666666,0,0x7F,0x12
5.645964500000000,0,0xFF,0x18
5.647920666666667,0,0xB0,0x12
5.647938708333333,0,0xFF,0x1A
5.647956916666667,0,0xFF,0x18
5.649919916666667,0,0x98,0x1A
5.649937958333333,0,0xFF,0x12
5.649956166666667,0,0xFF,0x18
5.651918625000000,0,0xB0,0x12
5.651936666666667,0,0xFF,0x02
5.651954875000000,0,0xFF,0x18
5.653905750000000,0,0x98,0x1A
5.653923791666666,0,0xFF,0x12
5.653942000000000,0,0xFF,0x08
5.655896500000000,0,0x98,0x12
5.655914541666666,0,0xFF,0x12
5.655932750000000,0,0xFF,0x18
5.657883833333333,0,0xB0,0x12
5.657901875000000,0,0xFF,0x10
5.657920083333333,0,0xFF,0x18
5.659877916666667,0,0xB0,0x12
5.659895958333333,0,0xFF,0x02
5.659914166666667,0,0xFF,0x0C
5.661870541666667,0,0xF0,0x12
5.661888583333333,0,0xFF,0x13
5.661906791666667,0,0xFF,0x18
5.663863291666667,0,0xB0,0x12
5.663881333333333,0,0xFF,0x13
5.663899541666667,0,0xFF,0x18
5.665858708333333,0,0xB0,0x13
5.665876708333333,0,0x7F,0x18
5.665894916666667,0,0xFF,0x18
5.667852041666666,0,0xF0,0x02
5.667870041666666,0,0x7F,0x12
5.667888291666666,0,0xFF,0x18
5.667913083333334,0,0xC7,0x12
5.667931125000000,0,0xFF,0x00
5.667949333333334,0,0xFF,0xBC
5.667969875000000,0,0x07,0x12
5.667987916666666,0,0x00,0x02
5.668005958333334,0,0x1F,0x12
5.668054166666667,0,0x07,0x01
5.668072208333333,0,0x00,0x01
5.668090291666666,0,0x0E,0x01
5.668110875000000,0,0x1C,0x01
5.668128916666666,0,0x80,0x01
5.668147000000000,0,0xC0,0x01
5.668167250000000,0,0x83,0x00
5.668185250000000,0,0xFF,0x00
5.668203458333333,0,0xFF,0x1E
5.668224333333334,0,0x87,0x01
5.668242375000000,0,0x00,0x01
5.668260458333333,0,0xCE,0x01
5.669839750000000,0,0x30,0x12
5.669857791666667,0,0xFF,0x12
5.669876000000000,0,0xFF,0x1C
5.671833458333333,0,0x98,0x1A
5.671851500000000,0,0xFF,0x12
5.671869708333333,0,0xFF,0x1C
5.673828791666667,0,0x98,0x1A
5.673846833333333,0,0xFF,0x12
5.673865041666667,0,0xFF,0x1C
5.675826125000000,0,0xB0,0x13
5.675844125000000,0,0xFF,0x18
5.675862333333333,0,0xFF,0x1C
5.677824291666667,0,0xF0,0x02
5.677842291666667,0,0x7F,0x12
5.677860500000000,0,0xFF,0x1C
5.679821000000000,0,0xF0,0x02
5.679839000000000,0,0x7F,0x12
5.679857208333333,0,0xFF,0x1C
5.681816791666667,0,0xF0,0x02
5.681834791666667,0,0x7F,0x12
5.681853000000000,0,0xFF,0x1C
5.683808708333333,0,0xB0,0x12
5.683826750000000,0,0xFF,0x02
5.683844958333333,0,0xFF,0x0C
5.685806375000000,0,0xF0,0x12
5.685824375000000,0,0x7F,0x12
5.685842583333334,0,0xFF,0x1C
5.687802166666667,0,0x98,0x1A
5.687820208333333,0,0xFF,0x12
5.687838416666667,0,0xFF,0x1C
5.689790041666667,0,0xB0,0x12
5.689808083333333,0,0xFF,0x13
5.689826291666667,0,0xFF,0x1C
5.691780541666667,0,0xB0,0x12
5.691798583333333,0,0xFF,0x1A
5.691816791666667,0,0xFF,0x1C
5.693778000000000,0,0xB0,0x13
5.693796000000000,0,0x7F,0x12
5.693814208333333,0,0xFF,0x1C
5.695773666666667,0,0xB0,0x13
5.695791666666667,0,0x7F,0x1A
5.695809875000000,0,0xFF,0x1C
5.697769791666667,0,0xF0,0x12
5.697787833333333,0,0xFF,0x13
5.697806041666666,0,0xFF,0x1C
5.699762208333333,0,0xB0,0x12
5.699780250000000,0,0xFF,0x12
5.699798458333333,0,0xFF,0x1C
5.699823250000000,0,0x87,0x12
5.699841291666667,0,0xFF,0x00
5.699859375000000,0,0xFF,0x9E
5.699879916666666,0,0x87,0x12
5.699897958333334,0,0x00,0x10
5.699916041666667,0,0x06,0x12
5.700850125000000,0,0x07,0x01
5.700868166666667,0,0x00,0x01
5.700886250000000,0,0x46,0x01
5.700906875000000,0,0x30,0x01
5.700924875000000,0,0x00,0x81
5.700942958333333,0,0x00,0x01
5.700963208333333,0,0x87,0x01
5.700981250000000,0,0xFF,0x00
5.700999458333333,0,0xFF,0x06
5.701020333333333,0,0x07,0x01
5.701038375000000,0,0x00,0x01
5.701056416666667,0,0x43,0x80
5.702414708333333,0,0x18,0x1A
5.702432750000000,0,0xFF,0x12
5.702450958333333,0,0xFF,0x0C
5.704414375000000,0,0xB0,0x12
5.704432416666666,0,0xFF,0x02
5.704450625000000,0,0xFF,0x0C
5.706405958333334,0,0xB0,0x13
5.706423958333334,0,0x7F,0x1A
5.706442166666666,0,0xFF,0x0C
5.708393791666666,0,0xB0,0x13
5.708411791666666,0,0x7F,0x1A
5.708430000000000,0,0xFF,0x0C
5.710392166666667,0,0x98,0x10
5.710410208333333,0,0xFF,0x12
5.710428416666667,0,0xFF,0x0C
5.712384583333334,0,0xF0,0x02
5.712402625000000,0,0xFF,0x12
5.712420833333334,0,0xFF,0x0C
5.714375166666667,0,0xF0,0x12
5.714393166666667,0,0x7F,0x12
5.714411416666667,0,0xFF,0x0C
5.716371708333333,0,0xF0,0x02
5.716389750000000,0,0xFF,0x13
5.716407958333333,0,0xFF,0x0C
5.718359083333334,0,0xB0,0x12
5.718377125000000,0,0xFF,0x12
5.718395333333333,0,0xFF,0x0C
5.720351166666667,0,0xF0,0x12
5.720369208333334,0,0xFF,0x12
5.720387416666667,0,0xFF,0x0C
5.722344666666666,0,0x98,0x1A
5.722362708333334,0,0xFF,0x12
5.722380916666666,0,0xFF,0x0E
5.724336166666666,0,0x98,0x1A
5.724354208333334,0,0xFF,0x12
5.724372416666666,0,0xFF,0x0C
5.726332458333333,0,0xB0,0x12
5.726350500000000,0,0xFF,0x10
5.726368708333333,0,0xFF,0x04
5.728324916666667,0,0xB0,0x12
5.728342958333333,0,0x7F,0x1A
5.728361166666667,0,0xFF,0x0C
5.730321291666667,0,0xB0,0x12
5.730339333333333,0,0xFF,0x12
5.730357541666667,0,0xFF,0x0C
5.732310708333333,0,0xB0,0x12
5.732328750000000,0,0xFF,0x10
5.732346958333333,0,0xFF,0x04
5.732371791666667,0,0x83,0x12
5.732389791666667,0,0xFF,0x00
5.732408000000000,0,0xFF,0x46
5.732428583333333,0,0x07,0x02
5.732446583333333,0,0x80,0x12
5.732464666666667,0,0x00,0x1A
5.732655166666667,0,0x07,0x01
5.732673208333333,0,0x00,0x01
5.732691291666667,0,0x00,0x01
5.732711875000000,0,0x36,0x01
5.732729916666667,0,0xC0,0x00
5.732747958333333,0,0x00,0x01
5.732768208333333,0,0x07,0x01
5.732786250000000,0,0xFF,0x00
5.732804458333334,0,0xFF,0x00
5.732825333333333,0,0x07,0x01
5.732843375000000,0,0x00,0x01
5.732861416666666,0,0x00,0x01
5.734310291666667,0,0x10,0x12
5.734328333333333,0,0xFF,0x10
5.734346541666667,0,0xFF,0x00
5.736301458333333,0,0xB0,0x12
5.736319500000000,0,0xFF,0x12
5.736337708333333,0,0xFF,0x00
5.738292000000000,0,0xB0,0x12
5.738310041666667,0,0xFF,0x02
5.738328250000000,0,0xFF,0x00
5.740283625000000,0,0xF0,0x02
5.740301625000000,0,0x7F,0x12
5.740319833333333,0,0xFF,0x00
5.742272208333334,0,0xF0,0x12
5.742290250000000,0,0xFF,0x13
5.742308458333333,0,0xFF,0x00
5.744265666666666,0,0xB0,0x13
5.744283666666667,0,0x7F,0x1A
5.744301875000000,0,0xFF,0x00
5.746256666666667,0,0xB0,0x12
5.746274708333333,0,0xFF,0x12
5.746292916666667,0,0xFF,0x00
5.748248000000000,0,0xB0,0x12
5.748266041666667,0,0xFF,0x02
5.748284250000000,0,0xFF,0x00
5.750237208333333,0,0xB8,0x10
5.750255250000000,0,0xFF,0x02
5.750273458333333,0,0xFF,0x00
5.752231458333333,0,0xB0,0x12
5.752249500000000,0,0xFF,0x10
5.752267708333333,0,0xFF,0x00
5.754222625000000,0,0xB0,0x12
5.754240666666667,0,0xFF,0x02
5.754258875000000,0,0xFF,0x00
5.756220000000000,0,0xB0,0x12
5.756238041666666,0,0xFF,0x02
5.756256250000000,0,0xFF,0x00
5.758211208333333,0,0x98,0x1A
5.758229250000000,0,0xFF,0x12
5.758247458333333,0,0xFF,0x00
5.760201208333333,0,0xB0,0x12
5.760219250000000,0,0xFF,0x02
5.760237458333333,0,0xFF,0x00
5.762190041666667,0,0xB0,0x13
5.762208041666667,0,0x7F,0x18
5.762226250000000,0,0xFF,0x00
5.764182416666666,0,0xB0,0x12
5.764200416666666,0,0xFF,0x10
5.764218625000000,0,0xFF,0x00
5.764243416666667,0,0x87,0x12
5.764261458333333,0,0xFF,0x00
5.764279666666667,0,0xFF,0x80
5.764300208333333,0,0x87,0x12
5.764318250000000,0,0x00,0x10
5.764336333333334,0,0x28,0x12
5.764457875000000,0,0x07,0x01
5.764475916666667,0,0x00,0x00
5.764493958333333,0,0x28,0x01
5.764514583333334,0,0x34,0x01
5.764532625000000,0,0x80,0x00
5.764550666666667,0,0x00,0x01
5.764570916666667,0,0x87,0x01
5.764588958333333,0,0xFF,0x00
5.764607166666667,0,0xFF,0x3C
5.764628041666667,0,0x03,0x01
5.764646041666666,0,0x80,0x81
5.764664125000000,0,0x00,0x01
5.766176916666667,0,0xB0,0x12
5.766194958333333,0,0xFF,0x02
5.766213166666667,0,0xFF,0x00
5.768169791666667,0,0xF0,0x02
5.768187833333333,0,0xFF,0x13
5.768206041666667,0,0xFF,0x10
5.770158125000000,0,0xB0,0x12
5.770176166666666,0,0xFF,0x12
5.770194375000000,0,0xFF,0x10
5.772146958333333,0,0xB0,0x12
5.772165000000000,0,0xFF,0x10
5.772183208333334,0,0xFF,0x18
5.774135708333334,0,0xB0,0x12
5.774153750000000,0,0xFF,0x02
5.774171958333334,0,0xFF,0x10
5.776128791666666,0,0xB0,0x12
5.776146833333334,0,0xFF,0x18
5.776165041666666,0,0xFF,0x18
5.778124208333334,0,0xB0,0x12
5.778142250000000,0,0xFF,0x13
5.778160458333334,0,0xFF,0x10
5.780119791666666,0,0x90,0x12
5.780137833333334,0,0xFF,0x12
5.780156041666666,0,0xFF,0x10
5.782111958333333,0,0xF0,0x02
5.782130000000000,0,0xFF,0x13
5.782148208333333,0,0xFF,0x10
5.784101625000000,0,0xB0,0x12
5.784119666666666,0,0xFF,0x02
5.784137875000000,0,0xFF,0x00
5.786092291666667,0,0x98,0x10
5.786110333333333,0,0xFF,0x12
5.786128541666667,0,0xFF,0x10
5.788089916666666,0,0xF0,0x02
5.788107916666666,0,0x7F,0x12
5.788126125000000,0,0xFF,0x10
5.790088583333334,0,0x98,0x10
5.790106625000000,0,0xFF,0x12
5.790124833333333,0,0xFF,0x10
5.792081375000000,0,0xB0,0x13
5.792099375000000,0,0x7F,0x12
5.792117583333333,0,0xFF,0x10
5.794080208333333,0,0xF0,0x02
5.794098250000000,0,0xFF,0x13
5.794116458333334,0,0xFF,0x10
5.796075750000000,0,0x90,0x12
5.796093791666666,0,0xFF,0x12
5.796112000000000,0,0xFF,0x10
5.796136791666667,0,0x87,0x12
5.796154833333333,0,0xFF,0x00
5.796173041666667,0,0xFF,0xA8
5.796193583333333,0,0x87,0x12
5.796211625000000,0,0x00,0x10
5.796229708333334,0,0x0A,0x12
5.796260500000000,0,0x07,0x01
5.796278541666666,0,0x00,0x01
5.796296625000000,0,0x08,0x01
5.796317250000000,0,0x30,0x00
5.796335250000000,0,0x00,0x01
5.796353333333333,0,0x80,0x01
5.796373583333334,0,0xC7,0x01
5.796391625000000,0,0xFF,0x00
5.796409833333334,0,0xFF,0x0A
5.796430708333333,0,0x07,0x01
5.796448708333333,0,0x00,0x01
5.796466791666667,0,0x88,0x01
5.798071083333333,0,0xB0,0x13
5.798089083333333,0,0x7F,0x1A
5.798107291666667,0,0xFF,0x14
5.800060166666666,0,0x98,0x10
5.800078208333334,0,0xFF,0x02
5.800096416666666,0,0xFF,0x14
5.802059333333333,0,0xB0,0x12
5.802077375000000,0,0xFF,0x02
5.802095583333333,0,0xFF,0x04
5.804048583333334,0,0xB0,0x12
5.804066583333333,0,0x7F,0x12
5.804084791666667,0,0xFF,0x14
5.806042500000000,0,0xB0,0x12
5.806060541666667,0,0xFF,0x10
5.806078750000000,0,0xFF,0x16
5.808036750000000,0,0x90,0x12
5.808054791666667,0,0xFF,0x12
5.808073000000000,0,0xFF,0x16
5.810029666666667,0,0x98,0x10
5.810047708333333,0,0xFF,0x12
5.810065916666667,0,0xFF,0x14
5.812023583333334,0,0x98,0x1A
5.812041625000000,0,0xFF,0x12
5.812059833333334,0,0xFF,0x16
5.814016833333334,0,0x98,0x10
5.814034875000000,0,0xFF,0x12
5.814053083333333,0,0xFF,0x14
5.816005875000000,0,0xB0,0x12
5.816023916666667,0,0xFF,0x12
5.816042125000000,0,0xFF,0x10
5.818003416666667,0,0x98,0x1A
5.818021458333333,0,0xFF,0x12
5.818039666666666,0,0xFF,0x14
5.819996708333333,0,0xB0,0x12
5.820014750000000,0,0xFF,0x10
5.820032958333333,0,0xFF,0x16
5.821988166666666,0,0x98,0x10
5.822006208333334,0,0xFF,0x12
5.822024416666666,0,0xFF,0x04
5.823979875000000,0,0xB0,0x13
5.823997875000000,0,0x7F,0x1A
5.824016083333333,0,0xFF,0x16
5.825978000000000,0,0x98,0x10
5.825996041666667,0,0xFF,0x02
5.826014250000000,0,0xFF,0x14
5.827972583333334,0,0xB0,0x12
5.827990625000000,0,0xFF,0x10
5.828008833333334,0,0xFF,0x14
5.828033625000000,0,0x87,0x12
5.828051666666667,0,0xFF,0x00
5.828069708333333,0,0xFF,0x8A
5.828090250000000,0,0x07,0x1A
5.828108291666667,0,0x00,0x12
5.828126375000000,0,0x32,0x02
5.829055666666667,0,0x07,0x01
5.829073708333333,0,0x00,0x01
5.829091791666666,0,0x32,0x01
5.829112375000000,0,0x1E,0x01
5.829130416666667,0,0xC0,0x01
5.829148500000000,0,0x80,0x00
5.829168708333333,0,0x07,0x81
5.829186750000000,0,0xFF,0x00
5.829204958333333,0,0xFF,0x30
5.829225833333333,0,0x07,0x01
5.829243875000000,0,0x00,0x01
5.829261958333333,0,0xB3,0x00
5.830657833333333,0,0x30,0x92
5.830675875000000,0,0xFF,0x10
5.830694083333333,0,0xFF,0x06
5.832649791666666,0,0xB0,0x12
5.832667833333334,0,0xFF,0x12
5.832686041666666,0,0xFF,0x00
5.834637791666666,0,0xB0,0x12
5.834655791666667,0,0x7F,0x12
5.834674000000000,0,0xFF,0x04
5.836629208333333,0,0xF0,0x02
5.836647208333333,0,0x7F,0x12
5.836665416666666,0,0xFF,0x04
5.838629625000000,0,0x98,0x1A
5.838647666666667,0,0xFF,0x12
5.838665875000000,0,0xFF,0x04
5.840626291666666,0,0x98,0x10
5.840644333333334,0,0xFF,0x12
5.840662541666667,0,0xFF,0x04
5.842618541666667,0,0x98,0x10
5.842636583333333,0,0xFF,0x12
5.842654791666667,0,0xFF,0x04
5.844615208333333,0,0x90,0x12
5.844633250000000,0,0xFF,0x12
5.844651458333334,0,0xFF,0x04
5.846611833333333,0,0xB0,0x13
5.846629833333333,0,0x7F,0x1A
5.846648041666667,0,0xFF,0x04
5.848606416666667,0,0x90,0x12
5.848624458333333,0,0xFF,0x12
5.848642666666667,0,0xFF,0x04
5.850596333333334,0,0xF0,0x12
5.850614375000000,0,0xFF,0x12
5.850632583333334,0,0xFF,0x04
5.852590041666667,0,0xF0,0x12
5.852608083333333,0,0xFF,0x12
5.852626250000000,0,0xFF,0x04
5.854581125000000,0,0xB0,0x12
5.854599125000000,0,0x7F,0x12
5.854617333333334,0,0xFF,0x04
5.856569958333333,0,0xF0,0x12
5.856587958333333,0,0x7F,0x12
5.856606166666666,0,0xFF,0x04
5.858559791666667,0,0xF0,0x12
5.858577791666667,0,0x7F,0x12
5.858596000000000,0,0xFF,0x04
5.860553750000000,0,0xB0,0x12
5.860571791666667,0,0xFF,0x02
5.860590000000000,0,0xFF,0x00
5.860614791666666,0,0x87,0x12
5.860632833333334,0,0xFF,0x00
5.860651041666666,0,0xFF,0xB2
5.860671583333334,0,0x07,0x12
5.860689625000000,0,0x00,0x02
5.860707708333333,0,0x14,0x12
5.860855541666667,0,0x03,0x00
5.860873541666667,0,0x80,0x01
5.860891625000000,0,0x1E,0x01
5.860912250000000,0,0x30,0x01
5.860930250000000,0,0x00,0x01
5.860948333333333,0,0x80,0x01
5.860968583333333,0,0xC3,0x01
5.860986583333333,0,0xFF,0x80
5.861004791666667,0,0xFF,0x14
5.861025666666666,0,0x87,0x01
5.861043708333334,0,0x00,0x01
5.861061791666667,0,0xC0,0x00
5.862547833333333,0,0xB0,0x12
5.862565875000000,0,0xFF,0x12
5.862584083333333,0,0xFF,0x0C
5.864541041666667,0,0x98,0x12
5.864559083333333,0,0xFF,0x12
5.864577291666667,0,0xFF,0x08
5.866528291666667,0,0xF0,0x12
5.866546333333333,0,0xFF,0x13
5.866564541666667,0,0xFF,0x08
5.868521375000000,0,0x98,0x10
5.868539416666667,0,0xFF,0x02
5.868557625000000,0,0xFF,0x08
5.870520166666667,0,0x90,0x12
5.870538208333334,0,0xFF,0x12
5.870556416666667,0,0xFF,0x08
5.872514041666666,0,0xB0,0x13
5.872532041666667,0,0x7F,0x1A
5.872550250000000,0,0xFF,0x00
5.874504250000000,0,0x90,0x12
5.874522291666667,0,0xFF,0x13
5.874540500000000,0,0xFF,0x08
5.876496333333334,0,0xF0,0x12
5.876514333333334,0,0x7F,0x1A
5.876532541666666,0,0xFF,0x00
5.878483875000000,0,0xF0,0x02
5.878501875000000,0,0x7F,0x12
5.878520083333333,0,0xFF,0x08
5.880476083333333,0,0x90,0x12
5.880494125000000,0,0xFF,0x12
5.880512333333333,0,0xFF,0x08
5.882464291666667,0,0xF0,0x12
5.882482291666666,0,0x7F,0x1A
5.882500500000000,0,0xFF,0x00
5.884459541666667,0,0xB0,0x12
5.884477583333333,0,0xFF,0x12
5.884495791666667,0,0xFF,0x08
5.886456208333334,0,0xF0,0x02
5.886474208333333,0,0x7F,0x12
5.886492416666667,0,0xFF,0x08
5.888451291666667,0,0xB0,0x12
5.888469333333333,0,0xFF,0x13
5.888487541666667,0,0xFF,0x08
5.890447833333333,0,0xB0,0x13
5.890465833333334,0,0x7F,0x1A
5.890484041666666,0,0xFF,0x00
5.892443166666666,0,0x98,0x10
5.892461208333334,0,0xFF,0x12
5.892479416666666,0,0xFF,0x08
5.892504208333333,0,0x87,0x1A
5.892522250000000,0,0xFF,0x00
5.892540458333333,0,0xFF,0xD4
5.892561000000000,0,0x07,0x1A
5.892579041666667,0,0x00,0x12
5.892597125000000,0,0x3C,0x13
5.892653500000000,0,0x07,0x01
5.892671500000000,0,0x00,0x01
5.892689583333333,0,0x3C,0x01
5.892710166666666,0,0x1C,0x01
5.892728208333334,0,0xC0,0x01
5.892746291666667,0,0x80,0x00
5.892766500000000,0,0x07,0x01
5.892784541666667,0,0xFF,0x00
5.892802750000000,0,0xFF,0x3C
5.892823625000000,0,0x07,0x01
5.892841625000000,0,0x80,0x81
5.892859708333333,0,0x9E,0x01
5.894441500000000,0,0x18,0x1A
5.894459541666667,0,0xFF,0x12
5.894477750000000,0,0xFF,0x08
5.896435750000000,0,0xF0,0x12
5.896453750000000,0,0x7F,0x12
5.896471958333334,0,0xFF,0x18
5.898424625000000,0,0x98,0x10
5.898442666666667,0,0xFF,0x12
5.898460875000000,0,0xFF,0x18
5.900419916666666,0,0xB0,0x12
5.900437958333334,0,0xFF,0x12
5.900456166666666,0,0xFF,0x18
5.902418666666667,0,0xF0,0x02
5.902436666666667,0,0x7F,0x12
5.902454875000000,0,0xFF,0x18
5.904409583333333,0,0x98,0x1A
5.904427625000000,0,0xFF,0x12
5.904445833333333,0,0xFF,0x18
5.906405791666667,0,0xF0,0x12
5.906423833333333,0,0xFF,0x12
5.906442041666667,0,0xFF,0x18
5.908402250000000,0,0xF0,0x12
5.908420250000000,0,0x7F,0x12
5.908438458333333,0,0xFF,0x18
5.910395500000000,0,0x98,0x1A
5.910413541666666,0,0xFF,0x12
5.910431750000000,0,0xFF,0x18
5.912387833333334,0,0xB0,0x12
5.912405833333334,0,0xFF,0x10
5.912424041666666,0,0xFF,0x18
5.914387291666666,0,0xB0,0x12
5.914405291666666,0,0xFF,0x10
5.914423500000000,0,0xFF,0x18
5.916379333333333,0,0xB0,0x12
5.916397375000000,0,0xFF,0x02
5.916415583333333,0,0xFF,0x18
5.918378916666667,0,0xB0,0x12
5.918396916666667,0,0xFF,0x10
5.918415125000000,0,0xFF,0x18
5.920371750000000,0,0xF0,0x12
5.920389750000000,0,0x7F,0x12
5.920407958333334,0,0xFF,0x18
5.922364791666666,0,0x98,0x10
5.922382833333334,0,0xFF,0x02
5.922401041666666,0,0xFF,0x08
5.924358125000000,0,0xB0,0x12
5.924376166666667,0,0xFF,0x10
5.924394375000000,0,0xFF,0x18
5.924419166666667,0,0x87,0x12
5.924437208333333,0,0xFF,0x00
5.924455583333334,0,0xFF,0x3C
5.924476166666667,0,0x03,0x02
5.924494166666666,0,0x80,0x12
5.924512250000000,0,0x1E,0x12
5.925446166666666,0,0x03,0x01
5.925464166666667,0,0x80,0x01
5.925482250000000,0,0x1E,0x01
5.925502875000000,0,0x34,0x01
5.925520875000000,0,0x80,0x01
5.925538958333333,0,0xC0,0x01
5.925559208333333,0,0x83,0x01
5.925577208333333,0,0xFF,0x00
5.925595416666667,0,0xFF,0x1E
5.925616291666667,0,0x07,0x01
5.925634333333333,0,0x00,0x01
5.925652416666667,0,0x9F,0x01
5.927033583333333,0,0x98,0x10
5.927051625000000,0,0xFF,0x12
5.927069833333333,0,0xFF,0x1C
5.929022500000000,0,0xF0,0x12
5.929040500000000,0,0x7F,0x12
5.929058708333334,0,0xFF,0x1C
5.931015916666666,0,0xF0,0x12
5.931033916666666,0,0x7F,0x12
5.931052125000000,0,0xFF,0x1C
5.933003916666666,0,0x98,0x10
5.933021958333334,0,0xFF,0x02
5.933040166666666,0,0xFF,0x1C
5.934996166666667,0,0xB0,0x12
5.935014208333333,0,0xFF,0x13
5.935032416666667,0,0xFF,0x1C
5.936989833333334,0,0x98,0x10
5.937007875000000,0,0xFF,0x02
5.937026083333333,0,0xFF,0x1C
5.938978833333334,0,0x98,0x1A
5.938996875000000,0,0xFF,0x12
5.939015083333334,0,0xFF,0x0C
5.940978875000000,0,0xB0,0x12
5.940996916666666,0,0xFF,0x13
5.941015125000000,0,0xFF,0x1C
5.942978375000000,0,0x90,0x12
5.942996416666666,0,0xFF,0x12
5.943014625000000,0,0xFF,0x1C
5.944968291666667,0,0xF0,0x12
5.944986291666667,0,0x7F,0x1A
5.945004500000000,0,0xFF,0x1C
5.946967708333333,0,0x98,0x10
5.946985750000000,0,0xFF,0x02
5.947003958333333,0,0xFF,0x0C
5.948959666666667,0,0xF0,0x12
5.948977666666667,0,0x7F,0x12
5.948995875000000,0,0xFF,0x1C
5.950957791666666,0,0xF0,0x02
5.950975791666667,0,0x7F,0x12
5.950994000000000,0,0xFF,0x1C
5.952945916666667,0,0x90,0x12
5.952963958333333,0,0xFF,0x12
5.952982166666667,0,0xFF,0x1C
5.954938833333333,0,0xB0,0x12
5.954956875000000,0,0xFF,0x12
5.954975083333333,0,0xFF,0x1C
5.956929250000000,0,0xB0,0x12
5.956947291666666,0,0xFF,0x13
5.956965500000000,0,0xFF,0x1C
5.956990291666667,0,0xC7,0x02
5.957008333333333,0,0xFF,0x00
5.957026500000000,0,0xFF,0x1E
5.957047083333333,0,0x07,0x02
5.957065083333333,0,0x80,0x12
5.957083166666667,0,0x66,0x10
5.957245041666667,0,0x07,0x01
5.957263083333333,0,0x00,0x01
5.957281166666666,0,0x43,0x00
5.957301750000000,0,0x1E,0x01
5.957319791666666,0,0xC0,0x01
5.957337833333334,0,0x00,0x81
5.957358083333333,0,0x07,0x01
5.957376125000000,0,0xFF,0x00
5.957394333333333,0,0xFF,0x06
5.957415208333333,0,0x07,0x01
5.957433208333334,0,0x80,0x81
5.957451291666667,0,0x66,0x01
5.958925750000000,0,0xB0,0x13
5.958943750000000,0,0x7F,0x1A
5.958961958333333,0,0xFF,0x06
5.960917625000000,0,0xF0,0x13
5.960935625000000,0,0x7F,0x1A
5.960953833333333,0,0xFF,0x0E
5.962909500000000,0,0xB0,0x12
5.962927541666667,0,0xFF,0x12
5.962945750000000,0,0xFF,0x0C
5.964901458333333,0,0xB0,0x12
5.964919500000000,0,0xFF,0x13
5.964937708333333,0,0xFF,0x0C
5.966899333333333,0,0xB0,0x12
5.966917375000000,0,0xFF,0x13
5.966935583333333,0,0xFF,0x0C
5.968892333333334,0,0xB0,0x12
5.968910375000000,0,0xFF,0x13
5.968928583333334,0,0xFF,0x0C
5.970880500000000,0,0xB0,0x12
5.970898541666666,0,0xFF,0x12
5.970916750000000,0,0xFF,0x0C
5.972877375000000,0,0xB0,0x12
5.972895416666667,0,0xFF,0x12
5.972913625000000,0,0xFF,0x0C
5.974863708333333,0,0xB0,0x12
5.974881750000000,0,0xFF,0x12
5.974899958333333,0,0xFF,0x0C
5.976860041666667,0,0xB0,0x12
5.976878083333333,0,0xFF,0x12
5.976896291666667,0,0xFF,0x0C
5.978854500000000,0,0xB0,0x13
5.978872500000000,0,0x7F,0x1A
5.978890708333333,0,0xFF,0x0E
5.980842208333334,0,0xB0,0x12
5.980860250000000,0,0xFF,0x12
5.980878458333334,0,0xFF,0x0C
5.982838458333333,0,0xB0,0x12
5.982856500000000,0,0xFF,0x13
5.982874708333333,0,0xFF,0x0C
5.984830208333333,0,0xF0,0x12
5.984848208333333,0,0x7F,0x12
5.984866416666667,0,0xFF,0x0C
5.986825583333333,0,0xF0,0x02
5.986843583333333,0,0x7F,0x12
5.986861791666667,0,0xFF,0x0C
5.988818583333333,0,0x98,0x1A
5.988836625000000,0,0xFF,0x12
5.988854833333333,0,0xFF,0x0C
5.988879625000000,0,0x87,0x10
5.988897666666666,0,0xFF,0x00
5.988915875000000,0,0xFF,0xC6
5.988936416666666,0,0x07,0x10
5.988954458333334,0,0x00,0x02
5.988972500000000,0,0x00,0x12
5.989041291666667,0,0x07,0x01
5.989059333333334,0,0x00,0x01
5.989077416666666,0,0x00,0x01
5.989098000000000,0,0x1C,0x01
5.989116041666667,0,0x80,0x01
5.989134125000000,0,0xC0,0x01
5.989154375000000,0,0x83,0x00
5.989172375000000,0,0xFF,0x00
5.989190583333333,0,0xFF,0x00
5.989211458333333,0,0x87,0x01
5.989229500000000,0,0x00,0x01
5.989247583333333,0,0xC0,0x01
5.990815875000000,0,0xF0,0x12
5.990833875000000,0,0x7F,0x12
5.990852083333333,0,0xFF,0x00
5.992809458333333,0,0x98,0x10
5.992827500000000,0,0xFF,0x12
5.992845708333333,0,0xFF,0x00
5.994806208333333,0,0xF0,0x02
5.994824208333333,0,0x7F,0x12
5.994842416666667,0,0xFF,0x00
5.996797166666667,0,0xB0,0x13
5.996815166666667,0,0xFF,0x10
5.996833375000000,0,0xFF,0x00
5.998787625000000,0,0xB0,0x12
5.998805666666667,0,0xFF,0x13
5.998823875000000,0,0xFF,0x00
6.000781166666667,0,0xB0,0x12
6.000799208333333,0,0xFF,0x12
6.000817416666667,0,0xFF,0x00
6.002778125000000,0,0xF0,0x12
6.002796166666666,0,0xFF,0x12
6.002814333333333,0,0xFF,0x00
6.004769833333333,0,0xB0,0x13
6.004787833333333,0,0xFF,0x1A
6.004806041666667,0,0xFF,0x00
6.006765458333334,0,0xB0,0x12
6.006783500000000,0,0xFF,0x13
6.006801708333334,0,0xFF,0x00
6.008760458333334,0,0xF0,0x02
6.008778458333333,0,0x7F,0x12
6.008796666666667,0,0xFF,0x00
6.010757958333333,0,0xB0,0x12
6.010776000000000,0,0xFF,0x12
6.010794208333333,0,0xFF,0x00
6.012751375000000,0,0xB0,0x12
6.012769416666667,0,0xFF,0x12
6.012787625000000,0,0xFF,0x00
6.014743750000000,0,0xB0,0x12
6.014761791666666,0,0xFF,0x12
6.014780000000000,0,0xFF,0x00
6.016735375000000,0,0xB0,0x12
6.016753416666667,0,0xFF,0x13
6.016771625000000,0,0xFF,0x00
6.018731166666667,0,0x98,0x10
6.018749208333333,0,0xFF,0x12
6.018767416666667,0,0xFF,0x00
6.020724375000000,0,0x98,0x1A
6.020742416666667,0,0xFF,0x02
6.020760625000000,0,0xFF,0x00
6.020785416666667,0,0x87,0x12
6.020803458333333,0,0xFF,0x00
6.020821666666667,0,0xFF,0x80
6.020842375000000,0,0x87,0x18
6.020860416666666,0,0x00,0x02
6.020878500000000,0,0x2C,0x12
6.021832375000000,0,0x07,0x01
6.021850416666667,0,0x00,0x01
6.021868500000000,0,0x3C,0x00
6.021889083333333,0,0x3E,0x01
6.021907125000000,0,0xC0,0x01
6.021925166666667,0,0x00,0x81
6.021945416666667,0,0x87,0x01
6.021963458333333,0,0xFF,0x00
6.021981666666667,0,0xFF,0x3C
6.022002541666667,0,0x03,0x01
6.022020541666667,0,0x80,0x01
6.022038625000000,0,0xA8,0x01
6.023409041666667,0,0x30,0x92
6.023427083333333,0,0xFF,0x12
6.023445291666667,0,0xFF,0x10
6.025403916666667,0,0xF0,0x12
6.025421958333333,0,0xFF,0x12
6.025440125000000,0,0xFF,0x10
6.027402166666667,0,0xB0,0x13
6.027420166666666,0,0xFF,0x18
6.027438375000000,0,0xFF,0x10
6.029394208333334,0,0xB0,0x12
6.029412250000000,0,0xFF,0x12
6.029430458333334,0,0xFF,0x10
6.031382791666666,0,0xF0,0x12
6.031400833333334,0,0xFF,0x12
6.031419041666667,0,0xFF,0x10
6.033379333333333,0,0xB0,0x12
6.033397375000000,0,0xFF,0x12
6.033415541666667,0,0xFF,0x10
6.035371875000000,0,0x98,0x10
6.035389916666666,0,0xFF,0x02
6.035408125000000,0,0xFF,0x10
6.037363333333333,0,0x98,0x10
6.037381375000000,0,0xFF,0x02
6.037399583333333,0,0xFF,0x00
6.039353250000000,0,0xB0,0x13
6.039371250000000,0,0x7F,0x1A
6.039389458333333,0,0xFF,0x10
6.041342291666667,0,0xF0,0x02
6.041360291666667,0,0x7F,0x12
6.041378500000000,0,0xFF,0x10
6.043338958333333,0,0xF0,0x12
6.043356958333334,0,0x7F,0x1A
6.043375166666666,0,0xFF,0x10
6.045331500000000,0,0xF0,0x12
6.045349500000000,0,0x7F,0x12
6.045367708333333,0,0xFF,0x10
6.047326166666666,0,0x90,0x12
6.047344208333334,0,0xFF,0x12
6.047362416666667,0,0xFF,0x10
6.049326083333334,0,0xB0,0x12
6.049344083333334,0,0xFF,0x10
6.049362291666666,0,0xFF,0x10
6.051319458333333,0,0x98,0x10
6.051337500000000,0,0xFF,0x12
6.051355708333333,0,0xFF,0x10
6.053311541666667,0,0xB0,0x13
6.053329541666667,0,0x7F,0x1A
6.053347750000000,0,0xFF,0x10
6.053372541666667,0,0x87,0x12
6.053390583333333,0,0xFF,0x00
6.053408791666667,0,0xFF,0xA8
6.053429333333334,0,0x87,0x12
6.053447375000000,0,0x00,0x12
6.053465458333333,0,0x0E,0x02
6.053629625000000,0,0x07,0x01
6.053647666666667,0,0x00,0x01
6.053665708333333,0,0x00,0x01
6.053686333333333,0,0x30,0x01
6.053704333333333,0,0x00,0x01
6.053722416666667,0,0x80,0x01
6.053742666666666,0,0xC7,0x01
6.053760666666666,0,0xFF,0x80
6.053778875000000,0,0xFF,0x0A
6.053799750000000,0,0x87,0x01
6.053817791666667,0,0x00,0x01
6.053835875000000,0,0xCA,0x01
6.055310916666667,0,0xB0,0x12
6.055328958333333,0,0xFF,0x12
6.055347166666667,0,0xFF,0x10
6.057307375000000,0,0x98,0x1A
6.057325416666667,0,0xFF,0x12
6.057343625000000,0,0xFF,0x14
6.059304666666667,0,0xF0,0x02
6.059322666666667,0,0x7F,0x12
6.059340875000000,0,0xFF,0x14
6.061302791666667,0,0xF0,0x12
6.061320791666667,0,0x7F,0x12
6.061339000000000,0,0xFF,0x1C
6.063290750000000,0,0xB0,0x12
6.063308791666667,0,0xFF,0x10
6.063327000000000,0,0xFF,0x16
6.065281750000000,0,0xF0,0x02
6.065299750000000,0,0x7F,0x12
6.065317958333333,0,0xFF,0x14
6.067279166666666,0,0x98,0x10
6.067297208333334,0,0xFF,0x02
6.067315416666666,0,0xFF,0x04
6.069274291666667,0,0x98,0x10
6.069292333333333,0,0xFF,0x12
6.069310541666667,0,0xFF,0x04
6.071263500000000,0,0xF0,0x12
6.071281541666667,0,0xFF,0x12
6.071299750000000,0,0xFF,0x14
6.073255041666667,0,0xB0,0x13
6.073273041666667,0,0x7F,0x1A
6.073291250000000,0,0xFF,0x1C
6.075243791666667,0,0x98,0x1A
6.075261833333333,0,0xFF,0x12
6.075280041666667,0,0xFF,0x14
6.077241250000000,0,0xB0,0x12
6.077259291666667,0,0xFF,0x12
6.077277500000000,0,0xFF,0x14
6.079238500000000,0,0xB0,0x12
6.079256541666667,0,0xFF,0x13
6.079274750000000,0,0xFF,0x14
6.081229500000000,0,0xB0,0x12
6.081247500000000,0,0xFF,0x10
6.081265708333333,0,0xFF,0x16
6.083216375000000,0,0xB0,0x12
6.083234375000000,0,0x7F,0x12
6.083252583333334,0,0xFF,0x14
6.085209208333334,0,0x98,0x1A
6.085227250000000,0,0xFF,0x12
6.085245458333334,0,0xFF,0x14
6.085270250000000,0,0x87,0x1A
6.085288291666667,0,0xFF,0x00
6.085306500000000,0,0xFF,0xCA
6.085327041666667,0,0x87,0x1A
6.085345083333333,0,0x00,0x12
6.085363166666666,0,0x33,0x13
6.085427500000000,0,0x03,0x01
6.085445500000000,0,0x00,0x01
6.085463583333333,0,0x30,0x01
6.085484208333333,0,0x30,0x00
6.085502208333334,0,0x00,0x01
6.085520291666667,0,0x80,0x01
6.085540541666667,0,0xC7,0x01
6.085558583333333,0,0xFF,0x00
6.085576750000000,0,0xFF,0x32
6.085597625000000,0,0x87,0x01
6.085615666666667,0,0x00,0x01
6.085633750000000,0,0xF2,0x01
6.087201291666666,0,0x18,0x1A
6.087219333333334,0,0xFF,0x12
6.087237541666667,0,0xFF,0x04
6.089192916666667,0,0xF0,0x12
6.089210916666667,0,0x7F,0x12
6.089229125000000,0,0xFF,0x04
6.091189000000000,0,0xB0,0x13
6.091207000000000,0,0xFF,0x10
6.091225208333333,0,0xFF,0x04
6.093186208333333,0,0x98,0x18
6.093204250000000,0,0xFF,0x02
6.093222458333333,0,0xFF,0x00
6.095174208333333,0,0xB0,0x12
6.095192250000000,0,0xFF,0x13
6.095210458333334,0,0xFF,0x04
6.097170708333334,0,0x98,0x1A
6.097188750000000,0,0xFF,0x12
6.097206958333333,0,0xFF,0x04
6.099164083333333,0,0xB0,0x12
6.099182125000000,0,0xFF,0x10
6.099200333333333,0,0xFF,0x06
6.101158791666666,0,0xB0,0x13
6.101176791666667,0,0x7F,0x1A
6.101195000000000,0,0xFF,0x06
6.103147250000000,0,0xB0,0x13
6.103165250000000,0,0xFF,0x18
6.103183458333334,0,0xFF,0x06
6.105138083333333,0,0xB0,0x12
6.105156125000000,0,0xFF,0x12
6.105174333333333,0,0xFF,0x04
6.107136000000000,0,0xB0,0x13
6.107154000000000,0,0x7F,0x1A
6.107172208333333,0,0xFF,0x06
6.109126958333333,0,0xB0,0x12
6.109144958333333,0,0xFF,0x10
6.109163166666667,0,0xFF,0x04
6.111119500000000,0,0xF0,0x02
6.111137500000000,0,0x7F,0x12
6.111155708333333,0,0xFF,0x04
6.113113708333334,0,0xB0,0x12
6.113131708333333,0,0x7F,0x1A
6.113149916666667,0,0xFF,0x04
6.115105708333333,0,0xB0,0x12
6.115123708333333,0,0x7F,0x12
6.115141916666667,0,0xFF,0x04
6.117099250000000,0,0x98,0x1A
6.117117291666666,0,0xFF,0x12
6.117135500000000,0,0xFF,0x04
6.117160291666667,0,0x87,0x12
6.117178333333333,0,0xFF,0x00
6.117196541666667,0,0xFF,0xB2
6.117217083333333,0,0x83,0x12
6.117234958333333,0,0x00,0x12
6.117253041666666,0,0x00,0x12
6.118220000000000,0,0x07,0x01
6.118238041666666,0,0x00,0x01
6.118256125000000,0,0x04,0x01
6.118276708333333,0,0x1C,0x01
6.118294750000000,0,0x80,0x01
6.118312833333333,0,0x80,0x00
6.118333041666666,0,0x07,0x81
6.118351083333334,0,0xFF,0x00
6.118369291666666,0,0xFF,0x14
6.118390166666667,0,0x07,0x01
6.118408208333333,0,0x00,0x01
6.118426250000000,0,0x14,0x81
6.119850166666667,0,0xB0,0x12
6.119868208333333,0,0xFF,0x12
6.119886416666667,0,0xFF,0x08
6.121840041666666,0,0xB0,0x13
6.121858041666667,0,0x7F,0x1A
6.121876250000000,0,0xFF,0x00
6.123834375000000,0,0x98,0x10
6.123852416666667,0,0xFF,0x02
6.123870625000000,0,0xFF,0x08
6.125823041666667,0,0xF0,0x02
6.125841041666667,0,0x7F,0x12
6.125859250000000,0,0xFF,0x08
6.127818875000000,0,0xF0,0x02
6.127836875000000,0,0x7F,0x12
6.127855083333333,0,0xFF,0x08
6.129809458333333,0,0xB0,0x13
6.129827458333334,0,0x7F,0x1A
6.129845666666666,0,0xFF,0x08
6.131805750000000,0,0xF0,0x12
6.131823791666666,0,0xFF,0x13
6.131842000000000,0,0xFF,0x08
6.133802000000000,0,0xF0,0x02
6.133820041666667,0,0xFF,0x13
6.133838250000000,0,0xFF,0x08
6.135801375000000,0,0xB0,0x12
6.135819416666667,0,0xFF,0x10
6.135837625000000,0,0xFF,0x08
6.137797083333333,0,0xB0,0x12
6.137815125000000,0,0xFF,0x1A
6.137833333333333,0,0xFF,0x00
6.139786041666667,0,0x90,0x12
6.139804083333333,0,0xFF,0x12
6.139822291666666,0,0xFF,0x08
6.141781125000000,0,0xB0,0x12
6.141799125000000,0,0x7F,0x12
6.141817333333333,0,0xFF,0x08
6.143779958333333,0,0xB0,0x13
6.143797958333334,0,0x7F,0x12
6.143816166666666,0,0xFF,0x08
6.145771791666666,0,0xB0,0x12
6.145789833333334,0,0xFF,0x10
6.145808041666666,0,0xFF,0x00
6.147771541666667,0,0xB0,0x12
6.147789583333333,0,0xFF,0x12
6.147807791666667,0,0xFF,0x0C
6.149766375000000,0,0x98,0x10
6.149784416666667,0,0xFF,0x02
6.149802625000000,0,0xFF,0x08
6.149827416666667,0,0x87,0x10
6.149845458333333,0,0xFF,0x00
6.149863666666667,0,0xFF,0xD4
6.149884208333333,0,0x87,0x12
6.149902250000000,0,0x00,0x12
6.149920333333333,0,0x3C,0x12
6.150021375000000,0,0x07,0x01
6.150039416666667,0,0x00,0x01
6.150057500000000,0,0x3C,0x00
6.150078083333334,0,0x1E,0x01
6.150096125000000,0,0xC0,0x01
6.150114208333333,0,0x80,0x01
6.150134458333333,0,0x87,0x00
6.150152458333333,0,0xFF,0x00
6.150170666666667,0,0xFF,0x1C
6.150191541666667,0,0x87,0x01
6.150209583333333,0,0x00,0x01
6.150227666666667,0,0xFC,0x01
6.151753625000000,0,0xB0,0x12
6.151771666666667,0,0xFF,0x02
6.151789875000000,0,0xFF,0x08
6.153748583333333,0,0xF0,0x02
6.153766583333334,0,0x7F,0x12
6.153784791666666,0,0xFF,0x18
6.155740250000000,0,0xB0,0x12
6.155758291666666,0,0xFF,0x10
6.155776500000000,0,0xFF,0x18
6.157736458333333,0,0xB0,0x12
6.157754500000000,0,0xFF,0x10
6.157772708333333,0,0xFF,0x18
6.159724375000000,0,0xB0,0x12
6.159742416666667,0,0xFF,0x12
6.159760625000000,0,0xFF,0x18
6.161714708333333,0,0xB0,0x12
6.161732750000000,0,0xFF,0x13
6.161750958333333,0,0xFF,0x18
6.163711000000000,0,0xB0,0x12
6.163729041666667,0,0xFF,0x12
6.163747250000000,0,0xFF,0x18
6.165706625000000,0,0xB0,0x12
6.165724666666667,0,0xFF,0x02
6.165742875000000,0,0xFF,0x0C
6.167704208333333,0,0x98,0x10
6.167722250000000,0,0xFF,0x02
6.167740458333333,0,0xFF,0x18
6.169700666666666,0,0x90,0x12
6.169718708333333,0,0xFF,0x12
6.169736916666666,0,0xFF,0x18
6.171688583333333,0,0xB0,0x12
6.171706625000000,0,0xFF,0x12
6.171724833333333,0,0xFF,0x18
6.173680583333334,0,0xF0,0x02
6.173698583333334,0,0x7F,0x12
6.173716791666667,0,0xFF,0x18
6.175670833333333,0,0xB0,0x12
6.175688875000000,0,0xFF,0x12
6.175707083333333,0,0xFF,0x18
6.177662333333333,0,0x98,0x1A
6.177680375000000,0,0xFF,0x12
6.177698583333333,0,0xFF,0x18
6.179659958333334,0,0xB0,0x13
6.179677958333333,0,0x7F,0x1A
6.179696166666667,0,0xFF,0x18
6.181650083333333,0,0x98,0x10
6.181668125000000,0,0xFF,0x02
6.181686333333333,0,0xFF,0x08
6.181711125000000,0,0x87,0x10
6.181729166666667,0,0xFF,0x00
6.181747375000000,0,0xFF,0xFC
6.181767916666667,0,0x87,0x1A
6.181785958333333,0,0x00,0x12
6.181804041666667,0,0x0E,0x02
6.182815750000000,0,0x03,0x01
6.182833750000000,0,0x80,0x81
6.182851833333333,0,0x1E,0x01
6.182872458333334,0,0x30,0x01
6.182890458333334,0,0x00,0x81
6.182908541666666,0,0x80,0x01
6.182928791666667,0,0x87,0x01
6.182946833333333,0,0xFF,0x00
6.182965041666667,0,0xFF,0x1E
6.182985916666667,0,0x03,0x01
6.183003916666666,0,0x00,0x01
6.183022000000000,0,0x9E,0x01
6.184404125000000,0,0x30,0x92
6.184422166666667,0,0xFF,0x12
6.184440375000000,0,0xFF,0x1E
6.186398291666666,0,0xB0,0x12
6.186416333333334,0,0xFF,0x12
6.186434541666666,0,0xFF,0x1C
6.188387833333334,0,0x98,0x10
6.188405875000000,0,0xFF,0x02
6.188424083333333,0,0xFF,0x0C
6.190382416666667,0,0xF0,0x12
6.190400458333333,0,0xFF,0x13
6.190418666666667,0,0xFF,0x1C
6.192382166666667,0,0x98,0x10
6.192400208333333,0,0xFF,0x02
6.192418416666666,0,0xFF,0x1C
6.194374833333334,0,0xF0,0x12
6.194392875000000,0,0xFF,0x12
6.194411083333334,0,0xFF,0x1C
6.196369166666667,0,0x98,0x10
6.196387208333333,0,0xFF,0x12
6.196405416666667,0,0xFF,0x1C
6.198361750000000,0,0xB0,0x12
6.198379791666667,0,0xFF,0x02
6.198398000000000,0,0xFF,0x1C
6.200358333333333,0,0xF0,0x12
6.200376333333334,0,0x7F,0x12
6.200394541666666,0,0xFF,0x1C
6.202351916666666,0,0xB0,0x12
6.202369958333334,0,0xFF,0x12
6.202388166666666,0,0xFF,0x1C
6.204340541666666,0,0xB0,0x13
6.204358541666666,0,0x7F,0x1A
6.204376750000000,0,0xFF,0x1C
6.206333416666666,0,0xF0,0x12
6.206351416666666,0,0x7F,0x12
6.206369625000000,0,0xFF,0x1C
6.208326916666667,0,0x98,0x10
6.208344958333333,0,0xFF,0x12
6.208363166666667,0,0xFF,0x0C
6.210319916666666,0,0x98,0x1A
6.210337958333334,0,0xFF,0x12
6.210356166666666,0,0xFF,0x1C
6.212308125000000,0,0x98,0x18
6.212326166666666,0,0xFF,0x12
6.212344375000000,0,0xFF,0x1C
6.214297416666667,0,0x98,0x10
6.214315458333333,0,0xFF,0x12
6.214333666666667,0,0xFF,0x1C
6.214358458333333,0,0x87,0x18
6.214376500000000,0,0xFF,0x00
6.214394708333334,0,0xFF,0xDE
6.214415250000000,0,0x87,0x1A
6.214433291666666,0,0x00,0x12
6.214451375000000,0,0x02,0x12
6.214617083333334,0,0x07,0x01
6.214635125000000,0,0x00,0x00
6.214653166666666,0,0x66,0x01
6.214673791666667,0,0x30,0x01
6.214691791666667,0,0x00,0x81
6.214709875000000,0,0x80,0x01
6.214730125000000,0,0x87,0x01
6.214748166666666,0,0xFF,0x00
6.214766375000000,0,0xFF,0x47
6.214787250000000,0,0x03,0x00
6.214805250000000,0,0x00,0x01
6.214823333333333,0,0xC6,0x01
6.216295541666667,0,0x18,0x18
6.216313583333333,0,0xFF,0x12
6.216331791666667,0,0xFF,0x0C
6.218290916666667,0,0xB0,0x12
6.218308958333333,0,0xFF,0x12
6.218327166666667,0,0xFF,0x0C
6.220278666666666,0,0xB0,0x12
6.220296666666667,0,0xFF,0x1A
6.220314875000000,0,0xFF,0x06
6.222271041666667,0,0xB0,0x13
6.222289041666667,0,0x7F,0x18
6.222307250000000,0,0xFF,0x04
6.224261458333333,0,0xB0,0x13
6.224279458333333,0,0x7F,0x1A
6.224297666666667,0,0xFF,0x04
6.226253708333333,0,0xB0,0x12
6.226271750000000,0,0xFF,0x1A
6.226289958333333,0,0xFF,0x0C
6.228244125000000,0,0xF0,0x12
6.228262166666667,0,0xFF,0x12
6.228280375000000,0,0xFF,0x0C
6.230238666666667,0,0x90,0x12
6.230256708333333,0,0xFF,0x12
6.230274916666667,0,0xFF,0x0C
6.232239000000000,0,0xF0,0x12
6.232257041666666,0,0xFF,0x12
6.232275250000000,0,0xFF,0x0C
6.234230708333333,0,0xB0,0x12
6.234248750000000,0,0xFF,0x12
6.234266958333333,0,0xFF,0x0C
6.236231041666667,0,0x98,0x10
6.236249083333333,0,0xFF,0x02
6.236267291666667,0,0xFF,0x0C
6.238225000000000,0,0xF0,0x12
6.238243000000000,0,0x7F,0x12
6.238261208333333,0,0xFF,0x0C
6.240220583333334,0,0xB0,0x12
6.240238583333333,0,0xFF,0x10
6.240256791666667,0,0xFF,0x0E
6.242212833333333,0,0xF0,0x02
6.242230833333333,0,0x7F,0x12
6.242249041666667,0,0xFF,0x0C
6.244200708333334,0,0xB0,0x12
6.244218750000000,0,0xFF,0x12
6.244236958333333,0,0xFF,0x0C
6.246195500000000,0,0xF0,0x12
6.246213541666667,0,0xFF,0x12
6.246231750000000,0,0xFF,0x0C
6.246256541666667,0,0x87,0x10
6.246274583333333,0,0xFF,0x00
6.246292791666667,0,0xFF,0xC6
6.246313333333333,0,0x87,0x12
6.246331375000000,0,0x00,0x12
6.246349458333333,0,0x00,0x02
6.246418875000000,0,0x07,0x01
6.246436916666666,0,0x00,0x01
6.246455000000000,0,0x00,0x01
6.246475583333333,0,0x34,0x81
6.246493625000000,0,0x80,0x01
6.246511708333333,0,0xC0,0x01
6.246531958333334,0,0xC7,0x01
6.246550000000000,0,0xFF,0x00
6.246568208333334,0,0xFF,0x00
6.246589083333333,0,0x03,0x01
6.246607083333333,0,0x80,0x81
6.246625166666667,0,0x00,0x01
6.248187333333333,0,0x10,0x12
6.248205375000000,0,0xFF,0x12
6.248223583333333,0,0xFF,0x00
6.250183250000000,0,0xB0,0x12
6.250201291666666,0,0xFF,0x02
6.250219500000000,0,0xFF,0x00
6.252171750000000,0,0x98,0x1A
6.252189791666667,0,0xFF,0x12
6.252208000000000,0,0xFF,0x00
6.254164833333333,0,0xB0,0x12
6.254182833333333,0,0x7F,0x12
6.254201041666667,0,0xFF,0x00
6.256162250000000,0,0xF0,0x02
6.256180250000000,0,0x7F,0x12
6.256198458333333,0,0xFF,0x00
6.258155666666666,0,0x90,0x12
6.258173708333334,0,0xFF,0x12
6.258191916666667,0,0xFF,0x00
6.260149416666667,0,0xF0,0x02
6.260167416666667,0,0x7F,0x12
6.260185625000000,0,0xFF,0x00
6.262140250000000,0,0xF0,0x12
6.262158291666666,0,0xFF,0x12
6.262176500000000,0,0xFF,0x00
6.264130833333334,0,0xF0,0x02
6.264148833333333,0,0x7F,0x12
6.264167041666667,0,0xFF,0x00
6.266123625000000,0,0xF0,0x02
6.266141666666667,0,0xFF,0x12
6.266159875000000,0,0xFF,0x00
6.268112250000000,0,0x98,0x1A
6.268130291666667,0,0xFF,0x12
6.268148500000000,0,0xFF,0x00
6.270100333333334,0,0x98,0x10
6.270118375000000,0,0xFF,0x02
6.270136583333334,0,0xFF,0x00
6.272089875000000,0,0xF0,0x02
6.272107916666666,0,0xFF,0x12
6.272126125000000,0,0xFF,0x00
6.274084375000000,0,0xB0,0x13
6.274102375000000,0,0x7F,0x12
6.274120583333334,0,0xFF,0x00
6.276075791666667,0,0xB0,0x12
6.276093791666667,0,0xFF,0x10
6.276112000000000,0,0xFF,0x00
6.278070500000000,0,0x98,0x10
6.278088541666667,0,0xFF,0x12
6.278106750000000,0,0xFF,0x00
6.278131541666666,0,0x87,0x1A
6.278149583333334,0,0xFF,0x00
6.278167791666666,0,0xFF,0x80
6.278188333333333,0,0x87,0x12
6.278206375000000,0,0x00,0x12
6.278224666666667,0,0x08,0x12
6.279215416666666,0,0x07,0x01
6.279233416666667,0,0x00,0x01
6.279251500000000,0,0x28,0x01
6.279272083333334,0,0x34,0x81
6.279290125000000,0,0x80,0x01
6.279308208333333,0,0xC0,0x01
6.279328458333334,0,0xC3,0x01
6.279346458333333,0,0xFF,0x80
6.279364708333333,0,0xFF,0x28
6.279385583333333,0,0x03,0x01
6.279403583333333,0,0x80,0x81
6.279421666666667,0,0x00,0x01
6.280844125000000,0,0xB0,0x13
6.280862125000000,0,0x7F,0x1A
6.280880333333333,0,0xFF,0x10
6.282835625000000,0,0xB0,0x12
6.282853625000000,0,0x7F,0x1A
6.282871833333333,0,0xFF,0x18
6.284829708333334,0,0xB0,0x12
6.284847750000000,0,0xFF,0x12
6.284865958333334,0,0xFF,0x00
6.286824333333334,0,0xB0,0x13
6.286842333333333,0,0xFF,0x1A
6.286860541666667,0,0xFF,0x18
6.288822041666666,0,0xB0,0x12
6.288840083333334,0,0xFF,0x10
6.288858291666667,0,0xFF,0x10
6.290819333333333,0,0xF0,0x12
6.290837333333333,0,0x7F,0x1A
6.290855541666667,0,0xFF,0x18
6.292813166666667,0,0xF0,0x02
6.292831208333333,0,0xFF,0x12
6.292849416666667,0,0xFF,0x10
6.294807583333333,0,0xB0,0x12
6.294825625000000,0,0xFF,0x02
6.294843833333333,0,0xFF,0x00
6.296799208333334,0,0xB0,0x12
6.296817250000000,0,0xFF,0x1A
6.296835458333334,0,0xFF,0x18
6.298794250000000,0,0xF0,0x12
6.298812291666667,0,0xFF,0x12
6.298830500000000,0,0xFF,0x00
6.300783500000000,0,0x90,0x12
6.300801541666667,0,0xFF,0x10
6.300819750000000,0,0xFF,0x10
6.302780000000000,0,0xF0,0x12
6.302798000000000,0,0x7F,0x12
6.302816208333334,0,0xFF,0x10
6.304776000000000,0,0xF0,0x12
6.304794041666667,0,0xFF,0x13
6.304812250000000,0,0xFF,0x10
6.306766625000000,0,0x98,0x18
6.306784666666666,0,0xFF,0x12
6.306802875000000,0,0xFF,0x10
6.308754833333333,0,0x98,0x1A
6.308772875000000,0,0xFF,0x12
6.308791083333333,0,0xFF,0x10
6.310742708333334,0,0x98,0x1A
6.310760750000000,0,0xFF,0x12
6.310778958333334,0,0xFF,0x10
6.310803750000000,0,0x87,0x10
6.310821791666666,0,0xFF,0x00
6.310840000000000,0,0xFF,0xF8
6.310860541666667,0,0x07,0x1A
6.310878583333333,0,0x00,0x12
6.310896666666666,0,0x0F,0x13
6.311018583333333,0,0x03,0x01
6.311036583333333,0,0x00,0x01
6.311054666666666,0,0x0A,0x01
6.311075250000000,0,0x34,0x81
6.311093291666666,0,0x80,0x01
6.311111375000000,0,0xC0,0x01
6.311131625000000,0,0x83,0x00
6.311149625000000,0,0xFF,0x00
6.311167833333333,0,0xFF,0x0A
6.311188708333333,0,0x87,0x01
6.311206750000000,0,0x00,0x01
6.311224833333333,0,0xCE,0x01
6.312733625000000,0,0xF0,0x12
6.312751666666666,0,0xFF,0x12
6.312769833333333,0,0xFF,0x14
6.314723875000000,0,0xB0,0x12
6.314741916666667,0,0xFF,0x13
6.314760125000000,0,0xFF,0x14
6.316712166666667,0,0xB0,0x12
6.316730208333333,0,0xFF,0x10
6.316748416666667,0,0xFF,0x16
6.318705708333333,0,0x98,0x1A
6.318723750000000,0,0xFF,0x12
6.318741958333334,0,0xFF,0x04
6.320699083333333,0,0xB0,0x12
6.320717125000000,0,0xFF,0x12
6.320735333333333,0,0xFF,0x10
6.322693000000000,0,0xB0,0x12
6.322711041666667,0,0xFF,0x10
6.322729250000000,0,0xFF,0x16
6.324684458333333,0,0x98,0x10
6.324702500000000,0,0xFF,0x02
6.324720708333333,0,0xFF,0x04
6.326681875000000,0,0x90,0x12
6.326699916666667,0,0xFF,0x10
6.326718125000000,0,0xFF,0x16
6.328676125000000,0,0x98,0x12
6.328694166666667,0,0xFF,0x02
6.328712375000000,0,0xFF,0x10
6.330670791666667,0,0x98,0x10
6.330688833333333,0,0xFF,0x02
6.330707041666667,0,0xFF,0x14
6.332659750000000,0,0xB0,0x12
6.332677791666667,0,0xFF,0x12
6.332696000000000,0,0xFF,0x10
6.334657708333333,0,0xB0,0x13
6.334675708333333,0,0x7F,0x1A
6.334693916666667,0,0xFF,0x1C
6.336652291666667,0,0xB0,0x12
6.336670333333333,0,0xFF,0x10
6.336688541666667,0,0xFF,0x16
6.338645541666667,0,0x98,0x1A
6.338663583333333,0,0xFF,0x12
6.338681791666667,0,0xFF,0x14
6.340640416666667,0,0xB0,0x13
6.340658416666667,0,0x7F,0x12
6.340676625000000,0,0xFF,0x14
6.342639375000000,0,0x98,0x1A
6.342657416666666,0,0xFF,0x12
6.342675625000000,0,0xFF,0x14
6.342700416666666,0,0x87,0x12
6.342718458333334,0,0xFF,0x00
6.342736666666666,0,0xFF,0x88
6.342757250000000,0,0x03,0x13
6.342775250000000,0,0x80,0x1A
6.342793333333334,0,0x18,0x10
6.342818458333333,0,0x07,0x01
6.342836500000000,0,0x00,0x01
6.342854583333334,0,0x32,0x01
6.342875166666667,0,0x1E,0x01
6.342893208333333,0,0xC0,0x01
6.342911291666667,0,0x80,0x00
6.342931500000000,0,0x07,0x81
6.342949541666667,0,0xFF,0x00
6.342967750000000,0,0xFF,0x30
6.342988625000000,0,0x07,0x01
6.343006666666667,0,0x00,0x01
6.343024708333333,0,0x33,0x81
6.344626583333334,0,0xF0,0x02
6.344644583333333,0,0x7F,0x12
6.344662833333333,0,0xFF,0x04
6.346621875000000,0,0x90,0x12
6.346639916666667,0,0xFF,0x12
6.346658125000000,0,0xFF,0x04
6.348609958333333,0,0xB0,0x12
6.348628000000000,0,0xFF,0x12
6.348646208333333,0,0xFF,0x00
6.350609458333333,0,0xB0,0x12
6.350627500000000,0,0xFF,0x13
6.350645708333333,0,0xFF,0x04
6.352603208333333,0,0xB0,0x13
6.352621208333334,0,0x7F,0x1A
6.352639416666666,0,0xFF,0x04
6.354596875000000,0,0x90,0x12
6.354614916666667,0,0xFF,0x12
6.354633125000000,0,0xFF,0x04
6.356591541666667,0,0x98,0x10
6.356609583333333,0,0xFF,0x02
6.356627791666667,0,0xFF,0x04
6.358585791666667,0,0xB0,0x12
6.358603833333333,0,0xFF,0x10
6.358622041666667,0,0xFF,0x06
6.360575458333333,0,0xB0,0x13
6.360593458333334,0,0x7F,0x12
6.360611666666666,0,0xFF,0x04
6.362568125000000,0,0xB0,0x12
6.362586166666667,0,0xFF,0x10
6.362604375000000,0,0xFF,0x06
6.364564125000000,0,0x90,0x12
6.364582166666667,0,0xFF,0x12
6.364600375000000,0,0xFF,0x04
6.366557958333333,0,0x98,0x10
6.366576000000000,0,0xFF,0x02
6.366594208333333,0,0xFF,0x04
6.368547333333333,0,0xB0,0x12
6.368565375000000,0,0xFF,0x10
6.368583583333334,0,0xFF,0x06
6.370543541666667,0,0xF0,0x12
6.370561541666667,0,0x7F,0x12
6.370579750000000,0,0xFF,0x04
6.372539875000000,0,0xB0,0x12
6.372557916666667,0,0xFF,0x10
6.372576125000000,0,0xFF,0x04
6.374534541666667,0,0xF0,0x02
6.374552541666667,0,0x7F,0x12
6.374570750000000,0,0xFF,0x04
6.374595583333333,0,0xC7,0x02
6.374613583333334,0,0xFF,0x00
6.374631625000000,0,0xFF,0xB0
6.374652208333333,0,0x03,0x13
6.374670208333334,0,0x80,0x1A
6.374688291666667,0,0x16,0x12
6.375613125000000,0,0x07,0x01
6.375631166666667,0,0x00,0x01
6.375649208333333,0,0x14,0x81
6.375669833333333,0,0x36,0x01
6.375687875000000,0,0xC0,0x01
6.375705958333334,0,0x80,0x00
6.375726166666666,0,0x07,0x81
6.375744208333334,0,0xFF,0x00
6.375762416666666,0,0xFF,0x1C
6.375783291666667,0,0x87,0x01
6.375801333333333,0,0x00,0x01
6.375819416666666,0,0xD4,0x01
6.377210625000000,0,0xF0,0x12
6.377228666666666,0,0xFF,0x13
6.377246875000000,0,0xFF,0x0C
6.379199666666667,0,0xB0,0x12
6.379217708333333,0,0xFF,0x12
6.379235916666667,0,0xFF,0x08
6.381190916666666,0,0xF0,0x02
6.381208916666667,0,0x7F,0x12
6.381227125000000,0,0xFF,0x08
6.383182666666666,0,0xB0,0x12
6.383200708333334,0,0xFF,0x02
6.383218916666666,0,0xFF,0x08
6.385175291666667,0,0xB0,0x12
6.385193291666667,0,0xFF,0x1A
6.385211500000000,0,0xFF,0x00
6.387164000000000,0,0xB0,0x12
6.387182000000000,0,0x7F,0x12
6.387200250000000,0,0xFF,0x08
6.389154083333334,0,0xB0,0x12
6.389172083333333,0,0x7F,0x12
6.389190291666667,0,0xFF,0x08
6.391144125000000,0,0xF0,0x12
6.391162166666667,0,0xFF,0x13
6.391180375000000,0,0xFF,0x08
6.393137291666667,0,0xB0,0x12
6.393155333333334,0,0xFF,0x13
6.393173541666667,0,0xFF,0x08
6.395126541666666,0,0xF0,0x12
6.395144541666666,0,0x7F,0x12
6.395162750000000,0,0xFF,0x08
6.397114916666666,0,0xB0,0x12
6.397132958333334,0,0xFF,0x10
6.397151166666666,0,0xFF,0x00
6.399108416666667,0,0xB0,0x13
6.399126416666666,0,0x7F,0x12
6.399144625000000,0,0xFF,0x08
6.401104750000000,0,0xB0,0x12
6.401122791666666,0,0xFF,0x10
6.401141000000000,0,0xFF,0x00
6.403093500000000,0,0xF0,0x12
6.403111500000000,0,0x7F,0x12
6.403129750000000,0,0xFF,0x08
6.405089958333333,0,0xB0,0x12
6.405108000000000,0,0xFF,0x02
6.405126208333333,0,0xFF,0x08
6.407081958333333,0,0xB0,0x13
6.407099958333333,0,0x7F,0x12
6.407118166666667,0,0xFF,0x08
6.407143000000000,0,0xC7,0x12
6.407161041666667,0,0xFF,0x00
6.407179250000000,0,0xFF,0x94
6.407199791666667,0,0x07,0x10
6.407217833333333,0,0x00,0x02
6.407235916666667,0,0x3C,0x12
6.407417125000000,0,0x03,0x00
6.407435125000000,0,0x80,0x01
6.407453208333333,0,0x1E,0x01
6.407473833333333,0,0x30,0x01
6.407491833333333,0,0x00,0x81
6.407509916666666,0,0x00,0x01
6.407530166666667,0,0x07,0x01
6.407548208333333,0,0xFF,0x00
6.407566416666667,0,0xFF,0x3E
6.407587291666666,0,0x07,0x01
6.407605333333334,0,0x00,0x01
6.407623416666667,0,0xFC,0x01
6.409071625000000,0,0xF0,0x12
6.409089625000000,0,0x7F,0x12
6.409107833333334,0,0xFF,0x18
6.411065916666667,0,0x90,0x12
6.411083958333333,0,0xFF,0x12
6.411102166666667,0,0xFF,0x18
6.413053833333334,0,0xF0,0x02
6.413071875000000,0,0xFF,0x13
6.413090083333334,0,0xFF,0x18
6.415043791666666,0,0xF0,0x12
6.415061833333334,0,0xFF,0x12
6.415080041666666,0,0xFF,0x0C
6.417035125000000,0,0x98,0x1A
6.417053166666666,0,0xFF,0x12
6.417071375000000,0,0xFF,0x18
6.419028250000000,0,0xB0,0x12
6.419046291666667,0,0xFF,0x12
6.419064500000000,0,0xFF,0x18
6.421026000000000,0,0xB0,0x13
6.421044000000000,0,0x7F,0x12
6.421062208333334,0,0xFF,0x18
6.423021833333333,0,0xF0,0x12
6.423039833333333,0,0x7F,0x12
6.423058083333333,0,0xFF,0x18
6.425020208333334,0,0xF0,0x12
6.425038208333334,0,0x7F,0x12
6.425056416666667,0,0xFF,0x18
6.427014208333333,0,0xF0,0x12
6.427032208333333,0,0x7F,0x12
6.427050416666667,0,0xFF,0x18
6.429012125000000,0,0xB0,0x12
6.429030166666666,0,0xFF,0x10
6.429048375000000,0,0xFF,0x18
6.431008375000000,0,0x90,0x12
6.431026416666667,0,0xFF,0x12
6.431044625000000,0,0xFF,0x18
6.432998458333334,0,0x98,0x10
6.433016500000000,0,0xFF,0x12
6.433034708333333,0,0xFF,0x18
6.434989500000000,0,0xB0,0x13
6.435007500000000,0,0x7F,0x12
6.435025708333334,0,0xFF,0x18
6.436989541666667,0,0x90,0x12
6.437007583333333,0,0xFF,0x12
6.437025791666667,0,0xFF,0x18
6.438982416666667,0,0x98,0x10
6.439000458333333,0,0xFF,0x02
6.439018666666667,0,0xFF,0x18
6.439043458333333,0,0x87,0x12
6.439061500000000,0,0xFF,0x00
6.439079708333334,0,0xFF,0xBC
6.439100291666667,0,0x03,0x02
6.439118291666666,0,0x80,0x12
6.439136375000000,0,0x1E,0x1A
6.439222250000000,0,0x07,0x01
6.439240291666667,0,0x00,0x01
6.439258375000000,0,0x1E,0x01
6.439279000000000,0,0x30,0x01
6.439297000000000,0,0x00,0x81
6.439315083333334,0,0x00,0x01
6.439335333333333,0,0x87,0x01
6.439353375000000,0,0xFF,0x00
6.439371583333333,0,0xFF,0x1E
6.439392458333334,0,0x07,0x01
6.439410500000000,0,0x00,0x01
6.439428583333333,0,0xCE,0x01
6.440976208333334,0,0xB8,0x10
6.440994250000000,0,0xFF,0x12
6.441012458333334,0,0xFF,0x1C
6.442967333333334,0,0xB0,0x12
6.442985375000000,0,0xFF,0x12
6.443003583333334,0,0xFF,0x1C
6.444964125000000,0,0xF0,0x02
6.444982125000000,0,0x7F,0x12
6.445000333333334,0,0xFF,0x1C
6.446961791666666,0,0xB0,0x12
6.446979833333334,0,0xFF,0x1A
6.446998041666666,0,0xFF,0x1C
6.448959916666666,0,0xB0,0x12
6.448977958333334,0,0xFF,0x13
6.448996166666666,0,0xFF,0x1C
6.450952125000000,0,0xB0,0x12
6.450970166666667,0,0xFF,0x10
6.450988375000000,0,0xFF,0x1E
6.452940708333333,0,0xB8,0x10
6.452958750000000,0,0xFF,0x02
6.452976958333333,0,0xFF,0x1C
6.454940041666666,0,0xB0,0x12
6.454958083333334,0,0xFF,0x12
6.454976291666667,0,0xFF,0x0C
6.456932750000000,0,0xB0,0x13
6.456950750000000,0,0x7F,0x1A
6.456968958333333,0,0xFF,0x1C
6.458924416666667,0,0xB0,0x12
6.458942458333333,0,0xFF,0x10
6.458960666666667,0,0xFF,0x1C
6.460920500000000,0,0x98,0x10
6.460938541666667,0,0xFF,0x02
6.460956750000000,0,0xFF,0x0C
6.462914875000000,0,0xB0,0x12
6.462932916666666,0,0xFF,0x12
6.462951125000000,0,0xFF,0x0C
6.464902500000000,0,0xF0,0x12
6.464920541666666,0,0xFF,0x13
6.464938750000000,0,0xFF,0x1C
6.466898208333333,0,0xB0,0x12
6.466916250000000,0,0xFF,0x12
6.466934458333333,0,0xFF,0x1C
6.468891208333333,0,0xB0,0x12
6.468909250000000,0,0xFF,0x13
6.468927458333333,0,0xFF,0x1C
6.470884208333334,0,0xB8,0x10
6.470902250000000,0,0xFF,0x02
6.470920458333334,0,0xFF,0x1C
6.470945250000000,0,0x87,0x18
6.470963291666667,0,0xFF,0x00
6.470981500000000,0,0xFF,0xDE
6.471002041666667,0,0x87,0x12
6.471022250000000,0,0x00,0x1A
6.471040333333334,0,0x46,0x10
6.472018125000000,0,0x07,0x01
6.472036166666666,0,0x00,0x01
6.472054208333334,0,0x47,0x81
6.472074833333333,0,0x34,0x01
6.472092875000000,0,0x80,0x00
6.472110916666667,0,0x00,0x81
6.472131166666666,0,0x07,0x01
6.472149208333334,0,0xFF,0x00
6.472167416666666,0,0xFF,0x46
6.472188291666667,0,0x07,0x01
6.472206333333333,0,0x00,0x00
6.472224375000000,0,0x47,0x01
6.473607708333334,0,0x10,0x12
6.473625750000000,0,0xFF,0x12
6.473643958333334,0,0xFF,0x0C
6.475600541666667,0,0xF0,0x02
6.475618583333334,0,0xFF,0x13
6.475636791666667,0,0xFF,0x0C
6.477590083333333,0,0x98,0x10
6.477608125000000,0,0xFF,0x02
6.477626333333333,0,0xFF,0x0C
6.479579583333333,0,0xB0,0x12
6.479597625000000,0,0xFF,0x13
6.479615833333333,0,0xFF,0x0C
6.481569541666667,0,0x98,0x10
6.481587583333333,0,0xFF,0x02
6.481605791666667,0,0xFF,0x0C
6.483562833333333,0,0xF0,0x02
6.483580833333333,0,0x7F,0x12
6.483599083333333,0,0xFF,0x0C
6.485554458333334,0,0xB0,0x12
6.485572458333333,0,0x7F,0x12
6.485590666666667,0,0xFF,0x0C
6.487545833333333,0,0x98,0x10
6.487563875000000,0,0xFF,0x12
6.487582083333334,0,0xFF,0x0C
6.489539666666666,0,0xB0,0x12
6.489557708333333,0,0xFF,0x1A
6.489575916666666,0,0xFF,0x0C
6.491530750000000,0,0xB0,0x12
6.491548791666666,0,0xFF,0x1A
6.491567000000000,0,0xFF,0x04
6.493529333333333,0,0xF0,0x02
6.493547333333333,0,0x7F,0x12
6.493565583333333,0,0xFF,0x0C
6.495529666666667,0,0xB0,0x12
6.495547708333334,0,0xFF,0x02
6.495565916666667,0,0xFF,0x0C
6.497517583333333,0,0xB0,0x12
6.497535625000000,0,0xFF,0x12
6.497553833333333,0,0xFF,0x0C
6.499511333333333,0,0xF0,0x12
6.499529375000000,0,0xFF,0x13
6.499547583333333,0,0xFF,0x0C
