Time [s],Packet ID,MOSI,MISO
0.397812666666667,0,0x00,0x01
0.397830666666667,0,0x67,0x01
0.397848750000000,0,0xE0,0x01
0.397868375000000,0,0x01,0x81
0.397886416666667,0,0x56,0x01
0.397904500000000,0,0x80,0x01
0.397924083333333,0,0x02,0x01
0.397942125000000,0,0x67,0x01
0.397960166666667,0,0x1F,0x01
0.397979833333333,0,0x00,0x00
0.397997833333333,0,0x1E,0x01
0.398015916666667,0,0xCD,0x01
0.398035500000000,0,0x85,0x01
0.398053541666667,0,0x32,0x01
0.398071583333333,0,0x1F,0x01
0.398091250000000,0,0x07,0x01
0.398109250000000,0,0x80,0x01
0.398127333333333,0,0x00,0x01
0.398146916666667,0,0x00,0x01
0.398164958333333,0,0x3C,0x00
0.398183000000000,0,0x18,0x01
0.398202666666667,0,0x0D,0x01
0.398220666666667,0,0xE0,0x01
0.398238750000000,0,0x00,0x01
0.398258333333333,0,0x00,0x01
0.398276375000000,0,0x3F,0x01
0.398294416666667,0,0xFD,0x01
0.398314083333333,0,0x0F,0x01
0.398332083333333,0,0x80,0x01
0.398350166666667,0,0x08,0x01
0.398369750000000,0,0x04,0x01
0.398387791666667,0,0x00,0x01
0.398405833333333,0,0x00,0x81
0.398425500000000,0,0x0D,0x01
0.398443500000000,0,0xC8,0x81
0.398461583333333,0,0xBD,0x01
0.398481166666667,0,0x96,0x81
0.398499208333333,0,0x00,0x01
0.398517291666667,0,0xFF,0x01
0.398536916666667,0,0x1F,0x01
0.398554958333333,0,0x80,0x01
0.398573000000000,0,0x07,0x01
0.398592625000000,0,0x0C,0x00
0.398610625000000,0,0x00,0x01
0.398628708333333,0,0x37,0x01
0.398648333333333,0,0x99,0x81
0.398666375000000,0,0x16,0x01
0.398684458333333,0,0x59,0x01
0.398704041666667,0,0x1A,0x01
0.398722083333333,0,0x19,0x01
0.398740125000000,0,0xE0,0x01
0.398759791666667,0,0x0F,0x00
0.398777791666667,0,0x19,0x01
0.398795875000000,0,0x00,0x00
0.398815333333333,0,0x1C,0x01
0.398833333333333,0,0x18,0x81
0.398851416666667,0,0x00,0x01
0.398871083333333,0,0x20,0x01
0.398889083333333,0,0x48,0x01
0.398907166666667,0,0x00,0x00
0.398926750000000,0,0x01,0x01
0.398944791666667,0,0x3F,0x00
0.398962833333333,0,0xE7,0x01
0.398982500000000,0,0x32,0x01
0.399000500000000,0,0x00,0x01
0.399018583333333,0,0x00,0x01
0.399038166666667,0,0x01,0x01
0.399056208333333,0,0x03,0x00
0.399074250000000,0,0x80,0x01
0.399093916666667,0,0x30,0x01
0.399111916666667,0,0x02,0x01
0.399130000000000,0,0x11,0x01
0.399149583333333,0,0x85,0x01
0.399167625000000,0,0x02,0x01
0.399185666666667,0,0x04,0x81
0.399205333333333,0,0x36,0x01
0.399223333333333,0,0x5A,0x81
0.399241416666667,0,0x5A,0x01
0.399261000000000,0,0x07,0x81
0.399279041666667,0,0x00,0x01
0.399297083333333,0,0x1B,0x01
0.399316750000000,0,0x38,0x01
0.399334750000000,0,0x64,0x01
0.399352833333333,0,0x01,0x01
0.399372416666667,0,0xA9,0x81
0.399390458333333,0,0xF0,0x01
0.399408500000000,0,0x00,0x81
0.399428166666667,0,0x2A,0x01
0.399446166666667,0,0x7D,0x81
0.399464250000000,0,0xB0,0x01
0.399483875000000,0,0x2B,0x01
0.399501875000000,0,0x00,0x01
0.399519958333333,0,0x0F,0x00
0.399539583333333,0,0x18,0x01
0.399557625000000,0,0x00,0x01
0.399575666666667,0,0x00,0x81
0.410727625000000,0,0xE2,0x01
0.410745666666667,0,0xFF,0x20
0.410763833333333,0,0xFF,0x00
0.410783833333333,0,0xFC,0x00
0.410801833333333,0,0x7F,0x64
0.410820041666667,0,0xFF,0x01
0.425633541666667,0,0x34,0x01
0.425651583333333,0,0x80,0x01
0.425669625000000,0,0x00,0x01
0.425689833333333,0,0xC3,0x01
0.425707833333333,0,0xFF,0x00
0.425726041666667,0,0xFF,0x00
0.425746916666667,0,0x07,0x01
0.425764958333333,0,0x00,0x01
0.425783000000000,0,0xA8,0x01
0.425817916666667,0,0xB0,0x03
0.425835958333333,0,0xFF,0x03
0.425854125000000,0,0xFF,0x94
0.428619791666667,0,0xF0,0x02
0.428637791666667,0,0x7F,0x12
0.428656000000000,0,0xFF,0x1E
0.430606666666667,0,0xB0,0x12
0.430624708333333,0,0xFF,0x12
0.430642875000000,0,0xFF,0x1C
0.432593750000000,0,0xB0,0x12
0.432611750000000,0,0xFF,0x12
0.432629958333333,0,0xFF,0x14
0.434580750000000,0,0x98,0x10
0.434598791666667,0,0xFF,0x02
0.434617000000000,0,0xFF,0x14
0.436567875000000,0,0xB0,0x12
0.436585916666667,0,0xFF,0x12
0.436604083333333,0,0xFF,0x14
0.438554875000000,0,0x98,0x10
0.438572916666667,0,0xFF,0x13
0.438591125000000,0,0xFF,0x14
0.440542125000000,0,0xB0,0x12
0.440560166666667,0,0xFF,0x12
0.440578375000000,0,0xFF,0x14
0.442529375000000,0,0xB0,0x12
0.442547416666667,0,0xFF,0x12
0.442565625000000,0,0xFF,0x14
0.444516625000000,0,0x98,0x1A
0.444534666666667,0,0xFF,0x12
0.444552875000000,0,0xFF,0x10
0.446503791666667,0,0xF0,0x02
0.446521791666667,0,0x7F,0x12
0.446540000000000,0,0xFF,0x1C
0.448490833333333,0,0xB0,0x12
0.448508833333333,0,0xFF,0x12
0.448527041666667,0,0xFF,0x00
0.450477750000000,0,0x98,0x10
0.450495791666667,0,0xFF,0x13
0.450514000000000,0,0xFF,0x14
0.452464708333333,0,0x90,0x12
0.452482750000000,0,0xFF,0x12
0.452500916666667,0,0xFF,0x14
0.454451666666667,0,0x98,0x12
0.454469708333333,0,0xFF,0x13
0.454487916666667,0,0xFF,0x14
0.456438625000000,0,0xF0,0x02
0.456456625000000,0,0x7F,0x1A
0.456474833333333,0,0xFF,0x16
0.456499625000000,0,0x87,0x1A
0.456517666666667,0,0xFF,0x00
0.456535875000000,0,0xFF,0xAB
0.456556416666667,0,0x07,0x12
0.456574416666667,0,0x80,0x12
0.456592500000000,0,0x00,0x12
0.457422041666667,0,0x07,0x01
0.457440083333333,0,0x00,0x01
0.457458125000000,0,0x28,0x81
0.457478750000000,0,0x34,0x01
0.457496750000000,0,0x00,0x81
0.457514833333333,0,0x80,0x01
0.457535083333333,0,0xC3,0x01
0.457553083333333,0,0xFF,0x80
0.457571291666667,0,0xFF,0x28
0.457592166666667,0,0x07,0x01
0.457610208333333,0,0x00,0x00
0.457628250000000,0,0x00,0x01
0.458425666666667,0,0x30,0x92
0.458443708333333,0,0xFF,0x12
0.458461916666667,0,0xFF,0x00
0.460412708333333,0,0xB0,0x12
0.460430708333333,0,0xFF,0x12
0.460448916666667,0,0xFF,0x10
0.462399791666667,0,0x98,0x1A
0.462417833333333,0,0xFF,0x12
0.462436041666667,0,0xFF,0x00
0.464386958333333,0,0xF0,0x02
0.464404958333333,0,0x7F,0x12
0.464423166666667,0,0xFF,0x10
0.466374166666667,0,0x98,0x10
0.466392208333333,0,0xFF,0x12
0.466410416666667,0,0xFF,0x10
0.468361375000000,0,0xB0,0x12
0.468379416666667,0,0xFF,0x12
0.468397625000000,0,0xFF,0x10
0.470348583333333,0,0x98,0x1A
0.470366625000000,0,0xFF,0x12
0.470384833333333,0,0xFF,0x10
0.472335791666667,0,0xF0,0x12
0.472353791666667,0,0x7F,0x12
0.472372000000000,0,0xFF,0x18
0.474323041666667,0,0xB0,0x12
0.474341041666667,0,0x7F,0x12
0.474359250000000,0,0xFF,0x10
0.476310250000000,0,0xF0,0x13
0.476328250000000,0,0x7F,0x1A
0.476346458333333,0,0xFF,0x10
0.478297333333333,0,0xB0,0x12
0.478315375000000,0,0xFF,0x12
0.478333583333333,0,0xFF,0x00
0.480284708333333,0,0xF0,0x02
0.480302708333333,0,0x7F,0x12
0.480320916666667,0,0xFF,0x10
0.482271791666667,0,0xB0,0x13
0.482289791666667,0,0xFF,0x10
0.482308000000000,0,0xFF,0x10
0.484258875000000,0,0xB0,0x12
0.484276875000000,0,0xFF,0x12
0.484295083333333,0,0xFF,0x00
0.486245916666667,0,0x98,0x1A
0.486263958333333,0,0xFF,0x12
0.486282166666667,0,0xFF,0x00
0.488232708333333,0,0xB0,0x12
0.488250750000000,0,0xFF,0x12
0.488268958333333,0,0xFF,0x10
0.488293750000000,0,0x87,0x12
0.488311791666667,0,0xFF,0x00
0.488330000000000,0,0xFF,0xA8
0.488350541666667,0,0x07,0x02
0.488368541666667,0,0x80,0x12
0.488386625000000,0,0x0A,0x12
0.489216166666667,0,0x07,0x01
0.489234208333333,0,0x00,0x00
0.489252250000000,0,0x02,0x01
0.489272875000000,0,0x30,0x00
0.489290875000000,0,0x00,0x01
0.489308958333333,0,0xC0,0x01
0.489329208333333,0,0x83,0x01
0.489347208333333,0,0xFF,0x00
0.489365416666667,0,0xFF,0x0A
0.489386291666667,0,0x03,0x01
0.489404291666667,0,0x80,0x81
0.489422375000000,0,0x8A,0x01
0.490219833333333,0,0x18,0x18
0.490237875000000,0,0xFF,0x02
0.490256083333333,0,0xFF,0x00
0.492207166666667,0,0x90,0x12
0.492225208333333,0,0xFF,0x13
0.492243416666667,0,0xFF,0x14
0.494194333333333,0,0xB0,0x12
0.494212333333333,0,0xFF,0x12
0.494230541666667,0,0xFF,0x14
0.496181250000000,0,0xF0,0x13
0.496199250000000,0,0x7F,0x18
0.496217458333333,0,0xFF,0x14
0.498168208333333,0,0x90,0x12
0.498186250000000,0,0xFF,0x12
0.498204416666667,0,0xFF,0x14
0.500155166666667,0,0x98,0x10
0.500173208333333,0,0xFF,0x13
0.500191416666667,0,0xFF,0x14
0.502142125000000,0,0x90,0x12
0.502160166666667,0,0xFF,0x13
0.502178375000000,0,0xFF,0x14
0.504129083333333,0,0xB0,0x12
0.504147083333333,0,0xFF,0x12
0.504165291666667,0,0xFF,0x14
0.506116125000000,0,0x90,0x12
0.506134166666667,0,0xFF,0x12
0.506152375000000,0,0xFF,0x14
0.508103375000000,0,0xB0,0x12
0.508121375000000,0,0xFF,0x12
0.508139583333333,0,0xFF,0x14
0.510090666666667,0,0x98,0x1A
0.510108708333333,0,0xFF,0x12
0.510126916666667,0,0xFF,0x14
0.512078000000000,0,0xB0,0x12
0.512096000000000,0,0xFF,0x12
0.512114208333333,0,0xFF,0x14
0.514065083333333,0,0x98,0x1A
0.514083125000000,0,0xFF,0x02
0.514101333333333,0,0xFF,0x14
0.516052333333333,0,0xB0,0x12
0.516070333333333,0,0xFF,0x12
0.516088541666667,0,0xFF,0x14
0.518039708333333,0,0xB0,0x13
0.518057708333333,0,0x7F,0x10
0.518075916666667,0,0xFF,0x16
0.520026666666667,0,0x98,0x10
0.520044708333333,0,0xFF,0x13
0.520062916666667,0,0xFF,0x14
0.520087708333333,0,0x83,0x13
0.520105708333333,0,0xFF,0x00
0.520123916666667,0,0xFF,0x8A
0.520144458333333,0,0x87,0x1A
0.520162500000000,0,0x00,0x02
0.520180541666667,0,0x32,0x12
0.521010041666667,0,0x07,0x01
0.521028041666667,0,0x00,0x01
0.521046125000000,0,0x33,0x01
0.521066708333333,0,0x34,0x01
0.521084708333333,0,0x00,0x81
0.521102791666667,0,0x80,0x01
0.521123041666667,0,0xC3,0x00
0.521141041666667,0,0xFF,0x00
0.521159250000000,0,0xFF,0x32
0.521180125000000,0,0x07,0x01
0.521198166666667,0,0x00,0x01
0.521216208333333,0,0x18,0x01
0.522013625000000,0,0xB0,0x13
0.522031625000000,0,0xFF,0x12
0.522049833333333,0,0xFF,0x04
0.524000625000000,0,0x98,0x18
0.524018666666667,0,0xFF,0x02
0.524036875000000,0,0xFF,0x04
0.525987666666667,0,0xB0,0x12
0.526005708333333,0,0xFF,0x12
0.526023916666667,0,0xFF,0x04
0.527974791666667,0,0x98,0x18
0.527992833333333,0,0xFF,0x02
0.528011041666667,0,0xFF,0x00
0.529961916666667,0,0xF0,0x13
0.529979916666667,0,0xFF,0x10
0.529998125000000,0,0xFF,0x04
0.531948875000000,0,0xB0,0x12
0.531966875000000,0,0xFF,0x12
0.531985083333333,0,0xFF,0x04
0.533936000000000,0,0xF0,0x13
0.533954000000000,0,0x7F,0x18
0.533972208333333,0,0xFF,0x04
0.535923125000000,0,0xB0,0x12
0.535941166666667,0,0xFF,0x12
0.535959333333333,0,0xFF,0x04
0.537910166666667,0,0xB0,0x12
0.537928208333333,0,0xFF,0x13
0.537946416666667,0,0xFF,0x04
0.539897291666667,0,0xB0,0x13
0.539915291666667,0,0xFF,0x10
0.539933500000000,0,0xFF,0x04
0.541884375000000,0,0x98,0x10
0.541902416666667,0,0xFF,0x02
0.541920625000000,0,0xFF,0x04
0.543871500000000,0,0xB0,0x13
0.543889500000000,0,0xFF,0x10
0.543907708333333,0,0xFF,0x04
0.545858708333333,0,0x98,0x12
0.545876750000000,0,0xFF,0x13
0.545894958333333,0,0xFF,0x04
0.547845458333333,0,0xB0,0x12
0.547863458333333,0,0x7F,0x12
0.547881666666667,0,0xFF,0x04
0.549832375000000,0,0xB0,0x12
0.549850416666667,0,0xFF,0x12
0.549868625000000,0,0xFF,0x04
0.551819375000000,0,0x90,0x12
0.551837416666667,0,0xFF,0x12
0.551855583333333,0,0xFF,0x04
0.551880416666667,0,0x87,0x12
0.551898416666667,0,0xFF,0x00
0.551916625000000,0,0xFF,0xF2
0.551937166666667,0,0x07,0x12
0.551955208333333,0,0x00,0x12
0.551973250000000,0,0x1E,0x10
0.552802750000000,0,0x07,0x01
0.552820791666667,0,0x00,0x00
0.552838833333333,0,0x1E,0x01
0.552859458333333,0,0x34,0x01
0.552877458333333,0,0x80,0x01
0.552895541666667,0,0xC0,0x00
0.552915750000000,0,0x07,0x01
0.552933791666667,0,0xFF,0x00
0.552952000000000,0,0xFF,0x00
0.552972875000000,0,0x03,0x00
0.552990875000000,0,0x00,0x01
0.553008958333333,0,0xC0,0x01
0.553806375000000,0,0xB0,0x12
0.553824416666667,0,0xFF,0x12
0.553842583333333,0,0xFF,0x08
0.555793500000000,0,0xB0,0x12
0.555811500000000,0,0xFF,0x12
0.555829708333333,0,0xFF,0x08
0.557780583333333,0,0x90,0x12
0.557798625000000,0,0xFF,0x12
0.557816833333333,0,0xFF,0x08
0.559767750000000,0,0x98,0x10
0.559785791666667,0,0xFF,0x12
0.559804000000000,0,0xFF,0x08
0.561754833333333,0,0xB0,0x12
0.561772875000000,0,0xFF,0x12
0.561791041666667,0,0xFF,0x00
0.563741875000000,0,0xF0,0x02
0.563759875000000,0,0x7F,0x1A
0.563778083333333,0,0xFF,0x08
0.565728791666667,0,0xB0,0x12
0.565746833333333,0,0xFF,0x13
0.565765041666667,0,0xFF,0x08
0.567715458333333,0,0xF0,0x02
0.567733458333333,0,0x7F,0x12
0.567751666666667,0,0xFF,0x00
0.569702458333333,0,0xF0,0x02
0.569720458333333,0,0x7F,0x12
0.569738666666667,0,0xFF,0x00
0.571689708333333,0,0xB0,0x13
0.571707708333333,0,0x7F,0x18
0.571725916666667,0,0xFF,0x08
0.573676750000000,0,0xB0,0x12
0.573694791666667,0,0xFF,0x12
0.573713000000000,0,0xFF,0x08
0.575663958333333,0,0xB0,0x12
0.575681958333333,0,0xFF,0x10
0.575700166666667,0,0xFF,0x08
0.577651291666667,0,0xB0,0x13
0.577669291666667,0,0x7F,0x1A
0.577687500000000,0,0xFF,0x00
0.579638541666667,0,0xF0,0x02
0.579656541666667,0,0x7F,0x12
0.579674750000000,0,0xFF,0x08
0.581625666666667,0,0x90,0x12
0.581643708333333,0,0xFF,0x12
0.581661916666667,0,0xFF,0x08
0.583612833333333,0,0x98,0x10
0.583630875000000,0,0xFF,0x02
0.583649083333333,0,0xFF,0x0C
0.583673875000000,0,0x87,0x12
0.583691916666667,0,0xFF,0x00
0.583710125000000,0,0xFF,0x94
0.583730666666667,0,0x07,0x12
0.583748708333333,0,0x00,0x12
0.583766750000000,0,0x1E,0x18
0.584596375000000,0,0x07,0x01
0.584614416666667,0,0x00,0x01
0.584632458333333,0,0x1E,0x01
0.584653083333333,0,0x30,0x01
0.584671083333333,0,0x00,0x01
0.584689166666667,0,0x80,0x01
0.584709416666667,0,0xC3,0x00
0.584727416666667,0,0xFF,0x00
0.584745625000000,0,0xFF,0x3C
0.584766500000000,0,0x07,0x01
0.584784541666667,0,0x00,0x01
0.584802583333333,0,0x1E,0x01
0.585600041666667,0,0xB0,0x12
0.585618083333333,0,0xFF,0x12
0.585636250000000,0,0xFF,0x18
0.587587083333333,0,0xB0,0x12
0.587605125000000,0,0xFF,0x12
0.587623333333333,0,0xFF,0x18
0.589574375000000,0,0xF0,0x13
0.589592375000000,0,0xFF,0x12
0.589610583333333,0,0xFF,0x18
0.591561125000000,0,0x98,0x1A
0.591579166666667,0,0xFF,0x02
0.591597375000000,0,0xFF,0x18
0.593548083333333,0,0xF0,0x02
0.593566083333333,0,0x7F,0x1A
0.593584291666667,0,0xFF,0x18
0.595535083333333,0,0xB0,0x12
0.595553083333333,0,0xFF,0x12
0.595571291666667,0,0xFF,0x18
0.597522125000000,0,0xB0,0x12
0.597540125000000,0,0xFF,0x12
0.597558333333333,0,0xFF,0x18
0.599509458333333,0,0x98,0x1A
0.599527500000000,0,0xFF,0x02
0.599545708333333,0,0xFF,0x0C
0.601496583333333,0,0xF0,0x13
0.601514583333333,0,0x7F,0x1A
0.601532791666667,0,0xFF,0x18
0.603483458333333,0,0x98,0x10
0.603501500000000,0,0xFF,0x12
0.603519708333333,0,0xFF,0x18
0.605470583333333,0,0xB0,0x12
0.605488625000000,0,0xFF,0x12
0.605506833333333,0,0xFF,0x18
0.607458041666667,0,0xB0,0x13
0.607476041666667,0,0x7F,0x18
0.607494250000000,0,0xFF,0x18
0.609445041666667,0,0xF0,0x02
0.609463041666667,0,0x7F,0x12
0.609481250000000,0,0xFF,0x18
0.611432333333333,0,0xB0,0x13
0.611450333333333,0,0xFF,0x10
0.611468541666667,0,0xFF,0x18
0.613419583333333,0,0xF0,0x12
0.613437625000000,0,0xFF,0x12
0.613455791666667,0,0xFF,0x18
0.615406750000000,0,0xB0,0x12
0.615424791666667,0,0xFF,0x12
0.615443000000000,0,0xFF,0x18
0.615467791666667,0,0x87,0x10
0.615485833333333,0,0xFF,0x00
0.615504041666667,0,0xFF,0xBC
0.615524583333333,0,0x07,0x12
0.615542625000000,0,0x00,0x12
0.615560666666667,0,0x1E,0x10
0.616390291666667,0,0x03,0x01
0.616408291666667,0,0x80,0x01
0.616426375000000,0,0x1E,0x01
0.616446958333333,0,0x34,0x81
0.616465000000000,0,0xC0,0x01
0.616483083333333,0,0x80,0x01
0.616503291666667,0,0x07,0x01
0.616521333333333,0,0xFF,0x00
0.616539541666667,0,0xFF,0x1E
0.616560416666667,0,0x03,0x00
0.616578416666667,0,0x00,0x01
0.616596500000000,0,0xCE,0x01
0.617393958333333,0,0x18,0x1A
0.617412000000000,0,0xFF,0x02
0.617430208333333,0,0xFF,0x0C
0.619381125000000,0,0xB0,0x12
0.619399166666667,0,0xFF,0x12
0.619417375000000,0,0xFF,0x0C
0.621368333333333,0,0xF0,0x02
0.621386333333333,0,0x7F,0x1A
0.621404541666667,0,0xFF,0x1E
0.623355041666667,0,0xB0,0x12
0.623373083333333,0,0xFF,0x12
0.623391250000000,0,0xFF,0x1C
0.625342041666667,0,0xB0,0x12
0.625360041666667,0,0xFF,0x12
0.625378250000000,0,0xFF,0x0C
0.627328916666667,0,0xF0,0x02
0.627346916666667,0,0x7F,0x12
0.627365125000000,0,0xFF,0x1E
0.629315916666667,0,0x98,0x10
0.629333958333333,0,0xFF,0x13
0.629352166666667,0,0xFF,0x1C
0.631303208333333,0,0xF0,0x13
0.631321208333333,0,0xFF,0x10
0.631339416666667,0,0xFF,0x1C
0.633290000000000,0,0xB0,0x12
0.633308041666667,0,0xFF,0x12
0.633326208333333,0,0xFF,0x1C
0.635277125000000,0,0x98,0x10
0.635295166666667,0,0xFF,0x13
0.635313375000000,0,0xFF,0x1C
0.637264125000000,0,0x98,0x10
0.637282166666667,0,0xFF,0x12
0.637300375000000,0,0xFF,0x1C
0.639251125000000,0,0xB0,0x12
0.639269125000000,0,0xFF,0x12
0.639287333333333,0,0xFF,0x1C
0.641238083333333,0,0x98,0x18
0.641256125000000,0,0xFF,0x02
0.641274333333333,0,0xFF,0x1C
0.643225041666667,0,0xF0,0x12
0.643243041666667,0,0x7F,0x12
0.643261250000000,0,0xFF,0x1C
0.645212166666667,0,0xB0,0x12
0.645230166666667,0,0xFF,0x12
0.645248375000000,0,0xFF,0x1C
0.647199333333333,0,0x98,0x1A
0.647217375000000,0,0xFF,0x12
0.647235583333333,0,0xFF,0x0C
0.647260375000000,0,0x87,0x12
0.647278416666667,0,0xFF,0x00
0.647296583333333,0,0xFF,0x1E
0.647317166666667,0,0x03,0x12
0.647335166666667,0,0x80,0x1A
0.647353250000000,0,0x46,0x12
0.648182875000000,0,0x07,0x01
0.648200916666667,0,0x00,0x01
0.648218958333333,0,0x47,0x81
0.648239583333333,0,0x34,0x01
0.648257583333333,0,0x00,0x81
0.648275666666667,0,0x80,0x01
0.648295916666667,0,0xC7,0x01
0.648313916666667,0,0xFF,0x80
0.648332125000000,0,0xFF,0x46
0.648353000000000,0,0x87,0x01
0.648371041666667,0,0x00,0x01
0.648389125000000,0,0xC3,0x00
0.649186833333333,0,0xF0,0x12
0.649204833333333,0,0x7F,0x12
0.649223041666667,0,0xFF,0x04
0.651173875000000,0,0x90,0x12
0.651191916666667,0,0xFF,0x13
0.651210125000000,0,0xFF,0x0C
0.653161083333333,0,0xF0,0x13
0.653179083333333,0,0x7F,0x10
0.653197291666667,0,0xFF,0x0C
0.655148166666667,0,0xB0,0x12
0.655166166666667,0,0x7F,0x12
0.655184375000000,0,0xFF,0x04
0.657135083333333,0,0xF0,0x02
0.657153083333333,0,0x7F,0x1A
0.657171291666667,0,0xFF,0x0C
0.659122083333333,0,0xB0,0x12
0.659140125000000,0,0xFF,0x12
0.659158291666667,0,0xFF,0x0C
0.661109000000000,0,0xB0,0x12
0.661127000000000,0,0x7F,0x12
0.661145208333333,0,0xFF,0x06
0.663095958333333,0,0xF0,0x02
0.663113958333333,0,0x7F,0x1A
0.663132166666667,0,0xFF,0x0C
0.665082833333333,0,0xB0,0x13
0.665100833333333,0,0xFF,0x12
0.665119041666667,0,0xFF,0x0C
0.667069708333333,0,0xB0,0x12
0.667087708333333,0,0xFF,0x12
0.667105916666667,0,0xFF,0x0C
0.669056625000000,0,0xB0,0x12
0.669074666666667,0,0xFF,0x12
0.669092875000000,0,0xFF,0x0C
0.671043625000000,0,0x98,0x18
0.671061666666667,0,0xFF,0x02
0.671079875000000,0,0xFF,0x0C
0.673030583333333,0,0xB0,0x12
0.673048625000000,0,0xFF,0x12
0.673066791666667,0,0xFF,0x0C
0.675017666666667,0,0x98,0x18
0.675035708333333,0,0xFF,0x02
0.675053916666667,0,0xFF,0x0C
0.677004750000000,0,0xB0,0x12
0.677022750000000,0,0xFF,0x12
0.677040958333333,0,0xFF,0x0C
0.678991833333333,0,0xF0,0x12
0.679009875000000,0,0xFF,0x12
0.679028041666667,0,0xFF,0x0C
0.679052875000000,0,0x83,0x13
0.679070875000000,0,0xFF,0x00
0.679089083333333,0,0xFF,0xC6
0.679109625000000,0,0x87,0x12
0.679127666666667,0,0x00,0x12
0.679145750000000,0,0x00,0x13
0.679975333333333,0,0x07,0x01
0.679993333333333,0,0x00,0x01
0.680011416666667,0,0x00,0x01
0.680032000000000,0,0x1E,0x01
0.680050041666667,0,0xC0,0x00
0.680068083333333,0,0x00,0x01
0.680088333333333,0,0x87,0x01
0.680106375000000,0,0xFF,0x00
0.680124541666667,0,0xFF,0x00
0.680145416666667,0,0x87,0x01
0.680163458333333,0,0x00,0x01
0.680181541666667,0,0x80,0x01
0.680979291666667,0,0xF0,0x02
0.680997291666667,0,0x7F,0x12
0.681015500000000,0,0xFF,0x00
0.682966125000000,0,0x98,0x10
0.682984166666667,0,0xFF,0x02
0.683002375000000,0,0xFF,0x00
0.684953250000000,0,0x98,0x10
0.684971291666667,0,0xFF,0x02
0.684989500000000,0,0xFF,0x00
0.686940625000000,0,0x98,0x10
0.686958666666667,0,0xFF,0x02
0.686976875000000,0,0xFF,0x00
0.688927750000000,0,0xF0,0x02
0.688945750000000,0,0x7F,0x12
0.688963958333333,0,0xFF,0x00
0.690914875000000,0,0xB0,0x12
0.690932875000000,0,0xFF,0x12
0.690951083333333,0,0xFF,0x00
0.692901708333333,0,0xB0,0x12
0.692919750000000,0,0xFF,0x12
0.692937958333333,0,0xFF,0x00
0.694888791666667,0,0xF0,0x12
0.694906791666667,0,0x7F,0x12
0.694925000000000,0,0xFF,0x00
0.696875875000000,0,0xB0,0x12
0.696893916666667,0,0xFF,0x12
0.696912125000000,0,0xFF,0x00
0.698863000000000,0,0xF0,0x02
0.698881000000000,0,0x7F,0x12
0.698899208333333,0,0xFF,0x00
0.700850083333333,0,0xB0,0x12
0.700868125000000,0,0xFF,0x12
0.700886333333333,0,0xFF,0x00
0.702837125000000,0,0xB0,0x13
0.702855125000000,0,0xFF,0x10
0.702873333333333,0,0xFF,0x00
0.704824208333333,0,0xB0,0x12
0.704842208333333,0,0xFF,0x12
0.704860416666667,0,0xFF,0x00
0.706811208333333,0,0xB0,0x12
0.706829250000000,0,0xFF,0x13
0.706847458333333,0,0xFF,0x00
0.708798250000000,0,0xF0,0x02
0.708816250000000,0,0x7F,0x12
0.708834458333333,0,0xFF,0x00
0.710785333333333,0,0x98,0x18
0.710803375000000,0,0xFF,0x02
0.710821583333333,0,0xFF,0x00
0.710846375000000,0,0xC3,0x02
0.710864375000000,0,0xFF,0x00
0.710882583333333,0,0xFF,0x80
0.710903166666667,0,0x07,0x12
0.710921166666667,0,0x00,0x12
0.710939250000000,0,0x28,0x12
0.711768833333333,0,0x07,0x01
0.711786875000000,0,0x00,0x01
0.711804916666667,0,0x00,0x01
0.711825541666667,0,0x30,0x00
0.711843541666667,0,0x00,0x01
0.711861625000000,0,0xC0,0x01
0.711881875000000,0,0x87,0x01
0.711899875000000,0,0xFF,0x00
0.711918083333333,0,0xFF,0x28
0.711938958333333,0,0x07,0x01
0.711956958333333,0,0x80,0x81
0.711975041666667,0,0xA0,0x01
0.712772500000000,0,0x18,0x1A
0.712790541666667,0,0xFF,0x02
0.712808750000000,0,0xFF,0x10
0.714759541666667,0,0x98,0x10
0.714777583333333,0,0xFF,0x13
0.714795791666667,0,0xFF,0x10
0.716746625000000,0,0xB0,0x12
0.716764666666667,0,0xFF,0x12
0.716782833333333,0,0xFF,0x18
0.718733541666667,0,0xF0,0x02
0.718751541666667,0,0x7F,0x1A
0.718769750000000,0,0xFF,0x10
0.720720333333333,0,0xF0,0x02
0.720738333333333,0,0x7F,0x12
0.720756541666667,0,0xFF,0x10
0.722707208333333,0,0xB0,0x12
0.722725250000000,0,0xFF,0x12
0.722743458333333,0,0xFF,0x00
0.724694125000000,0,0x98,0x10
0.724712166666667,0,0xFF,0x02
0.724730375000000,0,0xFF,0x10
0.726680958333333,0,0xF0,0x13
0.726698958333333,0,0xFF,0x12
0.726717166666667,0,0xFF,0x10
0.728667833333333,0,0xB0,0x12
0.728685875000000,0,0xFF,0x12
0.728704041666667,0,0xFF,0x10
0.730654666666667,0,0xB0,0x12
0.730672708333333,0,0xFF,0x12
0.730690875000000,0,0xFF,0x18
0.732641583333333,0,0xB0,0x12
0.732659583333333,0,0xFF,0x12
0.732677791666667,0,0xFF,0x10
0.734628541666667,0,0xB0,0x12
0.734646541666667,0,0xFF,0x12
0.734664750000000,0,0xFF,0x00
0.736615583333333,0,0x98,0x12
0.736633625000000,0,0xFF,0x13
0.736651833333333,0,0xFF,0x10
0.738602666666667,0,0xB0,0x12
0.738620708333333,0,0xFF,0x12
0.738638875000000,0,0xFF,0x10
0.740589583333333,0,0x90,0x12
0.740607625000000,0,0xFF,0x12
0.740625791666667,0,0xFF,0x10
0.742576500000000,0,0xB0,0x12
0.742594500000000,0,0xFF,0x12
0.742612708333333,0,0xFF,0x10
0.742637500000000,0,0x87,0x12
0.742655541666667,0,0xFF,0x00
0.742673750000000,0,0xFF,0xA8
0.742694291666667,0,0x03,0x13
0.742712291666667,0,0x80,0x10
0.742730375000000,0,0x0E,0x02
0.743559875000000,0,0x07,0x01
0.743577875000000,0,0x00,0x01
0.743595958333333,0,0x0F,0x00
0.743616541666667,0,0x34,0x01
0.743634541666667,0,0x00,0x81
0.743652625000000,0,0x80,0x01
0.743672875000000,0,0x83,0x01
0.743690875000000,0,0xFF,0x00
0.743709083333333,0,0xFF,0x0A
0.743729958333333,0,0x03,0x00
0.743747958333333,0,0x00,0x01
0.743766041666667,0,0xCE,0x01
0.744563666666667,0,0x30,0x92
0.744581708333333,0,0xFF,0x12
0.744599916666667,0,0xFF,0x00
0.746550416666667,0,0x98,0x10
0.746568458333333,0,0xFF,0x13
0.746586666666667,0,0xFF,0x14
0.748537416666667,0,0xF0,0x02
0.748555416666667,0,0x7F,0x1A
0.748573625000000,0,0xFF,0x16
0.750524416666667,0,0xB0,0x12
0.750542416666667,0,0xFF,0x12
0.750560625000000,0,0xFF,0x14
0.752511250000000,0,0x90,0x12
0.752529291666667,0,0xFF,0x12
0.752547458333333,0,0xFF,0x14
0.754498208333333,0,0xB0,0x12
0.754516208333333,0,0xFF,0x12
0.754534416666667,0,0xFF,0x14
0.756485125000000,0,0xB0,0x12
0.756503125000000,0,0xFF,0x12
0.756521333333333,0,0xFF,0x14
0.758472000000000,0,0xB0,0x12
0.758490041666667,0,0xFF,0x12
0.758508208333333,0,0xFF,0x14
0.760459083333333,0,0xF0,0x13
0.760477083333333,0,0x7F,0x18
0.760495291666667,0,0xFF,0x14
0.762446250000000,0,0xF0,0x12
0.762464250000000,0,0x7F,0x12
0.762482458333333,0,0xFF,0x14
0.764433375000000,0,0x98,0x10
0.764451416666667,0,0xFF,0x02
0.764469625000000,0,0xFF,0x14
0.766420541666667,0,0x98,0x10
0.766438583333333,0,0xFF,0x13
0.766456791666667,0,0xFF,0x14
0.768407500000000,0,0xB0,0x12
0.768425541666667,0,0xFF,0x12
0.768443708333333,0,0xFF,0x1C
0.770394375000000,0,0x98,0x18
0.770412416666667,0,0xFF,0x13
0.770430625000000,0,0xFF,0x14
0.772381166666667,0,0xB0,0x12
0.772399166666667,0,0xFF,0x12
0.772417375000000,0,0xFF,0x00
0.774368083333333,0,0xB0,0x12
0.774386083333333,0,0xFF,0x10
0.774404291666667,0,0xFF,0x14
0.774429083333333,0,0x87,0x10
0.774447125000000,0,0xFF,0x00
0.774465333333333,0,0xFF,0x8B
0.774485875000000,0,0x07,0x12
0.774503916666667,0,0x00,0x12
0.774521958333333,0,0x10,0x12
0.775351500000000,0,0x07,0x01
0.775369541666667,0,0x00,0x01
0.775387583333333,0,0x32,0x81
0.775408208333333,0,0x30,0x01
0.775426208333333,0,0x00,0x01
0.775444291666667,0,0xC0,0x01
0.775464541666667,0,0x87,0x01
0.775482541666667,0,0xFF,0x00
0.775500750000000,0,0xFF,0x33
0.775521625000000,0,0x07,0x01
0.775539625000000,0,0x00,0x01
0.775557708333333,0,0xB3,0x01
0.776355375000000,0,0xF0,0x12
0.776373375000000,0,0x7F,0x12
0.776391583333333,0,0xFF,0x06
0.778342166666667,0,0xB0,0x12
0.778360166666667,0,0x7F,0x12
0.778378375000000,0,0xFF,0x04
0.780329250000000,0,0x98,0x10
0.780347291666667,0,0xFF,0x12
0.780365500000000,0,0xFF,0x04
0.782316333333333,0,0xB0,0x12
0.782334375000000,0,0xFF,0x12
0.782352583333333,0,0xFF,0x00
0.784303333333333,0,0xB0,0x12
0.784321333333333,0,0xFF,0x12
0.784339541666667,0,0xFF,0x04
0.786290291666667,0,0x98,0x12
0.786308333333333,0,0xFF,0x13
0.786326541666667,0,0xFF,0x04
0.788277250000000,0,0xB0,0x12
0.788295250000000,0,0xFF,0x12
0.788313458333333,0,0xFF,0x00
0.790264166666667,0,0xF0,0x13
0.790282166666667,0,0x7F,0x18
0.790300375000000,0,0xFF,0x04
0.792251083333333,0,0x98,0x12
0.792269125000000,0,0xFF,0x13
0.792287333333333,0,0xFF,0x04
0.794238000000000,0,0xF0,0x12
0.794256000000000,0,0x7F,0x12
0.794274208333333,0,0xFF,0x06
0.796224791666667,0,0x98,0x18
0.796242833333333,0,0xFF,0x13
0.796261041666667,0,0xFF,0x04
0.798211666666667,0,0xB0,0x12
0.798229666666667,0,0x7F,0x12
0.798247875000000,0,0xFF,0x06
0.800198541666667,0,0xB0,0x12
0.800216541666667,0,0xFF,0x12
0.800234750000000,0,0xFF,0x04
0.802185583333333,0,0xB0,0x12
0.802203583333333,0,0xFF,0x10
0.802221791666667,0,0xFF,0x04
0.804172666666667,0,0x98,0x10
0.804190708333333,0,0xFF,0x13
0.804208916666667,0,0xFF,0x04
0.806159583333333,0,0x98,0x10
0.806177625000000,0,0xFF,0x13
0.806195833333333,0,0xFF,0x04
0.806220625000000,0,0xC3,0x13
0.806238625000000,0,0xFF,0x00
0.806256833333333,0,0xFF,0xB2
0.806277375000000,0,0x87,0x18
0.806295416666667,0,0x00,0x13
0.806313458333333,0,0x1C,0x1A
0.807143000000000,0,0x07,0x01
0.807161000000000,0,0x80,0x81
0.807179083333333,0,0x16,0x01
0.807199666666667,0,0x34,0x81
0.807217708333333,0,0xC0,0x01
0.807235791666667,0,0x80,0x01
0.807256000000000,0,0x07,0x01
0.807274041666667,0,0xFF,0x00
0.807292250000000,0,0xFF,0x14
0.807313083333333,0,0x87,0x01
0.807331125000000,0,0x00,0x01
0.807349208333333,0,0x94,0x01
0.808146541666667,0,0xB0,0x12
0.808164583333333,0,0xFF,0x12
0.808182750000000,0,0xFF,0x08
0.810133458333333,0,0x98,0x1A
0.810151500000000,0,0xFF,0x02
0.810169708333333,0,0xFF,0x08
0.812120666666667,0,0xB0,0x12
0.812138666666667,0,0xFF,0x10
0.812156875000000,0,0xFF,0x08
0.814107875000000,0,0x98,0x10
0.814125916666667,0,0xFF,0x12
0.814144125000000,0,0xFF,0x08
0.816095000000000,0,0x98,0x10
0.816113041666667,0,0xFF,0x02
0.816131250000000,0,0xFF,0x08
0.818082083333333,0,0xB0,0x12
0.818100083333333,0,0xFF,0x12
0.818118291666667,0,0xFF,0x08
0.820069041666667,0,0xB0,0x12
0.820087083333333,0,0xFF,0x12
0.820105291666667,0,0xFF,0x08
0.822056000000000,0,0x90,0x12
0.822074041666667,0,0xFF,0x02
0.822092250000000,0,0xFF,0x08
0.824043000000000,0,0xB0,0x12
0.824061000000000,0,0xFF,0x12
0.824079208333333,0,0xFF,0x08
0.826030125000000,0,0xB0,0x12
0.826048125000000,0,0xFF,0x12
0.826066333333333,0,0xFF,0x08
0.828017041666667,0,0xB0,0x12
0.828035041666667,0,0xFF,0x12
0.828053250000000,0,0xFF,0x08
0.830003791666667,0,0x98,0x12
0.830021833333333,0,0xFF,0x12
0.830040000000000,0,0xFF,0x08
0.831990791666667,0,0xF0,0x12
0.832008791666667,0,0x7F,0x18
0.832027000000000,0,0xFF,0x08
0.833977666666667,0,0xB0,0x12
0.833995708333333,0,0xFF,0x12
0.834013916666667,0,0xFF,0x08
0.835964666666667,0,0x98,0x1A
0.835982708333333,0,0xFF,0x12
0.836000916666667,0,0xFF,0x0C
0.837951708333333,0,0x98,0x1A
0.837969750000000,0,0xFF,0x12
0.837987958333333,0,0xFF,0x0C
0.838012750000000,0,0x87,0x12
0.838030791666667,0,0xFF,0x00
0.838048958333333,0,0xFF,0x14
0.838069541666667,0,0x03,0x13
0.838087541666667,0,0x00,0x10
0.838105625000000,0,0x3C,0x02
0.838935166666667,0,0x07,0x01
0.838953208333333,0,0x00,0x01
0.838971250000000,0,0x1E,0x01
0.838991875000000,0,0x30,0x00
0.839009875000000,0,0x00,0x01
0.839027958333333,0,0xC0,0x01
0.839048208333333,0,0x87,0x01
0.839066208333333,0,0xFF,0x00
0.839084416666667,0,0xFF,0x3C
0.839105291666667,0,0x07,0x01
0.839123291666667,0,0x80,0x81
0.839141375000000,0,0xBE,0x01
0.839938833333333,0,0xF0,0x02
0.839956833333333,0,0x7F,0x1A
0.839975041666667,0,0xFF,0x18
0.841925958333333,0,0x98,0x10
0.841944000000000,0,0xFF,0x02
0.841962208333333,0,0xFF,0x18
0.843913041666667,0,0x90,0x12
0.843931083333333,0,0xFF,0x13
0.843949291666667,0,0xFF,0x18
0.845899958333333,0,0x90,0x12
0.845918000000000,0,0xFF,0x12
0.845936166666667,0,0xFF,0x18
0.847886750000000,0,0x98,0x1A
0.847904791666667,0,0xFF,0x02
0.847923000000000,0,0xFF,0x18
0.849873791666667,0,0xB0,0x12
0.849891791666667,0,0xFF,0x12
0.849910000000000,0,0xFF,0x18
0.851860708333333,0,0xB0,0x12
0.851878750000000,0,0xFF,0x12
0.851896916666667,0,0xFF,0x18
0.853847666666667,0,0xF0,0x02
0.853865666666667,0,0x7F,0x12
0.853883875000000,0,0xFF,0x18
0.855834666666667,0,0xB0,0x12
0.855852708333333,0,0xFF,0x12
0.855870916666667,0,0xFF,0x0C
0.857821583333333,0,0x98,0x1A
0.857839625000000,0,0xFF,0x02
0.857857833333333,0,0xFF,0x18
0.859808541666667,0,0xB0,0x12
0.859826583333333,0,0xFF,0x12
0.859844750000000,0,0xFF,0x18
0.861795458333333,0,0xB0,0x12
0.861813500000000,0,0xFF,0x12
0.861831708333333,0,0xFF,0x18
0.863782375000000,0,0x98,0x12
0.863800416666667,0,0xFF,0x12
0.863818583333333,0,0xFF,0x18
0.865769291666667,0,0xB0,0x12
0.865787333333333,0,0xFF,0x12
0.865805541666667,0,0xFF,0x0C
0.867756125000000,0,0xB0,0x12
0.867774166666667,0,0xFF,0x02
0.867792375000000,0,0xFF,0x18
0.869742916666667,0,0xB0,0x12
0.869760958333333,0,0xFF,0x12
0.869779125000000,0,0xFF,0x18
0.869803916666667,0,0x87,0x12
0.869821958333333,0,0xFF,0x00
0.869840166666667,0,0xFF,0xBC
0.869860708333333,0,0x07,0x12
0.869878750000000,0,0x00,0x12
0.869896791666667,0,0x1E,0x12
0.870726291666667,0,0x07,0x01
0.870744291666667,0,0x80,0x81
0.870762375000000,0,0x1E,0x01
0.870782958333333,0,0x1C,0x01
0.870801000000000,0,0xC0,0x01
0.870819041666667,0,0x00,0x81
0.870839291666667,0,0x07,0x01
0.870857333333333,0,0xFF,0x00
0.870875541666667,0,0xFF,0x1E
0.870896375000000,0,0x87,0x01
0.870914416666667,0,0x00,0x01
0.870932500000000,0,0x9F,0x01
0.871730083333333,0,0xB0,0x12
0.871748083333333,0,0x7F,0x12
0.871766291666667,0,0xFF,0x1E
0.873716750000000,0,0xB0,0x12
0.873734750000000,0,0x7F,0x12
0.873752958333333,0,0xFF,0x1C
0.875703833333333,0,0xB0,0x12
0.875721875000000,0,0xFF,0x12
0.875740041666667,0,0xFF,0x1C
0.877690833333333,0,0xF0,0x02
0.877708833333333,0,0x7F,0x12
0.877727041666667,0,0xFF,0x1E
0.879677833333333,0,0xF0,0x02
0.879695833333333,0,0x7F,0x1A
0.879714041666667,0,0xFF,0x1E
0.881664833333333,0,0xF0,0x13
0.881682833333333,0,0x7F,0x18
0.881701041666667,0,0xFF,0x1C
0.883651791666667,0,0xB0,0x13
0.883669791666667,0,0xFF,0x10
0.883688000000000,0,0xFF,0x1C
0.885638875000000,0,0x98,0x1A
0.885656916666667,0,0xFF,0x12
0.885675125000000,0,0xFF,0x1C
0.887625875000000,0,0x98,0x12
0.887643916666667,0,0xFF,0x13
0.887662125000000,0,0xFF,0x1C
0.889612750000000,0,0xB0,0x12
0.889630791666667,0,0xFF,0x12
0.889649000000000,0,0xFF,0x0C
0.891599750000000,0,0xF0,0x13
0.891617750000000,0,0x7F,0x18
0.891635958333333,0,0xFF,0x1C
0.893586708333333,0,0xB0,0x12
0.893604750000000,0,0xFF,0x12
0.893622958333333,0,0xFF,0x0C
0.895573708333333,0,0xF0,0x12
0.895591708333333,0,0x7F,0x12
0.895609916666667,0,0xFF,0x1C
0.897560791666667,0,0xB0,0x12
0.897578833333333,0,0xFF,0x12
0.897597041666667,0,0xFF,0x0C
0.899547833333333,0,0x98,0x18
0.899565875000000,0,0xFF,0x02
0.899584083333333,0,0xFF,0x1C
0.901534791666667,0,0xB0,0x12
0.901552833333333,0,0xFF,0x12
0.901571041666667,0,0xFF,0x1C
0.901595833333333,0,0x83,0x13
0.901613833333333,0,0xFF,0x00
0.901632041666667,0,0xFF,0x9E
0.901652583333333,0,0x87,0x18
0.901670625000000,0,0x00,0x02
0.901688666666667,0,0x46,0x12
0.902518208333333,0,0x03,0x01
0.902536208333333,0,0x80,0x01
0.902554291666667,0,0x02,0x01
0.902574875000000,0,0x1E,0x01
0.902592916666667,0,0xC0,0x00
0.902610958333333,0,0x00,0x01
0.902631208333333,0,0x87,0x01
0.902649250000000,0,0xFF,0x00
0.902667416666667,0,0xFF,0x46
0.902688291666667,0,0x87,0x01
0.902706333333333,0,0x00,0x00
0.902724375000000,0,0x66,0x01
0.903522083333333,0,0xB0,0x12
0.903540083333333,0,0xFF,0x12
0.903558291666667,0,0xFF,0x0C
0.905508875000000,0,0xB0,0x12
0.905526875000000,0,0xFF,0x12
0.905545083333333,0,0xFF,0x0C
0.907495916666667,0,0xB0,0x12
0.907513958333333,0,0xFF,0x12
0.907532125000000,0,0xFF,0x0C
0.909482875000000,0,0x98,0x10
0.909500916666667,0,0xFF,0x13
0.909519125000000,0,0xFF,0x0C
0.911470000000000,0,0x90,0x12
0.911488041666667,0,0xFF,0x12
0.911506250000000,0,0xFF,0x0C
0.913457125000000,0,0xB0,0x12
0.913475166666667,0,0xFF,0x12
0.913493375000000,0,0xFF,0x0C
0.915444458333333,0,0xF0,0x12
0.915462458333333,0,0x7F,0x1A
0.915480666666667,0,0xFF,0x04
0.917431666666667,0,0xB0,0x12
0.917449666666667,0,0xFF,0x12
0.917467875000000,0,0xFF,0x0C
0.919418833333333,0,0xB0,0x12
0.919436875000000,0,0xFF,0x13
0.919455083333333,0,0xFF,0x0C
0.921406000000000,0,0xB0,0x12
0.921424041666667,0,0xFF,0x12
0.921442208333333,0,0xFF,0x0C
0.923393125000000,0,0xB0,0x12
0.923411166666667,0,0xFF,0x12
0.923429375000000,0,0xFF,0x0C
0.925380333333333,0,0xB0,0x12
0.925398375000000,0,0xFF,0x12
0.925416583333333,0,0xFF,0x0C
0.927367541666667,0,0xB0,0x12
0.927385541666667,0,0xFF,0x12
0.927403750000000,0,0xFF,0x0C
0.929354583333333,0,0x98,0x10
0.929372625000000,0,0xFF,0x02
0.929390833333333,0,0xFF,0x0C
0.931341708333333,0,0xF0,0x12
0.931359750000000,0,0xFF,0x12
0.931377916666667,0,0xFF,0x04
0.933328833333333,0,0xB0,0x12
0.933346875000000,0,0xFF,0x12
0.933365083333333,0,0xFF,0x0C
0.933389875000000,0,0xC3,0x13
0.933407875000000,0,0xFF,0x00
0.933426083333333,0,0xFF,0xC6
0.933446625000000,0,0x87,0x12
0.933464666666667,0,0x00,0x12
0.933482750000000,0,0x00,0x12
0.934312375000000,0,0x03,0x01
0.934330375000000,0,0x80,0x01
0.934348458333333,0,0x00,0x01
0.934369041666667,0,0x34,0x81
0.934387083333333,0,0x80,0x01
0.934405166666667,0,0x80,0x01
0.934425375000000,0,0x07,0x01
0.934443416666667,0,0xFF,0x00
0.934461625000000,0,0xFF,0x00
0.934482500000000,0,0x03,0x00
0.934500500000000,0,0x80,0x01
0.934518583333333,0,0x80,0x01
0.935316291666667,0,0x10,0x12
0.935334333333333,0,0xFF,0x12
0.935352541666667,0,0xFF,0x00
0.937303166666667,0,0xF0,0x12
0.937321166666667,0,0x7F,0x1A
0.937339375000000,0,0xFF,0x00
0.939290250000000,0,0xF0,0x02
0.939308250000000,0,0x7F,0x1A
0.939326458333333,0,0xFF,0x00
0.941277250000000,0,0x98,0x1A
0.941295291666667,0,0xFF,0x02
0.941313500000000,0,0xFF,0x00
0.943264208333333,0,0x98,0x10
0.943282250000000,0,0xFF,0x13
0.943300458333333,0,0xFF,0x00
0.945251250000000,0,0xB0,0x13
0.945269250000000,0,0xFF,0x10
0.945287458333333,0,0xFF,0x00
0.947238333333333,0,0xB0,0x12
0.947256375000000,0,0xFF,0x12
0.947274583333333,0,0xFF,0x00
0.949225458333333,0,0xB0,0x13
0.949243458333333,0,0xFF,0x10
0.949261666666667,0,0xFF,0x00
0.951212333333333,0,0xB0,0x12
0.951230375000000,0,0xFF,0x12
0.951248583333333,0,0xFF,0x00
0.953199333333333,0,0xB0,0x12
0.953217333333333,0,0x7F,0x12
0.953235541666667,0,0xFF,0x00
0.955186333333333,0,0xB0,0x12
0.955204375000000,0,0xFF,0x12
0.955222583333333,0,0xFF,0x00
0.957173416666667,0,0xF0,0x02
0.957191416666667,0,0x7F,0x10
0.957209625000000,0,0xFF,0x00
0.959160375000000,0,0x98,0x10
0.959178416666667,0,0xFF,0x02
0.959196625000000,0,0xFF,0x00
0.961147583333333,0,0xF0,0x12
0.961165583333333,0,0x7F,0x12
0.961183791666667,0,0xFF,0x00
0.963134708333333,0,0x98,0x12
0.963152750000000,0,0xFF,0x13
0.963170958333333,0,0xFF,0x00
0.965121833333333,0,0xB0,0x12
0.965139875000000,0,0xFF,0x12
0.965158083333333,0,0xFF,0x00
0.965182875000000,0,0x87,0x12
0.965200916666667,0,0xFF,0x00
0.965219083333333,0,0xFF,0x00
0.965239666666667,0,0x03,0x13
0.965257666666667,0,0x80,0x18
0.965275750000000,0,0x28,0x12
0.966105375000000,0,0x07,0x01
0.966123375000000,0,0x00,0x01
0.966141458333333,0,0x3C,0x01
0.966162041666667,0,0x1E,0x01
0.966180083333333,0,0xC0,0x01
0.966198125000000,0,0x00,0x81
0.966218375000000,0,0x87,0x01
0.966236416666667,0,0xFF,0x00
0.966254625000000,0,0xFF,0x28
0.966275458333333,0,0x87,0x01
0.966293500000000,0,0x00,0x01
0.966311583333333,0,0xAC,0x00
0.967109250000000,0,0xB0,0x12
0.967127291666667,0,0xFF,0x12
0.967145458333333,0,0xFF,0x10
0.969095916666667,0,0x98,0x10
0.969113958333333,0,0xFF,0x13
0.969132166666667,0,0xFF,0x10
0.971083000000000,0,0xF0,0x12
0.971101000000000,0,0x7F,0x12
0.971119208333333,0,0xFF,0x18
0.973070166666667,0,0xB0,0x12
0.973088208333333,0,0xFF,0x12
0.973106416666667,0,0xFF,0x10
0.975057375000000,0,0xB0,0x12
0.975075416666667,0,0xFF,0x12
0.975093583333333,0,0xFF,0x10
0.977044541666667,0,0xB0,0x12
0.977062541666667,0,0xFF,0x12
0.977080750000000,0,0xFF,0x10
0.979031750000000,0,0xB0,0x12
0.979049791666667,0,0xFF,0x12
0.979068000000000,0,0xFF,0x10
0.981019041666667,0,0xF0,0x02
0.981037041666667,0,0x7F,0x12
0.981055250000000,0,0xFF,0x18
0.983006291666667,0,0xB0,0x12
0.983024333333333,0,0xFF,0x12
0.983042541666667,0,0xFF,0x10
0.984993500000000,0,0xF0,0x02
0.985011500000000,0,0x7F,0x12
0.985029708333333,0,0xFF,0x10
0.986980666666667,0,0x98,0x1A
0.986998708333333,0,0xFF,0x12
0.987016916666667,0,0xFF,0x00
0.988967875000000,0,0xF0,0x12
0.988985875000000,0,0x7F,0x12
0.989004083333333,0,0xFF,0x18
0.990955000000000,0,0x98,0x10
0.990973041666667,0,0xFF,0x13
0.990991250000000,0,0xFF,0x10
0.992942125000000,0,0xB0,0x12
0.992960125000000,0,0xFF,0x12
0.992978333333333,0,0xFF,0x10
0.994929208333333,0,0x98,0x10
0.994947250000000,0,0xFF,0x13
0.994965458333333,0,0xFF,0x10
0.996916208333333,0,0x98,0x10
0.996934250000000,0,0xFF,0x02
0.996952458333333,0,0xFF,0x10
0.996977250000000,0,0xC7,0x02
0.996995250000000,0,0xFF,0x00
0.997013458333333,0,0xFF,0x80
0.997034041666667,0,0x07,0x12
0.997052041666667,0,0x00,0x12
0.997070125000000,0,0x0F,0x13
0.997899666666667,0,0x07,0x01
0.997917708333333,0,0x00,0x00
0.997935750000000,0,0x02,0x01
0.997956375000000,0,0x30,0x00
0.997974375000000,0,0x00,0x01
0.997992458333333,0,0xC0,0x01
0.998012708333333,0,0x83,0x01
0.998030708333333,0,0xFF,0x00
0.998048916666667,0,0xFF,0x0A
0.998069791666667,0,0x07,0x01
0.998087791666667,0,0x80,0x81
0.998105875000000,0,0x88,0x01
0.998903625000000,0,0xB0,0x13
0.998921625000000,0,0xFF,0x10
0.998939833333333,0,0xFF,0x14
1.000890458333333,0,0xB0,0x12
1.000908458333333,0,0xFF,0x12
1.000926666666667,0,0xFF,0x14
1.002877416666667,0,0xF0,0x13
1.002895416666667,0,0xFF,0x10
1.002913625000000,0,0xFF,0x14
1.004864291666667,0,0xF0,0x13
1.004882291666667,0,0x7F,0x10
1.004900500000000,0,0xFF,0x14
1.006851083333333,0,0x98,0x1A
1.006869125000000,0,0xFF,0x02
1.006887333333333,0,0xFF,0x14
1.008837916666667,0,0xB0,0x12
1.008855916666667,0,0xFF,0x12
1.008874125000000,0,0xFF,0x14
1.010824708333333,0,0xF0,0x02
1.010842708333333,0,0x7F,0x12
1.010860916666667,0,0xFF,0x16
1.012811708333333,0,0xF0,0x12
1.012829708333333,0,0x7F,0x12
1.012847916666667,0,0xFF,0x1C
1.014798625000000,0,0x98,0x1A
1.014816666666667,0,0xFF,0x02
1.014834875000000,0,0xFF,0x14
1.016785666666667,0,0xF0,0x02
1.016803666666667,0,0x7F,0x12
1.016821875000000,0,0xFF,0x1E
1.018772750000000,0,0xF0,0x02
1.018790750000000,0,0x7F,0x1A
1.018808958333333,0,0xFF,0x16
1.020759666666667,0,0xF0,0x13
1.020777666666667,0,0x7F,0x18
1.020795875000000,0,0xFF,0x14
1.022746625000000,0,0x98,0x18
1.022764666666667,0,0xFF,0x02
1.022782875000000,0,0xFF,0x00
1.024733666666667,0,0xB0,0x12
1.024751666666667,0,0x7F,0x12
1.024769875000000,0,0xFF,0x14
1.026720750000000,0,0x98,0x10
1.026738791666667,0,0xFF,0x02
1.026757000000000,0,0xFF,0x14
1.028707791666667,0,0xF0,0x02
1.028725791666667,0,0x7F,0x18
1.028744000000000,0,0xFF,0x14
1.028768791666667,0,0x87,0x10
1.028786833333333,0,0xFF,0x00
1.028805041666667,0,0xFF,0x8A
1.028825583333333,0,0x03,0x02
1.028843583333333,0,0x80,0x12
1.028861666666667,0,0x32,0x12
1.029691208333333,0,0x07,0x01
1.029709250000000,0,0x00,0x00
1.029727291666667,0,0x18,0x01
1.029747916666667,0,0x30,0x01
1.029765916666667,0,0x80,0x01
1.029784000000000,0,0xC0,0x01
1.029804208333333,0,0x07,0x81
1.029822250000000,0,0xFF,0x00
1.029840458333333,0,0xFF,0x32
1.029861333333333,0,0x03,0x00
1.029879333333333,0,0x00,0x01
1.029897416666667,0,0xF2,0x01
1.030694833333333,0,0x30,0x92
1.030712875000000,0,0xFF,0x12
1.030731083333333,0,0xFF,0x04
1.032682000000000,0,0xF0,0x02
1.032700000000000,0,0x7F,0x12
1.032718208333333,0,0xFF,0x04
1.034669125000000,0,0x98,0x10
1.034687166666667,0,0xFF,0x02
1.034705375000000,0,0xFF,0x04
1.036656333333333,0,0xB0,0x12
1.036674375000000,0,0xFF,0x12
1.036692583333333,0,0xFF,0x04
1.038643500000000,0,0x98,0x10
1.038661541666667,0,0xFF,0x02
1.038679750000000,0,0xFF,0x00
1.040630666666667,0,0xB0,0x13
1.040648666666667,0,0xFF,0x1A
1.040666875000000,0,0xFF,0x06
1.042617833333333,0,0xB0,0x12
1.042635833333333,0,0xFF,0x10
1.042654041666667,0,0xFF,0x04
1.044605083333333,0,0xB0,0x12
1.044623125000000,0,0xFF,0x12
1.044641291666667,0,0xFF,0x04
1.046592208333333,0,0xB0,0x12
1.046610250000000,0,0xFF,0x12
1.046628416666667,0,0xFF,0x04
1.048579333333333,0,0xB0,0x12
1.048597375000000,0,0xFF,0x12
1.048615541666667,0,0xFF,0x04
1.050566333333333,0,0x98,0x1A
1.050584375000000,0,0xFF,0x12
1.050602583333333,0,0xFF,0x00
1.052553333333333,0,0xF0,0x12
1.052571333333333,0,0x7F,0x12
1.052589541666667,0,0xFF,0x06
1.054540208333333,0,0x98,0x18
1.054558250000000,0,0xFF,0x13
1.054576458333333,0,0xFF,0x04
1.056527166666667,0,0xB0,0x12
1.056545208333333,0,0xFF,0x12
1.056563375000000,0,0xFF,0x04
1.058514125000000,0,0xF0,0x13
1.058532125000000,0,0xFF,0x10
1.058550333333333,0,0xFF,0x04
1.060501041666667,0,0xB0,0x12
1.060519083333333,0,0xFF,0x12
1.060537250000000,0,0xFF,0x04
1.060562083333333,0,0x87,0x12
1.060580083333333,0,0xFF,0x00
1.060598291666667,0,0xFF,0xB2
1.060618833333333,0,0x07,0x10
1.060636875000000,0,0x00,0x13
1.060654916666667,0,0x1C,0x1A
1.061484416666667,0,0x07,0x01
1.061502458333333,0,0x00,0x01
1.061520500000000,0,0x1E,0x01
1.061541083333333,0,0x34,0x81
1.061559125000000,0,0x80,0x01
1.061577208333333,0,0x80,0x01
1.061597416666667,0,0x07,0x01
1.061615458333333,0,0xFF,0x00
1.061633666666667,0,0xFF,0x14
1.061654500000000,0,0x87,0x01
1.061672541666667,0,0x00,0x01
1.061690625000000,0,0x94,0x01
1.062488250000000,0,0xB0,0x12
1.062506291666667,0,0xFF,0x12
1.062524458333333,0,0xFF,0x00
1.064475041666667,0,0xB0,0x12
1.064493083333333,0,0xFF,0x12
1.064511250000000,0,0xFF,0x08
1.066462166666667,0,0xF0,0x13
1.066480166666667,0,0x7F,0x1A
1.066498375000000,0,0xFF,0x08
1.068449250000000,0,0xB0,0x12
1.068467291666667,0,0xFF,0x12
1.068485500000000,0,0xFF,0x08
1.070436291666667,0,0xB0,0x12
1.070454291666667,0,0xFF,0x12
1.070472500000000,0,0xFF,0x08
1.072423166666667,0,0xF0,0x12
1.072441166666667,0,0x7F,0x12
1.072459375000000,0,0xFF,0x08
1.074410125000000,0,0xF0,0x02
1.074428125000000,0,0x7F,0x12
1.074446333333333,0,0xFF,0x00
1.076397083333333,0,0xF0,0x02
1.076415083333333,0,0x7F,0x1A
1.076433291666667,0,0xFF,0x08
1.078383916666667,0,0x98,0x1A
1.078401958333333,0,0xFF,0x12
1.078420166666667,0,0xFF,0x0C
1.080370833333333,0,0x98,0x10
1.080388875000000,0,0xFF,0x02
1.080407083333333,0,0xFF,0x08
1.082357791666667,0,0xB0,0x13
1.082375791666667,0,0xFF,0x10
1.082394000000000,0,0xFF,0x08
1.084344750000000,0,0x98,0x12
1.084362791666667,0,0xFF,0x13
1.084381000000000,0,0xFF,0x08
1.086331791666667,0,0xB0,0x12
1.086349791666667,0,0xFF,0x12
1.086368000000000,0,0xFF,0x08
1.088318708333333,0,0xB0,0x12
1.088336750000000,0,0xFF,0x12
1.088354958333333,0,0xFF,0x08
1.090305708333333,0,0xB0,0x13
1.090323708333333,0,0xFF,0x10
1.090341916666667,0,0xFF,0x08
1.092292625000000,0,0x98,0x10
1.092310666666667,0,0xFF,0x13
1.092328875000000,0,0xFF,0x08
1.092353666666667,0,0x83,0x12
1.092371666666667,0,0xFF,0x00
1.092389875000000,0,0xFF,0x94
1.092410416666667,0,0x07,0x12
1.092428458333333,0,0x00,0x12
1.092446500000000,0,0x1E,0x10
1.093276041666667,0,0x03,0x01
1.093294041666667,0,0x80,0x01
1.093312125000000,0,0x3C,0x01
1.093332708333333,0,0x1C,0x01
1.093350750000000,0,0xC0,0x01
1.093368791666667,0,0x00,0x81
1.093389041666667,0,0x87,0x01
1.093407083333333,0,0xFF,0x00
1.093425250000000,0,0xFF,0x3C
1.093446125000000,0,0x87,0x01
1.093464166666667,0,0x00,0x01
1.093482208333333,0,0x1C,0x81
1.094279625000000,0,0x18,0x1A
1.094297666666667,0,0xFF,0x12
1.094315875000000,0,0xFF,0x0C
1.096266708333333,0,0xB0,0x12
1.096284750000000,0,0xFF,0x12
1.096302916666667,0,0xFF,0x18
1.098253708333333,0,0x98,0x10
1.098271750000000,0,0xFF,0x02
1.098289958333333,0,0xFF,0x18
1.100240666666667,0,0xF0,0x02
1.100258666666667,0,0x7F,0x18
1.100276875000000,0,0xFF,0x18
1.102227708333333,0,0xB0,0x12
1.102245750000000,0,0xFF,0x12
1.102263958333333,0,0xFF,0x08
1.104214750000000,0,0xB0,0x12
1.104232791666667,0,0xFF,0x12
1.104251000000000,0,0xFF,0x08
1.106201750000000,0,0xF0,0x13
1.106219750000000,0,0x7F,0x10
1.106237958333333,0,0xFF,0x18
1.108188708333333,0,0xF0,0x02
1.108206708333333,0,0x7F,0x12
1.108224916666667,0,0xFF,0x18
1.110175916666667,0,0xB0,0x12
1.110193958333333,0,0xFF,0x12
1.110212166666667,0,0xFF,0x18
1.112163041666667,0,0xB0,0x13
1.112181041666667,0,0x7F,0x18
1.112199250000000,0,0xFF,0x18
1.114150166666667,0,0xB0,0x12
1.114168166666667,0,0xFF,0x12
1.114186375000000,0,0xFF,0x18
1.116137208333333,0,0xB0,0x12
1.116155250000000,0,0xFF,0x13
1.116173458333333,0,0xFF,0x18
1.118124166666667,0,0xB0,0x12
1.118142166666667,0,0xFF,0x12
1.118160375000000,0,0xFF,0x18
1.120111166666667,0,0xB0,0x12
1.120129208333333,0,0xFF,0x12
1.120147416666667,0,0xFF,0x18
1.122098333333333,0,0xF0,0x02
1.122116333333333,0,0x7F,0x12
1.122134541666667,0,0xFF,0x18
1.124085375000000,0,0x98,0x10
1.124103416666667,0,0xFF,0x13
1.124121625000000,0,0xFF,0x18
1.124146416666667,0,0xC3,0x02
1.124164416666667,0,0xFF,0x00
1.124182625000000,0,0xFF,0xBC
1.124203166666667,0,0x87,0x12
1.124221208333333,0,0x00,0x12
1.124239291666667,0,0x1F,0x12
1.125068791666667,0,0x03,0x00
1.125086791666667,0,0x00,0x01
1.125104875000000,0,0x0E,0x01
1.125125458333333,0,0x1E,0x01
1.125143500000000,0,0xC0,0x01
1.125161541666667,0,0x00,0x81
1.125181791666667,0,0x87,0x01
1.125199833333333,0,0xFF,0x00
1.125218000000000,0,0xFF,0x1E
1.125238875000000,0,0x87,0x01
1.125256916666667,0,0x00,0x01
1.125274958333333,0,0x1E,0x81
1.126072375000000,0,0xB0,0x12
1.126090375000000,0,0xFF,0x12
1.126108583333333,0,0xFF,0x1C
1.128059208333333,0,0x98,0x12
1.128077250000000,0,0xFF,0x12
1.128095416666667,0,0xFF,0x1C
1.130046250000000,0,0x98,0x1A
1.130064291666667,0,0xFF,0x02
1.130082500000000,0,0xFF,0x1C
1.132033333333333,0,0x98,0x1A
1.132051375000000,0,0xFF,0x02
1.132069583333333,0,0xFF,0x1C
1.134020375000000,0,0xB0,0x12
1.134038416666667,0,0xFF,0x12
1.134056625000000,0,0xFF,0x1C
1.136007416666667,0,0xB0,0x12
1.136025458333333,0,0xFF,0x12
1.136043625000000,0,0xFF,0x1C
1.137994541666667,0,0xB0,0x12
1.138012541666667,0,0xFF,0x10
1.138030750000000,0,0xFF,0x1C
1.139981666666667,0,0xB0,0x12
1.139999666666667,0,0xFF,0x12
1.140017875000000,0,0xFF,0x1C
1.141968666666667,0,0xF0,0x12
1.141986666666667,0,0x7F,0x12
1.142004875000000,0,0xFF,0x1E
1.143955666666667,0,0xB0,0x12
1.143973666666667,0,0xFF,0x12
1.143991875000000,0,0xFF,0x1C
1.145942625000000,0,0x98,0x1A
1.145960666666667,0,0xFF,0x02
1.145978875000000,0,0xFF,0x1C
1.147929583333333,0,0x98,0x1A
1.147947625000000,0,0xFF,0x02
1.147965833333333,0,0xFF,0x1C
1.149916541666667,0,0xF0,0x02
1.149934541666667,0,0x7F,0x1A
1.149952750000000,0,0xFF,0x1E
1.151903541666667,0,0xF0,0x12
1.151921541666667,0,0x7F,0x12
1.151939750000000,0,0xFF,0x1C
1.153890625000000,0,0xF0,0x02
1.153908625000000,0,0x7F,0x18
1.153926833333333,0,0xFF,0x1C
1.155877541666667,0,0xB0,0x13
1.155895541666667,0,0xFF,0x12
1.155913750000000,0,0xFF,0x1C
1.155938541666667,0,0x87,0x10
1.155956583333333,0,0xFF,0x00
1.155974791666667,0,0xFF,0x9E
1.155995333333333,0,0x03,0x02
1.156013333333333,0,0x80,0x12
1.156031416666667,0,0x46,0x12
1.156860916666667,0,0x07,0x01
1.156878958333333,0,0x00,0x01
1.156897041666667,0,0x47,0x01
1.156917625000000,0,0x30,0x01
1.156935625000000,0,0x00,0x01
1.156953708333333,0,0x80,0x01
1.156973958333333,0,0x87,0x01
1.156991958333333,0,0xFF,0x00
1.157010166666667,0,0xFF,0x46
1.157031041666667,0,0x03,0x00
1.157049041666667,0,0x00,0x01
1.157067125000000,0,0xC2,0x01
1.157864500000000,0,0x18,0x10
1.157882541666667,0,0xFF,0x13
1.157900750000000,0,0xFF,0x0C
1.159851625000000,0,0xB0,0x12
1.159869625000000,0,0xFF,0x12
1.159887833333333,0,0xFF,0x0C
1.161838666666667,0,0x98,0x1A
1.161856708333333,0,0xFF,0x12
1.161874916666667,0,0xFF,0x0C
1.163825708333333,0,0xF0,0x12
1.163843708333333,0,0x7F,0x12
1.163861916666667,0,0xFF,0x04
1.165812791666667,0,0xB0,0x13
1.165830791666667,0,0xFF,0x10
1.165849000000000,0,0xFF,0x0C
1.167799958333333,0,0xB0,0x12
1.167817958333333,0,0xFF,0x10
1.167836166666667,0,0xFF,0x0C
1.169787083333333,0,0xF0,0x12
1.169805083333333,0,0x7F,0x12
1.169823291666667,0,0xFF,0x04
1.171774208333333,0,0xB0,0x12
1.171792250000000,0,0xFF,0x12
1.171810458333333,0,0xFF,0x0C
1.173761333333333,0,0xB0,0x12
1.173779375000000,0,0xFF,0x12
1.173797541666667,0,0xFF,0x0C
1.175748375000000,0,0xB0,0x12
1.175766416666667,0,0xFF,0x12
1.175784625000000,0,0xFF,0x0C
1.177735458333333,0,0xB0,0x12
1.177753500000000,0,0xFF,0x12
1.177771666666667,0,0xFF,0x0C
1.179722583333333,0,0x98,0x10
1.179740625000000,0,0xFF,0x02
1.179758833333333,0,0xFF,0x0C
1.181709833333333,0,0xB0,0x12
1.181727875000000,0,0xFF,0x12
1.181746083333333,0,0xFF,0x0C
1.183697083333333,0,0xB0,0x12
1.183715125000000,0,0xFF,0x12
1.183733333333333,0,0xFF,0x0C
1.185684333333333,0,0xF0,0x12
1.185702333333333,0,0x7F,0x1A
1.185720541666667,0,0xFF,0x0C
1.187671541666667,0,0xF0,0x13
1.187689541666667,0,0x7F,0x1A
1.187707750000000,0,0xFF,0x06
1.187732541666667,0,0x87,0x12
1.187750583333333,0,0xFF,0x00
1.187768791666667,0,0xFF,0xC6
1.187789333333333,0,0x87,0x1A
1.187807375000000,0,0x00,0x02
1.187825458333333,0,0x00,0x12
1.188655041666667,0,0x07,0x01
1.188673083333333,0,0x00,0x00
1.188691125000000,0,0x00,0x01
1.188711750000000,0,0x30,0x00
1.188729750000000,0,0x00,0x01
1.188747833333333,0,0xC0,0x01
1.188768083333333,0,0x83,0x00
1.188786083333333,0,0xFF,0x00
1.188804291666667,0,0xFF,0x00
1.188825166666667,0,0x07,0x01
1.188843208333333,0,0x00,0x01
1.188861250000000,0,0x80,0x01
1.189659000000000,0,0x18,0x1A
1.189677041666667,0,0xFF,0x12
1.189695250000000,0,0xFF,0x00
1.191645833333333,0,0xB0,0x12
1.191663875000000,0,0xFF,0x12
1.191682083333333,0,0xFF,0x00
1.193632875000000,0,0xB0,0x12
1.193650916666667,0,0xFF,0x13
1.193669125000000,0,0xFF,0x00
1.195619958333333,0,0xF0,0x13
1.195637958333333,0,0x7F,0x1A
1.195656166666667,0,0xFF,0x00
1.197607125000000,0,0xF0,0x13
1.197625125000000,0,0x7F,0x1A
1.197643333333333,0,0xFF,0x00
1.199594041666667,0,0xF0,0x02
1.199612041666667,0,0x7F,0x18
1.199630250000000,0,0xFF,0x00
1.201581000000000,0,0xF0,0x02
1.201599000000000,0,0x7F,0x12
1.201617208333333,0,0xFF,0x00
1.203568125000000,0,0xF0,0x02
1.203586125000000,0,0x7F,0x1A
1.203604333333333,0,0xFF,0x00
1.205555041666667,0,0x98,0x12
1.205573083333333,0,0xFF,0x12
1.205591250000000,0,0xFF,0x00
1.207542041666667,0,0xB0,0x12
1.207560083333333,0,0xFF,0x12
1.207578250000000,0,0xFF,0x00
1.209529041666667,0,0xB0,0x12
1.209547083333333,0,0xFF,0x13
1.209565291666667,0,0xFF,0x00
1.211516041666667,0,0x98,0x18
1.211534083333333,0,0xFF,0x02
1.211552291666667,0,0xFF,0x00
1.213503208333333,0,0xB0,0x12
1.213521208333333,0,0xFF,0x12
1.213539416666667,0,0xFF,0x00
1.215490250000000,0,0xF0,0x02
1.215508250000000,0,0x7F,0x12
1.215526458333333,0,0xFF,0x00
1.217477208333333,0,0x98,0x12
1.217495250000000,0,0xFF,0x13
1.217513458333333,0,0xFF,0x00
1.219464208333333,0,0xB0,0x12
1.219482250000000,0,0xFF,0x12
1.219500458333333,0,0xFF,0x00
1.219525250000000,0,0xC7,0x12
1.219543250000000,0,0xFF,0x00
1.219561458333333,0,0xFF,0x80
1.219582041666667,0,0x03,0x12
1.219600041666667,0,0x00,0x10
1.219618125000000,0,0x3C,0x02
1.220447583333333,0,0x07,0x01
1.220465625000000,0,0x00,0x01
1.220483708333333,0,0x28,0x01
1.220504291666667,0,0x30,0x01
1.220522291666667,0,0x00,0x01
1.220540375000000,0,0xC0,0x01
1.220560625000000,0,0x87,0x01
1.220578625000000,0,0xFF,0x00
1.220596833333333,0,0xFF,0x38
1.220617708333333,0,0x03,0x00
1.220635708333333,0,0x00,0x01
1.220653791666667,0,0xE8,0x01
1.221451416666667,0,0x30,0x92
1.221469458333333,0,0xFF,0x12
1.221487666666667,0,0xFF,0x10
1.223438041666667,0,0xB0,0x12
1.223456041666667,0,0xFF,0x12
1.223474250000000,0,0xFF,0x10
1.225425000000000,0,0xF0,0x12
1.225443000000000,0,0x7F,0x12
1.225461208333333,0,0xFF,0x18
1.227412000000000,0,0x98,0x1A
1.227430041666667,0,0xFF,0x02
1.227448250000000,0,0xFF,0x10
1.229398750000000,0,0xB0,0x12
1.229416791666667,0,0xFF,0x02
1.229435000000000,0,0xFF,0x10
1.231385583333333,0,0xF0,0x12
1.231403583333333,0,0x7F,0x12
1.231421791666667,0,0xFF,0x10
1.233372666666667,0,0xB0,0x12
1.233390666666667,0,0xFF,0x12
1.233408875000000,0,0xFF,0x10
1.235359583333333,0,0xB0,0x12
1.235377625000000,0,0xFF,0x12
1.235395833333333,0,0xFF,0x00
1.237346416666667,0,0xF0,0x02
1.237364416666667,0,0x7F,0x18
1.237382625000000,0,0xFF,0x10
1.239333375000000,0,0xF0,0x12
1.239351416666667,0,0xFF,0x12
1.239369583333333,0,0xFF,0x18
1.241320541666667,0,0x98,0x10
1.241338583333333,0,0xFF,0x02
1.241356791666667,0,0xFF,0x10
1.243307708333333,0,0x98,0x10
1.243325750000000,0,0xFF,0x13
1.243343958333333,0,0xFF,0x10
1.245294916666667,0,0xF0,0x02
1.245312916666667,0,0x7F,0x12
1.245331125000000,0,0xFF,0x18
1.247282291666667,0,0xB0,0x12
1.247300333333333,0,0xFF,0x12
1.247318541666667,0,0xFF,0x10
1.249269500000000,0,0x98,0x1A
1.249287541666667,0,0xFF,0x12
1.249305750000000,0,0xFF,0x00
1.251256458333333,0,0x98,0x1A
1.251274500000000,0,0xFF,0x12
1.251292708333333,0,0xFF,0x00
1.251317500000000,0,0x87,0x12
1.251335500000000,0,0xFF,0x00
1.251353708333333,0,0xFF,0x80
1.251374291666667,0,0x03,0x12
1.251392291666667,0,0x00,0x10
1.251410375000000,0,0x0E,0x02
1.252239875000000,0,0x07,0x01
1.252257916666667,0,0x00,0x01
1.252275958333333,0,0x0A,0x81
1.252296583333333,0,0x30,0x00
1.252314583333333,0,0x00,0x01
1.252332666666667,0,0xC0,0x00
1.252352875000000,0,0x07,0x01
1.252370916666667,0,0xFF,0x00
1.252389125000000,0,0xFF,0x0A
1.252409958333333,0,0x87,0x01
1.252428000000000,0,0x00,0x01
1.252446083333333,0,0x8F,0x01
1.253243458333333,0,0x18,0x18
1.253261500000000,0,0xFF,0x02
1.253279708333333,0,0xFF,0x10
1.255230500000000,0,0xB0,0x12
1.255248500000000,0,0xFF,0x12
1.255266708333333,0,0xFF,0x14
1.257217541666667,0,0xB0,0x12
1.257235583333333,0,0xFF,0x12
1.257253791666667,0,0xFF,0x14
1.259204666666667,0,0x98,0x12
1.259222708333333,0,0xFF,0x13
1.259240916666667,0,0xFF,0x14
1.261191625000000,0,0xB0,0x12
1.261209666666667,0,0xFF,0x12
1.261227875000000,0,0xFF,0x14
1.263178583333333,0,0xB0,0x12
1.263196583333333,0,0x7F,0x12
1.263214791666667,0,0xFF,0x1C
1.265165500000000,0,0xF0,0x12
1.265183500000000,0,0x7F,0x12
1.265201708333333,0,0xFF,0x1C
1.267152541666667,0,0xB0,0x12
1.267170541666667,0,0xFF,0x12
1.267188750000000,0,0xFF,0x14
1.269139375000000,0,0xB0,0x12
1.269157416666667,0,0xFF,0x12
1.269175583333333,0,0xFF,0x14
1.271126250000000,0,0xF0,0x02
1.271144250000000,0,0x7F,0x12
1.271162458333333,0,0xFF,0x1E
1.273113208333333,0,0xB0,0x12
1.273131250000000,0,0xFF,0x13
1.273149458333333,0,0xFF,0x14
1.275100291666667,0,0xB0,0x12
1.275118333333333,0,0xFF,0x12
1.275136541666667,0,0xFF,0x14
1.277087500000000,0,0xB0,0x12
1.277105541666667,0,0xFF,0x12
1.277123708333333,0,0xFF,0x14
1.279074583333333,0,0xB0,0x12
1.279092625000000,0,0xFF,0x12
1.279110791666667,0,0xFF,0x14
1.281061666666667,0,0xB0,0x12
1.281079666666667,0,0xFF,0x12
1.281097875000000,0,0xFF,0x14
1.283048750000000,0,0x98,0x1A
1.283066791666667,0,0xFF,0x02
1.283085000000000,0,0xFF,0x10
1.283109791666667,0,0x87,0x12
1.283127833333333,0,0xFF,0x00
1.283146000000000,0,0xFF,0x0A
1.283166583333333,0,0x03,0x12
1.283184583333333,0,0x80,0x1A
1.283202666666667,0,0x30,0x12
1.284032250000000,0,0x07,0x01
1.284050291666667,0,0x00,0x01
1.284068375000000,0,0x33,0x01
1.284088958333333,0,0x34,0x01
1.284106958333333,0,0x00,0x81
1.284125041666667,0,0x80,0x01
1.284145291666667,0,0xC3,0x01
1.284163291666667,0,0xFF,0x80
1.284181500000000,0,0xFF,0x1A
1.284202375000000,0,0x07,0x01
1.284220416666667,0,0x00,0x01
1.284238458333333,0,0x32,0x81
1.285036166666667,0,0xB0,0x12
1.285054166666667,0,0xFF,0x12
1.285072375000000,0,0xFF,0x04
1.287023208333333,0,0xF0,0x02
1.287041208333333,0,0x7F,0x1A
1.287059416666667,0,0xFF,0x06
1.289010416666667,0,0xF0,0x12
1.289028458333333,0,0xFF,0x12
1.289046666666667,0,0xFF,0x04
1.290997541666667,0,0xB0,0x12
1.291015541666667,0,0xFF,0x12
1.291033750000000,0,0xFF,0x04
1.292984708333333,0,0xB0,0x12
1.293002750000000,0,0xFF,0x12
1.293020958333333,0,0xFF,0x04
1.294971791666667,0,0x98,0x1A
1.294989833333333,0,0xFF,0x02
1.295008041666667,0,0xFF,0x00
1.296958916666667,0,0xB0,0x12
1.296976916666667,0,0x7F,0x12
1.296995125000000,0,0xFF,0x04
1.298945958333333,0,0xB0,0x13
1.298963958333333,0,0x7F,0x18
1.298982166666667,0,0xFF,0x06
1.300933000000000,0,0xF0,0x13
1.300951000000000,0,0xFF,0x12
1.300969208333333,0,0xFF,0x04
1.302919916666667,0,0x98,0x10
1.302937958333333,0,0xFF,0x12
1.302956166666667,0,0xFF,0x04
1.304906875000000,0,0xB0,0x12
1.304924916666667,0,0xFF,0x12
1.304943083333333,0,0xFF,0x04
1.306894041666667,0,0x90,0x12
1.306912083333333,0,0xFF,0x13
1.306930291666667,0,0xFF,0x04
1.308881041666667,0,0xF0,0x13
1.308899041666667,0,0x7F,0x10
1.308917250000000,0,0xFF,0x04
1.310868083333333,0,0xF0,0x13
1.310886083333333,0,0x7F,0x1A
1.310904291666667,0,0xFF,0x06
1.312855125000000,0,0x90,0x12
1.312873166666667,0,0xFF,0x12
1.312891333333333,0,0xFF,0x04
1.314842083333333,0,0xB0,0x12
1.314860083333333,0,0x7F,0x12
1.314878291666667,0,0xFF,0x04
1.314903083333333,0,0x87,0x12
1.314921125000000,0,0xFF,0x00
1.314939333333333,0,0xFF,0xB2
1.314959875000000,0,0x07,0x12
1.314977916666667,0,0x00,0x12
1.314995958333333,0,0x1E,0x10
1.315825458333333,0,0x07,0x01
1.315843500000000,0,0x00,0x01
1.315861541666667,0,0x14,0x81
1.315882166666667,0,0x30,0x01
1.315900166666667,0,0x00,0x01
1.315918250000000,0,0x80,0x01
1.315938500000000,0,0xC3,0x00
1.315956500000000,0,0xFF,0x00
1.315974708333333,0,0xFF,0x16
1.315995583333333,0,0x07,0x01
1.316013625000000,0,0x00,0x01
1.316031666666667,0,0x1E,0x01
1.316829125000000,0,0xF0,0x02
1.316847125000000,0,0x7F,0x12
1.316865333333333,0,0xFF,0x08
1.318816166666667,0,0xB0,0x12
1.318834208333333,0,0xFF,0x12
1.318852375000000,0,0xFF,0x08
1.320803250000000,0,0x98,0x10
1.320821291666667,0,0xFF,0x02
1.320839500000000,0,0xFF,0x08
1.322790375000000,0,0xF0,0x02
1.322808375000000,0,0x7F,0x1A
1.322826583333333,0,0xFF,0x08
1.324777333333333,0,0xF0,0x02
1.324795333333333,0,0x7F,0x18
1.324813541666667,0,0xFF,0x08
1.326764166666667,0,0xF0,0x13
1.326782166666667,0,0x7F,0x18
1.326800375000000,0,0xFF,0x08
1.328751000000000,0,0x90,0x12
1.328769041666667,0,0xFF,0x12
1.328787208333333,0,0xFF,0x08
1.330737875000000,0,0xB0,0x12
1.330755875000000,0,0x7F,0x12
1.330774083333333,0,0xFF,0x00
1.332724875000000,0,0xF0,0x12
1.332742875000000,0,0x7F,0x12
1.332761083333333,0,0xFF,0x00
1.334711791666667,0,0x90,0x12
1.334729833333333,0,0xFF,0x12
1.334748041666667,0,0xFF,0x0C
1.336698750000000,0,0xB0,0x12
1.336716791666667,0,0xFF,0x12
1.336734958333333,0,0xFF,0x08
1.338685750000000,0,0x98,0x1A
1.338703791666667,0,0xFF,0x12
1.338722000000000,0,0xFF,0x0C
1.340672833333333,0,0x90,0x12
1.340690875000000,0,0xFF,0x13
1.340709083333333,0,0xFF,0x08
1.342659875000000,0,0xB0,0x12
1.342677916666667,0,0xFF,0x12
1.342696125000000,0,0xFF,0x08
1.344646916666667,0,0xB0,0x12
1.344664958333333,0,0xFF,0x12
1.344683166666667,0,0xFF,0x08
1.346634083333333,0,0xF0,0x02
1.346652083333333,0,0x7F,0x12
1.346670291666667,0,0xFF,0x00
1.346695083333333,0,0x87,0x12
1.346713125000000,0,0xFF,0x00
1.346731333333333,0,0xFF,0xD4
1.346751875000000,0,0x07,0x10
1.346769916666667,0,0x00,0x02
1.346787958333333,0,0x3C,0x12
1.347617583333333,0,0x03,0x01
1.347635583333333,0,0x00,0x01
1.347653666666667,0,0x3C,0x01
1.347674250000000,0,0x1C,0x01
1.347692291666667,0,0xC0,0x01
1.347710375000000,0,0x80,0x01
1.347730583333333,0,0x07,0x01
1.347748625000000,0,0xFF,0x00
1.347766833333333,0,0xFF,0x3C
1.347787666666667,0,0x87,0x01
1.347805708333333,0,0x00,0x01
1.347823791666667,0,0xBC,0x01
1.348621166666667,0,0x98,0x12
1.348639208333333,0,0xFF,0x13
1.348657416666667,0,0xFF,0x18
1.350608250000000,0,0xB0,0x12
1.350626291666667,0,0xFF,0x12
1.350644500000000,0,0xFF,0x18
1.352595375000000,0,0xB0,0x12
1.352613416666667,0,0xFF,0x13
1.352631625000000,0,0xFF,0x18
1.354582541666667,0,0xF0,0x12
1.354600583333333,0,0xFF,0x12
1.354618750000000,0,0xFF,0x18
1.356569666666667,0,0xB0,0x12
1.356587708333333,0,0xFF,0x12
1.356605916666667,0,0xFF,0x18
1.358556833333333,0,0x98,0x10
1.358574875000000,0,0xFF,0x13
1.358593083333333,0,0xFF,0x18
1.360544000000000,0,0xB0,0x13
1.360562000000000,0,0xFF,0x10
1.360580208333333,0,0xFF,0x18
1.362531083333333,0,0xB0,0x12
1.362549125000000,0,0xFF,0x12
1.362567333333333,0,0xFF,0x18
1.364518291666667,0,0x98,0x1A
1.364536333333333,0,0xFF,0x12
1.364554541666667,0,0xFF,0x08
1.366505500000000,0,0xB0,0x12
1.366523500000000,0,0x7F,0x12
1.366541708333333,0,0xFF,0x18
1.368492541666667,0,0xF0,0x02
1.368510541666667,0,0x7F,0x12
1.368528750000000,0,0xFF,0x18
1.370479583333333,0,0xB0,0x12
1.370497625000000,0,0xFF,0x12
1.370515833333333,0,0xFF,0x18
1.372466708333333,0,0x98,0x10
1.372484750000000,0,0xFF,0x02
1.372502958333333,0,0xFF,0x1C
1.374453916666667,0,0xB0,0x13
1.374471916666667,0,0xFF,0x10
1.374490125000000,0,0xFF,0x18
1.376441083333333,0,0x90,0x12
1.376459125000000,0,0xFF,0x13
1.376477333333333,0,0xFF,0x18
1.378428250000000,0,0x90,0x12
1.378446291666667,0,0xFF,0x13
1.378464500000000,0,0xFF,0x18
1.378489291666667,0,0xC3,0x02
1.378507291666667,0,0xFF,0x00
1.378525500000000,0,0xFF,0xBC
1.378546041666667,0,0x87,0x12
1.378564083333333,0,0x00,0x12
1.378582166666667,0,0x1F,0x13
1.379411708333333,0,0x07,0x01
1.379429750000000,0,0x00,0x01
1.379447791666667,0,0x1F,0x81
1.379468416666667,0,0x30,0x01
1.379486416666667,0,0x00,0x01
1.379504500000000,0,0x80,0x01
1.379524750000000,0,0xC3,0x00
1.379542750000000,0,0xFF,0x00
1.379560958333333,0,0xFF,0x1E
1.379581833333333,0,0x07,0x01
1.379599875000000,0,0x00,0x01
1.379617916666667,0,0x1E,0x01
1.380415375000000,0,0xB0,0x12
1.380433416666667,0,0xFF,0x13
1.380451625000000,0,0xFF,0x1C
1.382402416666667,0,0xB0,0x12
1.382420458333333,0,0xFF,0x12
1.382438666666667,0,0xFF,0x1C
1.384389541666667,0,0x98,0x12
1.384407583333333,0,0xFF,0x13
1.384425791666667,0,0xFF,0x1C
1.386376666666667,0,0x98,0x18
1.386394708333333,0,0xFF,0x02
1.386412916666667,0,0xFF,0x1C
1.388363750000000,0,0xF0,0x13
1.388381750000000,0,0x7F,0x10
1.388399958333333,0,0xFF,0x1C
1.390350750000000,0,0x90,0x12
1.390368791666667,0,0xFF,0x13
1.390387000000000,0,0xFF,0x1C
1.392337833333333,0,0xB0,0x12
1.392355833333333,0,0xFF,0x12
1.392374041666667,0,0xFF,0x1C
1.394324875000000,0,0xB0,0x12
1.394342916666667,0,0xFF,0x12
1.394361083333333,0,0xFF,0x1C
1.396312041666667,0,0xB0,0x12
1.396330041666667,0,0xFF,0x12
1.396348250000000,0,0xFF,0x0C
1.398299041666667,0,0x98,0x18
1.398317083333333,0,0xFF,0x02
1.398335291666667,0,0xFF,0x1C
1.400286041666667,0,0x98,0x12
1.400304083333333,0,0xFF,0x13
1.400322291666667,0,0xFF,0x1C
1.402273041666667,0,0x98,0x18
1.402291083333333,0,0xFF,0x02
1.402309291666667,0,0xFF,0x1C
1.404260041666667,0,0xB0,0x12
1.404278083333333,0,0xFF,0x12
1.404296291666667,0,0xFF,0x1C
1.406247083333333,0,0xF0,0x12
1.406265083333333,0,0x7F,0x12
1.406283291666667,0,0xFF,0x1E
1.408234041666667,0,0xF0,0x02
1.408252041666667,0,0x7F,0x1A
1.408270250000000,0,0xFF,0x1E
1.410221041666667,0,0x98,0x12
1.410239083333333,0,0xFF,0x13
1.410257291666667,0,0xFF,0x1C
1.410282083333333,0,0xC7,0x12
1.410300083333333,0,0xFF,0x00
1.410318291666667,0,0xFF,0x9E
1.410338875000000,0,0x03,0x13
1.410356875000000,0,0x00,0x10
1.410374958333333,0,0x06,0x12
1.411204541666667,0,0x07,0x01
1.411222541666667,0,0x00,0x01
1.411240625000000,0,0x43,0x01
1.411261208333333,0,0x34,0x01
1.411279208333333,0,0x00,0x81
1.411297291666667,0,0x80,0x01
1.411317541666667,0,0xC3,0x01
1.411335541666667,0,0xFF,0x00
1.411353750000000,0,0xFF,0x46
1.411374625000000,0,0x07,0x01
1.411392666666667,0,0x00,0x01
1.411410750000000,0,0xC7,0x01
1.412208333333333,0,0xB0,0x12
1.412226333333333,0,0xFF,0x10
1.412244541666667,0,0xFF,0x0C
1.414195125000000,0,0xB0,0x12
1.414213125000000,0,0xFF,0x12
1.414231333333333,0,0xFF,0x0C
1.416182083333333,0,0xB0,0x12
1.416200125000000,0,0xFF,0x12
1.416218333333333,0,0xFF,0x0C
1.418169166666667,0,0xF0,0x02
1.418187166666667,0,0x7F,0x1A
1.418205375000000,0,0xFF,0x0E
1.420156208333333,0,0x98,0x12
1.420174250000000,0,0xFF,0x12
1.420192458333333,0,0xFF,0x0C
1.422143291666667,0,0xF0,0x13
1.422161291666667,0,0x7F,0x18
1.422179500000000,0,0xFF,0x0C
1.424130333333333,0,0xB0,0x12
1.424148375000000,0,0xFF,0x12
1.424166583333333,0,0xFF,0x0C
1.426117333333333,0,0x98,0x1A
1.426135375000000,0,0xFF,0x02
1.426153583333333,0,0xFF,0x0C
1.428104250000000,0,0xB0,0x12
1.428122250000000,0,0x7F,0x12
1.428140458333333,0,0xFF,0x0C
1.430091291666667,0,0xB0,0x12
1.430109291666667,0,0xFF,0x12
1.430127500000000,0,0xFF,0x0C
1.432078333333333,0,0x90,0x12
1.432096375000000,0,0xFF,0x13
1.432114583333333,0,0xFF,0x0C
1.434065416666667,0,0xF0,0x02
1.434083416666667,0,0x7F,0x1A
1.434101625000000,0,0xFF,0x0E
1.436052541666667,0,0xB0,0x12
1.436070583333333,0,0xFF,0x12
1.436088791666667,0,0xFF,0x0C
1.438039583333333,0,0x98,0x10
1.438057625000000,0,0xFF,0x13
1.438075833333333,0,0xFF,0x0C
1.440026541666667,0,0xB0,0x12
1.440044583333333,0,0xFF,0x12
1.440062791666667,0,0xFF,0x0C
1.442013625000000,0,0x90,0x12
1.442031666666667,0,0xFF,0x12
1.442049875000000,0,0xFF,0x0C
1.442074666666667,0,0xC7,0x02
1.442092666666667,0,0xFF,0x00
1.442110875000000,0,0xFF,0xC6
1.442131458333333,0,0x07,0x12
1.442149458333333,0,0x00,0x12
1.442167541666667,0,0x00,0x13
1.442997041666667,0,0x07,0x01
1.443015041666667,0,0x80,0x81
1.443033125000000,0,0x00,0x01
1.443053708333333,0,0x34,0x81
1.443071750000000,0,0x80,0x01
1.443089833333333,0,0x80,0x01
1.443110041666667,0,0x07,0x01
1.443128083333333,0,0xFF,0x00
1.443146291666667,0,0xFF,0x00
1.443167125000000,0,0x87,0x01
1.443185166666667,0,0x00,0x01
1.443203250000000,0,0x80,0x01
1.444000833333333,0,0xB0,0x12
1.444018833333333,0,0xFF,0x12
1.444037041666667,0,0xFF,0x00
1.445987708333333,0,0x98,0x18
1.446005750000000,0,0xFF,0x02
1.446023958333333,0,0xFF,0x00
1.447974916666667,0,0xF0,0x12
1.447992916666667,0,0x7F,0x1A
1.448011125000000,0,0xFF,0x00
1.449962083333333,0,0xB0,0x12
1.449980083333333,0,0xFF,0x12
1.449998291666667,0,0xFF,0x00
1.451949041666667,0,0xB0,0x13
1.451967041666667,0,0x7F,0x1A
1.451985250000000,0,0xFF,0x00
1.453936083333333,0,0x98,0x18
1.453954125000000,0,0xFF,0x02
1.453972333333333,0,0xFF,0x00
1.455923041666667,0,0x98,0x1A
1.455941083333333,0,0xFF,0x02
1.455959291666667,0,0xFF,0x00
1.457909916666667,0,0xB0,0x12
1.457927916666667,0,0xFF,0x12
1.457946125000000,0,0xFF,0x00
1.459896875000000,0,0xB0,0x12
1.459914875000000,0,0xFF,0x12
1.459933083333333,0,0xFF,0x00
1.461883958333333,0,0xB0,0x12
1.461901958333333,0,0xFF,0x12
1.461920166666667,0,0xFF,0x00
1.463871041666667,0,0xB0,0x12
1.463889083333333,0,0xFF,0x12
1.463907250000000,0,0xFF,0x00
1.465858166666667,0,0x90,0x12
1.465876208333333,0,0xFF,0x13
1.465894416666667,0,0xFF,0x00
1.467845250000000,0,0xF0,0x13
1.467863250000000,0,0xFF,0x10
1.467881458333333,0,0xFF,0x00
1.469832291666667,0,0x98,0x10
1.469850333333333,0,0xFF,0x02
1.469868541666667,0,0xFF,0x00
1.471819166666667,0,0x98,0x18
1.471837208333333,0,0xFF,0x02
1.471855416666667,0,0xFF,0x00
1.473806291666667,0,0xF0,0x12
1.473824333333333,0,0xFF,0x12
1.473842500000000,0,0xFF,0x00
1.473867333333333,0,0x83,0x13
1.473885333333333,0,0xFF,0x00
1.473903541666667,0,0xFF,0x80
1.473924125000000,0,0x03,0x12
1.473942125000000,0,0x00,0x10
1.473960208333333,0,0x3C,0x02
1.474789791666667,0,0x07,0x01
1.474807833333333,0,0x00,0x01
1.474825916666667,0,0x28,0x01
1.474846500000000,0,0x34,0x01
1.474864541666667,0,0x80,0x01
1.474882583333333,0,0x80,0x01
1.474902833333333,0,0xC7,0x01
1.474920875000000,0,0xFF,0x00
1.474939083333333,0,0xFF,0x28
1.474959916666667,0,0x87,0x01
1.474977958333333,0,0x00,0x01
1.474996041666667,0,0xFC,0x01
1.475793708333333,0,0xF0,0x12
1.475811750000000,0,0xFF,0x12
1.475829916666667,0,0xFF,0x10
1.477780541666667,0,0x98,0x1A
1.477798583333333,0,0xFF,0x02
1.477816791666667,0,0xFF,0x10
1.479767416666667,0,0x98,0x10
1.479785458333333,0,0xFF,0x02
1.479803666666667,0,0xFF,0x10
1.481754458333333,0,0xF0,0x02
1.481772458333333,0,0x7F,0x1A
1.481790666666667,0,0xFF,0x10
1.483741541666667,0,0x98,0x18
1.483759583333333,0,0xFF,0x02
1.483777791666667,0,0xFF,0x10
1.485728458333333,0,0xB0,0x12
1.485746500000000,0,0xFF,0x12
1.485764666666667,0,0xFF,0x18
1.487715375000000,0,0xB0,0x12
1.487733416666667,0,0xFF,0x12
1.487751583333333,0,0xFF,0x10
1.489702291666667,0,0xF0,0x13
1.489720291666667,0,0x7F,0x18
1.489738500000000,0,0xFF,0x10
1.491689166666667,0,0xF0,0x02
1.491707166666667,0,0x7F,0x1A
1.491725375000000,0,0xFF,0x10
1.493676083333333,0,0xB0,0x12
1.493694125000000,0,0xFF,0x12
1.493712291666667,0,0xFF,0x10
1.495663000000000,0,0xB0,0x12
1.495681000000000,0,0x7F,0x12
1.495699208333333,0,0xFF,0x18
1.497649916666667,0,0xF0,0x02
1.497667916666667,0,0x7F,0x1A
1.497686125000000,0,0xFF,0x10
1.499636916666667,0,0xB0,0x12
1.499654916666667,0,0x7F,0x12
1.499673125000000,0,0xFF,0x18
1.501623958333333,0,0x98,0x1A
1.501642000000000,0,0xFF,0x02
1.501660208333333,0,0xFF,0x10
1.503610875000000,0,0x98,0x10
1.503628916666667,0,0xFF,0x02
1.503647125000000,0,0xFF,0x10
1.505597791666667,0,0x98,0x18
1.505615833333333,0,0xFF,0x02
1.505634041666667,0,0xFF,0x10
1.505658833333333,0,0xC3,0x02
1.505676833333333,0,0xFF,0x00
1.505695041666667,0,0xFF,0xA8
1.505715583333333,0,0x87,0x1A
1.505733625000000,0,0x00,0x02
1.505751666666667,0,0x0A,0x12
1.506581166666667,0,0x07,0x01
1.506599208333333,0,0x00,0x01
1.506617250000000,0,0x00,0x01
1.506637875000000,0,0x34,0x01
1.506655875000000,0,0x80,0x01
1.506673958333333,0,0x80,0x00
1.506694166666667,0,0x07,0x01
1.506712208333333,0,0xFF,0x00
1.506730416666667,0,0xFF,0x0B
1.506751291666667,0,0x07,0x01
1.506769291666667,0,0x00,0x01
1.506787375000000,0,0x8B,0x01
1.507584750000000,0,0xF0,0x13
1.507602750000000,0,0x7F,0x18
1.507620958333333,0,0xFF,0x14
1.509571708333333,0,0xB0,0x13
1.509589708333333,0,0xFF,0x12
1.509607916666667,0,0xFF,0x14
1.511558625000000,0,0xB0,0x12
1.511576625000000,0,0xFF,0x12
1.511594833333333,0,0xFF,0x00
1.513545500000000,0,0xF0,0x13
1.513563500000000,0,0xFF,0x12
1.513581708333333,0,0xFF,0x14
1.515532416666667,0,0xF0,0x02
1.515550416666667,0,0x7F,0x12
1.515568625000000,0,0xFF,0x16
1.517519250000000,0,0x98,0x1A
1.517537291666667,0,0xFF,0x02
1.517555500000000,0,0xFF,0x14
1.519506208333333,0,0xB0,0x12
1.519524250000000,0,0xFF,0x12
1.519542416666667,0,0xFF,0x1C
1.521492958333333,0,0xB0,0x12
1.521511000000000,0,0xFF,0x13
1.521529208333333,0,0xFF,0x14
1.523479875000000,0,0xF0,0x13
1.523497875000000,0,0x7F,0x10
1.523516083333333,0,0xFF,0x14
1.525466875000000,0,0xB0,0x12
1.525484916666667,0,0xFF,0x12
1.525503125000000,0,0xFF,0x14
1.527453958333333,0,0xB0,0x12
1.527472000000000,0,0xFF,0x12
1.527490166666667,0,0xFF,0x1C
1.529440875000000,0,0xB0,0x12
1.529458916666667,0,0xFF,0x12
1.529477083333333,0,0xFF,0x14
1.531427833333333,0,0x98,0x1A
1.531445875000000,0,0xFF,0x02
1.531464083333333,0,0xFF,0x14
1.533414708333333,0,0xB0,0x12
1.533432708333333,0,0xFF,0x12
1.533450916666667,0,0xFF,0x04
1.535401541666667,0,0xF0,0x02
1.535419541666667,0,0x7F,0x1A
1.535437750000000,0,0xFF,0x16
1.537388541666667,0,0xB0,0x12
1.537406541666667,0,0xFF,0x12
1.537424750000000,0,0xFF,0x14
1.537449541666667,0,0x87,0x12
1.537467583333333,0,0xFF,0x00
1.537485750000000,0,0xFF,0x0A
1.537506333333333,0,0x03,0x13
1.537524333333333,0,0x00,0x10
1.537542416666667,0,0x32,0x02
1.538371916666667,0,0x07,0x01
1.538389958333333,0,0x00,0x00
1.538408000000000,0,0x1A,0x01
1.538428625000000,0,0x30,0x00
1.538446625000000,0,0x00,0x01
1.538464708333333,0,0xC0,0x01
1.538484916666667,0,0x07,0x81
1.538502958333333,0,0xFF,0x00
1.538521166666667,0,0xFF,0x32
1.538542041666667,0,0x03,0x00
1.538560041666667,0,0x00,0x01
1.538578125000000,0,0xF2,0x01
1.539375708333333,0,0x30,0x92
1.539393750000000,0,0xFF,0x12
1.539411958333333,0,0xFF,0x04
1.541362541666667,0,0xF0,0x12
1.541380541666667,0,0x7F,0x12
1.541398750000000,0,0xFF,0x04
1.543349625000000,0,0xB0,0x12
1.543367666666667,0,0xFF,0x13
1.543385875000000,0,0xFF,0x04
1.545336708333333,0,0xB0,0x13
1.545354708333333,0,0xFF,0x10
1.545372916666667,0,0xFF,0x04
1.547323833333333,0,0xB0,0x13
1.547341833333333,0,0xFF,0x18
1.547360041666667,0,0xFF,0x06
1.549311083333333,0,0xB0,0x12
1.549329083333333,0,0x7F,0x12
1.549347291666667,0,0xFF,0x04
1.551298250000000,0,0xB0,0x12
1.551316291666667,0,0xFF,0x12
1.551334500000000,0,0xFF,0x04
1.553285458333333,0,0xB0,0x12
1.553303500000000,0,0xFF,0x13
1.553321708333333,0,0xFF,0x04
1.555272708333333,0,0xB0,0x12
1.555290750000000,0,0xFF,0x12
1.555308916666667,0,0xFF,0x04
1.557259875000000,0,0x98,0x1A
1.557277916666667,0,0xFF,0x12
1.557296125000000,0,0xFF,0x00
1.559246958333333,0,0xB0,0x12
1.559265000000000,0,0xFF,0x12
1.559283208333333,0,0xFF,0x04
1.561234125000000,0,0xF0,0x12
1.561252125000000,0,0x7F,0x1A
1.561270333333333,0,0xFF,0x04
1.563221208333333,0,0xF0,0x12
1.563239208333333,0,0x7F,0x12
1.563257416666667,0,0xFF,0x04
1.565208250000000,0,0x98,0x10
1.565226291666667,0,0xFF,0x13
1.565244500000000,0,0xFF,0x04
1.567195333333333,0,0xB0,0x12
1.567213375000000,0,0xFF,0x12
1.567231541666667,0,0xFF,0x04
1.569182291666667,0,0x90,0x12
1.569200333333333,0,0xFF,0x12
1.569218541666667,0,0xFF,0x00
1.569243333333333,0,0xC7,0x02
1.569261333333333,0,0xFF,0x00
1.569279541666667,0,0xFF,0x98
1.569300083333333,0,0x87,0x12
1.569318125000000,0,0x00,0x12
1.569336208333333,0,0x14,0x12
1.570165666666667,0,0x07,0x01
1.570183708333333,0,0x00,0x01
1.570201791666667,0,0x14,0x01
1.570222375000000,0,0x34,0x01
1.570240375000000,0,0x00,0x81
1.570258458333333,0,0x80,0x01
1.570278708333333,0,0xC3,0x00
1.570296708333333,0,0xFF,0x00
1.570314916666667,0,0xFF,0x14
1.570335791666667,0,0x07,0x01
1.570353833333333,0,0x00,0x01
1.570371875000000,0,0x1E,0x01
1.571169291666667,0,0x18,0x18
1.571187333333333,0,0xFF,0x02
1.571205541666667,0,0xFF,0x08
1.573156375000000,0,0xF0,0x12
1.573174375000000,0,0x7F,0x12
1.573192583333333,0,0xFF,0x00
1.575143333333333,0,0x98,0x18
1.575161375000000,0,0xFF,0x02
1.575179583333333,0,0xFF,0x0C
1.577130375000000,0,0x98,0x10
1.577148416666667,0,0xFF,0x02
1.577166625000000,0,0xFF,0x08
1.579117458333333,0,0x98,0x1A
1.579135500000000,0,0xFF,0x12
1.579153708333333,0,0xFF,0x08
1.581104541666667,0,0xF0,0x13
1.581122541666667,0,0x7F,0x10
1.581140750000000,0,0xFF,0x08
1.583091666666667,0,0xF0,0x12
1.583109666666667,0,0x7F,0x1A
1.583127875000000,0,0xFF,0x00
1.585078750000000,0,0xF0,0x13
1.585096750000000,0,0xFF,0x10
1.585114958333333,0,0xFF,0x08
1.587065791666667,0,0x98,0x12
1.587083833333333,0,0xFF,0x13
1.587102041666667,0,0xFF,0x08
1.589052791666667,0,0xF0,0x12
1.589070791666667,0,0x7F,0x12
1.589089000000000,0,0xFF,0x00
1.591039875000000,0,0xF0,0x02
1.591057875000000,0,0x7F,0x12
1.591076083333333,0,0xFF,0x00
1.593026958333333,0,0xB0,0x13
1.593044958333333,0,0xFF,0x10
1.593063166666667,0,0xFF,0x08
1.595014083333333,0,0x98,0x1A
1.595032125000000,0,0xFF,0x02
1.595050333333333,0,0xFF,0x08
1.597001041666667,0,0xF0,0x12
1.597019041666667,0,0x7F,0x12
1.597037250000000,0,0xFF,0x00
1.598988166666667,0,0xB0,0x12
1.599006208333333,0,0xFF,0x12
1.599024375000000,0,0xFF,0x08
1.600975291666667,0,0xF0,0x02
1.600993291666667,0,0x7F,0x12
1.601011500000000,0,0xFF,0x00
1.601036333333333,0,0x87,0x12
1.601054333333333,0,0xFF,0x00
1.601072541666667,0,0xFF,0xD4
1.601093083333333,0,0x07,0x10
1.601111125000000,0,0x00,0x12
1.601129166666667,0,0x3C,0x12
1.601958750000000,0,0x07,0x01
1.601976750000000,0,0x80,0x81
1.601994833333333,0,0x3E,0x01
1.602015416666667,0,0x34,0x81
1.602033458333333,0,0x80,0x01
1.602051541666667,0,0x80,0x00
1.602071750000000,0,0x07,0x01
1.602089791666667,0,0xFF,0x00
1.602108000000000,0,0xFF,0x3C
1.602128875000000,0,0x03,0x00
1.602146875000000,0,0x00,0x01
1.602164958333333,0,0xFC,0x01
1.602962583333333,0,0xB0,0x12
1.602980625000000,0,0xFF,0x13
1.602998833333333,0,0xFF,0x18
1.604949625000000,0,0xF0,0x02
1.604967625000000,0,0x7F,0x12
1.604985833333333,0,0xFF,0x18
1.606936833333333,0,0x98,0x10
1.606954875000000,0,0xFF,0x02
1.606973083333333,0,0xFF,0x1C
1.608923958333333,0,0xF0,0x12
1.608941958333333,0,0x7F,0x12
1.608960166666667,0,0xFF,0x18
1.610911125000000,0,0xB0,0x12
1.610929166666667,0,0xFF,0x13
1.610947375000000,0,0xFF,0x18
1.612898416666667,0,0xB0,0x12
1.612916458333333,0,0xFF,0x13
1.612934666666667,0,0xFF,0x18
1.614885666666667,0,0x98,0x10
1.614903708333333,0,0xFF,0x02
1.614921916666667,0,0xFF,0x18
1.616872916666667,0,0x98,0x1A
1.616890958333333,0,0xFF,0x12
1.616909166666667,0,0xFF,0x18
1.618860083333333,0,0x90,0x12
1.618878125000000,0,0xFF,0x12
1.618896333333333,0,0xFF,0x0C
1.620847291666667,0,0xB0,0x12
1.620865333333333,0,0xFF,0x12
1.620883500000000,0,0xFF,0x18
1.622834458333333,0,0xB0,0x13
1.622852458333333,0,0xFF,0x10
1.622870666666667,0,0xFF,0x18
1.624821500000000,0,0xB0,0x12
1.624839541666667,0,0xFF,0x12
1.624857708333333,0,0xFF,0x18
1.626808666666667,0,0xF0,0x02
1.626826666666667,0,0x7F,0x1A
1.626844875000000,0,0xFF,0x18
1.628795833333333,0,0xB0,0x12
1.628813833333333,0,0xFF,0x12
1.628832041666667,0,0xFF,0x18
1.630782958333333,0,0xB0,0x12
1.630801000000000,0,0xFF,0x12
1.630819208333333,0,0xFF,0x18
1.632770166666667,0,0xB0,0x13
1.632788166666667,0,0xFF,0x10
1.632806375000000,0,0xFF,0x18
1.632831166666667,0,0x87,0x1A
1.632849208333333,0,0xFF,0x00
1.632867416666667,0,0xFF,0xBC
1.632887958333333,0,0x07,0x12
1.632906000000000,0,0x00,0x13
1.632924041666667,0,0x1E,0x12
1.633753666666667,0,0x07,0x01
1.633771708333333,0,0x00,0x01
1.633789750000000,0,0x1E,0x01
1.633810375000000,0,0x34,0x01
1.633828375000000,0,0x80,0x01
1.633846458333333,0,0xC0,0x01
1.633866666666667,0,0x07,0x81
1.633884708333333,0,0xFF,0x00
1.633902916666667,0,0xFF,0x1E
1.633923791666667,0,0x07,0x01
1.633941791666667,0,0x80,0x81
1.633959875000000,0,0x9E,0x01
1.634757333333333,0,0x98,0x10
1.634775375000000,0,0xFF,0x02
1.634793583333333,0,0xFF,0x1C
1.636744375000000,0,0xB0,0x12
1.636762375000000,0,0xFF,0x12
1.636780583333333,0,0xFF,0x1C
1.638731375000000,0,0x98,0x18
1.638749416666667,0,0xFF,0x02
1.638767625000000,0,0xFF,0x1C
1.640718666666667,0,0xF0,0x12
1.640736708333333,0,0xFF,0x12
1.640754916666667,0,0xFF,0x1C
1.642706000000000,0,0xB0,0x12
1.642724041666667,0,0xFF,0x12
1.642742250000000,0,0xFF,0x1C
1.644693291666667,0,0xB0,0x12
1.644711333333333,0,0xFF,0x12
1.644729541666667,0,0xFF,0x1C
1.646680375000000,0,0xF0,0x12
1.646698416666667,0,0xFF,0x12
1.646716583333333,0,0xFF,0x1C
1.648667416666667,0,0xB0,0x12
1.648685416666667,0,0x7F,0x12
1.648703625000000,0,0xFF,0x1C
1.650654375000000,0,0xB0,0x12
1.650672416666667,0,0xFF,0x12
1.650690625000000,0,0xFF,0x1C
1.652641416666667,0,0x98,0x1A
1.652659458333333,0,0xFF,0x02
1.652677666666667,0,0xFF,0x1C
1.654628583333333,0,0xB0,0x12
1.654646583333333,0,0xFF,0x12
1.654664791666667,0,0xFF,0x1C
1.656615708333333,0,0xB0,0x12
1.656633708333333,0,0xFF,0x12
1.656651916666667,0,0xFF,0x1C
1.658602791666667,0,0xB0,0x12
1.658620833333333,0,0xFF,0x12
1.658639000000000,0,0xFF,0x1C
1.660589875000000,0,0x98,0x10
1.660607916666667,0,0xFF,0x02
1.660626125000000,0,0xFF,0x1C
1.662577041666667,0,0xB0,0x12
1.662595083333333,0,0xFF,0x12
1.662613250000000,0,0xFF,0x1C
1.664564083333333,0,0xB0,0x12
1.664582083333333,0,0xFF,0x12
1.664600291666667,0,0xFF,0x1C
1.664625083333333,0,0x87,0x10
1.664643125000000,0,0xFF,0x00
1.664661333333333,0,0xFF,0x9E
1.664681875000000,0,0x07,0x12
1.664699916666667,0,0x00,0x12
1.664717958333333,0,0x66,0x12
1.665547500000000,0,0x03,0x00
1.665565500000000,0,0x00,0x01
1.665583583333333,0,0x06,0x01
1.665604166666667,0,0x1C,0x01
1.665622208333333,0,0xC0,0x01
1.665640250000000,0,0x00,0x81
1.665660500000000,0,0x87,0x01
1.665678541666667,0,0xFF,0x00
1.665696750000000,0,0xFF,0x46
1.665717583333333,0,0x87,0x01
1.665735625000000,0,0x00,0x01
1.665753708333333,0,0xC7,0x01
1.666551250000000,0,0xF0,0x02
1.666569250000000,0,0x7F,0x1A
1.666587458333333,0,0xFF,0x0E
1.668538166666667,0,0x98,0x10
1.668556208333333,0,0xFF,0x02
1.668574416666667,0,0xFF,0x0C
1.670525375000000,0,0xB0,0x12
1.670543375000000,0,0xFF,0x12
1.670561583333333,0,0xFF,0x0C
1.672512500000000,0,0xB0,0x12
1.672530541666667,0,0xFF,0x12
1.672548708333333,0,0xFF,0x0C
1.674499583333333,0,0xB0,0x12
1.674517625000000,0,0xFF,0x13
1.674535833333333,0,0xFF,0x0C
1.676486708333333,0,0xB0,0x12
1.676504708333333,0,0xFF,0x12
1.676522916666667,0,0xFF,0x0C
1.678473791666667,0,0xB0,0x12
1.678491791666667,0,0xFF,0x12
1.678510000000000,0,0xFF,0x0C
1.680461000000000,0,0xB0,0x13
1.680479000000000,0,0xFF,0x10
1.680497208333333,0,0xFF,0x0E
1.682448166666667,0,0x98,0x10
1.682466208333333,0,0xFF,0x02
1.682484416666667,0,0xFF,0x0C
1.684435416666667,0,0xF0,0x02
1.684453416666667,0,0x7F,0x12
1.684471625000000,0,0xFF,0x06
1.686422541666667,0,0xB0,0x12
1.686440583333333,0,0xFF,0x12
1.686458791666667,0,0xFF,0x0C
1.688409625000000,0,0x98,0x10
1.688427666666667,0,0xFF,0x13
1.688445875000000,0,0xFF,0x0C
1.690396541666667,0,0x98,0x10
1.690414583333333,0,0xFF,0x13
1.690432791666667,0,0xFF,0x0C
1.692383625000000,0,0x98,0x1A
1.692401666666667,0,0xFF,0x12
1.692419875000000,0,0xFF,0x0C
1.694370791666667,0,0x90,0x12
1.694388833333333,0,0xFF,0x13
1.694407041666667,0,0xFF,0x0C
1.696357750000000,0,0xF0,0x02
1.696375750000000,0,0x7F,0x18
1.696393958333333,0,0xFF,0x0C
1.696418750000000,0,0x87,0x10
1.696436791666667,0,0xFF,0x00
1.696455000000000,0,0xFF,0xC6
1.696475541666667,0,0x03,0x13
1.696493541666667,0,0x80,0x10
1.696511625000000,0,0x00,0x02
1.697341041666667,0,0x03,0x01
1.697359041666667,0,0x80,0x01
1.697377125000000,0,0x00,0x01
1.697397708333333,0,0x1E,0x01
1.697415750000000,0,0xC0,0x01
1.697433791666667,0,0x00,0x01
1.697454041666667,0,0x87,0x01
1.697472041666667,0,0xFF,0x80
1.697490250000000,0,0xFF,0x00
1.697511125000000,0,0x07,0x01
1.697529166666667,0,0x00,0x00
1.697547208333333,0,0x00,0x01
1.698344791666667,0,0xF0,0x02
1.698362791666667,0,0x7F,0x18
1.698381000000000,0,0xFF,0x00
1.700331625000000,0,0xF0,0x12
1.700349625000000,0,0x7F,0x12
1.700367833333333,0,0xFF,0x00
1.702318833333333,0,0xB0,0x12
1.702336875000000,0,0xFF,0x12
1.702355083333333,0,0xFF,0x00
1.704306083333333,0,0xF0,0x02
1.704324083333333,0,0x7F,0x1A
1.704342291666667,0,0xFF,0x00
1.706293083333333,0,0xB0,0x12
1.706311125000000,0,0xFF,0x12
1.706329333333333,0,0xFF,0x00
1.708280208333333,0,0xF0,0x12
1.708298208333333,0,0x7F,0x12
1.708316416666667,0,0xFF,0x00
1.710267208333333,0,0xF0,0x12
1.710285208333333,0,0x7F,0x18
1.710303416666667,0,0xFF,0x00
1.712254291666667,0,0xB0,0x13
1.712272291666667,0,0xFF,0x10
1.712290500000000,0,0xFF,0x00
1.714241416666667,0,0xF0,0x13
1.714259416666667,0,0xFF,0x10
1.714277625000000,0,0xFF,0x00
1.716228583333333,0,0x98,0x1A
1.716246625000000,0,0xFF,0x12
1.716264833333333,0,0xFF,0x00
1.718215833333333,0,0xF0,0x02
1.718233833333333,0,0x7F,0x12
1.718252041666667,0,0xFF,0x00
1.720202875000000,0,0xB0,0x12
1.720220916666667,0,0xFF,0x12
1.720239083333333,0,0xFF,0x00
1.722189958333333,0,0x98,0x1A
1.722208000000000,0,0xFF,0x12
1.722226208333333,0,0xFF,0x00
1.724177166666667,0,0xF0,0x13
1.724195166666667,0,0x7F,0x1A
1.724213375000000,0,0xFF,0x00
1.726164291666667,0,0xF0,0x12
1.726182291666667,0,0x7F,0x1A
1.726200500000000,0,0xFF,0x00
1.728151458333333,0,0xB0,0x12
1.728169500000000,0,0xFF,0x12
1.728187708333333,0,0xFF,0x00
1.728212500000000,0,0x87,0x12
1.728230541666667,0,0xFF,0x00
1.728248708333333,0,0xFF,0x00
1.728269291666667,0,0x03,0x13
1.728287291666667,0,0x80,0x10
1.728305375000000,0,0x28,0x12
1.729135000000000,0,0x03,0x01
1.729153000000000,0,0x00,0x01
1.729171083333333,0,0x28,0x01
1.729191666666667,0,0x1C,0x01
1.729209708333333,0,0xC0,0x01
1.729227750000000,0,0x00,0x81
1.729248000000000,0,0x07,0x01
1.729266041666667,0,0xFF,0x00
1.729284250000000,0,0xFF,0x28
1.729305125000000,0,0x07,0x01
1.729323125000000,0,0x00,0x01
1.729341208333333,0,0xFC,0x00
1.730138625000000,0,0xF0,0x12
1.730156625000000,0,0x7F,0x1A
1.730174833333333,0,0xFF,0x10
1.732125750000000,0,0xB0,0x13
1.732143750000000,0,0xFF,0x10
1.732161958333333,0,0xFF,0x10
1.734112916666667,0,0x98,0x10
1.734130958333333,0,0xFF,0x02
1.734149166666667,0,0xFF,0x10
1.736100125000000,0,0xF0,0x12
1.736118125000000,0,0x7F,0x12
1.736136333333333,0,0xFF,0x18
1.738087250000000,0,0xB0,0x13
1.738105250000000,0,0xFF,0x10
1.738123458333333,0,0xFF,0x10
1.740074500000000,0,0xB0,0x12
1.740092541666667,0,0xFF,0x10
1.740110750000000,0,0xFF,0x10
1.742061750000000,0,0xF0,0x12
1.742079791666667,0,0xFF,0x12
1.742097958333333,0,0xFF,0x10
1.744048916666667,0,0xF0,0x02
1.744066916666667,0,0x7F,0x12
1.744085125000000,0,0xFF,0x10
1.746036166666667,0,0xB0,0x12
1.746054208333333,0,0xFF,0x12
1.746072416666667,0,0xFF,0x10
1.748023375000000,0,0xB0,0x12
1.748041416666667,0,0xFF,0x12
1.748059583333333,0,0xFF,0x18
1.750010375000000,0,0x90,0x12
1.750028416666667,0,0xFF,0x12
1.750046625000000,0,0xFF,0x00
1.751997583333333,0,0xB0,0x12
1.752015625000000,0,0xFF,0x13
1.752033833333333,0,0xFF,0x10
1.753984833333333,0,0xF0,0x13
1.754002833333333,0,0x7F,0x1A
1.754021041666667,0,0xFF,0x10
1.755972041666667,0,0xB0,0x12
1.755990083333333,0,0xFF,0x12
1.756008250000000,0,0xFF,0x10
1.757959208333333,0,0x90,0x12
1.757977250000000,0,0xFF,0x12
1.757995458333333,0,0xFF,0x10
1.759946500000000,0,0xF0,0x02
1.759964500000000,0,0x7F,0x1A
1.759982708333333,0,0xFF,0x10
1.760007500000000,0,0x87,0x12
1.760025541666667,0,0xFF,0x00
1.760043750000000,0,0xFF,0xBC
1.760064291666667,0,0x07,0x12
1.760082333333333,0,0x00,0x12
1.760100375000000,0,0x00,0x18
1.760930000000000,0,0x07,0x01
1.760948000000000,0,0x80,0x81
1.760966083333333,0,0x00,0x01
1.760986708333333,0,0x30,0x00
1.761004708333333,0,0x00,0x01
1.761022791666667,0,0x80,0x01
1.761043041666667,0,0xC3,0x01
1.761061041666667,0,0xFF,0x80
1.761079250000000,0,0xFF,0x02
1.761100125000000,0,0x07,0x01
1.761118166666667,0,0x00,0x01
1.761136208333333,0,0x0A,0x81
1.761933708333333,0,0x30,0x92
1.761951750000000,0,0xFF,0x12
1.761969958333333,0,0xFF,0x14
1.763920875000000,0,0x90,0x12
1.763938916666667,0,0xFF,0x12
1.763957125000000,0,0xFF,0x00
1.765908041666667,0,0xB0,0x12
1.765926083333333,0,0xFF,0x12
1.765944291666667,0,0xFF,0x00
1.767895250000000,0,0x98,0x1A
1.767913291666667,0,0xFF,0x12
1.767931500000000,0,0xFF,0x14
1.769882541666667,0,0xF0,0x12
1.769900583333333,0,0xFF,0x12
1.769918750000000,0,0xFF,0x14
1.771869875000000,0,0xB0,0x12
1.771887916666667,0,0xFF,0x12
1.771906125000000,0,0xFF,0x14
1.773857250000000,0,0x98,0x10
1.773875291666667,0,0xFF,0x02
1.773893500000000,0,0xFF,0x04
1.775844625000000,0,0xF0,0x12
1.775862625000000,0,0x7F,0x1A
1.775880833333333,0,0xFF,0x16
1.777831833333333,0,0xB0,0x12
1.777849875000000,0,0xFF,0x13
1.777868083333333,0,0xFF,0x14
1.779819125000000,0,0x98,0x10
1.779837166666667,0,0xFF,0x02
1.779855375000000,0,0xFF,0x10
1.781806458333333,0,0xB0,0x12
1.781824500000000,0,0xFF,0x13
1.781842708333333,0,0xFF,0x14
1.783793708333333,0,0xB0,0x12
1.783811750000000,0,0xFF,0x12
1.783829958333333,0,0xFF,0x14
1.785780875000000,0,0xB0,0x13
1.785798875000000,0,0x7F,0x10
1.785817083333333,0,0xFF,0x14
1.787768041666667,0,0x90,0x12
1.787786083333333,0,0xFF,0x12
1.787804250000000,0,0xFF,0x14
1.789755125000000,0,0xF0,0x13
1.789773125000000,0,0x7F,0x18
1.789791333333333,0,0xFF,0x16
1.791742250000000,0,0xB0,0x12
1.791760250000000,0,0x7F,0x12
1.791778458333333,0,0xFF,0x14
1.791803291666667,0,0x83,0x12
1.791821291666667,0,0xFF,0x00
1.791839500000000,0,0xFF,0x8A
1.791860041666667,0,0x87,0x12
1.791878083333333,0,0x00,0x12
1.791896166666667,0,0x33,0x12
1.792725750000000,0,0x07,0x01
1.792743791666667,0,0x00,0x00
1.792761833333333,0,0x1A,0x01
1.792782458333333,0,0x30,0x00
1.792800458333333,0,0x00,0x01
1.792818541666667,0,0xC0,0x01
1.792838791666667,0,0x83,0x00
1.792856791666667,0,0xFF,0x00
1.792875000000000,0,0xFF,0x30
1.792895875000000,0,0x07,0x01
1.792913916666667,0,0x00,0x01
1.792931958333333,0,0x32,0x81
1.793729666666667,0,0xF0,0x02
1.793747666666667,0,0x7F,0x1A
1.793765875000000,0,0xFF,0x06
1.795716583333333,0,0x98,0x10
1.795734625000000,0,0xFF,0x13
1.795752833333333,0,0xFF,0x04
1.797703791666667,0,0xB0,0x12
1.797721833333333,0,0xFF,0x12
1.797740000000000,0,0xFF,0x04
1.799690875000000,0,0xF0,0x02
1.799708875000000,0,0x7F,0x12
1.799727083333333,0,0xFF,0x06
1.801678000000000,0,0xB0,0x12
1.801696000000000,0,0xFF,0x12
1.801714208333333,0,0xFF,0x04
1.803665125000000,0,0xF0,0x13
1.803683125000000,0,0x7F,0x1A
1.803701333333333,0,0xFF,0x06
1.805652375000000,0,0xF0,0x12
1.805670416666667,0,0xFF,0x12
1.805688583333333,0,0xFF,0x04
1.807639625000000,0,0xB0,0x12
1.807657666666667,0,0xFF,0x12
1.807675875000000,0,0xFF,0x04
1.809627000000000,0,0x98,0x18
1.809645041666667,0,0xFF,0x02
1.809663250000000,0,0xFF,0x00
1.811614166666667,0,0xB0,0x12
1.811632208333333,0,0xFF,0x12
1.811650375000000,0,0xFF,0x04
1.813601250000000,0,0x98,0x1A
1.813619291666667,0,0xFF,0x12
1.813637500000000,0,0xFF,0x00
1.815588333333333,0,0xB0,0x12
1.815606375000000,0,0xFF,0x13
1.815624583333333,0,0xFF,0x04
1.817575500000000,0,0xB0,0x12
1.817593500000000,0,0xFF,0x12
1.817611708333333,0,0xFF,0x04
1.819562750000000,0,0xF0,0x02
1.819580750000000,0,0x7F,0x12
1.819598958333333,0,0xFF,0x04
1.821549958333333,0,0xB0,0x12
1.821567958333333,0,0xFF,0x12
1.821586166666667,0,0xFF,0x04
1.823537041666667,0,0xB0,0x12
1.823555041666667,0,0xFF,0x12
1.823573250000000,0,0xFF,0x04
1.823598041666667,0,0x87,0x12
1.823616083333333,0,0xFF,0x00
1.823634291666667,0,0xFF,0xB3
1.823654833333333,0,0x07,0x12
1.823672833333333,0,0x80,0x12
1.823690916666667,0,0x16,0x12
1.824520500000000,0,0x07,0x01
1.824538541666667,0,0x00,0x01
1.824556625000000,0,0x14,0x01
1.824577208333333,0,0x34,0x01
1.824595208333333,0,0x00,0x81
1.824613291666667,0,0x00,0x01
1.824633541666667,0,0xC7,0x01
1.824651583333333,0,0xFF,0x00
1.824669750000000,0,0xFF,0x14
1.824690625000000,0,0x87,0x01
1.824708666666667,0,0x00,0x01
1.824726708333333,0,0x14,0x81
1.825524416666667,0,0x98,0x12
1.825542458333333,0,0xFF,0x12
1.825560666666667,0,0xFF,0x08
1.827511416666667,0,0xB0,0x12
1.827529458333333,0,0xFF,0x12
1.827547666666667,0,0xFF,0x08
1.829498708333333,0,0xB0,0x12
1.829516750000000,0,0xFF,0x12
1.829534958333333,0,0xFF,0x08
1.831486041666667,0,0xF0,0x02
1.831504041666667,0,0x7F,0x12
1.831522250000000,0,0xFF,0x08
1.833473208333333,0,0x98,0x10
1.833491250000000,0,0xFF,0x02
1.833509458333333,0,0xFF,0x08
1.835460333333333,0,0xB0,0x12
1.835478333333333,0,0xFF,0x12
1.835496541666667,0,0xFF,0x08
1.837447541666667,0,0x98,0x10
1.837465583333333,0,0xFF,0x02
1.837483791666667,0,0xFF,0x08
1.839434875000000,0,0xF0,0x13
1.839452875000000,0,0x7F,0x18
1.839471083333333,0,0xFF,0x08
1.841422166666667,0,0xB0,0x13
1.841440166666667,0,0xFF,0x10
1.841458375000000,0,0xFF,0x08
1.843409208333333,0,0xB0,0x12
1.843427250000000,0,0xFF,0x12
1.843445458333333,0,0xFF,0x08
1.845396375000000,0,0x98,0x10
1.845414416666667,0,0xFF,0x02
1.845432625000000,0,0xFF,0x08
1.847383583333333,0,0xF0,0x02
1.847401583333333,0,0x7F,0x12
1.847419791666667,0,0xFF,0x00
1.849370875000000,0,0xB0,0x12
1.849388916666667,0,0xFF,0x12
1.849407125000000,0,0xFF,0x08
1.851358250000000,0,0xF0,0x12
1.851376250000000,0,0x7F,0x12
1.851394458333333,0,0xFF,0x00
1.853345583333333,0,0xB0,0x13
1.853363583333333,0,0x7F,0x1A
1.853381791666667,0,0xFF,0x00
1.855332833333333,0,0x98,0x1A
1.855350875000000,0,0xFF,0x12
1.855369083333333,0,0xFF,0x0C
1.855393875000000,0,0x87,0x12
1.855411875000000,0,0xFF,0x00
1.855430083333333,0,0xFF,0x9C
1.855450666666667,0,0x03,0x12
1.855468666666667,0,0x00,0x12
1.855486750000000,0,0x3C,0x02
1.856316375000000,0,0x03,0x01
1.856334375000000,0,0x80,0x01
1.856352458333333,0,0x3C,0x01
1.856373041666667,0,0x34,0x81
1.856391083333333,0,0x80,0x01
1.856409166666667,0,0xC0,0x01
1.856429375000000,0,0x07,0x81
1.856447416666667,0,0xFF,0x00
1.856465625000000,0,0xFF,0x3C
1.856486500000000,0,0x07,0x01
1.856504541666667,0,0x00,0x01
1.856522583333333,0,0x3C,0x81
1.857320375000000,0,0xB0,0x13
1.857338375000000,0,0x7F,0x12
1.857356583333333,0,0xFF,0x18
1.859307583333333,0,0x98,0x1A
1.859325625000000,0,0xFF,0x12
1.859343833333333,0,0xFF,0x0C
1.861294833333333,0,0xF0,0x02
1.861312833333333,0,0x7F,0x12
1.861331041666667,0,0xFF,0x18
1.863282166666667,0,0xB0,0x12
1.863300208333333,0,0xFF,0x13
1.863318416666667,0,0xFF,0x18
1.865269541666667,0,0xB0,0x13
1.865287541666667,0,0x7F,0x18
1.865305750000000,0,0xFF,0x18
1.867256958333333,0,0x98,0x10
1.867275000000000,0,0xFF,0x02
1.867293208333333,0,0xFF,0x18
1.869244250000000,0,0xB0,0x12
1.869262291666667,0,0xFF,0x12
1.869280500000000,0,0xFF,0x18
1.871231541666667,0,0xB0,0x12
1.871249583333333,0,0xFF,0x12
1.871267791666667,0,0xFF,0x18
1.873219000000000,0,0x98,0x1A
1.873237041666667,0,0xFF,0x12
1.873255250000000,0,0xFF,0x18
1.875206333333333,0,0xB0,0x12
1.875224375000000,0,0xFF,0x12
1.875242583333333,0,0xFF,0x18
1.877193791666667,0,0xB0,0x12
1.877211833333333,0,0xFF,0x12
1.877230041666667,0,0xFF,0x18
1.879181041666667,0,0xB0,0x12
1.879199083333333,0,0xFF,0x12
1.879217291666667,0,0xFF,0x18
1.881168333333333,0,0xB0,0x12
1.881186375000000,0,0xFF,0x12
1.881204583333333,0,0xFF,0x18
1.883155625000000,0,0xB0,0x12
1.883173625000000,0,0xFF,0x12
1.883191833333333,0,0xFF,0x18
1.885142708333333,0,0x90,0x12
1.885160750000000,0,0xFF,0x12
1.885178958333333,0,0xFF,0x08
1.887129833333333,0,0x98,0x1A
1.887147875000000,0,0xFF,0x12
1.887166083333333,0,0xFF,0x08
1.887190875000000,0,0x87,0x12
1.887208916666667,0,0xFF,0x00
1.887227125000000,0,0xFF,0xBC
1.887247666666667,0,0x07,0x12
1.887265708333333,0,0x00,0x12
1.887283750000000,0,0x1E,0x10
1.888113333333333,0,0x03,0x00
1.888131333333333,0,0x00,0x01
1.888149416666667,0,0x0E,0x01
1.888170000000000,0,0x1E,0x01
1.888188041666667,0,0xC0,0x01
1.888206083333333,0,0x00,0x81
1.888226333333333,0,0x87,0x01
1.888244375000000,0,0xFF,0x00
1.888262583333333,0,0xFF,0x1E
1.888283416666667,0,0x87,0x01
1.888301458333333,0,0x00,0x01
1.888319541666667,0,0x9F,0x01
1.889117166666667,0,0xF0,0x02
1.889135166666667,0,0x7F,0x12
1.889153375000000,0,0xFF,0x1E
1.891104083333333,0,0xF0,0x02
1.891122083333333,0,0x7F,0x12
1.891140291666667,0,0xFF,0x1C
1.893091250000000,0,0x90,0x12
1.893109291666667,0,0xFF,0x13
1.893127500000000,0,0xFF,0x1C
1.895078500000000,0,0x98,0x1A
1.895096541666667,0,0xFF,0x12
1.895114750000000,0,0xFF,0x0C
1.897065750000000,0,0x98,0x10
1.897083791666667,0,0xFF,0x02
1.897102000000000,0,0xFF,0x1C
1.899053166666667,0,0xB0,0x12
1.899071166666667,0,0xFF,0x10
1.899089375000000,0,0xFF,0x1C
1.901040541666667,0,0xF0,0x02
1.901058541666667,0,0x7F,0x12
1.901076750000000,0,0xFF,0x1C
1.903027958333333,0,0xF0,0x12
1.903045958333333,0,0x7F,0x12
1.903064166666667,0,0xFF,0x1C
1.905015375000000,0,0x98,0x12
1.905033416666667,0,0xFF,0x02
1.905051625000000,0,0xFF,0x1C
1.907002583333333,0,0xB0,0x12
1.907020625000000,0,0xFF,0x12
1.907038833333333,0,0xFF,0x0C
1.908989791666667,0,0xB0,0x12
1.909007791666667,0,0xFF,0x10
1.909026000000000,0,0xFF,0x1C
1.910976875000000,0,0x90,0x12
1.910994916666667,0,0xFF,0x13
1.911013125000000,0,0xFF,0x1C
1.912964041666667,0,0xF0,0x13
1.912982041666667,0,0x7F,0x1A
1.913000250000000,0,0xFF,0x1E
1.914951166666667,0,0x98,0x10
1.914969208333333,0,0xFF,0x02
1.914987416666667,0,0xFF,0x1C
1.916938250000000,0,0x90,0x12
1.916956291666667,0,0xFF,0x12
1.916974500000000,0,0xFF,0x1C
1.918925375000000,0,0xB0,0x12
1.918943375000000,0,0xFF,0x10
1.918961583333333,0,0xFF,0x1C
1.918986375000000,0,0x87,0x18
1.919004416666667,0,0xFF,0x00
1.919022625000000,0,0xFF,0x9F
1.919043166666667,0,0x07,0x12
1.919061166666667,0,0x80,0x12
1.919079250000000,0,0x46,0x12
1.919908833333333,0,0x07,0x01
1.919926875000000,0,0x00,0x01
1.919944916666667,0,0x47,0x81
1.919965541666667,0,0x34,0x01
1.919983541666667,0,0x00,0x81
1.920001625000000,0,0x80,0x01
1.920021875000000,0,0xC3,0x01
1.920039875000000,0,0xFF,0x00
1.920058083333333,0,0xFF,0x46
1.920078958333333,0,0x07,0x01
1.920097000000000,0,0x00,0x01
1.920115041666667,0,0x46,0x81
1.920912541666667,0,0xB0,0x12
1.920930583333333,0,0xFF,0x12
1.920948750000000,0,0xFF,0x0C
1.922899750000000,0,0xB0,0x12
1.922917791666667,0,0xFF,0x12
1.922936000000000,0,0xFF,0x0C
1.924887000000000,0,0xB0,0x12
1.924905041666667,0,0xFF,0x12
1.924923208333333,0,0xFF,0x0C
1.926874250000000,0,0x98,0x1A
1.926892291666667,0,0xFF,0x12
1.926910500000000,0,0xFF,0x0C
1.928861583333333,0,0xB0,0x12
1.928879625000000,0,0xFF,0x12
1.928897791666667,0,0xFF,0x0C
1.930848750000000,0,0xB0,0x12
1.930866750000000,0,0xFF,0x12
1.930884958333333,0,0xFF,0x0C
1.932835916666667,0,0xB0,0x12
1.932853958333333,0,0xFF,0x12
1.932872125000000,0,0xFF,0x0C
1.934822958333333,0,0xF0,0x02
1.934840958333333,0,0x7F,0x12
1.934859166666667,0,0xFF,0x06
1.936809958333333,0,0x98,0x12
1.936828000000000,0,0xFF,0x13
1.936846208333333,0,0xFF,0x0C
1.938797041666667,0,0xB0,0x13
1.938815041666667,0,0xFF,0x10
1.938833250000000,0,0xFF,0x0C
1.940784125000000,0,0xF0,0x02
1.940802125000000,0,0x7F,0x12
1.940820333333333,0,0xFF,0x04
1.942771250000000,0,0xB0,0x12
1.942789291666667,0,0xFF,0x13
1.942807500000000,0,0xFF,0x0C
1.944758333333333,0,0x98,0x10
1.944776375000000,0,0xFF,0x12
1.944794583333333,0,0xFF,0x0C
1.946745458333333,0,0xB0,0x12
1.946763500000000,0,0xFF,0x12
1.946781666666667,0,0xFF,0x0C
1.948732500000000,0,0xF0,0x12
1.948750500000000,0,0x7F,0x12
1.948768708333333,0,0xFF,0x04
1.950719708333333,0,0xB0,0x12
1.950737708333333,0,0xFF,0x12
1.950755916666667,0,0xFF,0x0C
1.950780708333333,0,0x87,0x10
1.950798750000000,0,0xFF,0x00
1.950816958333333,0,0xFF,0xC7
1.950837500000000,0,0x07,0x12
1.950855541666667,0,0x00,0x13
1.950873583333333,0,0x00,0x1A
1.951703208333333,0,0x03,0x01
1.951721208333333,0,0x80,0x01
1.951739291666667,0,0x00,0x01
1.951759875000000,0,0x1C,0x01
1.951777916666667,0,0xC0,0x01
1.951796000000000,0,0x80,0x00
1.951816208333333,0,0x07,0x01
1.951834250000000,0,0xFF,0x00
1.951852458333333,0,0xFF,0x00
1.951873333333333,0,0x03,0x00
1.951891333333333,0,0x80,0x01
1.951909416666667,0,0x80,0x01
1.952707083333333,0,0xF0,0x12
1.952725083333333,0,0x7F,0x12
1.952743291666667,0,0xFF,0x00
1.954693958333333,0,0xF0,0x12
1.954711958333333,0,0x7F,0x12
1.954730166666667,0,0xFF,0x00
1.956680958333333,0,0xB0,0x12
1.956699000000000,0,0xFF,0x12
1.956717208333333,0,0xFF,0x00
1.958668083333333,0,0xB0,0x12
1.958686125000000,0,0xFF,0x12
1.958704333333333,0,0xFF,0x00
1.960655250000000,0,0xB0,0x12
1.960673291666667,0,0xFF,0x13
1.960691500000000,0,0xFF,0x00
1.962642416666667,0,0xB0,0x12
1.962660458333333,0,0xFF,0x12
1.962678625000000,0,0xFF,0x00
1.964629416666667,0,0xB0,0x12
1.964647458333333,0,0xFF,0x12
1.964665666666667,0,0xFF,0x00
1.966616500000000,0,0xB0,0x12
1.966634500000000,0,0xFF,0x12
1.966652708333333,0,0xFF,0x00
1.968603500000000,0,0xB0,0x12
1.968621541666667,0,0xFF,0x12
1.968639750000000,0,0xFF,0x00
1.970590458333333,0,0xB0,0x12
1.970608500000000,0,0xFF,0x12
1.970626666666667,0,0xFF,0x00
1.972577375000000,0,0xB0,0x12
1.972595375000000,0,0xFF,0x12
1.972613583333333,0,0xFF,0x00
1.974564166666667,0,0xB0,0x12
1.974582208333333,0,0xFF,0x12
1.974600375000000,0,0xFF,0x00
1.976551125000000,0,0x90,0x12
1.976569166666667,0,0xFF,0x12
1.976587333333333,0,0xFF,0x00
1.978538041666667,0,0xF0,0x02
1.978556041666667,0,0x7F,0x12
1.978574250000000,0,0xFF,0x00
1.980525000000000,0,0x98,0x18
1.980543041666667,0,0xFF,0x02
1.980561250000000,0,0xFF,0x00
1.982511958333333,0,0xF0,0x02
1.982529958333333,0,0x7F,0x12
1.982548166666667,0,0xFF,0x00
1.982572958333333,0,0x87,0x1A
1.982591000000000,0,0xFF,0x00
1.982609208333333,0,0xFF,0x80
1.982629750000000,0,0x07,0x12
1.982647750000000,0,0x80,0x12
1.982665833333333,0,0x20,0x12
1.983495333333333,0,0x03,0x00
1.983513333333333,0,0x00,0x01
1.983531416666667,0,0x38,0x01
1.983552000000000,0,0x1E,0x01
1.983570041666667,0,0xC0,0x01
1.983588083333333,0,0x00,0x81
1.983608333333333,0,0x87,0x01
1.983626375000000,0,0xFF,0x00
1.983644541666667,0,0xFF,0x08
1.983665416666667,0,0x07,0x01
1.983683458333333,0,0x00,0x00
1.983701500000000,0,0x00,0x01
1.984499041666667,0,0x18,0x1A
1.984517083333333,0,0xFF,0x02
1.984535291666667,0,0xFF,0x10
1.986485833333333,0,0x98,0x10
1.986503875000000,0,0xFF,0x13
1.986522083333333,0,0xFF,0x10
1.988472791666667,0,0xF0,0x13
1.988490791666667,0,0x7F,0x18
1.988509000000000,0,0xFF,0x10
1.990459708333333,0,0xF0,0x13
1.990477708333333,0,0x7F,0x10
1.990495916666667,0,0xFF,0x10
1.992446625000000,0,0xB0,0x12
1.992464666666667,0,0xFF,0x12
1.992482833333333,0,0xFF,0x10
1.994433541666667,0,0xB0,0x12
1.994451541666667,0,0xFF,0x12
1.994469750000000,0,0xFF,0x10
1.996420541666667,0,0xF0,0x02
1.996438541666667,0,0x7F,0x12
1.996456750000000,0,0xFF,0x10
1.998407583333333,0,0xB0,0x12
1.998425583333333,0,0x7F,0x12
1.998443791666667,0,0xFF,0x18
2.000394541666667,0,0xB0,0x12
2.000412541666666,0,0xFF,0x12
2.000430750000000,0,0xFF,0x10
2.002381500000000,0,0xB0,0x12
2.002399541666667,0,0xFF,0x12
2.002417708333333,0,0xFF,0x18
2.004368458333333,0,0x98,0x12
2.004386500000000,0,0xFF,0x13
2.004404708333333,0,0xFF,0x10
2.006355500000000,0,0xB0,0x12
2.006373500000000,0,0xFF,0x12
2.006391708333333,0,0xFF,0x10
2.008342583333333,0,0xF0,0x13
2.008360583333333,0,0x7F,0x10
2.008378791666667,0,0xFF,0x10
2.010329583333333,0,0xB0,0x12
2.010347583333334,0,0xFF,0x12
2.010365791666667,0,0xFF,0x10
2.012316541666667,0,0x98,0x10
2.012334583333333,0,0xFF,0x12
2.012352791666667,0,0xFF,0x10
2.014303625000000,0,0xF0,0x02
2.014321625000000,0,0x7F,0x12
2.014339833333334,0,0xFF,0x18
2.014364666666667,0,0x87,0x12
2.014382666666667,0,0xFF,0x00
2.014400875000000,0,0xFF,0xA8
2.014421416666667,0,0x87,0x10
2.014439458333333,0,0x00,0x02
2.014457500000000,0,0x0A,0x12
2.015287125000000,0,0x07,0x01
2.015305166666667,0,0x00,0x01
2.015323250000000,0,0x0F,0x00
2.015343833333333,0,0x36,0x01
2.015361875000000,0,0x80,0x00
2.015379916666667,0,0x00,0x01
2.015400166666667,0,0x87,0x01
2.015418208333333,0,0xFF,0x00
2.015436375000000,0,0xFF,0x0A
2.015457250000000,0,0x87,0x01
2.015475291666667,0,0x00,0x01
2.015493375000000,0,0x8F,0x00
2.016291000000000,0,0x18,0x1A
2.016309041666667,0,0xFF,0x12
2.016327250000000,0,0xFF,0x00
2.018277833333333,0,0x98,0x10
2.018295875000000,0,0xFF,0x02
2.018314083333333,0,0xFF,0x14
2.020264833333334,0,0xB0,0x12
2.020282875000000,0,0xFF,0x12
2.020301041666666,0,0xFF,0x14
2.022251750000000,0,0x98,0x10
2.022269791666667,0,0xFF,0x12
2.022288000000000,0,0xFF,0x14
2.024238708333333,0,0xB0,0x12
2.024256750000000,0,0xFF,0x12
2.024274916666667,0,0xFF,0x14
2.026225708333333,0,0xB0,0x12
2.026243708333333,0,0xFF,0x12
2.026261916666667,0,0xFF,0x14
2.028212833333333,0,0x98,0x10
2.028230875000000,0,0xFF,0x02
2.028249083333333,0,0xFF,0x14
2.030199916666667,0,0xF0,0x02
2.030217916666667,0,0x7F,0x18
2.030236125000000,0,0xFF,0x14
2.032186958333333,0,0xF0,0x02
2.032204958333333,0,0x7F,0x18
2.032223166666667,0,0xFF,0x14
2.034174000000000,0,0x98,0x1A
2.034192041666667,0,0xFF,0x02
2.034210250000000,0,0xFF,0x14
2.036161000000000,0,0x98,0x1A
2.036179041666667,0,0xFF,0x02
2.036197250000000,0,0xFF,0x14
2.038147958333334,0,0x98,0x12
2.038166000000000,0,0xFF,0x13
2.038184208333333,0,0xFF,0x14
2.040134916666667,0,0xB0,0x12
2.040152958333334,0,0xFF,0x12
2.040171125000000,0,0xFF,0x14
2.042122000000000,0,0xB0,0x12
2.042140041666667,0,0xFF,0x12
2.042158250000000,0,0xFF,0x00
2.044108958333333,0,0x98,0x12
2.044127000000000,0,0xFF,0x13
2.044145208333333,0,0xFF,0x14
2.046095916666667,0,0xF0,0x02
2.046113916666667,0,0x7F,0x1A
2.046132125000000,0,0xFF,0x1E
2.046156916666667,0,0x87,0x12
2.046174958333333,0,0xFF,0x00
2.046193166666667,0,0xFF,0xCA
2.046213708333333,0,0x07,0x12
2.046231750000000,0,0x00,0x13
2.046249791666667,0,0x12,0x12
2.047079291666666,0,0x03,0x01
2.047097291666667,0,0x00,0x01
2.047115375000000,0,0x33,0x00
2.047135958333334,0,0x3E,0x01
2.047154000000000,0,0x80,0x00
2.047172041666667,0,0x00,0x01
2.047192291666667,0,0x87,0x01
2.047210291666667,0,0xFF,0x80
2.047228500000000,0,0xFF,0x12
2.047249375000000,0,0x87,0x01
2.047267416666667,0,0x00,0x01
2.047285458333334,0,0x32,0x81
2.048082916666667,0,0xB0,0x12
2.048100916666667,0,0xFF,0x12
2.048119125000000,0,0xFF,0x04
2.050069833333333,0,0xB0,0x12
2.050087875000000,0,0xFF,0x12
2.050106041666667,0,0xFF,0x04
2.052056750000000,0,0xB0,0x12
2.052074791666667,0,0xFF,0x12
2.052092958333333,0,0xFF,0x04
2.054043750000000,0,0xB0,0x12
2.054061750000000,0,0x7F,0x12
2.054079958333333,0,0xFF,0x04
2.056030750000000,0,0xF0,0x02
2.056048750000000,0,0x7F,0x1A
2.056066958333334,0,0xFF,0x06
2.058017750000000,0,0xB0,0x12
2.058035750000000,0,0xFF,0x12
2.058053958333333,0,0xFF,0x04
2.060004583333333,0,0xB0,0x12
2.060022625000000,0,0xFF,0x12
2.060040833333333,0,0xFF,0x00
2.061991500000000,0,0xF0,0x12
2.062009500000000,0,0x7F,0x12
2.062027708333333,0,0xFF,0x06
2.063978416666667,0,0xB0,0x12
2.063996458333333,0,0xFF,0x12
2.064014625000000,0,0xFF,0x04
2.065965416666667,0,0xF0,0x12
2.065983458333333,0,0xFF,0x12
2.066001625000000,0,0xFF,0x04
2.067952458333334,0,0x98,0x1A
2.067970500000000,0,0xFF,0x12
2.067988708333333,0,0xFF,0x00
2.069939625000000,0,0x98,0x1A
2.069957666666667,0,0xFF,0x12
2.069975875000000,0,0xFF,0x04
2.071926833333333,0,0xB0,0x12
2.071944833333333,0,0xFF,0x10
2.071963041666667,0,0xFF,0x04
2.073913916666667,0,0xF0,0x13
2.073931916666667,0,0x7F,0x1A
2.073950125000000,0,0xFF,0x04
2.075901083333333,0,0xF0,0x02
2.075919083333333,0,0x7F,0x12
2.075937291666667,0,0xFF,0x06
2.077888166666667,0,0xB0,0x12
2.077906208333333,0,0xFF,0x13
2.077924416666667,0,0xFF,0x04
2.077949208333334,0,0xC3,0x13
2.077967208333333,0,0xFF,0x00
2.077985416666666,0,0xFF,0xB2
2.078005958333333,0,0x87,0x12
2.078024000000000,0,0x00,0x12
2.078042083333334,0,0x00,0x13
2.078871708333333,0,0x03,0x01
2.078889708333334,0,0x80,0x01
2.078907791666667,0,0x16,0x01
2.078928375000000,0,0x34,0x81
2.078946416666667,0,0x80,0x01
2.078964500000000,0,0xC0,0x00
2.078984708333333,0,0x07,0x81
2.079002750000000,0,0xFF,0x00
2.079020958333333,0,0xFF,0x14
2.079041833333333,0,0x03,0x01
2.079059833333333,0,0x80,0x01
2.079077916666667,0,0x94,0x01
2.079875458333333,0,0xB0,0x13
2.079893458333333,0,0x7F,0x1A
2.079911666666667,0,0xFF,0x08
2.081862750000000,0,0xF0,0x02
2.081880750000000,0,0x7F,0x12
2.081898958333333,0,0xFF,0x00
2.083849875000000,0,0x98,0x10
2.083867916666667,0,0xFF,0x02
2.083886125000000,0,0xFF,0x08
2.085837083333333,0,0x90,0x12
2.085855125000000,0,0xFF,0x12
2.085873291666667,0,0xFF,0x08
2.087824000000000,0,0xB0,0x12
2.087842000000000,0,0xFF,0x12
2.087860208333333,0,0xFF,0x08
2.089811000000000,0,0xB0,0x12
2.089829041666666,0,0xFF,0x02
2.089847250000000,0,0xFF,0x08
2.091798083333333,0,0xF0,0x12
2.091816083333333,0,0x7F,0x12
2.091834291666667,0,0xFF,0x00
2.093785250000000,0,0xB0,0x12
2.093803291666667,0,0xFF,0x12
2.093821500000000,0,0xFF,0x08
2.095772333333333,0,0xF0,0x12
2.095790333333333,0,0x7F,0x12
2.095808541666667,0,0xFF,0x08
2.097759500000000,0,0xF0,0x02
2.097777500000000,0,0x7F,0x12
2.097795708333333,0,0xFF,0x08
2.099746625000000,0,0xF0,0x02
2.099764625000000,0,0x7F,0x12
2.099782833333333,0,0xFF,0x00
2.101733708333333,0,0xB0,0x12
2.101751750000000,0,0xFF,0x12
2.101769916666667,0,0xFF,0x00
2.103720666666667,0,0xB0,0x12
2.103738666666667,0,0x7F,0x12
2.103756875000000,0,0xFF,0x00
2.105707583333333,0,0xF0,0x13
2.105725583333333,0,0x7F,0x10
2.105743791666667,0,0xFF,0x08
2.107694416666666,0,0x98,0x10
2.107712458333333,0,0xFF,0x02
2.107730666666667,0,0xFF,0x08
2.109681500000000,0,0xB0,0x12
2.109699541666667,0,0xFF,0x12
2.109717750000000,0,0xFF,0x08
2.109742541666667,0,0x87,0x12
2.109760541666667,0,0xFF,0x00
2.109778750000000,0,0xFF,0x96
2.109799291666667,0,0x87,0x12
2.109817333333333,0,0x00,0x12
2.109835416666667,0,0x3C,0x12
2.110664708333333,0,0x03,0x01
2.110682708333333,0,0x00,0x01
2.110700791666666,0,0x3C,0x01
2.110721375000000,0,0x1E,0x01
2.110739416666667,0,0xC0,0x01
2.110757458333334,0,0x00,0x81
2.110777708333333,0,0x87,0x01
2.110795750000000,0,0xFF,0x00
2.110813958333333,0,0xFF,0x3C
2.110834791666667,0,0x87,0x01
2.110852833333333,0,0x00,0x01
2.110870916666667,0,0xBC,0x01
2.111668333333333,0,0xF0,0x12
2.111686333333334,0,0x7F,0x12
2.111704541666667,0,0xFF,0x18
2.113655583333333,0,0xF0,0x02
2.113673583333334,0,0x7F,0x12
2.113691791666667,0,0xFF,0x18
2.115642333333333,0,0xF0,0x02
2.115660333333333,0,0x7F,0x18
2.115678541666667,0,0xFF,0x18
2.117629083333334,0,0x98,0x18
2.117647125000000,0,0xFF,0x02
2.117665333333334,0,0xFF,0x18
2.119615958333333,0,0x98,0x10
2.119634000000000,0,0xFF,0x02
2.119652208333333,0,0xFF,0x1C
2.121602958333333,0,0x98,0x10
2.121621000000000,0,0xFF,0x02
2.121639208333333,0,0xFF,0x18
2.123589916666667,0,0x98,0x18
2.123607958333333,0,0xFF,0x02
2.123626166666666,0,0xFF,0x18
2.125577041666667,0,0xB0,0x12
2.125595083333333,0,0xFF,0x13
2.125613291666667,0,0xFF,0x18
2.127564000000000,0,0xB0,0x12
2.127582000000000,0,0xFF,0x12
2.127600208333333,0,0xFF,0x18
2.129550833333334,0,0xB0,0x12
2.129568833333333,0,0x7F,0x12
2.129587041666666,0,0xFF,0x18
2.131537750000000,0,0xF0,0x13
2.131555750000000,0,0x7F,0x18
2.131573958333334,0,0xFF,0x18
2.133524666666667,0,0x90,0x12
2.133542708333333,0,0xFF,0x13
2.133560916666667,0,0xFF,0x18
2.135511583333333,0,0xB0,0x12
2.135529625000000,0,0xFF,0x12
2.135547791666667,0,0xFF,0x18
2.137498458333333,0,0xB0,0x12
2.137516458333333,0,0xFF,0x12
2.137534666666667,0,0xFF,0x18
2.139485375000000,0,0xB0,0x12
2.139503416666667,0,0xFF,0x12
2.139521625000000,0,0xFF,0x0C
2.141472375000000,0,0xB0,0x12
2.141490416666667,0,0xFF,0x12
2.141508625000000,0,0xFF,0x0C
2.141533416666667,0,0x87,0x12
2.141551458333333,0,0xFF,0x00
2.141569625000000,0,0xFF,0x3C
2.141590208333333,0,0x03,0x13
2.141608208333333,0,0x00,0x10
2.141626291666667,0,0x1E,0x12
2.142455833333333,0,0x07,0x01
2.142473833333333,0,0x00,0x01
2.142491916666667,0,0x0F,0x00
2.142512500000000,0,0x34,0x01
2.142530541666666,0,0x80,0x01
2.142548583333333,0,0x80,0x01
2.142568833333333,0,0xC7,0x01
2.142586833333334,0,0xFF,0x80
2.142605041666667,0,0xFF,0x1E
2.142625916666667,0,0x07,0x01
2.142643958333333,0,0x00,0x01
2.142662000000000,0,0x9E,0x01
2.143459708333333,0,0xF0,0x12
2.143477708333333,0,0x7F,0x1A
2.143495916666667,0,0xFF,0x1C
2.145446416666667,0,0xF0,0x13
2.145464416666667,0,0xFF,0x10
2.145482625000000,0,0xFF,0x1C
2.147433333333333,0,0x98,0x1A
2.147451375000000,0,0xFF,0x02
2.147469583333333,0,0xFF,0x0C
2.149420416666667,0,0xB0,0x12
2.149438416666666,0,0xFF,0x12
2.149456625000000,0,0xFF,0x1C
2.151407541666666,0,0x98,0x10
2.151425583333333,0,0xFF,0x02
2.151443791666667,0,0xFF,0x1C
2.153394708333333,0,0xF0,0x02
2.153412708333333,0,0x7F,0x12
2.153430916666667,0,0xFF,0x1C
2.155381875000000,0,0xF0,0x12
2.155399875000000,0,0x7F,0x1A
2.155418083333333,0,0xFF,0x1E
2.157369000000000,0,0xB0,0x12
2.157387041666667,0,0xFF,0x12
2.157405250000000,0,0xFF,0x0C
2.159356041666667,0,0xB0,0x12
2.159374083333333,0,0xFF,0x12
2.159392250000000,0,0xFF,0x1C
2.161343125000000,0,0xF0,0x12
2.161361166666667,0,0xFF,0x12
2.161379333333334,0,0xFF,0x1C
2.163330166666667,0,0x98,0x10
2.163348208333333,0,0xFF,0x02
2.163366416666667,0,0xFF,0x1C
2.165317166666667,0,0xF0,0x02
2.165335166666666,0,0x7F,0x1A
2.165353375000000,0,0xFF,0x1E
2.167304166666667,0,0xB0,0x12
2.167322166666667,0,0xFF,0x12
2.167340375000000,0,0xFF,0x1C
2.169291041666667,0,0xB0,0x12
2.169309083333333,0,0xFF,0x12
2.169327291666667,0,0xFF,0x0C
2.171277958333333,0,0xB0,0x12
2.171296000000000,0,0xFF,0x12
2.171314166666667,0,0xFF,0x1C
2.173265000000000,0,0xB0,0x13
2.173283000000000,0,0xFF,0x10
2.173301208333333,0,0xFF,0x1C
2.173326000000000,0,0x87,0x12
2.173344041666667,0,0xFF,0x00
2.173362250000000,0,0xFF,0xDE
2.173382791666667,0,0x87,0x1A
2.173400833333333,0,0x00,0x12
2.173418916666667,0,0x47,0x12
2.174248416666666,0,0x07,0x01
2.174266458333333,0,0x00,0x01
2.174284500000000,0,0x66,0x01
2.174305125000000,0,0x34,0x01
2.174323125000000,0,0x80,0x01
2.174341208333333,0,0x80,0x00
2.174361416666667,0,0x07,0x01
2.174379458333333,0,0xFF,0x00
2.174397666666667,0,0xFF,0x43
2.174418541666667,0,0x07,0x01
2.174436541666667,0,0x00,0x01
2.174454625000000,0,0xC3,0x01
2.175251958333333,0,0xB0,0x12
2.175270000000000,0,0xFF,0x12
2.175288166666667,0,0xFF,0x04
2.177238833333333,0,0xB0,0x12
2.177256875000000,0,0xFF,0x12
2.177275041666667,0,0xFF,0x0C
2.179225791666667,0,0x98,0x10
2.179243833333333,0,0xFF,0x13
2.179262041666667,0,0xFF,0x0C
2.181212708333333,0,0xB0,0x12
2.181230708333334,0,0xFF,0x12
2.181248916666667,0,0xFF,0x0C
2.183199666666667,0,0xB0,0x12
2.183217666666667,0,0xFF,0x12
2.183235875000000,0,0xFF,0x0C
2.185186583333333,0,0x98,0x10
2.185204625000000,0,0xFF,0x02
2.185222833333333,0,0xFF,0x0C
2.187173541666667,0,0xF0,0x02
2.187191541666667,0,0x7F,0x18
2.187209750000000,0,0xFF,0x0C
2.189160333333333,0,0xF0,0x13
2.189178333333333,0,0xFF,0x12
2.189196541666667,0,0xFF,0x0C
2.191147125000000,0,0x90,0x12
2.191165166666666,0,0xFF,0x02
2.191183375000000,0,0xFF,0x0C
2.193133958333333,0,0x98,0x12
2.193152000000000,0,0xFF,0x13
2.193170208333334,0,0xFF,0x0C
2.195120791666667,0,0xB0,0x12
2.195138833333333,0,0xFF,0x12
2.195157041666667,0,0xFF,0x0C
2.197107666666667,0,0xB0,0x13
2.197125666666667,0,0xFF,0x12
2.197143875000000,0,0xFF,0x0C
2.199094583333333,0,0xB0,0x12
2.199112583333333,0,0x7F,0x12
2.199130791666667,0,0xFF,0x04
2.201081500000000,0,0x98,0x1A
2.201099541666667,0,0xFF,0x02
2.201117750000000,0,0xFF,0x0C
2.203068458333334,0,0x98,0x12
2.203086500000000,0,0xFF,0x13
2.203104708333333,0,0xFF,0x0C
2.205055375000000,0,0xF0,0x12
2.205073375000000,0,0x7F,0x12
2.205091583333334,0,0xFF,0x04
2.205116375000000,0,0x87,0x12
2.205134416666667,0,0xFF,0x00
2.205152625000000,0,0xFF,0xC7
2.205173166666667,0,0x07,0x12
2.205191208333333,0,0x00,0x12
2.205209250000000,0,0x00,0x12
2.206038750000000,0,0x07,0x01
2.206056791666667,0,0x00,0x01
2.206074833333334,0,0x00,0x01
2.206095416666667,0,0x1E,0x01
2.206113458333333,0,0xC0,0x01
2.206131500000000,0,0x00,0x81
2.206151750000000,0,0x87,0x01
2.206169750000000,0,0xFF,0x80
2.206187958333333,0,0xFF,0x00
2.206208833333333,0,0x07,0x01
2.206226875000000,0,0x00,0x01
2.206244916666666,0,0x80,0x01
2.207042250000000,0,0x30,0x92
2.207060291666667,0,0xFF,0x12
2.207078500000000,0,0xFF,0x00
2.209029166666667,0,0x98,0x10
2.209047208333333,0,0xFF,0x13
2.209065416666667,0,0xFF,0x00
2.211016041666667,0,0xB0,0x13
2.211034041666667,0,0xFF,0x10
2.211052250000000,0,0xFF,0x00
2.213002916666666,0,0xF0,0x02
2.213020916666667,0,0x7F,0x10
2.213039125000000,0,0xFF,0x00
2.214989833333334,0,0xB0,0x12
2.215007875000000,0,0xFF,0x12
2.215026041666667,0,0xFF,0x00
2.216976666666667,0,0xB0,0x12
2.216994666666666,0,0xFF,0x12
2.217012875000000,0,0xFF,0x00
2.218963541666667,0,0xB0,0x12
2.218981541666667,0,0xFF,0x12
2.218999750000000,0,0xFF,0x00
2.220950208333333,0,0xB0,0x12
2.220968250000000,0,0xFF,0x02
2.220986458333333,0,0xFF,0x00
2.222937041666667,0,0xB0,0x12
2.222955041666667,0,0xFF,0x12
2.222973250000000,0,0xFF,0x00
2.224923875000000,0,0x98,0x1A
2.224941916666667,0,0xFF,0x02
2.224960125000000,0,0xFF,0x00
2.226910875000000,0,0xB0,0x12
2.226928916666667,0,0xFF,0x12
2.226947083333333,0,0xFF,0x00
2.228897875000000,0,0xF0,0x13
2.228915875000000,0,0xFF,0x12
2.228934083333333,0,0xFF,0x00
2.230884708333333,0,0x98,0x10
2.230902750000000,0,0xFF,0x13
2.230920958333333,0,0xFF,0x00
2.232871583333333,0,0x90,0x12
2.232889625000000,0,0xFF,0x12
2.232907791666667,0,0xFF,0x00
2.234858541666667,0,0xF0,0x02
2.234876541666666,0,0x7F,0x12
2.234894750000000,0,0xFF,0x00
2.236845375000000,0,0xF0,0x02
2.236863375000000,0,0x7F,0x18
2.236881583333334,0,0xFF,0x00
2.236906375000000,0,0x87,0x10
2.236924416666667,0,0xFF,0x00
2.236942625000000,0,0xFF,0x80
2.236963166666667,0,0x03,0x13
2.236981166666667,0,0x80,0x10
2.236999250000000,0,0x3C,0x02
2.237828666666667,0,0x07,0x01
2.237846708333334,0,0x00,0x01
2.237864791666667,0,0x28,0x01
2.237885375000000,0,0x30,0x00
2.237903375000000,0,0x00,0x01
2.237921458333333,0,0xC0,0x00
2.237941666666666,0,0x07,0x01
2.237959708333333,0,0xFF,0x00
2.237977916666666,0,0xFF,0x28
2.237998750000000,0,0x87,0x01
2.238016791666666,0,0x00,0x00
2.238034833333333,0,0x00,0x01
2.238832458333333,0,0xB0,0x12
2.238850500000000,0,0xFF,0x12
2.238868666666667,0,0xFF,0x10
2.240819166666667,0,0x98,0x10
2.240837208333333,0,0xFF,0x13
2.240855416666667,0,0xFF,0x10
2.242806041666667,0,0xF0,0x13
2.242824041666667,0,0xFF,0x12
2.242842250000000,0,0xFF,0x10
2.244792791666667,0,0xB0,0x12
2.244810833333333,0,0xFF,0x02
2.244829041666667,0,0xFF,0x10
2.246779750000000,0,0xF0,0x13
2.246797750000000,0,0x7F,0x10
2.246815958333333,0,0xFF,0x10
2.248766583333333,0,0xB0,0x12
2.248784583333333,0,0xFF,0x12
2.248802791666667,0,0xFF,0x10
2.250753458333334,0,0xB0,0x12
2.250771500000000,0,0xFF,0x12
2.250789666666666,0,0xFF,0x18
2.252740375000000,0,0xF0,0x12
2.252758375000000,0,0x7F,0x12
2.252776583333334,0,0xFF,0x18
2.254727291666667,0,0xB0,0x12
2.254745333333333,0,0xFF,0x12
2.254763541666667,0,0xFF,0x00
2.256714333333333,0,0xB0,0x13
2.256732333333333,0,0xFF,0x10
2.256750541666667,0,0xFF,0x10
2.258701250000000,0,0xF0,0x13
2.258719250000000,0,0xFF,0x12
2.258737458333334,0,0xFF,0x10
2.260688083333333,0,0xB0,0x12
2.260706083333333,0,0xFF,0x12
2.260724291666667,0,0xFF,0x10
2.262674958333333,0,0xB0,0x12
2.262692958333334,0,0x7F,0x12
2.262711166666667,0,0xFF,0x18
2.264661791666667,0,0xB0,0x12
2.264679833333333,0,0xFF,0x12
2.264698000000000,0,0xFF,0x18
2.266648708333333,0,0xB0,0x12
2.266666708333333,0,0x7F,0x12
2.266684916666667,0,0xFF,0x18
2.268635500000000,0,0xB0,0x12
2.268653500000000,0,0xFF,0x12
2.268671708333333,0,0xFF,0x10
2.268696500000000,0,0xC3,0x13
2.268714500000000,0,0xFF,0x00
2.268732708333333,0,0xFF,0xA8
2.268753250000000,0,0x07,0x12
2.268771291666666,0,0x00,0x12
2.268789333333333,0,0x00,0x10
2.269618750000000,0,0x07,0x01
2.269636791666667,0,0x00,0x01
2.269654833333334,0,0x0A,0x81
2.269675458333333,0,0x30,0x00
2.269693458333333,0,0x80,0x01
2.269711541666667,0,0xC0,0x01
2.269731750000000,0,0x07,0x01
2.269749791666666,0,0xFF,0x00
2.269767958333333,0,0xFF,0x0A
2.269788833333333,0,0x07,0x01
2.269806875000000,0,0x00,0x00
2.269824916666667,0,0x00,0x01
2.270622208333333,0,0xB0,0x12
2.270640250000000,0,0xFF,0x12
2.270658416666667,0,0xFF,0x14
2.272609041666667,0,0x98,0x10
2.272627083333334,0,0xFF,0x13
2.272645291666667,0,0xFF,0x14
2.274595833333333,0,0xF0,0x02
2.274613833333333,0,0x7F,0x1A
2.274632041666667,0,0xFF,0x16
2.276582666666667,0,0xB0,0x12
2.276600708333334,0,0xFF,0x12
2.276618916666667,0,0xFF,0x04
2.278569583333333,0,0xB0,0x12
2.278587583333334,0,0xFF,0x12
2.278605791666667,0,0xFF,0x04
2.280556458333333,0,0xB0,0x12
2.280574500000000,0,0xFF,0x12
2.280592708333333,0,0xFF,0x14
2.282543583333333,0,0xB0,0x12
2.282561583333333,0,0x7F,0x12
2.282579791666667,0,0xFF,0x14
2.284530583333333,0,0xB0,0x12
2.284548583333333,0,0xFF,0x12
2.284566791666667,0,0xFF,0x00
2.286517458333333,0,0xF0,0x02
2.286535458333333,0,0x7F,0x1A
2.286553666666667,0,0xFF,0x14
2.288504416666667,0,0xB0,0x12
2.288522416666666,0,0xFF,0x12
2.288540625000000,0,0xFF,0x14
2.290491416666667,0,0xB0,0x12
2.290509416666667,0,0xFF,0x10
2.290527625000000,0,0xFF,0x14
2.292478458333334,0,0xB0,0x12
2.292496500000000,0,0xFF,0x12
2.292514666666666,0,0xFF,0x14
2.294465416666667,0,0xB0,0x12
2.294483458333333,0,0xFF,0x12
2.294501666666667,0,0xFF,0x14
2.296452208333333,0,0xF0,0x13
2.296470208333333,0,0x7F,0x10
2.296488416666667,0,0xFF,0x14
2.298439000000000,0,0x98,0x1A
2.298457041666667,0,0xFF,0x12
2.298475250000000,0,0xFF,0x00
2.300425875000000,0,0xB0,0x12
2.300443875000000,0,0xFF,0x12
2.300462083333333,0,0xFF,0x14
2.300486875000000,0,0x87,0x12
2.300504916666667,0,0xFF,0x00
2.300523083333333,0,0xFF,0x82
2.300543666666667,0,0x07,0x12
2.300561666666667,0,0x00,0x12
2.300579750000000,0,0x33,0x12
2.301409250000000,0,0x03,0x01
2.301427250000000,0,0x80,0x01
2.301445333333333,0,0x32,0x01
2.301465916666666,0,0x1E,0x01
2.301483958333333,0,0xC0,0x00
2.301502000000000,0,0x00,0x01
2.301522250000000,0,0xC7,0x01
2.301540250000000,0,0xFF,0x80
2.301558458333334,0,0xFF,0x1A
2.301579333333333,0,0x07,0x01
2.301597375000000,0,0x00,0x00
2.301615416666666,0,0x18,0x01
2.302412791666667,0,0xB0,0x12
2.302430791666667,0,0x7F,0x12
2.302449000000000,0,0xFF,0x04
2.304399625000000,0,0xB0,0x12
2.304417666666667,0,0xFF,0x12
2.304435833333333,0,0xFF,0x04
2.306386458333333,0,0xF0,0x02
2.306404458333333,0,0x7F,0x12
2.306422666666667,0,0xFF,0x06
2.308373375000000,0,0xF0,0x13
2.308391375000000,0,0x7F,0x18
2.308409583333333,0,0xFF,0x04
2.310360208333333,0,0x98,0x1A
2.310378250000000,0,0xFF,0x02
2.310396458333333,0,0xFF,0x04
2.312347083333333,0,0xF0,0x12
2.312365083333333,0,0x7F,0x12
2.312383291666666,0,0xFF,0x06
2.314334041666667,0,0xB0,0x12
2.314352041666667,0,0xFF,0x12
2.314370250000000,0,0xFF,0x04
2.316320958333333,0,0xB0,0x12
2.316338958333333,0,0xFF,0x12
2.316357166666667,0,0xFF,0x00
2.318307791666667,0,0xB0,0x12
2.318325833333333,0,0xFF,0x12
2.318344000000000,0,0xFF,0x04
2.320294500000000,0,0x98,0x1A
2.320312541666667,0,0xFF,0x02
2.320330750000000,0,0xFF,0x04
2.322281458333333,0,0xB0,0x12
2.322299458333333,0,0xFF,0x12
2.322317666666667,0,0xFF,0x04
2.324268333333333,0,0xB0,0x12
2.324286375000000,0,0xFF,0x12
2.324304541666667,0,0xFF,0x04
2.326255208333333,0,0xB0,0x12
2.326273250000000,0,0xFF,0x12
2.326291416666667,0,0xFF,0x04
2.328242166666667,0,0xF0,0x02
2.328260166666666,0,0x7F,0x1A
2.328278375000000,0,0xFF,0x04
2.330229125000000,0,0xB0,0x12
2.330247166666667,0,0xFF,0x12
2.330265375000000,0,0xFF,0x04
2.332216208333334,0,0xF0,0x02
2.332234208333333,0,0x7F,0x1A
2.332252416666666,0,0xFF,0x06
2.332277208333333,0,0x87,0x12
2.332295250000000,0,0xFF,0x00
2.332313458333333,0,0xFF,0xF2
2.332334000000000,0,0x07,0x12
2.332352041666667,0,0x00,0x13
2.332370083333333,0,0x1C,0x1A
2.333199666666667,0,0x07,0x01
2.333217666666667,0,0x00,0x01
2.333235750000000,0,0x00,0x00
2.333256333333333,0,0x3E,0x01
2.333274375000000,0,0x80,0x00
2.333292416666667,0,0x00,0x01
2.333312666666667,0,0xC3,0x01
2.333330666666667,0,0xFF,0x00
2.333348875000000,0,0xFF,0x14
2.333369750000000,0,0x07,0x01
2.333387791666667,0,0x00,0x01
2.333405833333333,0,0x9E,0x01
2.334203250000000,0,0x18,0x1A
2.334221291666667,0,0xFF,0x12
2.334239500000000,0,0xFF,0x0C
2.336190208333333,0,0xF0,0x12
2.336208208333333,0,0x7F,0x12
2.336226416666667,0,0xFF,0x08
2.338177250000000,0,0xF0,0x13
2.338195250000000,0,0x7F,0x18
2.338213458333333,0,0xFF,0x08
2.340164000000000,0,0x98,0x10
2.340182041666667,0,0xFF,0x13
2.340200250000000,0,0xFF,0x08
2.342150833333333,0,0x98,0x10
2.342168875000000,0,0xFF,0x13
2.342187083333333,0,0xFF,0x08
2.344137666666667,0,0xB0,0x12
2.344155708333334,0,0xFF,0x12
2.344173875000000,0,0xFF,0x08
2.346124458333333,0,0xF0,0x02
2.346142458333333,0,0x7F,0x18
2.346160666666667,0,0xFF,0x08
2.348111291666667,0,0xF0,0x13
2.348129291666667,0,0xFF,0x10
2.348147500000000,0,0xFF,0x08
2.350098125000000,0,0xB0,0x12
2.350116125000000,0,0xFF,0x10
2.350134333333334,0,0xFF,0x08
2.352085041666667,0,0xB0,0x12
2.352103083333333,0,0xFF,0x12
2.352121250000000,0,0xFF,0x08
2.354071916666667,0,0x98,0x1A
2.354089958333333,0,0xFF,0x02
2.354108166666667,0,0xFF,0x08
2.356058875000000,0,0xB0,0x12
2.356076916666667,0,0xFF,0x12
2.356095125000000,0,0xFF,0x08
2.358045791666667,0,0xF0,0x12
2.358063791666666,0,0x7F,0x12
2.358082000000000,0,0xFF,0x00
2.360032750000000,0,0xB0,0x12
2.360050791666667,0,0xFF,0x12
2.360068958333333,0,0xFF,0x08
2.362019666666667,0,0x98,0x1A
2.362037708333333,0,0xFF,0x02
2.362055916666667,0,0xFF,0x08
2.364006625000000,0,0xB0,0x12
2.364024625000000,0,0xFF,0x12
2.364042833333333,0,0xFF,0x08
2.364067625000000,0,0x87,0x12
2.364085666666667,0,0xFF,0x00
2.364103833333334,0,0xFF,0x1C
2.364124416666667,0,0x07,0x12
2.364142416666667,0,0x00,0x12
2.364160500000000,0,0x3C,0x12
2.364989958333333,0,0x07,0x01
2.365008000000000,0,0x00,0x01
2.365026083333333,0,0x3C,0x01
2.365046666666667,0,0x30,0x01
2.365064666666667,0,0x00,0x01
2.365082750000000,0,0x80,0x01
2.365103000000000,0,0xC3,0x00
2.365121000000000,0,0xFF,0x00
2.365139208333333,0,0xFF,0x3C
2.365160083333333,0,0x07,0x01
2.365178125000000,0,0x00,0x01
2.365196166666667,0,0x9E,0x01
2.365993541666667,0,0x98,0x12
2.366011583333334,0,0xFF,0x12
2.366029750000000,0,0xFF,0x18
2.367980416666667,0,0xF0,0x02
2.367998416666667,0,0x7F,0x12
2.368016625000000,0,0xFF,0x18
2.369967458333333,0,0xB0,0x13
2.369985458333333,0,0xFF,0x10
2.370003666666667,0,0xFF,0x18
2.371954458333333,0,0xF0,0x13
2.371972458333333,0,0x7F,0x10
2.371990666666667,0,0xFF,0x18
2.373941458333333,0,0xB0,0x12
2.373959500000000,0,0xFF,0x12
2.373977666666667,0,0xFF,0x18
2.375928500000000,0,0xB0,0x12
2.375946500000000,0,0xFF,0x12
2.375964708333334,0,0xFF,0x18
2.377915458333333,0,0x98,0x1A
2.377933500000000,0,0xFF,0x02
2.377951708333333,0,0xFF,0x18
2.379902375000000,0,0xB0,0x12
2.379920416666667,0,0xFF,0x12
2.379938583333333,0,0xFF,0x18
2.381889375000000,0,0xB0,0x12
2.381907416666666,0,0xFF,0x12
2.381925625000000,0,0xFF,0x18
2.383876375000000,0,0x98,0x10
2.383894416666667,0,0xFF,0x02
2.383912625000000,0,0xFF,0x18
2.385863458333333,0,0xF0,0x12
2.385881458333333,0,0x7F,0x12
2.385899666666667,0,0xFF,0x18
2.387850458333333,0,0xF0,0x13
2.387868458333333,0,0x7F,0x18
2.387886666666667,0,0xFF,0x18
2.389837541666667,0,0x90,0x12
2.389855583333333,0,0xFF,0x12
2.389873791666667,0,0xFF,0x18
2.391824625000000,0,0xB0,0x12
2.391842666666667,0,0xFF,0x13
2.391860875000000,0,0xFF,0x18
2.393811708333333,0,0xB0,0x12
2.393829708333334,0,0xFF,0x12
2.393847916666667,0,0xFF,0x18
2.395798708333333,0,0xB0,0x12
2.395816750000000,0,0xFF,0x12
2.395834916666667,0,0xFF,0x18
2.395859750000000,0,0x87,0x12
2.395877750000000,0,0xFF,0x00
2.395895958333333,0,0xFF,0xFC
2.395916500000000,0,0x07,0x12
2.395934541666667,0,0x00,0x12
2.395952583333333,0,0x1E,0x10
2.396782125000000,0,0x07,0x01
2.396800166666667,0,0x00,0x00
2.396818208333333,0,0x1E,0x01
2.396838833333333,0,0x30,0x00
2.396856833333334,0,0x00,0x01
2.396874916666667,0,0x80,0x01
2.396895166666666,0,0x83,0x00
2.396913166666667,0,0xFF,0x00
2.396931375000000,0,0xFF,0x1E
2.396952250000000,0,0x07,0x01
2.396970250000000,0,0x80,0x81
2.396988333333333,0,0x9E,0x01
2.397786000000000,0,0xF0,0x02
2.397804000000000,0,0x7F,0x1A
2.397822208333333,0,0xFF,0x1C
2.399772625000000,0,0xF0,0x02
2.399790625000000,0,0x7F,0x12
2.399808833333333,0,0xFF,0x1E
2.401759583333333,0,0x98,0x12
2.401777625000000,0,0xFF,0x13
2.401795833333333,0,0xFF,0x1C
2.403746625000000,0,0xF0,0x12
2.403764625000000,0,0x7F,0x18
2.403782833333334,0,0xFF,0x1E
2.405733500000000,0,0xF0,0x13
2.405751500000000,0,0xFF,0x10
2.405769708333333,0,0xFF,0x1C
2.407720458333333,0,0xF0,0x02
2.407738458333333,0,0x7F,0x12
2.407756666666667,0,0xFF,0x1E
2.409707458333334,0,0xB0,0x13
2.409725458333333,0,0xFF,0x10
2.409743666666667,0,0xFF,0x1C
2.411694541666667,0,0xB0,0x13
2.411712541666667,0,0x7F,0x1A
2.411730750000000,0,0xFF,0x1E
2.413681583333333,0,0xB0,0x12
2.413699583333333,0,0xFF,0x12
2.413717791666667,0,0xFF,0x1C
2.415668583333333,0,0xB0,0x12
2.415686583333333,0,0xFF,0x12
2.415704791666667,0,0xFF,0x1C
2.417655625000000,0,0xB0,0x12
2.417673625000000,0,0xFF,0x12
2.417691833333333,0,0xFF,0x1C
2.419642708333333,0,0xB0,0x12
2.419660750000000,0,0xFF,0x12
2.419678916666667,0,0xFF,0x1C
2.421629750000000,0,0xB0,0x12
2.421647791666667,0,0xFF,0x12
2.421665958333334,0,0xFF,0x1C
2.423616708333333,0,0xF0,0x02
2.423634708333333,0,0x7F,0x1A
2.423652916666667,0,0xFF,0x1E
2.425603666666666,0,0x98,0x10
2.425621708333333,0,0xFF,0x12
2.425639916666666,0,0xFF,0x1C
2.427590583333334,0,0xB0,0x12
2.427608583333333,0,0xFF,0x12
2.427626791666667,0,0xFF,0x1C
2.427651583333333,0,0x87,0x12
2.427669625000000,0,0xFF,0x00
2.427687791666667,0,0xFF,0x1E
2.427708375000000,0,0x07,0x12
2.427726375000000,0,0x00,0x12
2.427744458333333,0,0x03,0x13
2.428573958333333,0,0x07,0x01
2.428591958333334,0,0x00,0x01
2.428610041666666,0,0x03,0x00
2.428630625000000,0,0x34,0x01
2.428648666666667,0,0x80,0x01
2.428666708333334,0,0x80,0x01
2.428686958333333,0,0xC3,0x01
2.428704958333333,0,0xFF,0x00
2.428723166666667,0,0xFF,0x46
2.428744041666667,0,0x07,0x01
2.428762083333333,0,0x00,0x01
2.428780125000000,0,0x66,0x01
2.429577500000000,0,0x18,0x10
2.429595541666667,0,0xFF,0x12
2.429613750000000,0,0xFF,0x0C
2.431564291666667,0,0x98,0x1A
2.431582333333334,0,0xFF,0x02
2.431600541666667,0,0xFF,0x0C
2.433551000000000,0,0xB0,0x12
2.433569000000000,0,0xFF,0x12
2.433587208333333,0,0xFF,0x0C
2.435537833333334,0,0xB0,0x12
2.435555833333333,0,0xFF,0x12
2.435574041666666,0,0xFF,0x0C
2.437524583333333,0,0xB0,0x12
2.437542583333333,0,0xFF,0x12
2.437560791666667,0,0xFF,0x0C
2.439511375000000,0,0xB0,0x12
2.439529416666667,0,0xFF,0x12
2.439547583333333,0,0xFF,0x0C
2.441498333333334,0,0xB0,0x12
2.441516333333333,0,0x7F,0x12
2.441534541666667,0,0xFF,0x06
2.443485250000000,0,0xB0,0x12
2.443503291666667,0,0xFF,0x02
2.443521500000000,0,0xFF,0x0C
2.445472291666666,0,0xB0,0x12
2.445490291666667,0,0xFF,0x12
2.445508500000000,0,0xFF,0x0C
2.447459291666667,0,0x98,0x18
2.447477333333334,0,0xFF,0x02
2.447495541666667,0,0xFF,0x0C
2.449446291666667,0,0xB0,0x12
2.449464291666667,0,0xFF,0x12
2.449482500000000,0,0xFF,0x0C
2.451433333333333,0,0xB0,0x12
2.451451375000000,0,0xFF,0x12
2.451469541666667,0,0xFF,0x0C
2.453420375000000,0,0xB0,0x12
2.453438375000000,0,0xFF,0x12
2.453456583333333,0,0xFF,0x0C
2.455407333333333,0,0x98,0x10
2.455425375000000,0,0xFF,0x02
2.455443583333333,0,0xFF,0x0C
2.457394375000000,0,0xB0,0x12
2.457412375000000,0,0xFF,0x12
2.457430583333333,0,0xFF,0x0C
2.459381291666667,0,0xB0,0x12
2.459399291666667,0,0xFF,0x12
2.459417500000000,0,0xFF,0x0C
2.459442291666667,0,0x87,0x12
2.459460291666667,0,0xFF,0x00
2.459478500000000,0,0xFF,0xE6
2.459499083333333,0,0x07,0x12
2.459517083333334,0,0x00,0x12
2.459535166666666,0,0x00,0x12
2.460364583333333,0,0x07,0x01
2.460382625000000,0,0x00,0x01
2.460400666666667,0,0x00,0x01
2.460421291666667,0,0x30,0x00
2.460439291666667,0,0x00,0x01
2.460457375000000,0,0xC0,0x01
2.460477583333333,0,0x07,0x81
2.460495625000000,0,0xFF,0x00
2.460513833333333,0,0xFF,0x00
2.460534708333333,0,0x07,0x01
2.460552708333333,0,0x00,0x01
2.460570791666667,0,0xC0,0x01
2.461368416666667,0,0xB0,0x12
2.461386458333333,0,0xFF,0x12
2.461404625000000,0,0xFF,0x00
2.463354958333333,0,0x98,0x18
2.463373000000000,0,0xFF,0x02
2.463391208333333,0,0xFF,0x00
2.465341833333333,0,0xB0,0x12
2.465359875000000,0,0xFF,0x12
2.465378083333333,0,0xFF,0x00
2.467328875000000,0,0xB0,0x12
2.467346875000000,0,0xFF,0x12
2.467365083333333,0,0xFF,0x00
2.469315833333333,0,0xB0,0x12
2.469333833333333,0,0xFF,0x12
2.469352041666667,0,0xFF,0x00
2.471302958333333,0,0xF0,0x12
2.471320958333334,0,0x7F,0x12
2.471339166666667,0,0xFF,0x00
2.473290250000000,0,0xF0,0x12
2.473308250000000,0,0x7F,0x1A
2.473326458333333,0,0xFF,0x00
2.475277500000000,0,0xB0,0x12
2.475295541666667,0,0xFF,0x13
2.475313750000000,0,0xFF,0x00
2.477264583333334,0,0xB0,0x12
2.477282625000000,0,0xFF,0x13
2.477300833333334,0,0xFF,0x00
2.479251625000000,0,0xB0,0x12
2.479269666666667,0,0xFF,0x12
2.479287833333333,0,0xFF,0x00
2.481238500000000,0,0xB0,0x12
2.481256541666667,0,0xFF,0x12
2.481274750000000,0,0xFF,0x00
2.483225500000000,0,0xB0,0x12
2.483243541666666,0,0xFF,0x12
2.483261750000000,0,0xFF,0x00
2.485212333333333,0,0x98,0x12
2.485230375000000,0,0xFF,0x12
2.485248541666667,0,0xFF,0x00
2.487199250000000,0,0x90,0x12
2.487217291666667,0,0xFF,0x13
2.487235500000000,0,0xFF,0x00
2.489186125000000,0,0xB0,0x12
2.489204125000000,0,0xFF,0x12
2.489222333333333,0,0xFF,0x00
2.491173041666667,0,0x98,0x10
2.491191083333333,0,0xFF,0x02
2.491209291666667,0,0xFF,0x00
2.491234083333334,0,0xC3,0x02
2.491252083333333,0,0xFF,0x00
2.491270291666666,0,0xFF,0x80
2.491290875000000,0,0x07,0x12
2.491308875000000,0,0x00,0x12
2.491326958333334,0,0x3C,0x12
2.492156458333334,0,0x07,0x01
2.492174458333333,0,0x00,0x01
2.492192541666667,0,0x3C,0x00
2.492213125000000,0,0x34,0x01
2.492231125000000,0,0x00,0x81
2.492249208333333,0,0x80,0x01
2.492269458333333,0,0xC3,0x01
2.492287458333333,0,0xFF,0x00
2.492305666666667,0,0xFF,0x28
2.492326541666666,0,0x07,0x01
2.492344541666667,0,0x80,0x81
2.492362625000000,0,0xA8,0x01
2.493160208333333,0,0x30,0x92
2.493178250000000,0,0xFF,0x12
2.493196458333333,0,0xFF,0x10
2.495146875000000,0,0xB0,0x12
2.495164875000000,0,0xFF,0x12
2.495183083333333,0,0xFF,0x10
2.497133708333333,0,0xB0,0x12
2.497151708333333,0,0xFF,0x12
2.497169916666667,0,0xFF,0x00
2.499120625000000,0,0x98,0x18
2.499138666666667,0,0xFF,0x13
2.499156875000000,0,0xFF,0x10
2.501107625000000,0,0xB0,0x12
2.501125666666667,0,0xFF,0x13
2.501143875000000,0,0xFF,0x10
2.503094791666667,0,0xB0,0x12
2.503112833333333,0,0xFF,0x12
2.503131041666667,0,0xFF,0x10
2.505081833333333,0,0xF0,0x12
2.505099833333333,0,0x7F,0x1A
2.505118041666667,0,0xFF,0x18
2.507068875000000,0,0xB0,0x12
2.507086916666667,0,0xFF,0x12
2.507105083333333,0,0xFF,0x10
2.509055958333333,0,0xB0,0x12
2.509074000000000,0,0xFF,0x12
2.509092208333333,0,0xFF,0x00
2.511043000000000,0,0xB0,0x12
2.511061000000000,0,0x7F,0x12
2.511079208333333,0,0xFF,0x18
2.513030041666667,0,0x98,0x12
2.513048083333334,0,0xFF,0x13
2.513066291666667,0,0xFF,0x10
2.515017083333333,0,0xB0,0x12
2.515035125000000,0,0xFF,0x12
2.515053291666667,0,0xFF,0x10
2.517004125000000,0,0x98,0x10
2.517022166666667,0,0xFF,0x13
2.517040375000000,0,0xFF,0x10
2.518991166666666,0,0x98,0x10
2.519009208333333,0,0xFF,0x02
2.519027416666667,0,0xFF,0x00
2.520978291666667,0,0xB0,0x12
2.520996333333333,0,0xFF,0x13
2.521014541666667,0,0xFF,0x10
2.522965333333334,0,0x98,0x1A
2.522983375000000,0,0xFF,0x02
2.523001583333333,0,0xFF,0x10
2.523026375000000,0,0xC7,0x12
2.523044416666667,0,0xFF,0x00
2.523062583333334,0,0xFF,0x08
2.523083166666667,0,0x03,0x13
2.523101166666667,0,0x00,0x10
2.523119250000000,0,0x0A,0x02
2.523948791666667,0,0x07,0x01
2.523966791666667,0,0x80,0x81
2.523984875000000,0,0x08,0x01
2.524005458333333,0,0x34,0x81
2.524023500000000,0,0xC0,0x01
2.524041583333333,0,0x80,0x01
2.524061791666667,0,0x87,0x01
2.524079833333333,0,0xFF,0x00
2.524098041666667,0,0xFF,0x0A
2.524118875000000,0,0x87,0x01
2.524136916666667,0,0x00,0x01
2.524155000000000,0,0x8B,0x01
2.524952416666667,0,0xB0,0x13
2.524970416666667,0,0x7F,0x18
2.524988625000000,0,0xFF,0x16
2.526939541666667,0,0xB0,0x12
2.526957583333334,0,0xFF,0x12
2.526975750000000,0,0xFF,0x14
2.528926583333333,0,0x90,0x12
2.528944625000000,0,0xFF,0x12
2.528962833333333,0,0xFF,0x00
2.530913791666667,0,0x98,0x1A
2.530931833333333,0,0xFF,0x12
2.530950041666667,0,0xFF,0x00
2.532901000000000,0,0xF0,0x02
2.532919000000000,0,0x7F,0x1A
2.532937208333333,0,0xFF,0x16
2.534888083333333,0,0xB0,0x12
2.534906125000000,0,0xFF,0x12
2.534924333333333,0,0xFF,0x14
2.536875250000000,0,0x98,0x1A
2.536893291666667,0,0xFF,0x02
2.536911500000000,0,0xFF,0x00
2.538862333333333,0,0xB0,0x12
2.538880375000000,0,0xFF,0x13
2.538898583333333,0,0xFF,0x14
2.540849416666667,0,0x98,0x10
2.540867458333333,0,0xFF,0x13
2.540885666666667,0,0xFF,0x14
2.542836375000000,0,0xF0,0x12
2.542854375000000,0,0x7F,0x12
2.542872583333333,0,0xFF,0x1E
2.544823250000000,0,0xB0,0x12
2.544841291666667,0,0xFF,0x12
2.544859458333333,0,0xFF,0x14
2.546810166666666,0,0xB0,0x12
2.546828166666667,0,0xFF,0x12
2.546846375000000,0,0xFF,0x14
2.548797125000000,0,0xB0,0x12
2.548815166666667,0,0xFF,0x12
2.548833375000000,0,0xFF,0x00
2.550784125000000,0,0xB0,0x12
2.550802166666667,0,0xFF,0x12
2.550820333333333,0,0xFF,0x14
2.552771125000000,0,0xB0,0x12
2.552789125000000,0,0xFF,0x12
2.552807333333333,0,0xFF,0x14
2.554758000000000,0,0xB0,0x12
2.554776000000000,0,0x7F,0x12
2.554794208333333,0,0xFF,0x16
2.554819000000000,0,0x87,0x1A
2.554837041666667,0,0xFF,0x00
2.554855250000000,0,0xFF,0x8B
2.554875791666666,0,0x07,0x12
2.554893791666667,0,0x80,0x12
2.554911875000000,0,0x32,0x12
2.555741375000000,0,0x07,0x01
2.555759416666667,0,0x00,0x01
2.555777500000000,0,0x33,0x00
2.555798083333333,0,0x36,0x01
2.555816125000000,0,0x80,0x00
2.555834166666667,0,0x00,0x01
2.555854416666667,0,0x87,0x01
2.555872458333333,0,0xFF,0x00
2.555890666666667,0,0xFF,0x33
2.555911541666667,0,0x03,0x01
2.555929541666667,0,0x00,0x01
2.555947625000000,0,0xF2,0x01
2.556745083333333,0,0xF0,0x13
2.556763083333333,0,0x7F,0x1A
2.556781291666667,0,0xFF,0x06
2.558732166666667,0,0xB0,0x13
2.558750166666667,0,0xFF,0x10
2.558768375000000,0,0xFF,0x04
2.560719125000000,0,0xB0,0x12
2.560737125000000,0,0xFF,0x12
2.560755333333333,0,0xFF,0x04
2.562706041666666,0,0x98,0x1A
2.562724083333333,0,0xFF,0x02
2.562742291666666,0,0xFF,0x04
2.564693000000000,0,0x98,0x12
2.564711041666667,0,0xFF,0x13
2.564729250000000,0,0xFF,0x04
2.566679958333333,0,0x98,0x18
2.566698000000000,0,0xFF,0x13
2.566716208333333,0,0xFF,0x04
2.568666708333333,0,0x98,0x1A
2.568684750000000,0,0xFF,0x02
2.568702958333333,0,0xFF,0x04
2.570653500000000,0,0xB0,0x12
2.570671500000000,0,0x7F,0x12
2.570689708333334,0,0xFF,0x06
2.572640375000000,0,0x90,0x12
2.572658416666667,0,0xFF,0x12
2.572676625000000,0,0xFF,0x00
2.574627291666667,0,0x98,0x12
2.574645333333333,0,0xFF,0x13
2.574663541666667,0,0xFF,0x04
2.576614250000000,0,0xB0,0x12
2.576632250000000,0,0xFF,0x12
2.576650458333333,0,0xFF,0x04
2.578601166666667,0,0x90,0x12
2.578619208333333,0,0xFF,0x12
2.578637375000000,0,0xFF,0x04
2.580588000000000,0,0xB0,0x12
2.580606041666667,0,0xFF,0x12
2.580624250000000,0,0xFF,0x04
2.582574666666666,0,0x98,0x10
2.582592708333333,0,0xFF,0x13
2.582610916666667,0,0xFF,0x04
2.584561500000000,0,0xB0,0x12
2.584579541666667,0,0xFF,0x12
2.584597750000000,0,0xFF,0x04
2.586548250000000,0,0xB0,0x12
2.586566250000000,0,0xFF,0x12
2.586584458333333,0,0xFF,0x04
2.586609250000000,0,0x87,0x12
2.586627250000000,0,0xFF,0x00
2.586645458333333,0,0xFF,0x9A
2.586666041666667,0,0x07,0x12
2.586684041666667,0,0x00,0x12
2.586702125000000,0,0x10,0x13
2.587531583333333,0,0x03,0x01
2.587549583333333,0,0x00,0x01
2.587567666666667,0,0x00,0x01
2.587588250000000,0,0x34,0x01
2.587606250000000,0,0x00,0x01
2.587624333333333,0,0xC0,0x01
2.587644541666667,0,0x07,0x81
2.587662583333334,0,0xFF,0x00
2.587680791666667,0,0xFF,0x14
2.587701666666667,0,0x07,0x01
2.587719666666667,0,0x00,0x01
2.587737750000000,0,0x94,0x01
2.588535291666667,0,0x30,0x92
2.588553333333333,0,0xFF,0x02
2.588571541666667,0,0xFF,0x08
2.590521958333333,0,0xF0,0x13
2.590539958333333,0,0xFF,0x10
2.590558166666667,0,0xFF,0x08
2.592508875000000,0,0xB0,0x12
2.592526875000000,0,0xFF,0x12
2.592545083333333,0,0xFF,0x08
2.594495791666667,0,0xB0,0x12
2.594513833333334,0,0xFF,0x12
2.594532000000000,0,0xFF,0x00
2.596482833333333,0,0xF0,0x02
2.596500833333333,0,0x7F,0x12
2.596519041666667,0,0xFF,0x00
2.598469791666667,0,0x98,0x1A
2.598487833333333,0,0xFF,0x12
2.598506041666667,0,0xFF,0x0C
2.600456708333333,0,0xB0,0x12
2.600474750000000,0,0xFF,0x12
2.600492916666667,0,0xFF,0x08
2.602443541666667,0,0xB0,0x12
2.602461583333334,0,0xFF,0x12
2.602479791666667,0,0xFF,0x08
2.604430541666667,0,0xB0,0x13
2.604448541666667,0,0xFF,0x10
2.604466750000000,0,0xFF,0x08
2.606417583333333,0,0xB0,0x12
2.606435625000000,0,0xFF,0x12
2.606453833333333,0,0xFF,0x08
2.608404791666667,0,0xF0,0x12
2.608422791666666,0,0x7F,0x12
2.608441000000000,0,0xFF,0x08
2.610391916666666,0,0x90,0x12
2.610409958333333,0,0xFF,0x12
2.610428125000000,0,0xFF,0x08
2.612378916666667,0,0xF0,0x13
2.612396916666667,0,0xFF,0x10
2.612415125000000,0,0xFF,0x08
2.614365875000000,0,0xF0,0x12
2.614383875000000,0,0x7F,0x12
2.614402083333333,0,0xFF,0x08
2.616353041666667,0,0xF0,0x12
2.616371041666667,0,0x7F,0x12
2.616389250000000,0,0xFF,0x00
2.618340291666667,0,0xF0,0x02
2.618358291666667,0,0x7F,0x12
2.618376500000000,0,0xFF,0x08
2.618401333333333,0,0x87,0x12
2.618419333333333,0,0xFF,0x00
2.618437541666667,0,0xFF,0x94
2.618458083333334,0,0x87,0x1A
2.618476125000000,0,0x00,0x12
2.618494208333333,0,0x3C,0x12
2.619323750000000,0,0x07,0x01
2.619341750000000,0,0x80,0x81
2.619359833333333,0,0x1E,0x01
2.619380458333334,0,0x34,0x01
2.619398458333333,0,0x80,0x01
2.619416541666667,0,0xC0,0x01
2.619436750000000,0,0x07,0x81
2.619454791666667,0,0xFF,0x00
2.619473000000000,0,0xFF,0x3C
2.619493875000000,0,0x03,0x01
2.619511875000000,0,0x80,0x01
2.619529958333333,0,0xBC,0x01
2.620327708333333,0,0xF0,0x12
2.620345708333333,0,0x7F,0x1A
2.620363916666667,0,0xFF,0x18
2.622314458333333,0,0xF0,0x02
2.622332458333333,0,0x7F,0x12
2.622350666666667,0,0xFF,0x18
2.624301541666667,0,0x90,0x12
2.624319583333333,0,0xFF,0x12
2.624337791666667,0,0xFF,0x18
2.626288625000000,0,0xB0,0x12
2.626306666666667,0,0xFF,0x13
2.626324875000000,0,0xFF,0x18
2.628275708333333,0,0xF0,0x02
2.628293708333334,0,0x7F,0x12
2.628311916666667,0,0xFF,0x18
2.630262875000000,0,0xB0,0x12
2.630280875000000,0,0xFF,0x12
2.630299083333334,0,0xFF,0x18
2.632249875000000,0,0xF0,0x02
2.632267875000000,0,0x7F,0x18
2.632286083333333,0,0xFF,0x18
2.634236750000000,0,0x98,0x1A
2.634254791666667,0,0xFF,0x02
2.634273000000000,0,0xFF,0x18
2.636223791666667,0,0xF0,0x12
2.636241791666667,0,0x7F,0x1A
2.636260000000000,0,0xFF,0x18
2.638210833333333,0,0xB0,0x12
2.638228833333333,0,0xFF,0x12
2.638247041666667,0,0xFF,0x18
2.640197791666667,0,0xB0,0x12
2.640215833333333,0,0xFF,0x12
2.640234041666667,0,0xFF,0x18
2.642184750000000,0,0xF0,0x02
2.642202750000000,0,0x7F,0x12
2.642220958333333,0,0xFF,0x18
2.644171708333333,0,0x98,0x10
2.644189750000000,0,0xFF,0x12
2.644207958333333,0,0xFF,0x18
2.646158833333333,0,0xB0,0x12
2.646176833333334,0,0xFF,0x12
2.646195041666667,0,0xFF,0x18
2.648145875000000,0,0xF0,0x13
2.648163875000000,0,0x7F,0x10
2.648182083333333,0,0xFF,0x18
2.650132791666667,0,0xB0,0x12
2.650150833333333,0,0xFF,0x12
2.650169000000000,0,0xFF,0x18
2.650193833333333,0,0x87,0x12
2.650211833333334,0,0xFF,0x00
2.650230041666667,0,0xFF,0xFC
2.650250583333333,0,0x07,0x12
2.650268625000000,0,0x00,0x12
2.650286666666667,0,0x1E,0x10
2.651116208333333,0,0x07,0x01
2.651134250000000,0,0x00,0x01
2.651152291666667,0,0x1E,0x81
2.651172916666667,0,0x30,0x01
2.651190916666667,0,0x00,0x01
2.651209000000000,0,0x80,0x01
2.651229250000000,0,0xC3,0x00
2.651247250000000,0,0xFF,0x00
2.651265458333333,0,0xFF,0x1E
2.651286333333333,0,0x07,0x01
2.651304375000000,0,0x00,0x01
2.651322416666666,0,0x9E,0x01
2.652119875000000,0,0xF0,0x02
2.652137875000000,0,0x7F,0x1A
2.652156083333333,0,0xFF,0x1E
2.654106833333334,0,0xB0,0x12
2.654124875000000,0,0xFF,0x12
2.654143083333333,0,0xFF,0x0C
2.656093916666667,0,0x98,0x12
2.656111958333333,0,0xFF,0x13
2.656130166666667,0,0xFF,0x1C
2.658080875000000,0,0xB0,0x12
2.658098916666667,0,0xFF,0x12
2.658117125000000,0,0xFF,0x0C
2.660067833333333,0,0xB0,0x12
2.660085875000000,0,0xFF,0x12
2.660104083333333,0,0xFF,0x1C
2.662054833333333,0,0x90,0x12
2.662072875000000,0,0xFF,0x12
2.662091083333333,0,0xFF,0x1C
2.664041875000000,0,0xB0,0x12
2.664059916666667,0,0xFF,0x12
2.664078083333334,0,0xFF,0x1C
2.666028916666667,0,0x98,0x12
2.666046958333333,0,0xFF,0x12
2.666065166666667,0,0xFF,0x1C
2.668016125000000,0,0xF0,0x12
2.668034125000000,0,0x7F,0x1A
2.668052333333333,0,0xFF,0x1E
2.670003208333333,0,0x90,0x12
2.670021250000000,0,0xFF,0x13
2.670039458333333,0,0xFF,0x1C
2.671990375000000,0,0x98,0x10
2.672008416666667,0,0xFF,0x02
2.672026625000000,0,0xFF,0x0C
2.673977416666667,0,0xB0,0x12
2.673995458333333,0,0xFF,0x12
2.674013666666667,0,0xFF,0x0C
2.675964458333334,0,0xF0,0x02
2.675982458333333,0,0x7F,0x12
2.676000666666666,0,0xFF,0x1E
2.677951416666667,0,0x98,0x10
2.677969458333334,0,0xFF,0x12
2.677987666666667,0,0xFF,0x1C
2.679938500000000,0,0xB0,0x13
2.679956500000000,0,0xFF,0x10
2.679974708333333,0,0xFF,0x1C
2.681925625000000,0,0x98,0x18
2.681943666666667,0,0xFF,0x02
2.681961875000000,0,0xFF,0x1C
2.681986666666667,0,0xC3,0x13
2.682004666666667,0,0xFF,0x00
2.682022875000000,0,0xFF,0x9E
2.682043416666667,0,0x87,0x12
2.682061458333334,0,0x00,0x12
2.682079541666667,0,0x47,0x12
2.682909083333334,0,0x03,0x01
2.682927083333333,0,0x80,0x01
2.682945166666667,0,0x46,0x01
2.682965750000000,0,0x1C,0x01
2.682983791666667,0,0xC0,0x01
2.683001833333333,0,0x00,0x81
2.683022083333333,0,0x87,0x01
2.683040125000000,0,0xFF,0x00
2.683058333333333,0,0xFF,0x46
2.683079166666666,0,0x87,0x01
2.683097208333333,0,0x00,0x01
2.683115291666667,0,0xC7,0x01
2.683912708333333,0,0xB0,0x12
2.683930708333333,0,0xFF,0x12
2.683948916666667,0,0xFF,0x0C
2.685899666666667,0,0x98,0x10
2.685917708333333,0,0xFF,0x13
2.685935916666667,0,0xFF,0x0C
2.687886583333333,0,0x98,0x1A
2.687904625000000,0,0xFF,0x12
2.687922833333333,0,0xFF,0x0C
2.689873666666667,0,0xB0,0x12
2.689891708333333,0,0xFF,0x13
2.689909916666667,0,0xFF,0x0C
2.691860833333333,0,0xF0,0x12
2.691878833333333,0,0x7F,0x12
2.691897041666667,0,0xFF,0x0C
2.693847958333333,0,0xB0,0x12
2.693866000000000,0,0xFF,0x12
2.693884166666667,0,0xFF,0x0C
2.695835083333333,0,0xF0,0x02
2.695853083333333,0,0x7F,0x12
2.695871291666667,0,0xFF,0x04
2.697822125000000,0,0x98,0x10
2.697840166666666,0,0xFF,0x02
2.697858375000000,0,0xFF,0x0C
2.699809291666666,0,0xB0,0x12
2.699827333333333,0,0xFF,0x12
2.699845541666666,0,0xFF,0x0C
2.701796500000000,0,0x98,0x10
2.701814541666667,0,0xFF,0x02
2.701832750000000,0,0xFF,0x0C
2.703783666666667,0,0x98,0x10
2.703801708333333,0,0xFF,0x02
2.703819916666667,0,0xFF,0x0C
2.705770833333333,0,0x98,0x1A
2.705788875000000,0,0xFF,0x12
2.705807083333333,0,0xFF,0x0C
2.707758166666667,0,0xB0,0x13
2.707776166666667,0,0x7F,0x1A
2.707794375000000,0,0xFF,0x04
2.709745333333333,0,0xF0,0x12
2.709763333333334,0,0x7F,0x1A
2.709781541666667,0,0xFF,0x06
2.711732416666667,0,0x98,0x1A
2.711750458333333,0,0xFF,0x02
2.711768666666666,0,0xFF,0x0C
2.713719500000000,0,0xB0,0x12
2.713737500000000,0,0xFF,0x12
2.713755708333333,0,0xFF,0x0C
2.713780500000000,0,0x87,0x12
2.713798541666667,0,0xFF,0x00
2.713816750000000,0,0xFF,0xC6
2.713837291666667,0,0x03,0x02
2.713855291666667,0,0x80,0x1A
2.713873375000000,0,0x00,0x12
2.714702958333334,0,0x03,0x00
2.714720958333333,0,0x00,0x01
2.714739041666667,0,0x00,0x01
2.714759625000000,0,0x1E,0x01
2.714777666666667,0,0xC0,0x01
2.714795708333333,0,0x00,0x81
2.714815958333333,0,0x87,0x01
2.714834000000000,0,0xFF,0x00
2.714852208333333,0,0xFF,0x00
2.714873041666667,0,0x87,0x01
2.714891083333333,0,0x00,0x01
2.714909166666667,0,0x80,0x01
2.715706916666667,0,0xF0,0x13
2.715724916666667,0,0x7F,0x1A
2.715743125000000,0,0xFF,0x00
2.717693791666667,0,0xB0,0x12
2.717711833333333,0,0xFF,0x13
2.717730041666667,0,0xFF,0x00
2.719680875000000,0,0xF0,0x02
2.719698875000000,0,0x7F,0x12
2.719717083333333,0,0xFF,0x00
2.721668083333333,0,0xF0,0x02
2.721686083333333,0,0x7F,0x12
2.721704291666667,0,0xFF,0x00
2.723655166666667,0,0xB0,0x12
2.723673208333333,0,0xFF,0x13
2.723691416666667,0,0xFF,0x00
2.725642416666667,0,0x98,0x10
2.725660458333333,0,0xFF,0x02
2.725678666666667,0,0xFF,0x00
2.727629708333333,0,0xB0,0x13
2.727647708333333,0,0x7F,0x1A
2.727665916666667,0,0xFF,0x00
2.729616958333333,0,0xB0,0x12
2.729634958333333,0,0xFF,0x12
2.729653166666667,0,0xFF,0x00
2.731604041666666,0,0xB0,0x12
2.731622083333333,0,0xFF,0x12
2.731640291666667,0,0xFF,0x00
2.733591208333333,0,0xB0,0x12
2.733609250000000,0,0xFF,0x12
2.733627416666667,0,0xFF,0x00
2.735578458333333,0,0x98,0x1A
2.735596500000000,0,0xFF,0x12
2.735614708333333,0,0xFF,0x00
2.737565750000000,0,0xB0,0x12
2.737583791666667,0,0xFF,0x13
2.737602000000000,0,0xFF,0x00
2.739552958333333,0,0xB0,0x12
2.739570958333333,0,0xFF,0x12
2.739589166666667,0,0xFF,0x00
2.741540208333333,0,0xF0,0x02
2.741558208333333,0,0x7F,0x12
2.741576416666667,0,0xFF,0x00
2.743527458333333,0,0xB0,0x12
2.743545458333333,0,0xFF,0x12
2.743563666666667,0,0xFF,0x00
2.745514666666667,0,0x90,0x12
2.745532708333333,0,0xFF,0x12
2.745550916666667,0,0xFF,0x00
2.745575708333333,0,0xC7,0x12
2.745593750000000,0,0xFF,0x00
2.745611916666667,0,0xFF,0x00
2.745632500000000,0,0x03,0x12
2.745650500000000,0,0x80,0x1A
2.745668583333333,0,0x28,0x12
2.746498166666667,0,0x03,0x01
2.746516166666667,0,0x80,0x01
2.746534250000000,0,0x28,0x01
2.746554833333333,0,0x1C,0x01
2.746572875000000,0,0xC0,0x01
2.746590958333333,0,0x80,0x01
2.746611166666667,0,0x07,0x01
2.746629208333333,0,0xFF,0x00
2.746647416666667,0,0xFF,0x28
2.746668291666666,0,0x07,0x01
2.746686291666667,0,0x00,0x01
2.746704375000000,0,0xFC,0x00
2.747501875000000,0,0xB0,0x12
2.747519875000000,0,0xFF,0x10
2.747538083333333,0,0xFF,0x10
2.749489000000000,0,0xF0,0x02
2.749507000000000,0,0x7F,0x1A
2.749525208333333,0,0xFF,0x10
2.751476125000000,0,0xF0,0x02
2.751494125000000,0,0x7F,0x1A
2.751512333333333,0,0xFF,0x10
2.753463250000000,0,0x98,0x18
2.753481291666667,0,0xFF,0x02
2.753499500000000,0,0xFF,0x10
2.755450416666667,0,0xF0,0x02
2.755468416666667,0,0x7F,0x1A
2.755486625000000,0,0xFF,0x18
2.757437625000000,0,0xB0,0x13
2.757455625000000,0,0xFF,0x10
2.757473833333334,0,0xFF,0x10
2.759424625000000,0,0xB0,0x12
2.759442666666667,0,0xFF,0x12
2.759460875000000,0,0xFF,0x10
2.761411833333333,0,0xB0,0x13
2.761429833333333,0,0xFF,0x18
2.761448041666667,0,0xFF,0x10
2.763399208333333,0,0xB0,0x13
2.763417208333333,0,0x7F,0x18
2.763435416666667,0,0xFF,0x10
2.765386458333333,0,0xB0,0x12
2.765404500000000,0,0xFF,0x13
2.765422708333333,0,0xFF,0x10
2.767373541666667,0,0xB0,0x12
2.767391541666667,0,0xFF,0x12
2.767409750000000,0,0xFF,0x10
2.769360666666667,0,0xB0,0x12
2.769378708333333,0,0xFF,0x12
2.769396875000000,0,0xFF,0x10
2.771347833333333,0,0xF0,0x13
2.771365833333333,0,0x7F,0x10
2.771384041666667,0,0xFF,0x10
2.773334958333333,0,0xB0,0x12
2.773352958333333,0,0xFF,0x12
2.773371166666667,0,0xFF,0x10
2.775322041666667,0,0x98,0x12
2.775340083333333,0,0xFF,0x13
2.775358291666667,0,0xFF,0x10
2.777309125000000,0,0xB0,0x12
2.777327166666667,0,0xFF,0x12
2.777345333333333,0,0xFF,0x10
2.777370166666667,0,0x83,0x13
2.777388166666667,0,0xFF,0x00
2.777406375000000,0,0xFF,0xA8
2.777426916666667,0,0x87,0x1A
2.777444958333333,0,0x00,0x12
2.777463041666667,0,0x0B,0x12
2.778292583333333,0,0x07,0x01
2.778310625000000,0,0x00,0x01
2.778328708333333,0,0x0B,0x01
2.778349291666667,0,0x34,0x01
2.778367333333333,0,0x80,0x01
2.778385375000000,0,0x80,0x01
2.778405625000000,0,0xC3,0x01
2.778423625000000,0,0xFF,0x00
2.778441833333333,0,0xFF,0x00
2.778462708333334,0,0x07,0x01
2.778480750000000,0,0x00,0x01
2.778498791666667,0,0x00,0x01
2.779296500000000,0,0x18,0x10
2.779314541666666,0,0xFF,0x02
2.779332750000000,0,0xFF,0x14
2.781283250000000,0,0xB0,0x12
2.781301291666667,0,0xFF,0x12
2.781319500000000,0,0xFF,0x00
2.783270500000000,0,0xB0,0x12
2.783288500000000,0,0xFF,0x10
2.783306708333333,0,0xFF,0x14
2.785257625000000,0,0xF0,0x02
2.785275625000000,0,0x7F,0x1A
2.785293833333333,0,0xFF,0x14
2.787244583333333,0,0xB0,0x12
2.787262625000000,0,0xFF,0x12
2.787280833333333,0,0xFF,0x00
2.789231583333333,0,0xF0,0x12
2.789249583333334,0,0x7F,0x12
2.789267791666667,0,0xFF,0x1C
2.791218541666667,0,0x98,0x1A
2.791236583333333,0,0xFF,0x02
2.791254791666667,0,0xFF,0x14
2.793205625000000,0,0xB0,0x13
2.793223625000000,0,0x7F,0x1A
2.793241833333334,0,0xFF,0x1E
2.795192791666667,0,0xB0,0x12
2.795210791666667,0,0xFF,0x12
2.795229000000000,0,0xFF,0x14
2.797179791666667,0,0xF0,0x12
2.797197791666667,0,0x7F,0x12
2.797216000000000,0,0xFF,0x1E
2.799166791666666,0,0xB0,0x12
2.799184833333333,0,0xFF,0x12
2.799203041666666,0,0xFF,0x14
2.801153750000000,0,0x90,0x12
2.801171791666667,0,0xFF,0x13
2.801190000000000,0,0xFF,0x14
2.803140500000000,0,0x90,0x12
2.803158541666666,0,0xFF,0x12
2.803176750000000,0,0xFF,0x14
2.805127375000000,0,0xF0,0x13
2.805145375000000,0,0x7F,0x10
2.805163583333333,0,0xFF,0x14
2.807114291666667,0,0xB0,0x12
2.807132333333333,0,0xFF,0x12
2.807150541666667,0,0xFF,0x14
2.809101333333333,0,0xF0,0x02
2.809119333333333,0,0x7F,0x1A
2.809137541666667,0,0xFF,0x14
2.809162333333334,0,0x87,0x18
2.809180375000000,0,0xFF,0x00
2.809198583333333,0,0xFF,0x8B
2.809219125000000,0,0x07,0x12
2.809237125000000,0,0x80,0x12
2.809255208333334,0,0x32,0x12
2.810084791666667,0,0x03,0x01
2.810102791666667,0,0x80,0x01
2.810120875000000,0,0x30,0x01
2.810141458333333,0,0x34,0x81
2.810159500000000,0,0x80,0x01
2.810177583333333,0,0x80,0x00
2.810197791666667,0,0x07,0x01
2.810215833333333,0,0xFF,0x00
2.810234041666666,0,0xFF,0x32
2.810254916666667,0,0x03,0x00
2.810272916666666,0,0x00,0x01
2.810291000000000,0,0xF2,0x01
2.811088708333333,0,0xF0,0x02
2.811106708333333,0,0x7F,0x12
2.811124916666667,0,0xFF,0x06
2.813075500000000,0,0xB0,0x12
2.813093541666666,0,0xFF,0x12
2.813111750000000,0,0xFF,0x04
2.815062708333333,0,0xF0,0x02
2.815080708333333,0,0x7F,0x12
2.815098916666666,0,0xFF,0x04
2.817049791666667,0,0x98,0x1A
2.817067833333333,0,0xFF,0x02
2.817086041666667,0,0xFF,0x04
2.819036833333334,0,0xB0,0x12
2.819054875000000,0,0xFF,0x12
2.819073083333334,0,0xFF,0x04
2.821023791666667,0,0xB0,0x12
2.821041791666667,0,0x7F,0x12
2.821060000000000,0,0xFF,0x06
2.823010750000000,0,0xF0,0x12
2.823028750000000,0,0x7F,0x12
2.823046958333333,0,0xFF,0x06
2.824997666666667,0,0x98,0x1A
2.825015708333333,0,0xFF,0x02
2.825033916666666,0,0xFF,0x00
2.826984750000000,0,0xB0,0x12
2.827002750000000,0,0x7F,0x12
2.827020958333333,0,0xFF,0x04
2.828971750000000,0,0xB0,0x12
2.828989791666667,0,0xFF,0x12
2.829008000000000,0,0xFF,0x00
2.830958708333333,0,0xB0,0x12
2.830976708333333,0,0xFF,0x12
2.830994916666667,0,0xFF,0x04
2.832945750000000,0,0x98,0x10
2.832963791666667,0,0xFF,0x02
2.832982000000000,0,0xFF,0x04
2.834932875000000,0,0xB0,0x12
2.834950916666667,0,0xFF,0x13
2.834969125000000,0,0xFF,0x04
2.836919916666667,0,0xB0,0x12
2.836937916666667,0,0xFF,0x12
2.836956125000000,0,0xFF,0x00
2.838906750000000,0,0x98,0x1A
2.838924791666666,0,0xFF,0x12
2.838943000000000,0,0xFF,0x00
2.840893750000000,0,0xF0,0x13
2.840911750000000,0,0xFF,0x10
2.840929958333333,0,0xFF,0x04
2.840954750000000,0,0x87,0x10
2.840972791666667,0,0xFF,0x00
2.840991000000000,0,0xFF,0xB3
2.841011541666667,0,0x07,0x12
2.841029541666667,0,0x80,0x12
2.841047625000000,0,0x16,0x12
2.841877166666666,0,0x07,0x01
2.841895208333333,0,0x00,0x01
2.841913291666667,0,0x00,0x01
2.841933875000000,0,0x1E,0x01
2.841951916666666,0,0xC0,0x01
2.841969958333333,0,0x00,0x81
2.841990208333333,0,0x87,0x01
2.842008250000000,0,0xFF,0x00
2.842026458333333,0,0xFF,0x14
2.842047291666667,0,0x87,0x01
2.842065333333333,0,0x00,0x01
2.842083416666667,0,0x80,0x00
2.842881125000000,0,0xB0,0x12
2.842899125000000,0,0xFF,0x12
2.842917333333333,0,0xFF,0x08
2.844867791666667,0,0xF0,0x13
2.844885791666667,0,0xFF,0x12
2.844904000000000,0,0xFF,0x08
2.846854583333333,0,0xB0,0x12
2.846872583333333,0,0xFF,0x12
2.846890791666667,0,0xFF,0x08
2.848841500000000,0,0xB0,0x12
2.848859541666667,0,0xFF,0x12
2.848877708333333,0,0xFF,0x08
2.850828500000000,0,0xB0,0x12
2.850846500000000,0,0x7F,0x12
2.850864708333333,0,0xFF,0x00
2.852815416666667,0,0xB0,0x12
2.852833458333333,0,0xFF,0x12
2.852851625000000,0,0xFF,0x00
2.854802500000000,0,0xB0,0x12
2.854820541666667,0,0xFF,0x13
2.854838750000000,0,0xFF,0x08
2.856789500000000,0,0xB0,0x12
2.856807541666667,0,0xFF,0x12
2.856825750000000,0,0xFF,0x08
2.858776458333333,0,0x98,0x1A
2.858794500000000,0,0xFF,0x02
2.858812708333333,0,0xFF,0x08
2.860763416666666,0,0xB0,0x12
2.860781416666667,0,0xFF,0x12
2.860799625000000,0,0xFF,0x08
2.862750250000000,0,0xB0,0x13
2.862768250000000,0,0xFF,0x10
2.862786458333333,0,0xFF,0x08
2.864737125000000,0,0xB0,0x12
2.864755166666667,0,0xFF,0x13
2.864773375000000,0,0xFF,0x08
2.866724083333333,0,0xB0,0x12
2.866742083333333,0,0x7F,0x1A
2.866760291666667,0,0xFF,0x08
2.868711000000000,0,0xB0,0x12
2.868729041666667,0,0xFF,0x12
2.868747250000000,0,0xFF,0x08
2.870698000000000,0,0xB0,0x12
2.870716041666667,0,0xFF,0x12
2.870734250000000,0,0xFF,0x0C
2.872684958333333,0,0xF0,0x12
2.872703000000000,0,0xFF,0x12
2.872721166666667,0,0xFF,0x08
2.872746000000000,0,0x87,0x12
2.872764000000000,0,0xFF,0x00
2.872782208333333,0,0xFF,0xC0
2.872802750000000,0,0x07,0x12
2.872820791666667,0,0x00,0x12
2.872838833333333,0,0x1E,0x10
2.873668375000000,0,0x03,0x00
2.873686375000000,0,0x00,0x01
2.873704458333334,0,0x3C,0x01
2.873725041666667,0,0x1E,0x01
2.873743083333333,0,0xC0,0x01
2.873761125000000,0,0x00,0x01
2.873781375000000,0,0x87,0x01
2.873799416666666,0,0xFF,0x00
2.873817583333333,0,0xFF,0x1E
2.873838458333333,0,0x07,0x01
2.873856500000000,0,0x00,0x00
2.873874541666666,0,0x1E,0x01
2.874671916666667,0,0xB0,0x12
2.874689958333333,0,0xFF,0x12
2.874708125000000,0,0xFF,0x18
2.876658875000000,0,0xB0,0x12
2.876676916666667,0,0xFF,0x12
2.876695083333333,0,0xFF,0x18
2.878645875000000,0,0xB0,0x12
2.878663916666667,0,0xFF,0x12
2.878682125000000,0,0xFF,0x1C
2.880633000000000,0,0xB0,0x12
2.880651041666667,0,0xFF,0x13
2.880669250000000,0,0xFF,0x18
2.882619958333333,0,0xB0,0x12
2.882638000000000,0,0xFF,0x12
2.882656166666667,0,0xFF,0x18
2.884607041666666,0,0xB0,0x12
2.884625083333333,0,0xFF,0x12
2.884643291666667,0,0xFF,0x0C
2.886594041666667,0,0xF0,0x02
2.886612041666667,0,0x7F,0x18
2.886630250000000,0,0xFF,0x18
2.888581083333333,0,0xB0,0x12
2.888599083333333,0,0xFF,0x12
2.888617291666667,0,0xFF,0x18
2.890568125000000,0,0x98,0x10
2.890586166666667,0,0xFF,0x12
2.890604375000000,0,0xFF,0x18
2.892555083333333,0,0x98,0x12
2.892573125000000,0,0xFF,0x13
2.892591333333333,0,0xFF,0x18
2.894542000000000,0,0x98,0x18
2.894560041666667,0,0xFF,0x02
2.894578250000000,0,0xFF,0x18
2.896528958333333,0,0x98,0x1A
2.896547000000000,0,0xFF,0x02
2.896565208333334,0,0xFF,0x18
2.898515916666667,0,0xB0,0x12
2.898533958333333,0,0xFF,0x12
2.898552166666667,0,0xFF,0x18
2.900503041666667,0,0xB0,0x12
2.900521083333333,0,0xFF,0x12
2.900539250000000,0,0xFF,0x18
2.902490166666666,0,0xF0,0x12
2.902508166666667,0,0x7F,0x12
2.902526375000000,0,0xFF,0x18
2.904477291666667,0,0xF0,0x02
2.904495291666667,0,0x7F,0x12
2.904513500000000,0,0xFF,0x18
2.904538291666667,0,0x87,0x12
2.904556333333333,0,0xFF,0x00
2.904574541666667,0,0xFF,0xFC
2.904595083333333,0,0x07,0x12
2.904613125000000,0,0x00,0x13
2.904631166666667,0,0x1E,0x12
2.905460791666667,0,0x03,0x01
2.905478791666666,0,0x80,0x01
2.905496875000000,0,0x1E,0x01
2.905517458333333,0,0x1C,0x01
2.905535500000000,0,0xC0,0x01
2.905553541666666,0,0x00,0x81
2.905573791666667,0,0x87,0x01
2.905591833333333,0,0xFF,0x00
2.905610041666667,0,0xFF,0x1E
2.905630875000000,0,0x87,0x01
2.905648916666667,0,0x00,0x01
2.905667000000000,0,0x9F,0x01
2.906464416666667,0,0x30,0x92
2.906482458333334,0,0xFF,0x12
2.906500666666667,0,0xFF,0x1C
2.908451458333333,0,0xB0,0x12
2.908469500000000,0,0xFF,0x12
2.908487708333333,0,0xFF,0x0C
2.910438541666667,0,0xB0,0x12
2.910456583333333,0,0xFF,0x12
2.910474791666667,0,0xFF,0x1C
2.912425541666666,0,0xF0,0x02
2.912443541666667,0,0x7F,0x1A
2.912461750000000,0,0xFF,0x1C
2.914412416666667,0,0x98,0x10
2.914430458333333,0,0xFF,0x02
2.914448666666666,0,0xFF,0x1C
2.916399375000000,0,0xF0,0x12
2.916417375000000,0,0x7F,0x12
2.916435583333334,0,0xFF,0x1C
2.918386291666667,0,0xB0,0x12
2.918404333333333,0,0xFF,0x12
2.918422541666667,0,0xFF,0x0C
2.920373291666666,0,0xB0,0x12
2.920391333333333,0,0xFF,0x12
2.920409500000000,0,0xFF,0x1C
2.922360208333334,0,0x98,0x18
2.922378250000000,0,0xFF,0x13
2.922396458333334,0,0xFF,0x1C
2.924347166666667,0,0xB0,0x12
2.924365166666667,0,0xFF,0x10
2.924383375000000,0,0xFF,0x1C
2.926334166666666,0,0xF0,0x12
2.926352166666667,0,0x7F,0x12
2.926370375000000,0,0xFF,0x1C
2.928321416666666,0,0x90,0x12
2.928339458333333,0,0xFF,0x12
2.928357666666667,0,0xFF,0x1C
2.930308041666667,0,0xB0,0x12
2.930326083333334,0,0xFF,0x12
2.930344250000000,0,0xFF,0x1E
2.932294916666667,0,0x98,0x12
2.932312958333333,0,0xFF,0x12
2.932331166666667,0,0xFF,0x1C
2.934282000000000,0,0xB0,0x12
2.934300041666666,0,0xFF,0x12
2.934318250000000,0,0xFF,0x0C
2.936269083333333,0,0xB0,0x12
2.936287083333333,0,0x7F,0x12
2.936305291666667,0,0xFF,0x1C
2.936330125000000,0,0x87,0x12
2.936348125000000,0,0xFF,0x00
2.936366333333333,0,0xFF,0x9E
2.936386875000000,0,0x87,0x12
2.936404916666667,0,0x00,0x12
2.936423000000000,0,0x43,0x12
2.937252500000000,0,0x07,0x01
2.937270541666666,0,0x00,0x01
2.937288625000000,0,0x47,0x01
2.937309208333333,0,0x34,0x01
2.937327208333333,0,0x00,0x81
2.937345291666666,0,0x80,0x01
2.937365541666667,0,0xC3,0x00
2.937383541666667,0,0xFF,0x00
2.937401750000000,0,0xFF,0x46
2.937422625000000,0,0x07,0x01
2.937440666666667,0,0x00,0x01
2.937458708333333,0,0x66,0x01
2.938256166666667,0,0x18,0x18
2.938274208333334,0,0xFF,0x02
2.938292416666667,0,0xFF,0x0C
2.940243333333334,0,0xB0,0x13
2.940261333333333,0,0xFF,0x10
2.940279541666666,0,0xFF,0x0C
2.942230166666667,0,0xB0,0x12
2.942248208333333,0,0xFF,0x12
2.942266416666667,0,0xFF,0x0C
2.944217291666666,0,0xF0,0x12
2.944235291666667,0,0x7F,0x1A
2.944253500000000,0,0xFF,0x0E
2.946204375000000,0,0x98,0x18
2.946222416666667,0,0xFF,0x02
2.946240625000000,0,0xFF,0x0C
2.948191375000000,0,0x98,0x12
2.948209416666667,0,0xFF,0x13
2.948227625000000,0,0xFF,0x0C
2.950178333333333,0,0xB0,0x12
2.950196333333333,0,0xFF,0x12
2.950214541666667,0,0xFF,0x0C
2.952165250000000,0,0x98,0x10
2.952183291666667,0,0xFF,0x13
2.952201500000000,0,0xFF,0x0C
2.954152333333333,0,0xF0,0x02
2.954170333333333,0,0x7F,0x12
2.954188541666666,0,0xFF,0x0E
2.956139166666667,0,0xB0,0x12
2.956157208333333,0,0xFF,0x12
2.956175375000000,0,0xFF,0x06
2.958126125000000,0,0xB0,0x12
2.958144125000000,0,0xFF,0x12
2.958162333333333,0,0xFF,0x0C
2.960113041666667,0,0x98,0x1A
2.960131083333333,0,0xFF,0x02
2.960149291666667,0,0xFF,0x0C
2.962100125000000,0,0xF0,0x12
2.962118125000000,0,0x7F,0x18
2.962136333333333,0,0xFF,0x0C
2.964087041666667,0,0xB0,0x12
2.964105083333333,0,0xFF,0x12
2.964123291666667,0,0xFF,0x0C
2.966074041666667,0,0xB0,0x12
2.966092083333333,0,0xFF,0x13
2.966110291666667,0,0xFF,0x0C
2.968061041666667,0,0x98,0x18
2.968079083333333,0,0xFF,0x02
2.968097291666667,0,0xFF,0x0C
2.968122083333333,0,0xC3,0x02
2.968140083333333,0,0xFF,0x00
2.968158291666667,0,0xFF,0xC6
2.968178875000000,0,0x07,0x12
2.968196875000000,0,0x00,0x10
2.968214958333333,0,0x00,0x02
2.969044500000000,0,0x07,0x01
2.969062541666667,0,0x00,0x01
2.969080625000000,0,0x00,0x01
2.969101208333333,0,0x34,0x01
2.969119208333333,0,0x00,0x81
2.969137291666667,0,0x80,0x01
2.969157541666667,0,0xC3,0x01
2.969175541666667,0,0xFF,0x00
2.969193750000000,0,0xFF,0x00
2.969214625000000,0,0x07,0x01
2.969232666666667,0,0x00,0x01
2.969250708333333,0,0x00,0x01
2.970048208333333,0,0xB0,0x12
2.970066208333333,0,0xFF,0x12
2.970084416666666,0,0xFF,0x00
2.972035250000000,0,0xF0,0x02
2.972053250000000,0,0x7F,0x1A
2.972071458333333,0,0xFF,0x00
2.974022375000000,0,0xB0,0x12
2.974040416666667,0,0xFF,0x13
2.974058625000000,0,0xFF,0x00
2.976009583333334,0,0xF0,0x02
2.976027583333333,0,0x7F,0x12
2.976045791666666,0,0xFF,0x00
2.977996500000000,0,0x98,0x12
2.978014541666667,0,0xFF,0x12
2.978032708333333,0,0xFF,0x00
2.979983416666667,0,0xB0,0x12
2.980001416666667,0,0xFF,0x12
2.980019625000000,0,0xFF,0x00
2.981970416666667,0,0x98,0x10
2.981988458333333,0,0xFF,0x02
2.982006666666666,0,0xFF,0x00
2.983957416666667,0,0xF0,0x13
2.983975416666667,0,0x7F,0x10
2.983993625000000,0,0xFF,0x00
2.985944333333333,0,0x90,0x12
2.985962375000000,0,0xFF,0x13
2.985980583333333,0,0xFF,0x00
2.987931291666666,0,0x98,0x10
2.987949333333333,0,0xFF,0x13
2.987967541666666,0,0xFF,0x00
2.989918166666667,0,0xB0,0x12
2.989936208333333,0,0xFF,0x12
2.989954416666667,0,0xFF,0x00
2.991905208333333,0,0xB0,0x12
2.991923250000000,0,0xFF,0x12
2.991941416666667,0,0xFF,0x00
2.993892208333333,0,0xF0,0x13
2.993910208333333,0,0x7F,0x18
2.993928416666667,0,0xFF,0x00
2.995879041666667,0,0xB0,0x12
2.995897083333333,0,0xFF,0x12
2.995915250000000,0,0xFF,0x00
2.997866000000000,0,0xB0,0x12
2.997884000000000,0,0xFF,0x12
2.997902208333334,0,0xFF,0x00
2.999853000000000,0,0xB0,0x12
2.999871000000000,0,0xFF,0x10
2.999889208333333,0,0xFF,0x00
2.999914000000000,0,0x87,0x10
2.999932041666667,0,0xFF,0x00
2.999950250000000,0,0xFF,0x80
2.999970791666667,0,0x07,0x12
2.999988791666667,0,0x80,0x12
3.000006875000000,0,0x20,0x12
3.000836458333333,0,0x03,0x01
3.000854458333333,0,0x80,0x01
3.000872541666667,0,0x28,0x01
3.000893125000000,0,0x34,0x81
3.000911166666667,0,0x80,0x01
3.000929250000000,0,0x80,0x01
3.000949458333333,0,0x07,0x01
3.000967500000000,0,0xFF,0x00
3.000985708333333,0,0xFF,0x3C
3.001006583333333,0,0x03,0x00
3.001024583333333,0,0x00,0x01
3.001042666666667,0,0xF8,0x01
3.001840125000000,0,0xB0,0x12
3.001858125000000,0,0xFF,0x12
3.001876333333333,0,0xFF,0x10
3.003827166666666,0,0x98,0x18
3.003845208333333,0,0xFF,0x12
3.003863416666666,0,0xFF,0x00
3.005814333333333,0,0xB0,0x12
3.005832333333333,0,0xFF,0x12
3.005850541666667,0,0xFF,0x10
3.007801291666667,0,0xB0,0x12
3.007819333333333,0,0xFF,0x12
3.007837500000000,0,0xFF,0x10
3.009788333333333,0,0xB0,0x12
3.009806333333333,0,0xFF,0x12
3.009824541666667,0,0xFF,0x10
3.011775416666667,0,0xB0,0x12
3.011793458333333,0,0xFF,0x13
3.011811666666667,0,0xFF,0x10
3.013762500000000,0,0x90,0x12
3.013780541666667,0,0xFF,0x12
3.013798750000000,0,0xFF,0x10
3.015749666666667,0,0xF0,0x02
3.015767666666667,0,0x7F,0x12
3.015785875000000,0,0xFF,0x18
3.017736666666667,0,0x98,0x12
3.017754708333333,0,0xFF,0x13
3.017772916666666,0,0xFF,0x10
3.019723750000000,0,0x98,0x10
3.019741791666667,0,0xFF,0x12
3.019760000000000,0,0xFF,0x10
3.021710875000000,0,0xB0,0x13
3.021728875000000,0,0x7F,0x1A
3.021747083333334,0,0xFF,0x10
3.023697916666667,0,0xF0,0x13
3.023715916666667,0,0x7F,0x10
3.023734125000000,0,0xFF,0x10
3.025684916666667,0,0xB0,0x12
3.025702916666666,0,0xFF,0x12
3.025721125000000,0,0xFF,0x00
3.027671875000000,0,0xB0,0x12
3.027689916666667,0,0xFF,0x12
3.027708083333333,0,0xFF,0x10
3.029658750000000,0,0x98,0x10
3.029676791666667,0,0xFF,0x12
3.029695000000000,0,0xFF,0x10
3.031645708333333,0,0xF0,0x13
3.031663708333333,0,0xFF,0x10
3.031681916666667,0,0xFF,0x10
3.031706708333334,0,0x87,0x12
3.031724750000000,0,0xFF,0x00
3.031742916666667,0,0xFF,0x28
3.031763500000000,0,0x03,0x12
3.031781500000000,0,0x00,0x12
3.031799583333334,0,0x0F,0x13
3.032629083333333,0,0x07,0x01
3.032647125000000,0,0x00,0x01
3.032665166666667,0,0x00,0x01
3.032685750000000,0,0x34,0x81
3.032703791666667,0,0xC0,0x01
3.032721833333333,0,0x00,0x81
3.032742083333333,0,0x87,0x01
3.032760125000000,0,0xFF,0x00
3.032778333333333,0,0xFF,0x0A
3.032799166666666,0,0x87,0x01
3.032817208333333,0,0x00,0x01
3.032835250000000,0,0x0A,0x81
3.033632791666667,0,0x30,0x92
3.033650833333333,0,0xFF,0x12
3.033669041666667,0,0xFF,0x00
3.035619541666667,0,0xB0,0x12
3.035637541666667,0,0xFF,0x12
3.035655750000000,0,0xFF,0x14
3.037606458333333,0,0x98,0x1A
3.037624500000000,0,0xFF,0x02
3.037642708333333,0,0xFF,0x10
3.039593500000000,0,0x98,0x1A
3.039611541666666,0,0xFF,0x02
3.039629750000000,0,0xFF,0x10
3.041580625000000,0,0xF0,0x02
3.041598625000000,0,0x7F,0x12
3.041616833333333,0,0xFF,0x1C
3.043567708333333,0,0x98,0x12
3.043585750000000,0,0xFF,0x12
3.043603958333333,0,0xFF,0x14
3.045554791666667,0,0xB0,0x13
3.045572791666667,0,0x7F,0x18
3.045591000000000,0,0xFF,0x14
3.047541750000000,0,0xB0,0x12
3.047559791666667,0,0xFF,0x12
3.047578000000000,0,0xFF,0x00
3.049528666666667,0,0x90,0x12
3.049546708333333,0,0xFF,0x12
3.049564875000000,0,0xFF,0x14
3.051515583333333,0,0xF0,0x02
3.051533583333333,0,0x7F,0x1A
3.051551791666667,0,0xFF,0x14
3.053502625000000,0,0x98,0x12
3.053520666666667,0,0xFF,0x12
3.053538875000000,0,0xFF,0x14
3.055489750000000,0,0xB0,0x12
3.055507791666667,0,0xFF,0x02
3.055526000000000,0,0xFF,0x10
3.057477041666667,0,0xF0,0x02
3.057495041666667,0,0x7F,0x1A
3.057513250000000,0,0xFF,0x1E
3.059464250000000,0,0xB0,0x12
3.059482250000000,0,0xFF,0x12
3.059500458333333,0,0xFF,0x14
3.061451458333333,0,0xF0,0x12
3.061469500000000,0,0xFF,0x12
3.061487666666667,0,0xFF,0x14
3.063438625000000,0,0xB0,0x12
3.063456666666667,0,0xFF,0x12
3.063474875000000,0,0xFF,0x14
3.063499666666667,0,0x83,0x13
3.063517666666667,0,0xFF,0x00
3.063535875000000,0,0xFF,0x8A
3.063556416666667,0,0x87,0x18
3.063574458333334,0,0x00,0x02
3.063592500000000,0,0x32,0x12
3.064422083333334,0,0x07,0x01
3.064440125000000,0,0x00,0x01
3.064458208333333,0,0x33,0x00
3.064478791666667,0,0x34,0x01
3.064496833333333,0,0x80,0x00
3.064514875000000,0,0x00,0x01
3.064535125000000,0,0x87,0x01
3.064553125000000,0,0xFF,0x80
3.064571333333333,0,0xFF,0x32
3.064592208333333,0,0x87,0x01
3.064610250000000,0,0x00,0x01
3.064628291666667,0,0x32,0x81
3.065425708333333,0,0xF0,0x02
3.065443708333333,0,0x7F,0x18
3.065461916666667,0,0xFF,0x04
3.067412708333333,0,0xB0,0x12
3.067430750000000,0,0xFF,0x13
3.067448958333333,0,0xFF,0x04
3.069399625000000,0,0xB0,0x12
3.069417666666667,0,0xFF,0x12
3.069435875000000,0,0xFF,0x00
3.071386625000000,0,0xF0,0x13
3.071404625000000,0,0x7F,0x18
3.071422833333334,0,0xFF,0x04
3.073373500000000,0,0xB0,0x12
3.073391500000000,0,0xFF,0x12
3.073409708333333,0,0xFF,0x00
3.075360375000000,0,0xB0,0x12
3.075378416666667,0,0xFF,0x12
3.075396625000000,0,0xFF,0x00
3.077347291666667,0,0xB0,0x12
3.077365333333333,0,0xFF,0x12
3.077383541666667,0,0xFF,0x04
3.079334250000000,0,0xB0,0x12
3.079352291666666,0,0xFF,0x12
3.079370458333333,0,0xFF,0x04
3.081321208333333,0,0x90,0x12
3.081339250000000,0,0xFF,0x12
3.081357458333333,0,0xFF,0x00
3.083308166666667,0,0xB0,0x12
3.083326166666667,0,0xFF,0x12
3.083344375000000,0,0xFF,0x04
3.085295041666666,0,0xF0,0x02
3.085313041666667,0,0x7F,0x12
3.085331250000000,0,0xFF,0x06
3.087282083333333,0,0xB0,0x12
3.087300083333334,0,0xFF,0x12
3.087318291666667,0,0xFF,0x04
3.089268958333333,0,0x98,0x18
3.089287000000000,0,0xFF,0x02
3.089305208333333,0,0xFF,0x04
3.091255875000000,0,0x98,0x12
3.091273916666667,0,0xFF,0x12
3.091292083333333,0,0xFF,0x04
3.093242750000000,0,0x98,0x18
3.093260791666667,0,0xFF,0x02
3.093279000000000,0,0xFF,0x04
3.095229625000000,0,0xF0,0x13
3.095247625000000,0,0xFF,0x10
3.095265833333333,0,0xFF,0x04
3.095290625000000,0,0x87,0x12
3.095308666666666,0,0xFF,0x00
3.095326833333333,0,0xFF,0x32
3.095347416666667,0,0x03,0x12
3.095365416666667,0,0x00,0x12
3.095383500000000,0,0x00,0x13
3.096212958333334,0,0x07,0x01
3.096231000000000,0,0x00,0x00
3.096249041666667,0,0x1C,0x01
3.096269666666667,0,0x30,0x01
3.096287666666667,0,0x80,0x01
3.096305750000000,0,0xC0,0x00
3.096325958333333,0,0x07,0x01
3.096344000000000,0,0xFF,0x00
3.096362208333333,0,0xFF,0x14
3.096383041666666,0,0x87,0x01
3.096401083333333,0,0x00,0x01
3.096419125000000,0,0x14,0x81
3.097216458333333,0,0xF0,0x02
3.097234458333333,0,0x7F,0x18
3.097252666666667,0,0xFF,0x08
3.099203166666667,0,0xB0,0x12
3.099221166666667,0,0xFF,0x12
3.099239375000000,0,0xFF,0x0C
3.101190000000000,0,0x98,0x1A
3.101208041666667,0,0xFF,0x02
3.101226250000000,0,0xFF,0x08
3.103176875000000,0,0x98,0x18
3.103194916666667,0,0xFF,0x13
3.103213125000000,0,0xFF,0x08
3.105163666666667,0,0x98,0x12
3.105181708333333,0,0xFF,0x13
3.105199916666667,0,0xFF,0x08
3.107150416666667,0,0xB0,0x12
3.107168416666667,0,0x7F,0x12
3.107186625000000,0,0xFF,0x08
3.109137166666667,0,0x98,0x18
3.109155208333333,0,0xFF,0x02
3.109173416666667,0,0xFF,0x08
3.111123916666667,0,0xF0,0x12
3.111141916666667,0,0x7F,0x12
3.111160125000000,0,0xFF,0x08
3.113110625000000,0,0xB0,0x12
3.113128625000000,0,0xFF,0x12
3.113146833333333,0,0xFF,0x0C
3.115097208333333,0,0x98,0x12
3.115115250000000,0,0xFF,0x13
3.115133458333333,0,0xFF,0x08
3.117083916666667,0,0xB0,0x12
3.117101958333333,0,0xFF,0x12
3.117120125000000,0,0xFF,0x08
3.119070791666667,0,0x98,0x1A
3.119088833333334,0,0xFF,0x12
3.119107041666667,0,0xFF,0x0C
3.121057625000000,0,0xF0,0x13
3.121075625000000,0,0xFF,0x10
3.121093833333333,0,0xFF,0x08
3.123044458333333,0,0xB0,0x12
3.123062500000000,0,0xFF,0x12
3.123080708333333,0,0xFF,0x08
3.125031375000000,0,0xF0,0x13
3.125049375000000,0,0xFF,0x12
3.125067583333333,0,0xFF,0x08
3.127018250000000,0,0xB0,0x12
3.127036250000000,0,0xFF,0x12
3.127054458333333,0,0xFF,0x08
3.127079250000000,0,0x87,0x12
3.127097250000000,0,0xFF,0x00
3.127115458333333,0,0xFF,0x9E
3.127136041666667,0,0x07,0x12
3.127154041666667,0,0x00,0x12
3.127172125000000,0,0x3C,0x12
3.128001625000000,0,0x07,0x01
3.128019625000000,0,0x00,0x01
3.128037708333333,0,0x3C,0x01
3.128058291666667,0,0x34,0x01
3.128076291666666,0,0x00,0x81
3.128094375000000,0,0x80,0x01
3.128114625000000,0,0x83,0x00
3.128132625000000,0,0xFF,0x00
3.128150833333333,0,0xFF,0x3C
3.128171708333333,0,0x07,0x01
3.128189708333333,0,0x80,0x81
3.128207791666667,0,0xBE,0x01
3.129005166666667,0,0x10,0x12
3.129023208333333,0,0xFF,0x12
3.129041416666666,0,0xFF,0x18
3.130992125000000,0,0xF0,0x02
3.131010125000000,0,0x7F,0x18
3.131028333333334,0,0xFF,0x18
3.132979166666667,0,0xF0,0x12
3.132997166666667,0,0x7F,0x1A
3.133015375000000,0,0xFF,0x18
3.134966083333333,0,0xF0,0x02
3.134984083333333,0,0x7F,0x1A
3.135002291666667,0,0xFF,0x18
3.136953041666667,0,0xB0,0x12
3.136971083333334,0,0xFF,0x12
3.136989291666667,0,0xFF,0x0C
3.138939958333333,0,0x98,0x12
3.138958000000000,0,0xFF,0x13
3.138976208333333,0,0xFF,0x18
3.140926875000000,0,0xB0,0x12
3.140944916666667,0,0xFF,0x12
3.140963083333333,0,0xFF,0x18
3.142913833333334,0,0xB0,0x12
3.142931833333333,0,0x7F,0x12
3.142950041666666,0,0xFF,0x18
3.144900666666667,0,0xB0,0x12
3.144918666666667,0,0x7F,0x1A
3.144936875000000,0,0xFF,0x18
3.146887500000000,0,0xB0,0x12
3.146905541666666,0,0xFF,0x12
3.146923708333333,0,0xFF,0x18
3.148874416666667,0,0x98,0x1A
3.148892458333334,0,0xFF,0x02
3.148910666666667,0,0xFF,0x18
3.150861458333333,0,0x98,0x10
3.150879500000000,0,0xFF,0x02
3.150897708333333,0,0xFF,0x18
3.152848375000000,0,0xB0,0x12
3.152866416666666,0,0xFF,0x12
3.152884625000000,0,0xFF,0x18
3.154835208333334,0,0xB0,0x12
3.154853208333333,0,0x7F,0x12
3.154871416666666,0,0xFF,0x18
3.156822166666667,0,0xB0,0x13
3.156840166666667,0,0xFF,0x10
3.156858375000000,0,0xFF,0x18
3.158809083333333,0,0x98,0x10
3.158827125000000,0,0xFF,0x12
3.158845333333333,0,0xFF,0x18
3.158870125000000,0,0xC3,0x13
3.158888125000000,0,0xFF,0x00
3.158906333333333,0,0xFF,0xBC
3.158926875000000,0,0x87,0x18
3.158944916666667,0,0x00,0x02
3.158962958333333,0,0x1E,0x18
3.159792416666667,0,0x07,0x01
3.159810458333333,0,0x00,0x01
3.159828541666667,0,0x1F,0x01
3.159849125000000,0,0x30,0x01
3.159867125000000,0,0x00,0x01
3.159885208333333,0,0x80,0x01
3.159905458333333,0,0x87,0x01
3.159923458333334,0,0xFF,0x00
3.159941666666667,0,0xFF,0x1E
3.159962541666667,0,0x03,0x00
3.159980541666667,0,0x00,0x01
3.159998625000000,0,0xCE,0x01
3.160795916666667,0,0xB0,0x12
3.160813916666667,0,0x7F,0x12
3.160832125000000,0,0xFF,0x1E
3.162782791666667,0,0xB0,0x12
3.162800791666667,0,0xFF,0x12
3.162819000000000,0,0xFF,0x1C
3.164769500000000,0,0xB0,0x12
3.164787541666667,0,0xFF,0x12
3.164805750000000,0,0xFF,0x1C
3.166756166666667,0,0x98,0x1A
3.166774208333333,0,0xFF,0x02
3.166792416666667,0,0xFF,0x1C
3.168742875000000,0,0xB0,0x12
3.168760875000000,0,0xFF,0x12
3.168779083333333,0,0xFF,0x0C
3.170729750000000,0,0xB0,0x12
3.170747791666667,0,0xFF,0x12
3.170766000000000,0,0xFF,0x0C
3.172716708333333,0,0x98,0x12
3.172734750000000,0,0xFF,0x12
3.172752916666667,0,0xFF,0x1C
3.174703416666667,0,0xF0,0x13
3.174721416666667,0,0x7F,0x10
3.174739625000000,0,0xFF,0x1C
3.176690208333333,0,0xB0,0x12
3.176708208333333,0,0xFF,0x12
3.176726416666667,0,0xFF,0x1C
3.178676958333333,0,0x98,0x10
3.178695000000000,0,0xFF,0x13
3.178713208333333,0,0xFF,0x1C
3.180663833333333,0,0xB0,0x12
3.180681833333333,0,0x7F,0x12
3.180700041666667,0,0xFF,0x1C
3.182650541666667,0,0xF0,0x13
3.182668541666667,0,0xFF,0x12
3.182686750000000,0,0xFF,0x1C
3.184637291666667,0,0xF0,0x03
3.184655291666667,0,0x7F,0x12
3.184673500000000,0,0xFF,0x1C
3.186624125000000,0,0xB0,0x12
3.186642125000000,0,0xFF,0x12
3.186660333333333,0,0xFF,0x1C
3.188611000000000,0,0xF0,0x02
3.188629000000000,0,0x7F,0x12
3.188647208333333,0,0xFF,0x1E
3.190597916666666,0,0xB0,0x12
3.190615916666667,0,0xFF,0x12
3.190634125000000,0,0xFF,0x1C
3.190658916666667,0,0x87,0x12
3.190676958333333,0,0xFF,0x00
3.190695125000000,0,0xFF,0x1E
3.190715708333333,0,0x07,0x12
3.190733708333333,0,0x00,0x12
3.190751791666667,0,0x47,0x12
3.191581250000000,0,0x07,0x01
3.191599250000000,0,0x00,0x01
3.191617333333333,0,0x03,0x00
3.191637916666667,0,0x36,0x01
3.191655958333333,0,0x80,0x00
3.191674000000000,0,0x00,0x01
3.191694250000000,0,0x87,0x01
3.191712291666667,0,0xFF,0x00
3.191730458333333,0,0xFF,0x66
3.191751333333333,0,0x07,0x01
3.191769375000000,0,0x00,0x00
3.191787416666667,0,0x66,0x01
3.192584791666667,0,0x90,0x12
3.192602833333333,0,0xFF,0x12
3.192621000000000,0,0xFF,0x0C
3.194571583333333,0,0xF0,0x02
3.194589583333333,0,0x7F,0x18
3.194607791666667,0,0xFF,0x0C
3.196558416666667,0,0xB0,0x13
3.196576416666667,0,0xFF,0x12
3.196594625000000,0,0xFF,0x0C
3.198545291666667,0,0xF0,0x13
3.198563291666667,0,0xFF,0x12
3.198581500000000,0,0xFF,0x0C
3.200532333333333,0,0xB0,0x12
3.200550375000000,0,0xFF,0x12
3.200568541666667,0,0xFF,0x04
3.202519291666666,0,0xF0,0x12
3.202537291666667,0,0x7F,0x12
3.202555500000000,0,0xFF,0x04
3.204506416666667,0,0xF0,0x02
3.204524416666667,0,0x7F,0x12
3.204542625000000,0,0xFF,0x0E
3.206493416666667,0,0xB0,0x12
3.206511416666667,0,0xFF,0x12
3.206529625000000,0,0xFF,0x0C
3.208480375000000,0,0x90,0x12
3.208498416666667,0,0xFF,0x12
3.208516625000000,0,0xFF,0x0C
3.210467375000000,0,0xF0,0x02
3.210485375000000,0,0x7F,0x1A
3.210503583333333,0,0xFF,0x0C
3.212454291666667,0,0xF0,0x13
3.212472291666667,0,0xFF,0x12
3.212490500000000,0,0xFF,0x0C
3.214441208333333,0,0x98,0x1A
3.214459250000000,0,0xFF,0x02
3.214477458333334,0,0xFF,0x0C
3.216428041666667,0,0xB0,0x12
3.216446083333333,0,0xFF,0x12
3.216464250000000,0,0xFF,0x04
3.218414958333333,0,0xB0,0x12
3.218433000000000,0,0xFF,0x13
3.218451166666667,0,0xFF,0x0C
3.220401791666667,0,0xB0,0x12
3.220419791666667,0,0x7F,0x12
3.220438000000000,0,0xFF,0x04
3.222388666666667,0,0x98,0x1A
3.222406708333333,0,0xFF,0x02
3.222424916666667,0,0xFF,0x0C
3.222449708333333,0,0xC3,0x02
3.222467708333333,0,0xFF,0x00
3.222485916666667,0,0xFF,0xE6
3.222506500000000,0,0x07,0x12
3.222524500000000,0,0x00,0x12
3.222542583333333,0,0x00,0x12
3.223372041666666,0,0x07,0x01
3.223390083333333,0,0x00,0x01
3.223408125000000,0,0x00,0x01
3.223428750000000,0,0x34,0x01
3.223446750000000,0,0x80,0x01
3.223464833333333,0,0x80,0x00
3.223485041666667,0,0x07,0x01
3.223503083333333,0,0xFF,0x00
3.223521291666667,0,0xFF,0x00
3.223542166666667,0,0x03,0x00
3.223560166666667,0,0x00,0x01
3.223578250000000,0,0xC0,0x01
3.224375791666667,0,0xF0,0x12
3.224393791666667,0,0x7F,0x1A
3.224412000000000,0,0xFF,0x00
3.226362291666667,0,0xB0,0x12
3.226380333333333,0,0xFF,0x12
3.226398500000000,0,0xFF,0x00
3.228349166666667,0,0xB0,0x12
3.228367166666667,0,0xFF,0x12
3.228385375000000,0,0xFF,0x00
3.230335958333333,0,0xF0,0x02
3.230353958333333,0,0x7F,0x1A
3.230372166666667,0,0xFF,0x00
3.232322708333333,0,0x98,0x1A
3.232340750000000,0,0xFF,0x02
3.232358958333333,0,0xFF,0x00
3.234309583333333,0,0x98,0x10
3.234327625000000,0,0xFF,0x13
3.234345791666667,0,0xFF,0x00
3.236296541666666,0,0xB0,0x12
3.236314583333333,0,0xFF,0x12
3.236332750000000,0,0xFF,0x00
3.238283416666667,0,0xB0,0x12
3.238301416666667,0,0xFF,0x12
3.238319625000000,0,0xFF,0x00
3.240270291666667,0,0xF0,0x02
3.240288291666667,0,0x7F,0x12
3.240306500000000,0,0xFF,0x00
3.242257208333333,0,0x98,0x18
3.242275250000000,0,0xFF,0x02
3.242293458333333,0,0xFF,0x00
3.244244041666667,0,0xB0,0x12
3.244262083333334,0,0xFF,0x12
3.244280250000000,0,0xFF,0x00
3.246230875000000,0,0xB0,0x12
3.246248916666667,0,0xFF,0x02
3.246267125000000,0,0xFF,0x00
3.248217791666667,0,0xF0,0x12
3.248235791666667,0,0x7F,0x12
3.248254000000000,0,0xFF,0x00
3.250204625000000,0,0xB0,0x12
3.250222666666667,0,0xFF,0x12
3.250240833333333,0,0xFF,0x00
3.252191500000000,0,0xB0,0x12
3.252209500000000,0,0x7F,0x12
3.252227708333333,0,0xFF,0x00
3.254178416666667,0,0xF0,0x02
3.254196416666667,0,0x7F,0x18
3.254214625000000,0,0xFF,0x00
3.254239416666667,0,0x87,0x10
3.254257458333333,0,0xFF,0x00
3.254275666666667,0,0xFF,0x80
3.254296208333333,0,0x03,0x02
3.254314208333333,0,0x80,0x1A
3.254332291666667,0,0x28,0x12
3.255161833333333,0,0x03,0x00
3.255179833333333,0,0x00,0x01
3.255197916666666,0,0x3C,0x01
3.255218500000000,0,0x1E,0x01
3.255236541666667,0,0xC0,0x00
3.255254583333334,0,0x00,0x01
3.255274833333333,0,0x87,0x01
3.255292833333333,0,0xFF,0x80
3.255311041666667,0,0xFF,0x00
3.255331916666667,0,0x07,0x01
3.255349958333333,0,0x00,0x01
3.255368000000000,0,0x00,0x01
3.256165416666667,0,0xB0,0x12
3.256183416666667,0,0x7F,0x12
3.256201625000000,0,0xFF,0x10
3.258152375000000,0,0x98,0x18
3.258170416666667,0,0xFF,0x02
3.258188625000000,0,0xFF,0x10
3.260139375000000,0,0xB0,0x12
3.260157416666666,0,0xFF,0x12
3.260175625000000,0,0xFF,0x10
3.262126291666667,0,0xF0,0x12
3.262144291666667,0,0x7F,0x12
3.262162500000000,0,0xFF,0x10
3.264113166666667,0,0xF0,0x13
3.264131166666667,0,0xFF,0x12
3.264149375000000,0,0xFF,0x10
3.266100083333333,0,0xF0,0x12
3.266118083333333,0,0xFF,0x12
3.266136291666667,0,0xFF,0x10
3.268086875000000,0,0xB0,0x12
3.268104875000000,0,0xFF,0x12
3.268123083333333,0,0xFF,0x10
3.270073666666667,0,0xF0,0x02
3.270091666666667,0,0x7F,0x1A
3.270109875000000,0,0xFF,0x10
3.272060666666667,0,0x90,0x12
3.272078708333333,0,0xFF,0x12
3.272096916666666,0,0xFF,0x10
3.274047625000000,0,0xF0,0x12
3.274065625000000,0,0x7F,0x12
3.274083833333334,0,0xFF,0x18
3.276034500000000,0,0x90,0x12
3.276052541666667,0,0xFF,0x13
3.276070750000000,0,0xFF,0x10
3.278021416666667,0,0x98,0x18
3.278039458333333,0,0xFF,0x02
3.278057666666667,0,0xFF,0x10
3.280008458333334,0,0xB0,0x12
3.280026458333333,0,0xFF,0x12
3.280044666666666,0,0xFF,0x10
3.281995375000000,0,0x90,0x12
3.282013416666667,0,0xFF,0x12
3.282031625000000,0,0xFF,0x00
3.283982416666666,0,0xB0,0x12
3.284000416666667,0,0xFF,0x12
3.284018625000000,0,0xFF,0x10
3.285969416666667,0,0xB0,0x12
3.285987458333333,0,0xFF,0x12
3.286005625000000,0,0xFF,0x10
3.286030458333333,0,0x83,0x13
3.286048458333333,0,0xFF,0x00
3.286066666666667,0,0xFF,0xA8
3.286087208333333,0,0x07,0x10
3.286105250000000,0,0x00,0x12
3.286123291666667,0,0x02,0x1A
3.286952833333333,0,0x07,0x01
3.286970875000000,0,0x00,0x01
3.286988916666667,0,0x0A,0x81
3.287009541666666,0,0x30,0x01
3.287027541666667,0,0x00,0x01
3.287045625000000,0,0x80,0x01
3.287065875000000,0,0x87,0x01
3.287083875000000,0,0xFF,0x00
3.287102083333334,0,0xFF,0x0A
3.287122958333333,0,0x03,0x01
3.287140958333334,0,0x80,0x01
3.287159041666667,0,0x8A,0x01
3.287956625000000,0,0xF0,0x02
3.287974625000000,0,0x7F,0x1A
3.287992833333333,0,0xFF,0x16
3.289943375000000,0,0xB0,0x12
3.289961375000000,0,0xFF,0x12
3.289979583333333,0,0xFF,0x14
3.291930416666667,0,0xF0,0x12
3.291948458333333,0,0xFF,0x12
3.291966625000000,0,0xFF,0x14
3.293917416666666,0,0x98,0x1A
3.293935458333333,0,0xFF,0x12
3.293953666666666,0,0xFF,0x10
3.295904416666667,0,0xB0,0x12
3.295922416666667,0,0xFF,0x12
3.295940625000000,0,0xFF,0x14
3.297891291666667,0,0xB0,0x12
3.297909333333333,0,0xFF,0x12
3.297927541666667,0,0xFF,0x14
3.299878333333333,0,0x98,0x1A
3.299896375000000,0,0xFF,0x12
3.299914583333333,0,0xFF,0x10
3.301865250000000,0,0x98,0x1A
3.301883291666666,0,0xFF,0x02
3.301901500000000,0,0xFF,0x14
3.303852166666667,0,0x98,0x1A
3.303870208333333,0,0xFF,0x02
3.303888416666667,0,0xFF,0x14
3.305839250000000,0,0xB0,0x12
3.305857250000000,0,0xFF,0x12
3.305875458333333,0,0xFF,0x14
3.307826291666667,0,0x98,0x1A
3.307844333333333,0,0xFF,0x02
3.307862541666667,0,0xFF,0x14
3.309813208333333,0,0x98,0x10
3.309831250000000,0,0xFF,0x13
3.309849458333333,0,0xFF,0x14
3.311800166666667,0,0x98,0x12
3.311818208333333,0,0xFF,0x13
3.311836416666667,0,0xFF,0x14
3.313787125000000,0,0xB0,0x12
3.313805166666667,0,0xFF,0x12
3.313823333333333,0,0xFF,0x1C
3.315774000000000,0,0xB0,0x12
3.315792041666667,0,0xFF,0x12
3.315810250000000,0,0xFF,0x14
3.317761125000000,0,0xB0,0x12
3.317779166666667,0,0xFF,0x12
3.317797375000000,0,0xFF,0x14
3.317822166666667,0,0x87,0x12
3.317840208333333,0,0xFF,0x00
3.317858416666667,0,0xFF,0x8A
3.317878958333333,0,0x03,0x02
3.317896958333333,0,0x80,0x12
3.317915041666667,0,0x32,0x12
3.318744583333333,0,0x03,0x00
3.318762583333333,0,0x00,0x01
3.318780666666667,0,0x32,0x01
3.318801250000000,0,0x1E,0x01
3.318819291666667,0,0xC0,0x01
3.318837333333333,0,0x00,0x81
3.318857583333333,0,0x87,0x01
3.318875625000000,0,0xFF,0x00
3.318893833333334,0,0xFF,0x32
3.318914666666667,0,0x87,0x01
3.318932708333334,0,0x00,0x01
3.318950791666667,0,0xB3,0x01
3.319748375000000,0,0xF0,0x02
3.319766375000000,0,0x7F,0x12
3.319784583333333,0,0xFF,0x04
3.321735166666667,0,0x98,0x18
3.321753208333333,0,0xFF,0x02
3.321771416666667,0,0xFF,0x04
3.323722083333333,0,0xB0,0x12
3.323740083333333,0,0x7F,0x12
3.323758291666667,0,0xFF,0x06
3.325709000000000,0,0xB0,0x12
3.325727000000000,0,0xFF,0x12
3.325745208333333,0,0xFF,0x04
3.327695916666667,0,0xB0,0x12
3.327713958333333,0,0xFF,0x12
3.327732125000000,0,0xFF,0x04
3.329683041666667,0,0xF0,0x02
3.329701041666667,0,0x7F,0x12
3.329719250000000,0,0xFF,0x06
3.331670166666667,0,0x98,0x12
3.331688208333333,0,0xFF,0x12
3.331706416666667,0,0xFF,0x04
3.333657208333333,0,0xB0,0x12
3.333675250000000,0,0xFF,0x12
3.333693458333333,0,0xFF,0x04
3.335644291666667,0,0xF0,0x13
3.335662291666667,0,0x7F,0x10
3.335680500000000,0,0xFF,0x04
3.337631250000000,0,0xB0,0x12
3.337649291666667,0,0xFF,0x12
3.337667500000000,0,0xFF,0x00
3.339618375000000,0,0xF0,0x12
3.339636375000000,0,0x7F,0x1A
3.339654583333334,0,0xFF,0x06
3.341605500000000,0,0xF0,0x02
3.341623500000000,0,0x7F,0x12
3.341641708333333,0,0xFF,0x04
3.343592708333333,0,0xB0,0x13
3.343610708333333,0,0xFF,0x10
3.343628916666667,0,0xFF,0x04
3.345579958333333,0,0xB0,0x13
3.345597958333333,0,0x7F,0x10
3.345616166666667,0,0xFF,0x04
3.347566958333333,0,0xB0,0x12
3.347585000000000,0,0xFF,0x12
3.347603166666667,0,0xFF,0x04
3.349553916666667,0,0xB0,0x12
3.349571916666667,0,0xFF,0x12
3.349590125000000,0,0xFF,0x04
3.349614916666667,0,0x87,0x12
3.349632958333333,0,0xFF,0x00
3.349651125000000,0,0xFF,0x12
3.349671708333333,0,0x03,0x13
3.349689708333333,0,0x00,0x10
3.349707791666667,0,0x00,0x02
3.350537250000000,0,0x03,0x00
3.350555250000000,0,0x00,0x01
3.350573333333333,0,0x04,0x01
3.350593916666667,0,0x1E,0x01
3.350611958333333,0,0xC0,0x00
3.350630000000000,0,0x00,0x01
3.350650250000000,0,0x87,0x01
3.350668291666667,0,0xFF,0x00
3.350686458333333,0,0xFF,0x1C
3.350707333333333,0,0x07,0x01
3.350725375000000,0,0x00,0x00
3.350743416666667,0,0x1E,0x01
3.351540791666667,0,0x18,0x10
3.351558833333333,0,0xFF,0x13
3.351577041666667,0,0xFF,0x08
3.353527666666666,0,0xF0,0x02
3.353545666666667,0,0x7F,0x12
3.353563875000000,0,0xFF,0x00
3.355514666666667,0,0xB0,0x13
3.355532666666666,0,0xFF,0x10
3.355550875000000,0,0xFF,0x08
3.357501500000000,0,0x98,0x1A
3.357519541666667,0,0xFF,0x02
3.357537750000000,0,0xFF,0x0C
3.359488375000000,0,0xB0,0x12
3.359506416666667,0,0xFF,0x12
3.359524625000000,0,0xFF,0x08
3.361475291666667,0,0xB0,0x12
3.361493333333333,0,0xFF,0x12
3.361511541666667,0,0xFF,0x0C
3.363462166666667,0,0x98,0x1A
3.363480208333333,0,0xFF,0x02
3.363498416666667,0,0xFF,0x08
3.365449333333333,0,0x98,0x10
3.365467375000000,0,0xFF,0x13
3.365485583333333,0,0xFF,0x08
3.367436333333333,0,0xB0,0x12
3.367454375000000,0,0xFF,0x12
3.367472541666667,0,0xFF,0x08
3.369423416666667,0,0xB0,0x12
3.369441458333333,0,0xFF,0x12
3.369459666666667,0,0xFF,0x08
3.371410416666667,0,0xF0,0x12
3.371428416666667,0,0x7F,0x12
3.371446625000000,0,0xFF,0x00
3.373397458333333,0,0x98,0x10
3.373415500000000,0,0xFF,0x13
3.373433708333333,0,0xFF,0x08
3.375384416666667,0,0xF0,0x12
3.375402416666667,0,0x7F,0x12
3.375420625000000,0,0xFF,0x00
3.377371458333333,0,0xB0,0x13
3.377389458333333,0,0xFF,0x12
3.377407666666667,0,0xFF,0x08
3.379358375000000,0,0x98,0x1A
3.379376416666667,0,0xFF,0x12
3.379394625000000,0,0xFF,0x0C
3.381345291666667,0,0xF0,0x02
3.381363291666667,0,0x7F,0x1A
3.381381500000000,0,0xFF,0x08
3.381406291666667,0,0x87,0x18
3.381424333333333,0,0xFF,0x00
3.381442541666666,0,0xFF,0x94
3.381463083333333,0,0x03,0x02
3.381481083333334,0,0x80,0x18
3.381499166666667,0,0x3C,0x02
3.382328666666667,0,0x03,0x00
3.382346666666667,0,0x00,0x01
3.382364750000000,0,0x3C,0x01
3.382385333333333,0,0x1E,0x01
3.382403375000000,0,0xC0,0x01
3.382421416666667,0,0x00,0x81
3.382441666666667,0,0x87,0x01
3.382459708333333,0,0xFF,0x00
3.382477916666667,0,0xFF,0x3C
3.382498750000000,0,0x87,0x01
3.382516791666667,0,0x00,0x01
3.382534875000000,0,0xBC,0x01
3.383332291666667,0,0xF0,0x02
3.383350291666666,0,0x7F,0x12
3.383368500000000,0,0xFF,0x18
3.385319291666667,0,0x98,0x1A
3.385337333333333,0,0xFF,0x02
3.385355541666667,0,0xFF,0x18
3.387306416666667,0,0xB0,0x12
3.387324416666667,0,0xFF,0x12
3.387342625000000,0,0xFF,0x18
3.389293500000000,0,0xB0,0x12
3.389311541666667,0,0xFF,0x12
3.389329750000000,0,0xFF,0x18
3.391280625000000,0,0x98,0x10
3.391298666666667,0,0xFF,0x02
3.391316875000000,0,0xFF,0x18
3.393267791666667,0,0xF0,0x12
3.393285791666667,0,0x7F,0x12
3.393304000000000,0,0xFF,0x18
3.395254833333333,0,0x98,0x1A
3.395272875000000,0,0xFF,0x12
3.395291083333333,0,0xFF,0x0C
3.397241958333333,0,0xB0,0x12
3.397260000000000,0,0xFF,0x12
3.397278208333333,0,0xFF,0x18
3.399229208333333,0,0xB0,0x12
3.399247250000000,0,0xFF,0x12
3.399265458333333,0,0xFF,0x18
3.401216458333333,0,0xB0,0x12
3.401234458333333,0,0xFF,0x12
3.401252666666667,0,0xFF,0x18
3.403203583333333,0,0xB0,0x12
3.403221625000000,0,0xFF,0x12
3.403239833333333,0,0xFF,0x18
3.405190666666666,0,0xB0,0x13
3.405208666666667,0,0x7F,0x1A
3.405226875000000,0,0xFF,0x18
3.407177666666667,0,0x98,0x12
3.407195708333334,0,0xFF,0x13
3.407213916666667,0,0xFF,0x18
3.409164791666667,0,0x90,0x12
3.409182833333333,0,0xFF,0x12
3.409201041666666,0,0xFF,0x18
3.411151916666667,0,0xB0,0x12
3.411169958333333,0,0xFF,0x12
3.411188125000000,0,0xFF,0x18
3.413138833333333,0,0xB0,0x12
3.413156875000000,0,0xFF,0x12
3.413175083333333,0,0xFF,0x18
3.413199875000000,0,0x87,0x12
3.413217916666667,0,0xFF,0x00
3.413236125000000,0,0xFF,0xBC
3.413256666666667,0,0x07,0x02
3.413274666666667,0,0x80,0x12
3.413292750000000,0,0x1E,0x12
3.414122291666667,0,0x03,0x00
3.414140291666667,0,0x00,0x01
3.414158375000000,0,0x1E,0x01
3.414178958333333,0,0x1C,0x01
3.414197000000000,0,0xC0,0x01
3.414215041666667,0,0x00,0x81
3.414235291666667,0,0x07,0x01
3.414253333333333,0,0xFF,0x00
3.414271541666666,0,0xFF,0x1F
3.414292416666667,0,0x07,0x01
3.414310416666666,0,0x00,0x01
3.414328500000000,0,0x8F,0x00
3.415125916666667,0,0xF0,0x13
3.415143916666667,0,0x7F,0x18
3.415162125000000,0,0xFF,0x1C
3.417112916666667,0,0xB0,0x12
3.417130958333333,0,0xFF,0x12
3.417149125000000,0,0xFF,0x1C
3.419100041666667,0,0xB0,0x12
3.419118083333333,0,0xFF,0x12
3.419136250000000,0,0xFF,0x1C
3.421087000000000,0,0xB0,0x12
3.421105041666667,0,0xFF,0x12
3.421123208333333,0,0xFF,0x1C
3.423073875000000,0,0xB0,0x12
3.423091916666666,0,0xFF,0x12
3.423110083333333,0,0xFF,0x1C
3.425060875000000,0,0x98,0x18
3.425078916666667,0,0xFF,0x02
3.425097125000000,0,0xFF,0x1C
3.427048083333333,0,0xF0,0x02
3.427066083333334,0,0x7F,0x12
3.427084291666667,0,0xFF,0x1C
3.429035250000000,0,0x98,0x1A
3.429053291666667,0,0xFF,0x12
3.429071500000000,0,0xFF,0x0C
3.431022416666667,0,0xB0,0x12
3.431040458333333,0,0xFF,0x12
3.431058666666666,0,0xFF,0x0C
3.433009583333333,0,0x98,0x1A
3.433027625000000,0,0xFF,0x12
3.433045833333333,0,0xFF,0x0C
3.434996791666667,0,0xB0,0x12
3.435014833333333,0,0xFF,0x12
3.435033000000000,0,0xFF,0x1C
3.436984000000000,0,0xB0,0x12
3.437002041666667,0,0xFF,0x12
3.437020208333333,0,0xFF,0x1C
3.438971166666667,0,0xB0,0x12
3.438989166666667,0,0xFF,0x12
3.439007375000000,0,0xFF,0x1C
3.440958208333333,0,0xF0,0x02
3.440976208333333,0,0x7F,0x12
3.440994416666667,0,0xFF,0x1C
3.442945208333333,0,0x90,0x12
3.442963250000000,0,0xFF,0x12
3.442981458333333,0,0xFF,0x1C
3.444932458333333,0,0xB0,0x12
3.444950500000000,0,0xFF,0x12
3.444968708333333,0,0xFF,0x0C
3.444993500000000,0,0x87,0x12
3.445011541666667,0,0xFF,0x00
3.445029750000000,0,0xFF,0x9E
3.445050291666667,0,0x03,0x02
3.445068291666667,0,0x80,0x12
3.445086375000000,0,0x46,0x12
3.445916000000000,0,0x07,0x01
3.445934041666667,0,0x00,0x01
3.445952083333333,0,0x66,0x01
3.445972708333333,0,0x30,0x01
3.445990708333333,0,0x00,0x01
3.446008791666667,0,0x80,0x01
3.446029041666667,0,0xC3,0x01
3.446047041666667,0,0xFF,0x80
3.446065250000000,0,0xFF,0x66
3.446086125000000,0,0x87,0x01
3.446104166666667,0,0x00,0x01
3.446122208333333,0,0x47,0x81
3.446919916666667,0,0xB0,0x12
3.446937958333333,0,0xFF,0x12
3.446956125000000,0,0xFF,0x0C
3.448906791666666,0,0x98,0x10
3.448924833333333,0,0xFF,0x02
3.448943041666667,0,0xFF,0x0C
3.450893916666667,0,0xB0,0x12
3.450911958333333,0,0xFF,0x12
3.450930166666667,0,0xFF,0x0C
3.452881083333333,0,0xF0,0x02
3.452899083333334,0,0x7F,0x12
3.452917291666667,0,0xFF,0x04
3.454868166666667,0,0xB0,0x12
3.454886208333333,0,0xFF,0x12
3.454904416666666,0,0xFF,0x0C
3.456855291666667,0,0x90,0x12
3.456873333333333,0,0xFF,0x12
3.456891541666667,0,0xFF,0x0C
3.458842583333333,0,0x98,0x10
3.458860625000000,0,0xFF,0x02
3.458878833333333,0,0xFF,0x0C
3.460829875000000,0,0xB0,0x12
3.460847916666667,0,0xFF,0x13
3.460866125000000,0,0xFF,0x0C
3.462817083333333,0,0x90,0x12
3.462835125000000,0,0xFF,0x12
3.462853333333333,0,0xFF,0x0C
3.464804416666666,0,0x98,0x1A
3.464822458333333,0,0xFF,0x12
3.464840666666666,0,0xFF,0x0C
3.466791666666666,0,0xB0,0x12
3.466809708333333,0,0xFF,0x12
3.466827916666666,0,0xFF,0x0C
3.468779000000000,0,0xB0,0x13
3.468797000000000,0,0x7F,0x1A
3.468815208333333,0,0xFF,0x04
3.470766500000000,0,0xF0,0x02
3.470784500000000,0,0x7F,0x12
3.470802708333333,0,0xFF,0x0C
3.472753916666667,0,0xB0,0x12
3.472771958333333,0,0xFF,0x12
3.472790166666667,0,0xFF,0x0C
3.474741458333333,0,0x98,0x10
3.474759500000000,0,0xFF,0x02
3.474777708333333,0,0xFF,0x0C
3.476728916666667,0,0xB0,0x12
3.476746958333333,0,0xFF,0x12
3.476765166666667,0,0xFF,0x0C
3.476789958333333,0,0x87,0x12
3.476808000000000,0,0xFF,0x00
3.476826208333333,0,0xFF,0xC6
3.476846750000000,0,0x87,0x12
3.476864791666667,0,0x00,0x12
3.476882875000000,0,0x00,0x12
3.477712541666667,0,0x03,0x01
3.477730541666667,0,0x80,0x81
3.477748625000000,0,0x00,0x01
3.477769250000000,0,0x34,0x01
3.477787250000000,0,0x80,0x01
3.477805333333333,0,0xC0,0x01
3.477825541666667,0,0x07,0x81
3.477843583333333,0,0xFF,0x00
3.477861791666667,0,0xFF,0x00
3.477882666666666,0,0x07,0x01
3.477900666666667,0,0x80,0x81
3.477918750000000,0,0x80,0x01
3.478716250000000,0,0xB0,0x12
3.478734291666667,0,0xFF,0x12
3.478752500000000,0,0xFF,0x00
3.480703666666667,0,0xB0,0x12
3.480721708333333,0,0xFF,0x12
3.480739916666667,0,0xFF,0x00
3.482691000000000,0,0xF0,0x02
3.482709000000000,0,0x7F,0x12
3.482727208333333,0,0xFF,0x00
3.484678333333334,0,0xB0,0x12
3.484696375000000,0,0xFF,0x13
3.484714583333334,0,0xFF,0x00
3.486665583333334,0,0xB0,0x12
3.486683625000000,0,0xFF,0x12
3.486701833333334,0,0xFF,0x00
3.488652791666667,0,0x98,0x18
3.488670833333333,0,0xFF,0x02
3.488689041666666,0,0xFF,0x00
3.490640166666667,0,0x98,0x10
3.490658208333334,0,0xFF,0x02
3.490676416666667,0,0xFF,0x00
3.492627666666666,0,0xF0,0x02
3.492645666666667,0,0x7F,0x12
3.492663875000000,0,0xFF,0x00
3.494615125000000,0,0xB0,0x12
3.494633166666667,0,0xFF,0x12
3.494651375000000,0,0xFF,0x00
3.496602541666667,0,0xF0,0x12
3.496620541666667,0,0x7F,0x12
3.496638750000000,0,0xFF,0x00
3.498590000000000,0,0x98,0x1A
3.498608041666667,0,0xFF,0x12
3.498626250000000,0,0xFF,0x00
3.500577250000000,0,0xB0,0x12
3.500595291666666,0,0xFF,0x13
3.500613500000000,0,0xFF,0x00
3.502564458333334,0,0x98,0x1A
3.502582500000000,0,0xFF,0x12
3.502600708333333,0,0xFF,0x00
3.504551541666667,0,0xB0,0x12
3.504569583333333,0,0xFF,0x12
3.504587750000000,0,0xFF,0x00
3.506538708333333,0,0xB0,0x12
3.506556708333334,0,0xFF,0x12
3.506574916666667,0,0xFF,0x00
3.508525833333333,0,0xF0,0x13
3.508543833333333,0,0x7F,0x1A
3.508562041666667,0,0xFF,0x00
3.508586833333333,0,0x87,0x12
3.508604875000000,0,0xFF,0x00
3.508623083333333,0,0xFF,0x80
3.508643625000000,0,0x07,0x12
3.508661666666667,0,0x00,0x13
3.508679708333333,0,0x00,0x1A
3.509509250000000,0,0x07,0x01
3.509527291666667,0,0x00,0x00
3.509545333333334,0,0x00,0x01
3.509565958333333,0,0x34,0x01
3.509583958333333,0,0x80,0x01
3.509602041666667,0,0xC0,0x00
3.509622250000000,0,0x07,0x01
3.509640291666666,0,0xFF,0x00
3.509658500000000,0,0xFF,0x28
3.509679333333333,0,0x87,0x01
3.509697375000000,0,0x00,0x01
3.509715416666667,0,0x28,0x81
3.510512833333333,0,0x18,0x10
3.510530875000000,0,0xFF,0x13
3.510549083333333,0,0xFF,0x10
3.512499833333333,0,0x98,0x10
3.512517875000000,0,0xFF,0x02
3.512536083333333,0,0xFF,0x10
3.514486916666667,0,0xB0,0x12
3.514504916666667,0,0xFF,0x12
3.514523125000000,0,0xFF,0x10
3.516473916666667,0,0x98,0x10
3.516491958333333,0,0xFF,0x12
3.516510166666666,0,0xFF,0x10
3.518461000000000,0,0xF0,0x02
3.518479000000000,0,0x7F,0x12
3.518497208333333,0,0xFF,0x18
3.520448125000000,0,0xB0,0x12
3.520466166666667,0,0xFF,0x12
3.520484333333334,0,0xFF,0x10
3.522435208333333,0,0x98,0x10
3.522453250000000,0,0xFF,0x02
3.522471458333333,0,0xFF,0x10
3.524422291666667,0,0xB0,0x12
3.524440333333333,0,0xFF,0x12
3.524458500000000,0,0xFF,0x18
3.526409375000000,0,0xB0,0x12
3.526427375000000,0,0xFF,0x12
3.526445583333333,0,0xFF,0x10
3.528396500000000,0,0x98,0x18
3.528414541666667,0,0xFF,0x02
3.528432750000000,0,0xFF,0x10
3.530383666666667,0,0x98,0x10
3.530401708333333,0,0xFF,0x02
3.530419916666667,0,0xFF,0x10
3.532370875000000,0,0xF0,0x12
3.532388875000000,0,0x7F,0x1A
3.532407083333333,0,0xFF,0x10
3.534358166666667,0,0xB0,0x12
3.534376208333333,0,0xFF,0x12
3.534394416666667,0,0xFF,0x10
3.536345416666667,0,0xB0,0x13
3.536363416666667,0,0xFF,0x10
3.536381625000000,0,0xFF,0x10
3.538332750000000,0,0xB0,0x13
3.538350750000000,0,0xFF,0x10
3.538368958333333,0,0xFF,0x10
3.540320000000000,0,0xB0,0x12
3.540338000000000,0,0xFF,0x12
3.540356208333333,0,0xFF,0x10
3.540381000000000,0,0x87,0x18
3.540399041666667,0,0xFF,0x00
3.540417250000000,0,0xFF,0xA8
3.540437791666667,0,0x07,0x12
3.540455833333333,0,0x00,0x12
3.540473875000000,0,0x00,0x10
3.541303500000000,0,0x03,0x00
3.541321500000000,0,0x00,0x01
3.541339583333333,0,0x0E,0x01
3.541360166666667,0,0x1E,0x01
3.541378208333333,0,0xC0,0x01
3.541396250000000,0,0x00,0x81
3.541416500000000,0,0x87,0x01
3.541434541666667,0,0xFF,0x00
3.541452750000000,0,0xFF,0x0E
3.541473625000000,0,0x03,0x00
3.541491625000000,0,0x00,0x01
3.541509708333333,0,0xCA,0x01
3.542307375000000,0,0xF0,0x12
3.542325416666666,0,0xFF,0x12
3.542343583333333,0,0xFF,0x14
3.544294333333333,0,0xF0,0x02
3.544312333333334,0,0x7F,0x1A
3.544330541666667,0,0xFF,0x14
3.546281541666667,0,0xB0,0x12
3.546299541666666,0,0xFF,0x10
3.546317750000000,0,0xFF,0x14
3.548268833333333,0,0x90,0x12
3.548286875000000,0,0xFF,0x12
3.548305083333333,0,0xFF,0x14
3.550256083333333,0,0x98,0x10
3.550274125000000,0,0xFF,0x02
3.550292333333333,0,0xFF,0x10
3.552243333333333,0,0xB0,0x13
3.552261333333333,0,0x7F,0x18
3.552279541666667,0,0xFF,0x16
3.554230625000000,0,0xB0,0x12
3.554248666666667,0,0xFF,0x12
3.554266875000000,0,0xFF,0x14
3.556217958333333,0,0xF0,0x13
3.556235958333333,0,0x7F,0x1A
3.556254166666667,0,0xFF,0x1C
3.558205250000000,0,0xB0,0x12
3.558223291666667,0,0xFF,0x12
3.558241500000000,0,0xFF,0x14
3.560192625000000,0,0xF0,0x02
3.560210625000000,0,0x7F,0x12
3.560228833333333,0,0xFF,0x1C
3.562179791666667,0,0xF0,0x12
3.562197791666667,0,0x7F,0x12
3.562216000000000,0,0xFF,0x14
3.564166833333333,0,0xB0,0x12
3.564184875000000,0,0xFF,0x13
3.564203083333333,0,0xFF,0x14
3.566154000000000,0,0xF0,0x02
3.566172000000000,0,0x7F,0x12
3.566190208333333,0,0xFF,0x1C
3.568141291666667,0,0xF0,0x02
3.568159291666666,0,0x7F,0x12
3.568177500000000,0,0xFF,0x1C
3.570128500000000,0,0x98,0x1A
3.570146541666666,0,0xFF,0x12
3.570164750000000,0,0xFF,0x00
3.572115666666666,0,0xB0,0x12
3.572133666666667,0,0xFF,0x10
3.572151875000000,0,0xFF,0x14
3.572176666666667,0,0x87,0x1A
3.572194708333333,0,0xFF,0x00
3.572212916666667,0,0xFF,0x8F
3.572233458333333,0,0x07,0x12
3.572251500000000,0,0x00,0x13
3.572269541666667,0,0x1A,0x1A
3.573099125000000,0,0x07,0x01
3.573117125000000,0,0x00,0x01
3.573135208333333,0,0x33,0x00
3.573155791666667,0,0x36,0x01
3.573173833333333,0,0xC0,0x00
3.573191875000000,0,0x00,0x81
3.573212125000000,0,0x87,0x01
3.573230166666667,0,0xFF,0x00
3.573248375000000,0,0xFF,0x32
3.573269208333334,0,0x87,0x01
3.573287250000000,0,0x00,0x01
3.573305333333333,0,0xF3,0x00
3.574102791666667,0,0xB0,0x12
3.574120791666667,0,0xFF,0x12
3.574139000000000,0,0xFF,0x04
3.576090041666667,0,0xB0,0x12
3.576108083333333,0,0xFF,0x13
3.576126291666667,0,0xFF,0x04
3.578077250000000,0,0xF0,0x12
3.578095250000000,0,0x7F,0x1A
3.578113458333333,0,0xFF,0x06
3.580064416666667,0,0xF0,0x02
3.580082416666666,0,0x7F,0x12
3.580100625000000,0,0xFF,0x06
3.582051666666667,0,0xB0,0x12
3.582069708333333,0,0xFF,0x12
3.582087916666667,0,0xFF,0x04
3.584038916666667,0,0xB0,0x13
3.584056916666666,0,0xFF,0x10
3.584075125000000,0,0xFF,0x04
3.586026041666666,0,0xB0,0x12
3.586044083333333,0,0xFF,0x12
3.586062250000000,0,0xFF,0x04
3.588013375000000,0,0xB0,0x12
3.588031416666666,0,0xFF,0x13
3.588049625000000,0,0xFF,0x04
3.590000708333333,0,0xB0,0x12
3.590018708333333,0,0xFF,0x10
3.590036916666667,0,0xFF,0x04
3.591988000000000,0,0xB0,0x12
3.592006000000000,0,0xFF,0x10
3.592024208333333,0,0xFF,0x06
3.593975166666667,0,0xF0,0x02
3.593993166666666,0,0x7F,0x12
3.594011375000000,0,0xFF,0x06
3.595962333333333,0,0x98,0x10
3.595980375000000,0,0xFF,0x02
3.595998583333333,0,0xFF,0x04
3.597949500000000,0,0xB0,0x12
3.597967500000000,0,0xFF,0x12
3.597985708333333,0,0xFF,0x04
3.599936833333333,0,0x98,0x1A
3.599954875000000,0,0xFF,0x12
3.599973083333333,0,0xFF,0x04
3.601924125000000,0,0xB0,0x12
3.601942166666666,0,0xFF,0x02
3.601960375000000,0,0xFF,0x00
3.603911458333333,0,0xB0,0x12
3.603929500000000,0,0xFF,0x12
3.603947708333334,0,0xFF,0x04
3.603972500000000,0,0x87,0x1A
3.603990541666667,0,0xFF,0x00
3.604008750000000,0,0xFF,0xB2
3.604029291666667,0,0x87,0x12
3.604047333333333,0,0x00,0x12
3.604065416666667,0,0x04,0x02
3.604895125000000,0,0x03,0x00
3.604913125000000,0,0x00,0x01
3.604931208333333,0,0x14,0x01
3.604951791666667,0,0x14,0x01
3.604969833333334,0,0x80,0x01
3.604987916666667,0,0x80,0x00
3.605008125000000,0,0x07,0x81
3.605026166666667,0,0xFF,0x00
3.605044375000000,0,0xFF,0x16
3.605065250000000,0,0x07,0x01
3.605083291666667,0,0x00,0x01
3.605101333333333,0,0x14,0x81
3.605898958333333,0,0x98,0x10
3.605917000000000,0,0xFF,0x02
3.605935208333333,0,0xFF,0x08
3.607886500000000,0,0xB0,0x12
3.607904500000000,0,0xFF,0x12
3.607922708333333,0,0xFF,0x08
3.609873833333333,0,0xB0,0x12
3.609891875000000,0,0xFF,0x12
3.609910083333333,0,0xFF,0x08
3.611861166666666,0,0xB0,0x12
3.611879208333333,0,0xFF,0x12
3.611897416666667,0,0xFF,0x08
3.613848625000000,0,0x90,0x12
3.613866666666667,0,0xFF,0x12
3.613884875000000,0,0xFF,0x08
3.615836041666667,0,0xF0,0x12
3.615854083333333,0,0xFF,0x12
3.615872250000000,0,0xFF,0x08
3.617823208333333,0,0xF0,0x02
3.617841208333333,0,0x7F,0x12
3.617859416666667,0,0xFF,0x00
3.619810416666667,0,0xF0,0x02
3.619828416666667,0,0x7F,0x12
3.619846625000000,0,0xFF,0x08
3.621797625000000,0,0xB0,0x12
3.621815666666667,0,0xFF,0x13
3.621833875000000,0,0xFF,0x08
3.623784833333333,0,0xB0,0x12
3.623802875000000,0,0xFF,0x12
3.623821041666667,0,0xFF,0x08
3.625772000000000,0,0xB0,0x12
3.625790000000000,0,0xFF,0x10
3.625808208333333,0,0xFF,0x08
3.627759333333333,0,0x98,0x10
3.627777375000000,0,0xFF,0x02
3.627795583333334,0,0xFF,0x08
3.629746583333334,0,0x98,0x10
3.629764625000000,0,0xFF,0x13
3.629782833333334,0,0xFF,0x08
3.631733916666667,0,0xB0,0x12
3.631751916666667,0,0xFF,0x12
3.631770125000000,0,0xFF,0x08
3.633721166666667,0,0xB0,0x12
3.633739166666667,0,0xFF,0x10
3.633757375000000,0,0xFF,0x08
3.635708416666667,0,0x98,0x1A
3.635726458333334,0,0xFF,0x12
3.635744666666667,0,0xFF,0x08
3.635769458333333,0,0x87,0x12
3.635787500000000,0,0xFF,0x00
3.635805708333333,0,0xFF,0x94
3.635826250000000,0,0x07,0x12
3.635844291666666,0,0x00,0x12
3.635862333333333,0,0x1E,0x12
3.636691916666666,0,0x07,0x01
3.636709916666667,0,0x80,0x81
3.636728000000000,0,0x1E,0x01
3.636748583333334,0,0x34,0x81
3.636766625000000,0,0x80,0x01
3.636784708333333,0,0x80,0x00
3.636804916666667,0,0x07,0x01
3.636822958333333,0,0xFF,0x00
3.636841166666667,0,0xFF,0x3C
3.636862041666667,0,0x03,0x01
3.636880041666667,0,0x00,0x01
3.636898125000000,0,0xFC,0x01
3.637695833333333,0,0x90,0x12
3.637713875000000,0,0xFF,0x12
3.637732083333333,0,0xFF,0x18
3.639682916666667,0,0xB0,0x12
3.639700958333334,0,0xFF,0x13
3.639719166666667,0,0xFF,0x18
3.641670250000000,0,0xB0,0x12
3.641688250000000,0,0xFF,0x10
3.641706458333333,0,0xFF,0x18
3.643657500000000,0,0xF0,0x12
3.643675500000000,0,0x7F,0x12
3.643693708333333,0,0xFF,0x18
3.645644625000000,0,0xB0,0x12
3.645662625000000,0,0xFF,0x12
3.645680833333333,0,0xFF,0x18
3.647631791666667,0,0xB0,0x13
3.647649791666667,0,0xFF,0x10
3.647668000000000,0,0xFF,0x18
3.649619083333334,0,0xF0,0x12
3.649637083333333,0,0x7F,0x1A
3.649655291666666,0,0xFF,0x18
3.651606458333333,0,0xF0,0x12
3.651624500000000,0,0xFF,0x12
3.651642708333333,0,0xFF,0x18
3.653593708333333,0,0xB0,0x13
3.653611708333333,0,0x7F,0x18
3.653629916666667,0,0xFF,0x18
3.655580916666667,0,0xF0,0x12
3.655598916666666,0,0x7F,0x1A
3.655617125000000,0,0xFF,0x18
3.657568041666666,0,0xB0,0x12
3.657586083333333,0,0xFF,0x12
3.657604291666666,0,0xFF,0x18
3.659555291666666,0,0x98,0x10
3.659573333333333,0,0xFF,0x02
3.659591541666666,0,0xFF,0x18
3.661542458333333,0,0xF0,0x12
3.661560458333333,0,0x7F,0x1A
3.661578666666667,0,0xFF,0x18
3.663529583333333,0,0xB0,0x12
3.663547625000000,0,0xFF,0x12
3.663565791666667,0,0xFF,0x18
3.665516750000000,0,0x98,0x1A
3.665534791666667,0,0xFF,0x12
3.665553000000000,0,0xFF,0x0C
3.667504000000000,0,0xB0,0x12
3.667522041666667,0,0xFF,0x12
3.667540250000000,0,0xFF,0x0C
3.667565041666667,0,0x87,0x12
3.667583083333333,0,0xFF,0x00
3.667601291666667,0,0xFF,0xBC
3.667621833333333,0,0x07,0x12
3.667639833333333,0,0x80,0x12
3.667657916666667,0,0x1E,0x10
3.668487583333333,0,0x03,0x01
3.668505583333333,0,0x80,0x01
3.668523666666667,0,0x1E,0x01
3.668544250000000,0,0x34,0x81
3.668562291666666,0,0x80,0x01
3.668580375000000,0,0xC0,0x00
3.668600583333333,0,0x07,0x81
3.668618625000000,0,0xFF,0x00
3.668636833333333,0,0xFF,0x0E
3.668657708333333,0,0x03,0x00
3.668675708333333,0,0x00,0x01
3.668693791666667,0,0xDE,0x01
3.669491250000000,0,0xB0,0x13
3.669509250000000,0,0xFF,0x10
3.669527458333333,0,0xFF,0x1C
3.671478375000000,0,0x98,0x1A
3.671496416666667,0,0xFF,0x12
3.671514625000000,0,0xFF,0x1C
3.673465458333333,0,0xB0,0x12
3.673483500000000,0,0xFF,0x12
3.673501708333333,0,0xFF,0x1C
3.675452625000000,0,0xF0,0x02
3.675470625000000,0,0x7F,0x18
3.675488833333334,0,0xFF,0x1C
3.677439750000000,0,0xF0,0x12
3.677457791666667,0,0xFF,0x12
3.677475958333333,0,0xFF,0x1C
3.679427166666667,0,0xB0,0x12
3.679445208333334,0,0xFF,0x13
3.679463416666667,0,0xFF,0x1C
3.681414541666667,0,0xB0,0x12
3.681432583333333,0,0xFF,0x13
3.681450791666667,0,0xFF,0x1C
3.683401916666666,0,0x98,0x10
3.683419958333333,0,0xFF,0x02
3.683438166666666,0,0xFF,0x1C
3.685389208333333,0,0x90,0x12
3.685407250000000,0,0xFF,0x12
3.685425458333333,0,0xFF,0x0C
3.687376333333333,0,0x98,0x12
3.687394375000000,0,0xFF,0x13
3.687412583333333,0,0xFF,0x1C
3.689363583333333,0,0xF0,0x13
3.689381583333333,0,0x7F,0x1A
3.689399791666667,0,0xFF,0x1E
3.691350750000000,0,0x98,0x10
3.691368791666667,0,0xFF,0x02
3.691387000000000,0,0xFF,0x1C
3.693337958333333,0,0xF0,0x13
3.693355958333334,0,0x7F,0x1A
3.693374166666667,0,0xFF,0x1E
3.695325166666667,0,0xB0,0x12
3.695343208333334,0,0xFF,0x12
3.695361416666667,0,0xFF,0x1C
3.697312375000000,0,0x98,0x10
3.697330416666667,0,0xFF,0x02
3.697348625000000,0,0xFF,0x1C
3.699299458333333,0,0xB0,0x13
3.699317458333333,0,0x7F,0x1A
3.699335666666667,0,0xFF,0x1E
3.699360458333333,0,0x87,0x12
3.699378500000000,0,0xFF,0x00
3.699396708333333,0,0xFF,0xDE
3.699417250000000,0,0x07,0x10
3.699435291666667,0,0x00,0x12
3.699453333333333,0,0x66,0x12
3.700282958333333,0,0x07,0x01
3.700301000000000,0,0x00,0x01
3.700319041666666,0,0x46,0x81
3.700339666666667,0,0x30,0x01
3.700357666666667,0,0x00,0x01
3.700375750000000,0,0x80,0x01
3.700396000000000,0,0xC3,0x01
3.700414000000000,0,0xFF,0x80
3.700432208333333,0,0xFF,0x66
3.700453083333333,0,0x87,0x01
3.700471125000000,0,0x00,0x01
3.700489208333333,0,0xC7,0x01
3.701286916666667,0,0x98,0x10
3.701304958333334,0,0xFF,0x02
3.701323166666667,0,0xFF,0x0C
3.703273875000000,0,0x98,0x18
3.703291916666667,0,0xFF,0x13
3.703310125000000,0,0xFF,0x0C
3.705261000000000,0,0xF0,0x02
3.705279000000000,0,0x7F,0x12
3.705297208333334,0,0xFF,0x0C
3.707248250000000,0,0xB0,0x12
3.707266291666667,0,0xFF,0x13
3.707284500000000,0,0xFF,0x0C
3.709235625000000,0,0xB0,0x13
3.709253625000000,0,0x7F,0x18
3.709271833333333,0,0xFF,0x0C
3.711222750000000,0,0x98,0x1A
3.711240791666667,0,0xFF,0x12
3.711259000000000,0,0xFF,0x0C
3.713209833333333,0,0xF0,0x12
3.713227833333333,0,0x7F,0x12
3.713246041666667,0,0xFF,0x0C
3.715197000000000,0,0xF0,0x12
3.715215000000000,0,0x7F,0x1A
3.715233208333333,0,0xFF,0x0E
3.717184125000000,0,0xB0,0x12
3.717202125000000,0,0xFF,0x12
3.717220333333333,0,0xFF,0x0C
3.719171083333333,0,0x98,0x1A
3.719189125000000,0,0xFF,0x02
3.719207333333333,0,0xFF,0x0C
3.721158125000000,0,0xB0,0x12
3.721176125000000,0,0xFF,0x12
3.721194333333333,0,0xFF,0x0C
3.723145000000000,0,0x98,0x10
3.723163041666667,0,0xFF,0x13
3.723181250000000,0,0xFF,0x0C
3.725131833333333,0,0x98,0x1A
3.725149875000000,0,0xFF,0x02
3.725168083333333,0,0xFF,0x0C
3.727118708333333,0,0x98,0x12
3.727136750000000,0,0xFF,0x13
3.727154958333333,0,0xFF,0x0C
3.729105750000000,0,0xB0,0x12
3.729123750000000,0,0xFF,0x12
3.729141958333333,0,0xFF,0x0C
3.731092708333333,0,0xF0,0x12
3.731110708333333,0,0x7F,0x12
3.731128916666667,0,0xFF,0x06
3.731153708333333,0,0x87,0x1A
3.731171750000000,0,0xFF,0x00
3.731189958333333,0,0xFF,0xC7
3.731210500000000,0,0x07,0x02
3.731228500000000,0,0x80,0x1A
3.731246583333333,0,0x00,0x12
3.732076041666667,0,0x07,0x01
3.732094041666667,0,0x00,0x01
3.732112125000000,0,0x00,0x01
3.732132708333333,0,0x34,0x01
3.732150708333333,0,0x00,0x81
3.732168791666667,0,0x80,0x01
3.732189041666667,0,0x87,0x01
3.732207041666667,0,0xFF,0x00
3.732225250000000,0,0xFF,0x00
3.732246125000000,0,0x03,0x00
3.732264125000000,0,0x00,0x01
3.732282208333333,0,0xC0,0x00
3.733079708333333,0,0x18,0x1A
3.733097750000000,0,0xFF,0x02
3.733115958333333,0,0xFF,0x00
3.735066333333333,0,0xB0,0x12
3.735084375000000,0,0xFF,0x02
3.735102583333333,0,0xFF,0x00
3.737053250000000,0,0xB0,0x12
3.737071250000000,0,0xFF,0x12
3.737089458333333,0,0xFF,0x00
3.739040083333333,0,0xF0,0x13
3.739058083333333,0,0xFF,0x12
3.739076291666667,0,0xFF,0x00
3.741026791666667,0,0xB0,0x12
3.741044791666666,0,0xFF,0x12
3.741063000000000,0,0xFF,0x00
3.743013458333333,0,0x98,0x1A
3.743031500000000,0,0xFF,0x02
3.743049708333333,0,0xFF,0x00
3.745000166666667,0,0x98,0x18
3.745018208333333,0,0xFF,0x13
3.745036416666667,0,0xFF,0x00
3.746986916666667,0,0x98,0x18
3.747004958333333,0,0xFF,0x02
3.747023166666667,0,0xFF,0x00
3.748973708333333,0,0xB0,0x12
3.748991750000000,0,0xFF,0x12
3.749009958333333,0,0xFF,0x00
3.750960500000000,0,0xB0,0x12
3.750978500000000,0,0xFF,0x12
3.750996708333334,0,0xFF,0x00
3.752947208333334,0,0xB0,0x12
3.752965208333333,0,0x7F,0x12
3.752983416666666,0,0xFF,0x00
3.754934000000000,0,0xB0,0x12
3.754952000000000,0,0xFF,0x12
3.754970208333333,0,0xFF,0x00
3.756920750000000,0,0xB0,0x12
3.756938791666667,0,0xFF,0x12
3.756957000000000,0,0xFF,0x00
3.758907541666667,0,0x90,0x12
3.758925583333333,0,0xFF,0x12
3.758943750000000,0,0xFF,0x00
3.760894416666666,0,0x98,0x18
3.760912458333333,0,0xFF,0x02
3.760930666666667,0,0xFF,0x00
3.762890500000000,0,0xF0,0x02
3.762908500000000,0,0x7F,0x1A
3.762926708333334,0,0xFF,0x00
3.762951500000000,0,0x87,0x10
3.762969541666667,0,0xFF,0x00
3.762987750000000,0,0xFF,0x80
3.763008291666667,0,0x03,0x13
3.763026291666667,0,0x80,0x10
3.763044375000000,0,0x3C,0x02
3.763864583333334,0,0x07,0x01
3.763882625000000,0,0x00,0x00
3.763900666666667,0,0x00,0x01
3.763921291666667,0,0x30,0x01
3.763939291666667,0,0x80,0x01
3.763957375000000,0,0xC0,0x01
3.763977583333333,0,0x07,0x81
3.763995625000000,0,0xFF,0x00
3.764013833333333,0,0xFF,0x38
3.764034708333333,0,0x03,0x01
3.764052708333333,0,0x80,0x01
3.764070791666667,0,0xE8,0x01
3.764881375000000,0,0xF0,0x02
3.764899375000000,0,0x7F,0x1A
3.764917583333333,0,0xFF,0x10
3.766867708333333,0,0xF0,0x02
3.766885708333333,0,0x7F,0x1A
3.766903916666667,0,0xFF,0x10
3.768862041666666,0,0xF0,0x12
3.768880041666667,0,0x7F,0x12
3.768898250000000,0,0xFF,0x10
3.770857375000000,0,0xB0,0x12
3.770875375000000,0,0x7F,0x12
3.770893583333333,0,0xFF,0x18
3.772852208333333,0,0x90,0x12
3.772870250000000,0,0xFF,0x12
3.772888416666667,0,0xFF,0x10
3.774843041666667,0,0xB0,0x12
3.774861041666667,0,0xFF,0x12
3.774879250000000,0,0xFF,0x10
3.776831416666667,0,0xB0,0x13
3.776849416666667,0,0xFF,0x10
3.776867625000000,0,0xFF,0x10
3.778822333333333,0,0xB0,0x12
3.778840375000000,0,0xFF,0x12
3.778858583333333,0,0xFF,0x10
3.780816166666667,0,0xB0,0x12
3.780834166666667,0,0xFF,0x12
3.780852375000000,0,0xFF,0x10
3.782803416666667,0,0xB0,0x13
3.782821416666667,0,0xFF,0x10
3.782839625000000,0,0xFF,0x10
3.784798458333333,0,0xB0,0x12
3.784816500000000,0,0xFF,0x12
3.784834708333333,0,0xFF,0x00
3.786786875000000,0,0xB0,0x13
3.786804875000000,0,0xFF,0x10
3.786823083333333,0,0xFF,0x10
3.788774875000000,0,0xF0,0x13
3.788792875000000,0,0x7F,0x18
3.788811083333333,0,0xFF,0x10
3.790771166666667,0,0xB0,0x12
3.790789166666667,0,0x7F,0x12
3.790807375000000,0,0xFF,0x18
3.792757958333334,0,0x98,0x10
3.792776000000000,0,0xFF,0x02
3.792794208333333,0,0xFF,0x10
3.794753041666667,0,0x98,0x18
3.794771083333333,0,0xFF,0x13
3.794789291666667,0,0xFF,0x10
3.794814083333333,0,0x83,0x13
3.794832083333334,0,0xFF,0x00
3.794850291666667,0,0xFF,0xA8
3.794870833333333,0,0x07,0x10
3.794888875000000,0,0x00,0x13
3.794906916666667,0,0x00,0x18
3.795653791666667,0,0x07,0x01
3.795671833333333,0,0x00,0x00
3.795689875000000,0,0x02,0x01
3.795710500000000,0,0x30,0x00
3.795728500000000,0,0x00,0x01
3.795746583333333,0,0xC0,0x01
3.795766791666667,0,0x07,0x81
3.795784833333333,0,0xFF,0x00
3.795803041666667,0,0xFF,0x0B
3.795823916666667,0,0x07,0x01
3.795841916666667,0,0x00,0x01
3.795860000000000,0,0x8F,0x01
3.797233416666667,0,0xF0,0x13
3.797251416666667,0,0x7F,0x18
3.797269625000000,0,0xFF,0x14
3.799222250000000,0,0xF0,0x02
3.799240250000000,0,0x7F,0x1A
3.799258458333334,0,0xFF,0x16
3.801208833333333,0,0x98,0x1A
3.801226875000000,0,0xFF,0x12
3.801245083333333,0,0xFF,0x10
3.803195875000000,0,0xF0,0x02
3.803213875000000,0,0x7F,0x1A
3.803232083333334,0,0xFF,0x16
3.805184583333333,0,0xF0,0x13
3.805202583333333,0,0x7F,0x18
3.805220791666667,0,0xFF,0x14
3.807172541666667,0,0xB0,0x12
3.807190541666666,0,0x7F,0x12
3.807208750000000,0,0xFF,0x16
3.809162625000000,0,0xB0,0x12
3.809180666666667,0,0xFF,0x13
3.809198875000000,0,0xFF,0x14
3.811160041666667,0,0xB0,0x12
3.811178041666667,0,0xFF,0x12
3.811196250000000,0,0xFF,0x14
3.813149750000000,0,0xB0,0x12
3.813167791666667,0,0xFF,0x12
3.813185958333333,0,0xFF,0x14
3.815136750000000,0,0xB0,0x12
3.815154791666667,0,0xFF,0x12
3.815173000000000,0,0xFF,0x04
3.817133458333333,0,0x98,0x1A
3.817151500000000,0,0xFF,0x12
3.817169708333333,0,0xFF,0x14
3.819130208333333,0,0x98,0x12
3.819148250000000,0,0xFF,0x13
3.819166458333333,0,0xFF,0x14
3.821125125000000,0,0xB0,0x12
3.821143125000000,0,0xFF,0x12
3.821161333333333,0,0xFF,0x14
3.823115541666667,0,0x98,0x18
3.823133583333334,0,0xFF,0x03
3.823151791666667,0,0xFF,0x14
3.825110000000000,0,0xB0,0x13
3.825128000000000,0,0xFF,0x10
3.825146208333333,0,0xFF,0x14
3.827099375000000,0,0xB0,0x12
3.827117416666667,0,0xFF,0x12
3.827135583333333,0,0xFF,0x14
3.827160416666667,0,0x83,0x12
3.827178416666666,0,0xFF,0x00
3.827196625000000,0,0xFF,0x8A
3.827217166666667,0,0x87,0x18
3.827235208333333,0,0x00,0x12
3.827253250000000,0,0x1A,0x1A
3.827444041666667,0,0x03,0x00
3.827462041666667,0,0x00,0x01
3.827480125000000,0,0x32,0x01
3.827500708333333,0,0x36,0x01
3.827518750000000,0,0x80,0x01
3.827536791666667,0,0x80,0x01
3.827557041666667,0,0xC3,0x01
3.827575041666667,0,0xFF,0x00
3.827593250000000,0,0xFF,0x32
3.827614125000000,0,0x07,0x01
3.827632125000000,0,0x80,0x81
3.827650208333333,0,0xB8,0x01
3.829086500000000,0,0xB0,0x12
3.829104541666667,0,0xFF,0x13
3.829122750000000,0,0xFF,0x04
3.831084958333333,0,0xB0,0x13
3.831102958333333,0,0xFF,0x10
3.831121166666667,0,0xFF,0x04
3.833077333333333,0,0xB0,0x12
3.833095375000000,0,0xFF,0x12
3.833113541666667,0,0xFF,0x04
3.835064750000000,0,0xB0,0x12
3.835082791666667,0,0xFF,0x12
3.835101000000000,0,0xFF,0x00
3.837056958333333,0,0xF0,0x02
3.837074958333333,0,0x7F,0x18
3.837093166666667,0,0xFF,0x04
3.839044000000000,0,0xB0,0x12
3.839062041666667,0,0xFF,0x12
3.839080208333333,0,0xFF,0x04
3.841040958333333,0,0xB0,0x13
3.841058958333333,0,0xFF,0x10
3.841077166666667,0,0xFF,0x04
3.843037125000000,0,0xF0,0x12
3.843055166666667,0,0xFF,0x12
3.843073333333333,0,0xFF,0x04
3.845029708333333,0,0x98,0x18
3.845047750000000,0,0xFF,0x02
3.845065958333334,0,0xFF,0x04
3.847019083333334,0,0x90,0x12
3.847037125000000,0,0xFF,0x12
3.847055291666666,0,0xFF,0x04
3.849006333333334,0,0xB0,0x12
3.849024375000000,0,0xFF,0x12
3.849042541666666,0,0xFF,0x04
3.850996708333333,0,0xF0,0x13
3.851014708333333,0,0x7F,0x18
3.851032916666667,0,0xFF,0x04
3.852988750000000,0,0xB0,0x12
3.853006791666667,0,0xFF,0x12
3.853024958333333,0,0xFF,0x04
3.854981291666667,0,0xB0,0x12
3.854999333333333,0,0xFF,0x12
3.855017541666667,0,0xFF,0x04
3.856971250000000,0,0xB0,0x12
3.856989291666667,0,0xFF,0x12
3.857007458333333,0,0xFF,0x04
3.858967125000000,0,0xB0,0x12
3.858985166666667,0,0xFF,0x12
3.859003333333333,0,0xFF,0x04
3.859028166666667,0,0x83,0x12
3.859046166666667,0,0xFF,0x00
3.859064375000000,0,0xFF,0xB2
3.859084916666667,0,0x87,0x18
3.859102958333333,0,0x00,0x02
3.859121000000000,0,0x14,0x12
3.859234333333333,0,0x03,0x00
3.859252333333334,0,0x00,0x01
3.859270416666666,0,0x00,0x01
3.859291000000000,0,0x1E,0x01
3.859309041666667,0,0xC0,0x01
3.859327083333334,0,0x00,0x81
3.859347333333333,0,0x87,0x01
3.859365375000000,0,0xFF,0x00
3.859383541666667,0,0xFF,0x14
3.859404416666667,0,0x87,0x01
3.859422458333333,0,0x00,0x01
3.859440500000000,0,0x14,0x81
3.860961666666667,0,0xF0,0x02
3.860979666666667,0,0x7F,0x18
3.860997875000000,0,0xFF,0x08
3.862951708333333,0,0xB0,0x12
3.862969750000000,0,0xFF,0x13
3.862987958333334,0,0xFF,0x08
3.864951041666667,0,0x98,0x12
3.864969083333333,0,0xFF,0x13
3.864987291666667,0,0xFF,0x08
3.866939291666667,0,0x90,0x12
3.866957333333333,0,0xFF,0x02
3.866975541666667,0,0xFF,0x08
3.868931375000000,0,0xB0,0x12
3.868949375000000,0,0xFF,0x12
3.868967583333333,0,0xFF,0x08
3.870925166666667,0,0xF0,0x02
3.870943166666667,0,0x7F,0x12
3.870961375000000,0,0xFF,0x00
3.872918375000000,0,0x98,0x18
3.872936416666667,0,0xFF,0x03
3.872954625000000,0,0xFF,0x08
3.874911625000000,0,0xB0,0x13
3.874929625000000,0,0xFF,0x12
3.874947833333333,0,0xFF,0x08
3.876898875000000,0,0xB0,0x12
3.876916916666667,0,0xFF,0x13
3.876935125000000,0,0xFF,0x08
3.878892708333333,0,0xF0,0x13
3.878910708333333,0,0xFF,0x10
3.878928916666667,0,0xFF,0x08
3.880879250000000,0,0x90,0x12
3.880897291666667,0,0xFF,0x13
3.880915500000000,0,0xFF,0x08
3.882870541666667,0,0xB0,0x12
3.882888583333334,0,0xFF,0x12
3.882906791666667,0,0xFF,0x08
3.884868000000000,0,0x98,0x12
3.884886041666667,0,0xFF,0x02
3.884904250000000,0,0xFF,0x0C
3.886858125000000,0,0xB0,0x12
3.886876166666667,0,0xFF,0x12
3.886894333333333,0,0xFF,0x08
3.888854166666667,0,0xF0,0x02
3.888872166666667,0,0x7F,0x12
3.888890375000000,0,0xFF,0x00
3.890844541666667,0,0xB0,0x13
3.890862541666666,0,0xFF,0x10
3.890880750000000,0,0xFF,0x08
3.890905541666667,0,0x87,0x12
3.890923583333334,0,0xFF,0x00
3.890941791666667,0,0xFF,0x94
3.890962333333333,0,0x03,0x13
3.890980333333333,0,0x80,0x1A
3.890998416666667,0,0x3C,0x12
3.891025083333334,0,0x03,0x00
3.891043083333333,0,0x00,0x01
3.891061166666667,0,0x3C,0x01
3.891081750000000,0,0x1E,0x01
3.891099791666667,0,0xC0,0x00
3.891117833333333,0,0x00,0x01
3.891138083333333,0,0x87,0x01
3.891156125000000,0,0xFF,0x00
3.891174291666667,0,0xFF,0x3C
3.891195166666667,0,0x87,0x01
3.891213208333333,0,0x00,0x01
3.891231250000000,0,0x1C,0x01
3.892838166666666,0,0x90,0x12
3.892856208333333,0,0xFF,0x13
3.892874416666666,0,0xFF,0x18
3.894831375000000,0,0x98,0x10
3.894849416666667,0,0xFF,0x02
3.894867625000000,0,0xFF,0x18
3.896827458333334,0,0x98,0x10
3.896845500000000,0,0xFF,0x12
3.896863708333334,0,0xFF,0x18
3.898815625000000,0,0xB0,0x12
3.898833625000000,0,0xFF,0x12
3.898851833333334,0,0xFF,0x18
3.900814333333333,0,0xB0,0x12
3.900832333333333,0,0xFF,0x12
3.900850541666667,0,0xFF,0x0C
3.902802041666667,0,0xB0,0x13
3.902820041666667,0,0xFF,0x10
3.902838250000000,0,0xFF,0x18
3.904798791666667,0,0xB0,0x13
3.904816791666667,0,0xFF,0x10
3.904835000000000,0,0xFF,0x18
3.906787958333333,0,0xB0,0x12
3.906806000000000,0,0xFF,0x12
3.906824166666667,0,0xFF,0x18
3.908779541666667,0,0xB0,0x12
3.908797583333333,0,0xFF,0x12
3.908815791666667,0,0xFF,0x18
3.910771166666667,0,0xB0,0x12
3.910789166666667,0,0xFF,0x12
3.910807375000000,0,0xFF,0x18
3.912758291666667,0,0x98,0x18
3.912776333333333,0,0xFF,0x02
3.912794541666667,0,0xFF,0x18
3.914749250000000,0,0xF0,0x13
3.914767250000000,0,0xFF,0x10
3.914785458333333,0,0xFF,0x18
3.916740083333333,0,0xB0,0x12
3.916758083333333,0,0xFF,0x12
3.916776291666667,0,0xFF,0x18
3.918730291666667,0,0x98,0x12
3.918748333333333,0,0xFF,0x13
3.918766541666667,0,0xFF,0x18
3.920716916666667,0,0xF0,0x12
3.920734916666667,0,0x7F,0x12
3.920753125000000,0,0xFF,0x18
3.922708625000000,0,0xF0,0x02
3.922726625000000,0,0x7F,0x1A
3.922744833333333,0,0xFF,0x18
3.922769625000000,0,0x87,0x12
3.922787666666667,0,0xFF,0x00
3.922805875000000,0,0xFF,0xFC
3.922826291666667,0,0x07,0x12
3.922844333333333,0,0x00,0x12
3.922862375000000,0,0x1E,0x12
3.923809125000000,0,0x07,0x01
3.923827125000000,0,0x80,0x81
3.923845208333333,0,0x1E,0x01
3.923865791666667,0,0x1E,0x01
3.923883833333333,0,0xC0,0x01
3.923901875000000,0,0x00,0x81
3.923922125000000,0,0x87,0x01
3.923940166666667,0,0xFF,0x00
3.923958333333333,0,0xFF,0x1E
3.923979208333333,0,0x87,0x01
3.923997250000000,0,0x00,0x01
3.924015291666667,0,0x1E,0x81
3.925419708333334,0,0x30,0x92
3.925437750000000,0,0xFF,0x12
3.925455958333333,0,0xFF,0x1C
3.927409083333333,0,0xB0,0x12
3.927427083333333,0,0x7F,0x12
3.927445291666666,0,0xFF,0x1E
3.929403125000000,0,0xB0,0x12
3.929421125000000,0,0xFF,0x12
3.929439333333333,0,0xFF,0x0C
3.931392583333333,0,0xB0,0x12
3.931410583333333,0,0xFF,0x12
3.931428791666667,0,0xFF,0x0C
3.933388583333334,0,0xB0,0x13
3.933406583333333,0,0xFF,0x10
3.933424791666666,0,0xFF,0x1C
3.935375333333333,0,0xB0,0x12
3.935393375000000,0,0xFF,0x12
3.935411541666667,0,0xFF,0x1C
3.937371000000000,0,0xF0,0x13
3.937389000000000,0,0x7F,0x18
3.937407208333333,0,0xFF,0x1C
3.939358875000000,0,0xF0,0x02
3.939376875000000,0,0x7F,0x1A
3.939395083333333,0,0xFF,0x1C
3.941349083333333,0,0xB0,0x12
3.941367125000000,0,0xFF,0x12
3.941385291666667,0,0xFF,0x1C
3.943336208333333,0,0xB0,0x12
3.943354250000000,0,0xFF,0x12
3.943372458333333,0,0xFF,0x1C
3.945330708333334,0,0xF0,0x02
3.945348708333333,0,0x7F,0x12
3.945366916666667,0,0xFF,0x1E
3.947323666666667,0,0xF0,0x13
3.947341666666667,0,0xFF,0x10
3.947359875000000,0,0xFF,0x1C
3.949313916666667,0,0x98,0x10
3.949331958333334,0,0xFF,0x02
3.949350166666667,0,0xFF,0x1C
3.951302041666667,0,0xB0,0x12
3.951320083333334,0,0xFF,0x12
3.951338250000000,0,0xFF,0x1C
3.953293250000000,0,0xF0,0x12
3.953311250000000,0,0x7F,0x1A
3.953329458333333,0,0xFF,0x1E
3.955284041666667,0,0xB0,0x12
3.955302041666667,0,0xFF,0x12
3.955320250000000,0,0xFF,0x1C
3.955345041666666,0,0x87,0x12
3.955363083333333,0,0xFF,0x00
3.955381291666667,0,0xFF,0x9E
3.955401833333333,0,0x03,0x12
3.955419833333333,0,0x80,0x18
3.955437916666667,0,0x06,0x12
3.955598875000000,0,0x07,0x01
3.955616916666667,0,0x00,0x01
3.955634958333333,0,0x46,0x81
3.955655583333333,0,0x30,0x01
3.955673583333333,0,0x00,0x01
3.955691666666667,0,0x80,0x01
3.955711916666667,0,0xC3,0x00
3.955729916666667,0,0xFF,0x00
3.955748125000000,0,0xFF,0x46
3.955769000000000,0,0x07,0x01
3.955787000000000,0,0x80,0x81
3.955805083333333,0,0xC6,0x01
3.957273250000000,0,0xF0,0x02
3.957291250000000,0,0x7F,0x18
3.957309458333333,0,0xFF,0x0C
3.959264833333333,0,0xB0,0x12
3.959282875000000,0,0xFF,0x12
3.959301083333334,0,0xFF,0x0C
3.961261083333333,0,0xB0,0x12
3.961279083333333,0,0xFF,0x12
3.961297291666667,0,0xFF,0x0C
3.963249875000000,0,0x90,0x12
3.963267916666667,0,0xFF,0x02
3.963286125000000,0,0xFF,0x0C
3.965246041666667,0,0xB0,0x12
3.965264083333333,0,0xFF,0x12
3.965282250000000,0,0xFF,0x0C
3.967232916666667,0,0x98,0x10
3.967250958333334,0,0xFF,0x02
3.967269166666667,0,0xFF,0x0C
3.969221666666667,0,0xF0,0x13
3.969239666666667,0,0xFF,0x12
3.969257875000000,0,0xFF,0x0C
3.971213750000000,0,0xB0,0x12
3.971231750000000,0,0xFF,0x12
3.971249958333333,0,0xFF,0x0C
3.973205583333333,0,0xB0,0x12
3.973223625000000,0,0xFF,0x12
3.973241833333333,0,0xFF,0x0C
3.975201541666667,0,0xB0,0x12
3.975219583333333,0,0xFF,0x12
3.975237750000000,0,0xFF,0x06
3.977192041666667,0,0xB0,0x12
3.977210041666666,0,0xFF,0x12
3.977228250000000,0,0xFF,0x0C
3.979184416666667,0,0xB0,0x12
3.979202458333333,0,0xFF,0x12
3.979220666666667,0,0xFF,0x0C
3.981180708333333,0,0xF0,0x02
3.981198708333333,0,0x7F,0x12
3.981216916666667,0,0xFF,0x0E
3.983169791666667,0,0x98,0x10
3.983187833333333,0,0xFF,0x13
3.983206041666667,0,0xFF,0x0C
3.985166541666667,0,0xF0,0x02
3.985184541666666,0,0x7F,0x12
3.985202750000000,0,0xFF,0x0E
3.987157791666667,0,0x98,0x10
3.987175833333333,0,0xFF,0x13
3.987194041666667,0,0xFF,0x0C
3.987218833333333,0,0x83,0x12
3.987236833333333,0,0xFF,0x00
3.987255041666667,0,0xFF,0xC6
3.987275583333334,0,0x07,0x12
3.987293625000000,0,0x00,0x12
3.987311666666667,0,0x00,0x10
3.987387541666667,0,0x03,0x00
3.987405541666666,0,0x00,0x01
3.987423625000000,0,0x00,0x01
3.987444208333333,0,0x3E,0x01
3.987462250000000,0,0x80,0x00
3.987480291666667,0,0x00,0x01
3.987500541666666,0,0xC3,0x01
3.987518541666667,0,0xFF,0x00
3.987536750000000,0,0xFF,0x00
3.987557625000000,0,0x07,0x01
3.987575666666667,0,0x00,0x01
3.987593708333333,0,0x80,0x01
3.989154458333333,0,0x30,0x92
3.989172500000000,0,0xFF,0x12
3.989190708333333,0,0xFF,0x00
3.991146416666667,0,0x98,0x1A
3.991164458333333,0,0xFF,0x12
3.991182666666667,0,0xFF,0x00
3.993143833333333,0,0xF0,0x02
3.993161833333333,0,0x7F,0x1A
3.993180041666667,0,0xFF,0x00
3.995132541666667,0,0xF0,0x02
3.995150541666667,0,0x7F,0x18
3.995168750000000,0,0xFF,0x00
3.997126583333333,0,0x98,0x10
3.997144625000000,0,0xFF,0x02
3.997162833333333,0,0xFF,0x00
3.999118416666667,0,0xB0,0x12
3.999136416666667,0,0xFF,0x12
3.999154625000000,0,0xFF,0x00
4.001112333333333,0,0xB0,0x12
4.001130375000000,0,0xFF,0x12
4.001148583333333,0,0xFF,0x00
4.003105375000000,0,0xB0,0x12
4.003123375000000,0,0xFF,0x12
4.003141583333333,0,0xFF,0x00
4.005104541666666,0,0xB0,0x12
4.005122583333334,0,0xFF,0x12
4.005140791666666,0,0xFF,0x00
4.007093250000000,0,0xB0,0x12
4.007111250000000,0,0x7F,0x12
4.007129458333333,0,0xFF,0x00
4.009089208333333,0,0xB0,0x12
4.009107250000000,0,0xFF,0x12
4.009125458333333,0,0xFF,0x00
4.011088583333334,0,0x98,0x12
4.011106625000000,0,0xFF,0x13
4.011124791666667,0,0xFF,0x00
4.013082416666666,0,0xF0,0x13
4.013100416666667,0,0x7F,0x18
4.013118625000000,0,0xFF,0x00
4.015081416666667,0,0xF0,0x12
4.015099416666667,0,0x7F,0x18
4.015117625000000,0,0xFF,0x00
4.017075416666667,0,0x98,0x10
4.017093458333333,0,0xFF,0x13
4.017111666666667,0,0xFF,0x00
4.019064625000000,0,0xF0,0x12
4.019082625000000,0,0x7F,0x12
4.019100833333333,0,0xFF,0x00
4.019125625000000,0,0x87,0x10
4.019143666666666,0,0xFF,0x00
4.019161875000000,0,0xFF,0x80
4.019182541666667,0,0x07,0x12
4.019200583333333,0,0x00,0x12
4.019218625000000,0,0x28,0x12
4.020168625000000,0,0x07,0x01
4.020186666666667,0,0x00,0x00
4.020204708333333,0,0x00,0x01
4.020225333333333,0,0x30,0x01
4.020243333333333,0,0x80,0x01
4.020261416666667,0,0x80,0x01
4.020281625000000,0,0x07,0x01
4.020299666666666,0,0xFF,0x00
4.020317875000000,0,0xFF,0x28
4.020338708333333,0,0x87,0x01
4.020356750000000,0,0x00,0x01
4.020374833333333,0,0xA8,0x01
4.021754625000000,0,0x10,0x12
4.021772666666667,0,0xFF,0x12
4.021790875000000,0,0xFF,0x10
4.023748166666667,0,0xB0,0x12
4.023766166666666,0,0xFF,0x12
4.023784375000000,0,0xFF,0x10
4.025744541666667,0,0xB0,0x12
4.025762541666666,0,0xFF,0x12
4.025780750000000,0,0xFF,0x00
4.027732208333333,0,0xF0,0x02
4.027750208333333,0,0x7F,0x18
4.027768416666667,0,0xFF,0x10
4.029726833333333,0,0xB0,0x12
4.029744833333333,0,0xFF,0x12
4.029763041666667,0,0xFF,0x10
4.031715791666667,0,0x98,0x1A
4.031733833333333,0,0xFF,0x02
4.031752041666667,0,0xFF,0x10
4.033712125000000,0,0xF0,0x12
4.033730125000000,0,0x7F,0x12
4.033748333333333,0,0xFF,0x10
4.035699416666667,0,0xF0,0x02
4.035717416666667,0,0x7F,0x18
4.035735625000000,0,0xFF,0x10
4.037688250000000,0,0xB0,0x12
4.037706250000000,0,0xFF,0x12
4.037724458333333,0,0xFF,0x00
4.039682458333333,0,0x98,0x12
4.039700500000000,0,0xFF,0x13
4.039718708333333,0,0xFF,0x10
4.041669250000000,0,0xF0,0x13
4.041687250000000,0,0x7F,0x10
4.041705458333333,0,0xFF,0x10
4.043668083333333,0,0x98,0x1A
4.043686125000000,0,0xFF,0x02
4.043704333333333,0,0xFF,0x10
4.045659333333333,0,0x98,0x1A
4.045677375000000,0,0xFF,0x02
4.045695583333333,0,0xFF,0x10
4.047648750000000,0,0xB0,0x13
4.047666750000000,0,0xFF,0x12
4.047684958333333,0,0xFF,0x10
4.049641166666667,0,0xF0,0x02
4.049659166666666,0,0x7F,0x18
4.049677375000000,0,0xFF,0x10
4.051627416666666,0,0xB0,0x12
4.051645416666667,0,0x7F,0x12
4.051663625000000,0,0xFF,0x10
4.051688416666667,0,0x87,0x10
4.051706458333333,0,0xFF,0x00
4.051724625000000,0,0xFF,0x28
4.051745208333333,0,0x07,0x12
4.051763208333333,0,0x00,0x12
4.051781291666667,0,0x0A,0x12
4.051956541666667,0,0x03,0x00
4.051974541666667,0,0x00,0x01
4.051992625000000,0,0x0F,0x00
4.052013208333333,0,0x34,0x01
4.052031208333333,0,0x00,0x81
4.052049291666667,0,0x80,0x01
4.052069541666667,0,0x87,0x01
4.052087541666666,0,0xFF,0x00
4.052105750000000,0,0xFF,0x0E
4.052126625000000,0,0x07,0x01
4.052144625000000,0,0x00,0x01
4.052162708333333,0,0x8A,0x01
4.053626375000000,0,0xB0,0x12
4.053644375000000,0,0xFF,0x12
4.053662583333334,0,0xFF,0x04
4.055614458333333,0,0xF0,0x12
4.055632458333333,0,0x7F,0x1A
4.055650666666667,0,0xFF,0x16
4.057606416666666,0,0x98,0x10
4.057624458333334,0,0xFF,0x13
4.057642666666666,0,0xFF,0x14
4.059605666666666,0,0x98,0x12
4.059623708333334,0,0xFF,0x12
4.059641916666667,0,0xFF,0x14
4.061592166666666,0,0xF0,0x13
4.061610166666667,0,0xFF,0x12
4.061628375000000,0,0xFF,0x14
4.063581000000000,0,0x98,0x1A
4.063599041666667,0,0xFF,0x02
4.063617250000000,0,0xFF,0x14
4.065577208333333,0,0xF0,0x13
4.065595208333334,0,0x7F,0x10
4.065613416666666,0,0xFF,0x14
4.067565708333333,0,0xF0,0x12
4.067583708333333,0,0x7F,0x12
4.067601916666667,0,0xFF,0x14
4.069552875000000,0,0xB0,0x12
4.069570875000000,0,0xFF,0x12
4.069589083333334,0,0xFF,0x14
4.071541416666666,0,0xB0,0x12
4.071559458333334,0,0xFF,0x12
4.071577625000000,0,0xFF,0x14
4.073540250000000,0,0xB0,0x12
4.073558291666667,0,0xFF,0x12
4.073576500000000,0,0xFF,0x10
4.075538958333333,0,0xF0,0x02
4.075556958333333,0,0x7F,0x18
4.075575166666667,0,0xFF,0x14
4.077525833333334,0,0x90,0x12
4.077543875000000,0,0xFF,0x12
4.077562083333333,0,0xFF,0x14
4.079514875000000,0,0xB0,0x12
4.079532916666667,0,0xFF,0x12
4.079551125000000,0,0xFF,0x04
4.081504541666667,0,0xB0,0x12
4.081522583333333,0,0xFF,0x12
4.081540791666667,0,0xFF,0x14
4.083495458333333,0,0xB0,0x12
4.083513458333333,0,0xFF,0x12
4.083531666666667,0,0xFF,0x14
4.083556458333334,0,0x87,0x12
4.083574500000000,0,0xFF,0x00
4.083592666666667,0,0xFF,0x0A
4.083613250000000,0,0x03,0x13
4.083631250000000,0,0x80,0x18
4.083649333333334,0,0x32,0x12
4.083745583333333,0,0x07,0x01
4.083763625000000,0,0x00,0x01
4.083781666666667,0,0x32,0x81
4.083802291666666,0,0x30,0x01
4.083820291666667,0,0x00,0x01
4.083838375000000,0,0xC0,0x01
4.083858625000000,0,0x87,0x01
4.083876625000000,0,0xFF,0x00
4.083894833333333,0,0xFF,0x32
4.083915708333334,0,0x03,0x01
4.083933708333333,0,0x80,0x01
4.083951791666666,0,0xF2,0x01
4.085488791666666,0,0xB0,0x12
4.085506833333334,0,0xFF,0x13
4.085525041666667,0,0xFF,0x04
4.087484083333333,0,0xB0,0x12
4.087502125000000,0,0xFF,0x12
4.087520333333333,0,0xFF,0x04
4.089477625000000,0,0x98,0x12
4.089495666666667,0,0xFF,0x13
4.089513875000000,0,0xFF,0x04
4.091469833333333,0,0xB0,0x12
4.091487875000000,0,0xFF,0x12
4.091506041666666,0,0xFF,0x04
4.093459625000000,0,0xB0,0x12
4.093477625000000,0,0xFF,0x12
4.093495833333333,0,0xFF,0x04
4.095450125000000,0,0x98,0x10
4.095468166666667,0,0xFF,0x13
4.095486375000000,0,0xFF,0x04
4.097436416666667,0,0xB0,0x12
4.097454458333333,0,0xFF,0x12
4.097472625000000,0,0xFF,0x04
4.099431750000000,0,0xB0,0x12
4.099449791666666,0,0xFF,0x12
4.099467958333333,0,0xFF,0x04
4.101423625000000,0,0xB0,0x12
4.101441625000000,0,0xFF,0x12
4.101459833333333,0,0xFF,0x04
4.103416458333333,0,0x98,0x10
4.103434500000000,0,0xFF,0x02
4.103452708333333,0,0xFF,0x04
4.105412875000000,0,0x98,0x1A
4.105430916666666,0,0xFF,0x12
4.105449125000000,0,0xFF,0x04
4.107404666666667,0,0xF0,0x02
4.107422666666666,0,0x7F,0x1A
4.107440875000000,0,0xFF,0x04
4.109391208333333,0,0x98,0x1A
4.109409250000000,0,0xFF,0x02
4.109427458333333,0,0xFF,0x04
4.111383000000000,0,0xF0,0x13
4.111401000000000,0,0xFF,0x10
4.111419208333333,0,0xFF,0x04
4.113375958333333,0,0xF0,0x12
4.113393958333333,0,0x7F,0x12
4.113412166666667,0,0xFF,0x06
4.115367625000000,0,0xB0,0x12
4.115385625000000,0,0x7F,0x12
4.115403833333334,0,0xFF,0x04
4.115428625000000,0,0x87,0x18
4.115446666666666,0,0xFF,0x00
4.115464875000000,0,0xFF,0xB2
4.115485416666667,0,0x03,0x13
4.115503416666667,0,0x80,0x10
4.115521500000000,0,0x04,0x13
4.116528416666666,0,0x07,0x01
4.116546458333334,0,0x00,0x01
4.116564541666667,0,0x14,0x01
4.116585125000000,0,0x34,0x01
4.116603166666667,0,0x80,0x01
4.116621208333333,0,0x00,0x01
4.116641458333334,0,0xC7,0x01
4.116659458333333,0,0xFF,0x80
4.116677666666667,0,0xFF,0x1E
4.116698541666667,0,0x07,0x01
4.116716583333333,0,0x00,0x01
4.116734625000000,0,0x96,0x01
4.118108166666667,0,0x98,0x12
4.118126208333333,0,0xFF,0x13
4.118144416666667,0,0xFF,0x08
4.120095250000000,0,0xB0,0x12
4.120113250000000,0,0xFF,0x12
4.120131458333334,0,0xFF,0x08
4.122083208333334,0,0xF0,0x12
4.122101208333333,0,0x7F,0x12
4.122119416666667,0,0xFF,0x08
4.124070333333333,0,0x98,0x10
4.124088375000000,0,0xFF,0x13
4.124106583333333,0,0xFF,0x08
4.126063541666666,0,0x98,0x18
4.126081583333334,0,0xFF,0x02
4.126099791666666,0,0xFF,0x08
4.128053833333333,0,0xB0,0x12
4.128071833333333,0,0xFF,0x12
4.128090041666667,0,0xFF,0x08
4.130041583333333,0,0xB0,0x12
4.130059583333333,0,0xFF,0x12
4.130077791666666,0,0xFF,0x08
4.132028291666667,0,0xB0,0x12
4.132046291666667,0,0x7F,0x12
4.132064500000000,0,0xFF,0x08
4.134019208333333,0,0xB0,0x12
4.134037208333333,0,0xFF,0x12
4.134055416666667,0,0xFF,0x08
4.136013541666666,0,0xB0,0x12
4.136031541666667,0,0xFF,0x12
4.136049750000000,0,0xFF,0x08
4.138000083333333,0,0xF0,0x02
4.138018083333334,0,0x7F,0x1A
4.138036291666666,0,0xFF,0x08
4.139987250000000,0,0xB0,0x12
4.140005291666666,0,0xFF,0x12
4.140023458333333,0,0xFF,0x00
4.141979416666667,0,0xB0,0x12
4.141997458333333,0,0xFF,0x12
4.142015666666667,0,0xFF,0x08
4.143975916666666,0,0xB0,0x12
4.143993958333334,0,0xFF,0x12
4.144012166666666,0,0xFF,0x0C
4.145967416666666,0,0xB0,0x12
4.145985458333334,0,0xFF,0x12
4.146003666666667,0,0xFF,0x0C
4.147966541666666,0,0x98,0x18
4.147984583333334,0,0xFF,0x02
4.148002791666666,0,0xFF,0x08
4.148027583333334,0,0xC3,0x13
4.148045583333333,0,0xFF,0x00
4.148063791666667,0,0xFF,0x94
4.148084333333333,0,0x87,0x18
4.148102375000000,0,0x00,0x13
4.148120416666667,0,0x1C,0x1A
4.148314791666667,0,0x07,0x01
4.148332833333333,0,0x00,0x00
4.148350875000000,0,0x1C,0x01
4.148371500000000,0,0x30,0x00
4.148389500000000,0,0x00,0x01
4.148407583333333,0,0xC0,0x00
4.148427791666666,0,0x07,0x01
4.148445833333334,0,0xFF,0x00
4.148464041666666,0,0xFF,0x3C
4.148484916666667,0,0x07,0x01
4.148502916666667,0,0x00,0x01
4.148521000000000,0,0xBC,0x01
4.149958333333333,0,0xB0,0x12
4.149976375000000,0,0xFF,0x12
4.149994541666667,0,0xFF,0x18
4.151948500000000,0,0xF0,0x12
4.151966500000000,0,0x7F,0x12
4.151984708333333,0,0xFF,0x18
4.153939666666667,0,0xF0,0x13
4.153957666666667,0,0x7F,0x10
4.153975875000000,0,0xFF,0x18
4.155927625000000,0,0x90,0x12
4.155945666666667,0,0xFF,0x12
4.155963875000000,0,0xFF,0x0C
4.157921625000000,0,0xB0,0x12
4.157939666666667,0,0xFF,0x12
4.157957833333334,0,0xFF,0x18
4.159916125000000,0,0xB0,0x12
4.159934125000000,0,0xFF,0x12
4.159952333333333,0,0xFF,0x18
4.161909166666667,0,0xB0,0x12
4.161927166666667,0,0x7F,0x12
4.161945375000000,0,0xFF,0x18
4.163900541666667,0,0x98,0x12
4.163918583333333,0,0xFF,0x13
4.163936791666667,0,0xFF,0x18
4.165888541666667,0,0xF0,0x02
4.165906541666667,0,0x7F,0x12
4.165924750000000,0,0xFF,0x18
4.167878208333334,0,0xF0,0x02
4.167896208333334,0,0x7F,0x1A
4.167914416666667,0,0xFF,0x18
4.169873750000000,0,0xF0,0x02
4.169891750000000,0,0x7F,0x12
4.169909958333333,0,0xFF,0x18
4.171869500000000,0,0xF0,0x13
4.171887500000000,0,0x7F,0x18
4.171905708333333,0,0xFF,0x18
4.173867500000000,0,0xB0,0x12
4.173885541666666,0,0xFF,0x12
4.173903750000000,0,0xFF,0x0C
4.175856333333333,0,0xF0,0x13
4.175874333333334,0,0xFF,0x12
4.175892541666666,0,0xFF,0x18
4.177847791666666,0,0x98,0x10
4.177865833333334,0,0xFF,0x12
4.177884000000000,0,0xFF,0x18
4.179838291666667,0,0xB0,0x12
4.179856291666667,0,0xFF,0x12
4.179874500000000,0,0xFF,0x18
4.179899291666667,0,0x87,0x12
4.179917333333333,0,0xFF,0x00
4.179935500000000,0,0xFF,0x3C
4.179956083333333,0,0x07,0x12
4.179974083333334,0,0x00,0x12
4.179992166666667,0,0x1F,0x12
4.180103916666667,0,0x07,0x01
4.180121916666667,0,0x00,0x01
4.180140000000000,0,0x1F,0x01
4.180160583333334,0,0x34,0x01
4.180178583333333,0,0x00,0x81
4.180196666666666,0,0x80,0x01
4.180216916666667,0,0x87,0x01
4.180234916666667,0,0xFF,0x00
4.180253125000000,0,0xFF,0x1E
4.180274000000000,0,0x03,0x01
4.180292000000000,0,0x00,0x01
4.180310083333334,0,0xCF,0x00
4.181826375000000,0,0xF0,0x12
4.181844375000000,0,0x7F,0x12
4.181862583333333,0,0xFF,0x1C
4.183814208333334,0,0xB0,0x12
4.183832208333333,0,0xFF,0x12
4.183850416666667,0,0xFF,0x1C
4.185801041666667,0,0xB0,0x12
4.185819083333334,0,0xFF,0x12
4.185837250000000,0,0xFF,0x1C
4.187792750000000,0,0x98,0x10
4.187810791666666,0,0xFF,0x02
4.187829000000000,0,0xFF,0x1C
4.189780583333333,0,0xB0,0x12
4.189798625000000,0,0xFF,0x12
4.189816791666667,0,0xFF,0x1C
4.191772208333333,0,0xB0,0x12
4.191790250000000,0,0xFF,0x12
4.191808458333333,0,0xFF,0x1C
4.193763208333333,0,0xB0,0x12
4.193781208333333,0,0x7F,0x12
4.193799416666667,0,0xFF,0x1E
4.195754833333333,0,0xF0,0x12
4.195772833333334,0,0x7F,0x12
4.195791041666666,0,0xFF,0x1C
4.197747833333334,0,0xB0,0x12
4.197765875000000,0,0xFF,0x12
4.197784041666667,0,0xFF,0x1C
4.199735125000000,0,0xB0,0x12
4.199753166666667,0,0xFF,0x02
4.199771375000000,0,0xFF,0x1C
4.201729875000000,0,0xB0,0x12
4.201747916666666,0,0xFF,0x12
4.201766083333333,0,0xFF,0x1C
4.203729250000000,0,0x98,0x18
4.203747291666667,0,0xFF,0x02
4.203765500000000,0,0xFF,0x1C
4.205724416666667,0,0x98,0x1A
4.205742458333333,0,0xFF,0x12
4.205760666666666,0,0xFF,0x1C
4.207712333333333,0,0xB0,0x13
4.207730333333333,0,0xFF,0x10
4.207748541666667,0,0xFF,0x1C
4.209704000000000,0,0x98,0x1A
4.209722041666667,0,0xFF,0x12
4.209740250000000,0,0xFF,0x0C
4.211698958333334,0,0xF0,0x02
4.211716958333334,0,0x7F,0x18
4.211735166666666,0,0xFF,0x1C
4.211759958333333,0,0x87,0x10
4.211778000000000,0,0xFF,0x00
4.211796208333333,0,0xFF,0x9E
4.211816750000000,0,0x03,0x02
4.211834750000000,0,0x80,0x12
4.211852833333333,0,0x46,0x12
4.211892500000000,0,0x07,0x01
4.211910500000000,0,0x00,0x01
4.211928583333333,0,0x47,0x01
4.211949166666667,0,0x30,0x01
4.211967166666667,0,0x00,0x01
4.211985250000000,0,0xC0,0x01
4.212005500000000,0,0x87,0x01
4.212023500000000,0,0xFF,0x00
4.212041708333333,0,0xFF,0x02
4.212062583333333,0,0x03,0x00
4.212080583333333,0,0x00,0x01
4.212098666666667,0,0xC3,0x00
4.213692791666666,0,0xB0,0x12
4.213710833333334,0,0xFF,0x12
4.213729000000000,0,0xFF,0x06
4.215686166666667,0,0xB0,0x12
4.215704208333333,0,0xFF,0x12
4.215722375000000,0,0xFF,0x06
4.217681000000000,0,0xB0,0x12
4.217699041666667,0,0xFF,0x12
4.217717250000000,0,0xFF,0x0C
4.219668833333333,0,0xF0,0x12
4.219686833333333,0,0x7F,0x12
4.219705041666667,0,0xFF,0x0E
4.221655166666666,0,0xB0,0x12
4.221673166666666,0,0xFF,0x12
4.221691375000000,0,0xFF,0x0C
4.223645375000000,0,0x98,0x12
4.223663416666667,0,0xFF,0x13
4.223681625000000,0,0xFF,0x0C
4.225635333333333,0,0xB0,0x12
4.225653333333334,0,0x7F,0x12
4.225671541666666,0,0xFF,0x06
4.227627250000000,0,0xB0,0x12
4.227645250000000,0,0xFF,0x12
4.227663458333334,0,0xFF,0x0C
4.229615708333333,0,0xF0,0x02
4.229633708333333,0,0x7F,0x18
4.229651916666667,0,0xFF,0x0C
4.231606833333333,0,0x98,0x1A
4.231624875000000,0,0xFF,0x02
4.231643083333333,0,0xFF,0x0C
4.233603958333333,0,0xB0,0x12
4.233622000000000,0,0xFF,0x12
4.233640166666667,0,0xFF,0x0C
4.235593250000000,0,0xB0,0x12
4.235611291666666,0,0xFF,0x12
4.235629500000000,0,0xFF,0x0C
4.237588250000000,0,0xB0,0x12
4.237606250000000,0,0xFF,0x12
4.237624458333333,0,0xFF,0x0C
4.239581000000000,0,0xB0,0x12
4.239599000000000,0,0xFF,0x12
4.239617208333334,0,0xFF,0x0C
4.241567958333333,0,0xF0,0x12
4.241586000000000,0,0xFF,0x12
4.241604166666667,0,0xFF,0x0C
4.243555416666666,0,0xF0,0x02
4.243573416666667,0,0x7F,0x12
4.243591625000000,0,0xFF,0x06
4.243616416666667,0,0x87,0x1A
4.243634458333333,0,0xFF,0x00
4.243652666666667,0,0xFF,0xC7
4.243673208333333,0,0x07,0x12
4.243691041666667,0,0x80,0x10
4.243709125000000,0,0x00,0x12
4.244673250000000,0,0x07,0x01
4.244691291666666,0,0x00,0x01
4.244709333333334,0,0x00,0x01
4.244729916666667,0,0x34,0x81
4.244747958333333,0,0x80,0x01
4.244766041666667,0,0x80,0x00
4.244786250000000,0,0x07,0x01
4.244804291666667,0,0xFF,0x00
4.244822500000000,0,0xFF,0x00
4.244843375000000,0,0x07,0x01
4.244861375000000,0,0x00,0x01
4.244879458333333,0,0x80,0x01
4.246273541666667,0,0xB0,0x12
4.246291583333333,0,0xFF,0x12
4.246309791666667,0,0xFF,0x00
4.248262166666667,0,0x98,0x10
4.248280208333333,0,0xFF,0x02
4.248298416666667,0,0xFF,0x00
4.250258000000000,0,0xB0,0x12
4.250276041666667,0,0xFF,0x12
4.250294208333333,0,0xFF,0x00
4.252247708333333,0,0x98,0x1A
4.252265750000000,0,0xFF,0x02
4.252283958333333,0,0xFF,0x00
4.254240500000000,0,0xB0,0x12
4.254258541666666,0,0xFF,0x12
4.254276750000000,0,0xFF,0x00
4.256231083333334,0,0xB0,0x12
4.256249125000000,0,0xFF,0x13
4.256267333333334,0,0xFF,0x00
4.258220583333333,0,0x98,0x18
4.258238625000000,0,0xFF,0x02
4.258256833333333,0,0xFF,0x00
4.260214416666667,0,0x98,0x10
4.260232458333333,0,0xFF,0x13
4.260250666666667,0,0xFF,0x00
4.262200750000000,0,0xB0,0x12
4.262218750000000,0,0x7F,0x12
4.262236958333333,0,0xFF,0x00
4.264200291666667,0,0x98,0x1A
4.264218333333333,0,0xFF,0x02
4.264236541666667,0,0xFF,0x00
4.266190250000000,0,0xF0,0x12
4.266208250000000,0,0x7F,0x18
4.266226458333334,0,0xFF,0x00
4.268186958333334,0,0x98,0x18
4.268205000000000,0,0xFF,0x02
4.268223208333334,0,0xFF,0x00
4.270180625000000,0,0xF0,0x02
4.270198625000000,0,0x7F,0x12
4.270216833333333,0,0xFF,0x00
4.272169041666666,0,0xF0,0x13
4.272187041666666,0,0xFF,0x10
4.272205250000000,0,0xFF,0x00
4.274162791666667,0,0xB0,0x12
4.274180791666667,0,0xFF,0x12
4.274199000000000,0,0xFF,0x00
4.276149291666667,0,0xB0,0x12
4.276167333333333,0,0xFF,0x12
4.276185500000000,0,0xFF,0x00
4.276210333333333,0,0x87,0x12
4.276228333333333,0,0xFF,0x00
4.276246541666667,0,0xFF,0xC0
4.276267083333333,0,0x07,0x10
4.276285125000000,0,0x00,0x02
4.276303166666667,0,0x28,0x12
4.276462916666667,0,0x07,0x01
4.276480958333333,0,0x00,0x00
4.276499000000000,0,0x00,0x01
4.276519625000000,0,0x30,0x01
4.276537625000000,0,0x80,0x01
4.276555708333333,0,0x80,0x01
4.276575916666666,0,0x07,0x01
4.276593958333334,0,0xFF,0x00
4.276612166666666,0,0xFF,0x28
4.276633000000000,0,0x87,0x01
4.276651041666667,0,0x00,0x01
4.276669125000000,0,0xA8,0x01
4.278137083333333,0,0x30,0x92
4.278155125000000,0,0xFF,0x02
4.278173333333333,0,0xFF,0x10
4.280127125000000,0,0xF0,0x13
4.280145125000000,0,0x7F,0x10
4.280163333333333,0,0xFF,0x10
4.282118291666666,0,0xF0,0x12
4.282136291666666,0,0x7F,0x12
4.282154500000000,0,0xFF,0x10
4.284108250000000,0,0x98,0x1A
4.284126291666666,0,0xFF,0x02
4.284144500000000,0,0xFF,0x10
4.286100333333334,0,0xB0,0x12
4.286118375000000,0,0xFF,0x12
4.286136541666667,0,0xFF,0x18
4.288087833333333,0,0xB0,0x12
4.288105833333334,0,0x7F,0x12
4.288124041666666,0,0xFF,0x18
4.290076375000000,0,0x98,0x10
4.290094416666666,0,0xFF,0x12
4.290112625000000,0,0xFF,0x10
4.292069125000000,0,0xB0,0x12
4.292087166666667,0,0xFF,0x12
4.292105375000000,0,0xFF,0x10
4.294056875000000,0,0x98,0x12
4.294074916666666,0,0xFF,0x13
4.294093125000000,0,0xFF,0x10
4.296056666666667,0,0xF0,0x02
4.296074666666667,0,0x7F,0x1A
4.296092875000000,0,0xFF,0x10
4.298048375000000,0,0xB0,0x12
4.298066375000000,0,0xFF,0x12
4.298084583333333,0,0xFF,0x10
4.300041250000000,0,0x98,0x18
4.300059291666667,0,0xFF,0x02
4.300077500000000,0,0xFF,0x10
4.302030666666667,0,0xB0,0x12
4.302048708333333,0,0xFF,0x12
4.302066916666667,0,0xFF,0x00
4.304020333333333,0,0xB0,0x13
4.304038333333334,0,0xFF,0x10
4.304056541666666,0,0xFF,0x10
4.306019041666667,0,0x98,0x10
4.306037083333333,0,0xFF,0x13
4.306055291666667,0,0xFF,0x10
4.308008375000000,0,0xF0,0x13
4.308026375000000,0,0xFF,0x10
4.308044583333333,0,0xFF,0x10
4.308069375000000,0,0x87,0x12
4.308087416666667,0,0xFF,0x00
4.308105583333333,0,0xFF,0x00
4.308126166666667,0,0x07,0x12
4.308144166666667,0,0x00,0x12
4.308162250000000,0,0x0B,0x12
4.308251875000000,0,0x07,0x01
4.308269875000000,0,0x00,0x01
4.308287958333334,0,0x0F,0x00
4.308308541666666,0,0x34,0x01
4.308326583333334,0,0x80,0x01
4.308344625000000,0,0x00,0x01
4.308364875000000,0,0xC7,0x01
4.308382875000000,0,0xFF,0x80
4.308401083333333,0,0xFF,0x02
4.308421958333334,0,0x07,0x01
4.308440000000000,0,0x00,0x00
4.308458041666666,0,0x02,0x01
4.310002416666666,0,0x30,0x92
4.310020458333334,0,0xFF,0x12
4.310038666666666,0,0xFF,0x10
4.312001458333333,0,0xF0,0x02
4.312019458333333,0,0x7F,0x1A
4.312037666666667,0,0xFF,0x14
4.313989458333333,0,0x98,0x18
4.314007500000000,0,0xFF,0x02
4.314025708333333,0,0xFF,0x14
4.315983541666666,0,0x98,0x10
4.316001583333334,0,0xFF,0x13
4.316019791666666,0,0xFF,0x14
4.317970333333333,0,0xB0,0x12
4.317988333333333,0,0xFF,0x12
4.318006541666667,0,0xFF,0x14
4.319962291666666,0,0xB0,0x12
4.319980333333334,0,0xFF,0x12
4.319998500000000,0,0xFF,0x1C
4.321951708333334,0,0xB0,0x12
4.321969750000000,0,0xFF,0x12
4.321987958333334,0,0xFF,0x00
4.323942166666667,0,0x98,0x18
4.323960208333333,0,0xFF,0x02
4.323978416666667,0,0xFF,0x14
4.325939500000000,0,0x98,0x10
4.325957541666667,0,0xFF,0x13
4.325975750000000,0,0xFF,0x14
4.327928083333333,0,0xF0,0x02
4.327946083333333,0,0x7F,0x12
4.327964291666667,0,0xFF,0x14
4.329918958333334,0,0x98,0x10
4.329937000000000,0,0xFF,0x12
4.329955208333334,0,0xFF,0x10
4.331910416666667,0,0xF0,0x13
4.331928416666667,0,0x7F,0x18
4.331946625000000,0,0xFF,0x14
4.333902375000000,0,0x98,0x18
4.333920416666666,0,0xFF,0x02
4.333938625000000,0,0xFF,0x14
4.335891750000000,0,0xF0,0x02
4.335909750000000,0,0x7F,0x18
4.335927958333333,0,0xFF,0x14
4.337884125000000,0,0xF0,0x02
4.337902125000000,0,0x7F,0x1A
4.337920333333333,0,0xFF,0x16
4.339874208333334,0,0x98,0x12
4.339892250000000,0,0xFF,0x13
4.339910458333334,0,0xFF,0x14
4.339935250000000,0,0xC3,0x13
4.339953250000000,0,0xFF,0x00
4.339971458333333,0,0xFF,0x8A
4.339992000000000,0,0x87,0x12
4.340010041666667,0,0x00,0x12
4.340028125000000,0,0x32,0x12
4.341034416666667,0,0x03,0x00
4.341052416666667,0,0x00,0x01
4.341070500000000,0,0x32,0x01
4.341091083333334,0,0x1C,0x01
4.341109125000000,0,0xC0,0x01
4.341127166666666,0,0x00,0x81
4.341147416666667,0,0x87,0x01
4.341165458333333,0,0xFF,0x00
4.341183666666667,0,0xFF,0x33
4.341204541666666,0,0x07,0x01
4.341222541666666,0,0x00,0x01
4.341240625000000,0,0xF3,0x00
4.342605291666667,0,0x30,0x92
4.342623333333333,0,0xFF,0x12
4.342641541666667,0,0xFF,0x04
4.344597750000000,0,0xB0,0x12
4.344615791666667,0,0xFF,0x12
4.344634000000000,0,0xFF,0x00
4.346588000000000,0,0xF0,0x02
4.346606000000000,0,0x7F,0x12
4.346624208333333,0,0xFF,0x04
4.348576833333333,0,0x98,0x1A
4.348594875000000,0,0xFF,0x02
4.348613083333333,0,0xFF,0x04
4.350568291666667,0,0xF0,0x13
4.350586291666667,0,0x7F,0x10
4.350604500000000,0,0xFF,0x04
4.352566458333333,0,0xF0,0x12
4.352584500000000,0,0xFF,0x12
4.352602666666667,0,0xFF,0x04
4.354563708333333,0,0x98,0x1A
4.354581750000000,0,0xFF,0x02
4.354599958333333,0,0xFF,0x00
4.356553083333333,0,0xB0,0x12
4.356571125000000,0,0xFF,0x12
4.356589333333333,0,0xFF,0x04
4.358549416666667,0,0x90,0x12
4.358567458333333,0,0xFF,0x13
4.358585666666666,0,0xFF,0x04
4.360536958333333,0,0xB0,0x12
4.360555000000000,0,0xFF,0x13
4.360573208333333,0,0xFF,0x04
4.362527500000000,0,0xF0,0x12
4.362545500000000,0,0x7F,0x1A
4.362563708333333,0,0xFF,0x06
4.364525666666666,0,0xB0,0x12
4.364543666666667,0,0x7F,0x12
4.364561875000000,0,0xFF,0x04
4.366518250000000,0,0xB0,0x12
4.366536291666667,0,0xFF,0x12
4.366554500000000,0,0xFF,0x04
4.368508041666667,0,0xB0,0x12
4.368526083333333,0,0xFF,0x12
4.368544291666667,0,0xFF,0x04
4.370499041666666,0,0x90,0x12
4.370517083333334,0,0xFF,0x12
4.370535291666667,0,0xFF,0x04
4.372487500000000,0,0xB0,0x12
4.372505541666666,0,0xFF,0x12
4.372523750000000,0,0xFF,0x04
4.372548541666666,0,0x87,0x12
4.372566583333334,0,0xFF,0x00
4.372584791666666,0,0xFF,0xB2
4.372605333333333,0,0x07,0x12
4.372623333333333,0,0x80,0x12
4.372641416666666,0,0x16,0x12
4.372826791666666,0,0x07,0x01
4.372844833333334,0,0x00,0x01
4.372862875000000,0,0x1E,0x01
4.372883500000000,0,0x30,0x00
4.372901500000000,0,0x00,0x01
4.372919583333333,0,0xC0,0x01
4.372939833333334,0,0x83,0x00
4.372957833333333,0,0xFF,0x00
4.372976041666667,0,0xFF,0x14
4.372996916666667,0,0x07,0x01
4.373014958333333,0,0x00,0x01
4.373033000000000,0,0x1E,0x01
4.374477875000000,0,0xF0,0x02
4.374495875000000,0,0x7F,0x12
4.374514083333334,0,0xFF,0x00
4.376477541666667,0,0x98,0x18
4.376495583333333,0,0xFF,0x02
4.376513791666667,0,0xFF,0x0C
4.378464541666666,0,0x90,0x12
4.378482583333334,0,0xFF,0x13
4.378500791666666,0,0xFF,0x08
4.380457083333333,0,0xB0,0x12
4.380475125000000,0,0xFF,0x13
4.380493333333333,0,0xFF,0x08
4.382449583333333,0,0xB0,0x12
4.382467625000000,0,0xFF,0x12
4.382485833333333,0,0xFF,0x08
4.384447541666667,0,0x98,0x1A
4.384465583333333,0,0xFF,0x02
4.384483791666667,0,0xFF,0x08
4.386443041666666,0,0xB0,0x12
4.386461083333334,0,0xFF,0x13
4.386479291666666,0,0xFF,0x08
4.388430708333333,0,0xB0,0x12
4.388448708333334,0,0x7F,0x12
4.388466916666666,0,0xFF,0x08
4.390429208333333,0,0xB0,0x12
4.390447250000000,0,0xFF,0x12
4.390465416666666,0,0xFF,0x08
4.392417708333333,0,0xB0,0x13
4.392435708333333,0,0xFF,0x10
4.392453916666667,0,0xFF,0x08
4.394408916666666,0,0x98,0x12
4.394426958333334,0,0xFF,0x13
4.394445166666666,0,0xFF,0x08
4.396396291666667,0,0x98,0x18
4.396414333333333,0,0xFF,0x02
4.396432541666667,0,0xFF,0x08
4.398390500000000,0,0xB0,0x13
4.398408500000000,0,0xFF,0x10
4.398426708333333,0,0xFF,0x08
4.400389083333334,0,0xF0,0x02
4.400407083333334,0,0x7F,0x12
4.400425291666667,0,0xFF,0x00
4.402383708333334,0,0xF0,0x02
4.402401708333334,0,0x7F,0x1A
4.402419916666667,0,0xFF,0x00
4.404383666666667,0,0xB0,0x12
4.404401708333333,0,0xFF,0x12
4.404419916666667,0,0xFF,0x08
4.404444708333333,0,0x87,0x12
4.404462750000000,0,0xFF,0x00
4.404480958333333,0,0xFF,0x94
4.404501500000000,0,0x03,0x02
4.404519500000000,0,0x80,0x12
4.404537583333333,0,0x3E,0x12
4.404620291666666,0,0x07,0x01
4.404638291666667,0,0x00,0x01
4.404656375000000,0,0x3C,0x00
4.404676958333333,0,0x36,0x01
4.404695000000000,0,0x80,0x00
4.404713041666667,0,0x00,0x01
4.404733291666667,0,0x87,0x01
4.404751333333333,0,0xFF,0x00
4.404769500000000,0,0xFF,0x3C
4.404790375000000,0,0x87,0x01
4.404808416666667,0,0x00,0x01
4.404826500000000,0,0xBC,0x01
4.406371791666666,0,0x30,0x12
4.406389833333333,0,0xFF,0x12
4.406408041666666,0,0xFF,0x1C
4.408359291666667,0,0x98,0x1A
4.408377333333333,0,0xFF,0x02
4.408395541666667,0,0xFF,0x0C
4.410347666666667,0,0xF0,0x12
4.410365708333333,0,0xFF,0x12
4.410383875000000,0,0xFF,0x18
4.412340958333333,0,0xF0,0x02
4.412358958333333,0,0x7F,0x12
4.412377166666666,0,0xFF,0x18
4.414329375000000,0,0x98,0x18
4.414347416666667,0,0xFF,0x02
4.414365625000000,0,0xFF,0x18
4.416318583333333,0,0x98,0x1A
4.416336625000000,0,0xFF,0x12
4.416354833333333,0,0xFF,0x0C
4.418308875000000,0,0x98,0x1A
4.418326916666667,0,0xFF,0x12
4.418345125000000,0,0xFF,0x0C
4.420301000000000,0,0x98,0x1A
4.420319041666667,0,0xFF,0x02
4.420337250000000,0,0xFF,0x18
4.422296458333333,0,0x98,0x1A
4.422314500000000,0,0xFF,0x02
4.422332708333333,0,0xFF,0x0C
4.424286916666667,0,0xB0,0x12
4.424304916666666,0,0xFF,0x12
4.424323125000000,0,0xFF,0x18
4.426285458333333,0,0xF0,0x12
4.426303458333333,0,0x7F,0x12
4.426321666666666,0,0xFF,0x18
4.428276166666667,0,0xB0,0x12
4.428294208333333,0,0xFF,0x12
4.428312416666667,0,0xFF,0x0C
4.430271041666667,0,0xB0,0x12
4.430289083333333,0,0xFF,0x12
4.430307291666667,0,0xFF,0x0C
4.432259791666667,0,0x98,0x1A
4.432277833333333,0,0xFF,0x12
4.432296041666667,0,0xFF,0x0C
4.434257291666666,0,0xF0,0x02
4.434275291666666,0,0x7F,0x12
4.434293500000000,0,0xFF,0x18
4.436246250000000,0,0xB0,0x12
4.436264291666666,0,0xFF,0x12
4.436282458333333,0,0xFF,0x18
4.436307291666667,0,0x83,0x13
4.436325291666667,0,0xFF,0x00
4.436343500000000,0,0xFF,0xBC
4.436364041666667,0,0x87,0x12
4.436382083333333,0,0x00,0x12
4.436400166666667,0,0x0E,0x12
4.437405833333333,0,0x07,0x01
4.437423875000000,0,0x00,0x01
4.437441916666667,0,0x1E,0x01
4.437462541666667,0,0x30,0x01
4.437480541666667,0,0x80,0x01
4.437498625000000,0,0xC0,0x01
4.437518875000000,0,0x87,0x01
4.437536875000000,0,0xFF,0x00
4.437555083333334,0,0xFF,0x1E
4.437575958333333,0,0x07,0x01
4.437593958333333,0,0x80,0x81
4.437612041666666,0,0x9E,0x01
4.438987125000000,0,0xF0,0x12
4.439005166666667,0,0xFF,0x12
4.439023333333333,0,0xFF,0x1C
4.440974500000000,0,0x90,0x12
4.440992541666667,0,0xFF,0x12
4.441010750000000,0,0xFF,0x0C
4.442968750000000,0,0xF0,0x13
4.442986750000000,0,0x7F,0x1A
4.443004958333334,0,0xFF,0x1E
4.444965875000000,0,0x98,0x18
4.444983916666667,0,0xFF,0x02
4.445002125000000,0,0xFF,0x0C
4.446962791666667,0,0xF0,0x13
4.446980791666666,0,0x7F,0x1A
4.446999000000000,0,0xFF,0x1E
4.448951000000000,0,0x98,0x10
4.448969041666667,0,0xFF,0x12
4.448987250000000,0,0xFF,0x1C
4.450939458333333,0,0x90,0x12
4.450957500000000,0,0xFF,0x12
4.450975708333333,0,0xFF,0x0C
4.452927500000000,0,0xB0,0x12
4.452945541666667,0,0xFF,0x12
4.452963708333334,0,0xFF,0x1C
4.454926625000000,0,0x90,0x12
4.454944666666667,0,0xFF,0x12
4.454962875000000,0,0xFF,0x0C
4.456916375000000,0,0xB0,0x12
4.456934416666667,0,0xFF,0x12
4.456952625000000,0,0xFF,0x1C
4.458911166666667,0,0xF0,0x12
4.458929166666667,0,0x7F,0x12
4.458947375000000,0,0xFF,0x1E
4.460910750000000,0,0xF0,0x13
4.460928750000000,0,0x7F,0x1A
4.460946958333333,0,0xFF,0x1E
4.462903041666666,0,0xB0,0x12
4.462921083333334,0,0xFF,0x13
4.462939291666666,0,0xFF,0x1C
4.464903000000000,0,0xB0,0x12
4.464921000000000,0,0xFF,0x12
4.464939208333333,0,0xFF,0x1C
4.466896458333333,0,0xB0,0x12
4.466914500000000,0,0xFF,0x12
4.466932666666667,0,0xFF,0x1C
4.468895375000000,0,0x98,0x18
4.468913416666667,0,0xFF,0x02
4.468931625000000,0,0xFF,0x1C
4.468956416666667,0,0xC7,0x12
4.468974416666667,0,0xFF,0x00
4.468992625000000,0,0xFF,0x9E
4.469013208333333,0,0x03,0x12
4.469031208333333,0,0x00,0x10
4.469049291666667,0,0x06,0x12
4.469198291666666,0,0x07,0x01
4.469216333333334,0,0x00,0x01
4.469234416666667,0,0x47,0x01
4.469255000000000,0,0x34,0x01
4.469273000000000,0,0x00,0x81
4.469291083333333,0,0x80,0x01
4.469311333333334,0,0xC3,0x00
4.469329333333333,0,0xFF,0x00
4.469347541666667,0,0xFF,0x46
4.469368416666667,0,0x07,0x01
4.469386458333333,0,0x00,0x01
4.469404500000000,0,0x66,0x01
4.470886000000000,0,0x18,0x1A
4.470904041666667,0,0xFF,0x12
4.470922250000000,0,0xFF,0x0C
4.472884875000000,0,0xB0,0x12
4.472902916666667,0,0xFF,0x12
4.472921083333333,0,0xFF,0x0C
4.474871833333333,0,0xB0,0x12
4.474889875000000,0,0xFF,0x12
4.474908083333333,0,0xFF,0x0C
4.476870791666666,0,0xF0,0x12
4.476888791666667,0,0x7F,0x1A
4.476907000000000,0,0xFF,0x0E
4.478864791666667,0,0x98,0x12
4.478882833333333,0,0xFF,0x13
4.478901041666667,0,0xFF,0x0C
4.480857666666667,0,0x98,0x18
4.480875708333333,0,0xFF,0x02
4.480893916666667,0,0xFF,0x0C
4.482848291666667,0,0xF0,0x02
4.482866291666666,0,0x7F,0x12
4.482884500000000,0,0xFF,0x04
4.484838583333334,0,0xB0,0x12
4.484856625000000,0,0xFF,0x12
4.484874791666667,0,0xFF,0x0C
4.486832541666667,0,0xB0,0x12
4.486850541666667,0,0xFF,0x12
4.486868750000000,0,0xFF,0x0C
4.488826000000000,0,0xB0,0x13
4.488844000000000,0,0x7F,0x1A
4.488862208333333,0,0xFF,0x04
4.490824958333334,0,0x90,0x12
4.490843000000000,0,0xFF,0x12
4.490861208333333,0,0xFF,0x0C
4.492816458333333,0,0xB0,0x12
4.492834500000000,0,0xFF,0x13
4.492852708333333,0,0xFF,0x0C
4.494808583333334,0,0xB0,0x12
4.494826625000000,0,0xFF,0x12
4.494844791666667,0,0xFF,0x0C
4.496801666666666,0,0xB0,0x13
4.496819666666667,0,0xFF,0x10
4.496837875000000,0,0xFF,0x0C
4.498796375000000,0,0x98,0x1A
4.498814416666667,0,0xFF,0x12
4.498832625000000,0,0xFF,0x0C
4.500790666666667,0,0xF0,0x02
4.500808666666667,0,0x7F,0x12
4.500826875000000,0,0xFF,0x04
4.500851708333333,0,0x83,0x12
4.500869708333333,0,0xFF,0x00
4.500887916666667,0,0xFF,0xC6
4.500908458333333,0,0x87,0x12
4.500926500000000,0,0x00,0x12
4.500944583333333,0,0x00,0x02
4.500992666666667,0,0x07,0x01
4.501010708333333,0,0x00,0x01
4.501028791666666,0,0x00,0x01
4.501049375000000,0,0x36,0x01
4.501067416666666,0,0x80,0x00
4.501085458333334,0,0x00,0x01
4.501105708333333,0,0x87,0x01
4.501123750000000,0,0xFF,0x00
4.501141958333333,0,0xFF,0x00
4.501162833333333,0,0x03,0x01
4.501180833333334,0,0x80,0x01
4.501198916666667,0,0x80,0x01
4.502786083333334,0,0xF0,0x02
4.502804083333333,0,0x7F,0x12
4.502822291666667,0,0xFF,0x00
4.504782125000000,0,0xF0,0x12
4.504800166666667,0,0xFF,0x12
4.504818333333334,0,0xFF,0x00
4.506772250000000,0,0x90,0x12
4.506790291666666,0,0xFF,0x13
4.506808500000000,0,0xFF,0x00
4.508762791666666,0,0xB0,0x12
4.508780833333334,0,0xFF,0x12
4.508799000000000,0,0xFF,0x00
4.510757041666666,0,0x98,0x18
4.510775083333334,0,0xFF,0x02
4.510793291666666,0,0xFF,0x00
4.512745250000000,0,0xB0,0x12
4.512763291666666,0,0xFF,0x12
4.512781500000000,0,0xFF,0x00
4.514740541666667,0,0x98,0x10
4.514758583333333,0,0xFF,0x13
4.514776791666667,0,0xFF,0x00
4.516731000000000,0,0xF0,0x02
4.516749000000000,0,0x7F,0x1A
4.516767208333333,0,0xFF,0x00
4.518717166666667,0,0xB0,0x12
4.518735208333333,0,0xFF,0x12
4.518753375000000,0,0xFF,0x00
4.520709791666667,0,0xF0,0x02
4.520727791666666,0,0x7F,0x1A
4.520746000000000,0,0xFF,0x00
4.522707291666666,0,0xF0,0x02
4.522725291666666,0,0x7F,0x12
4.522743500000000,0,0xFF,0x00
4.524705583333334,0,0xF0,0x13
4.524723583333333,0,0x7F,0x18
4.524741791666667,0,0xFF,0x00
4.526699333333333,0,0x98,0x10
4.526717375000000,0,0xFF,0x02
4.526735583333333,0,0xFF,0x00
4.528692375000000,0,0xB0,0x12
4.528710375000000,0,0xFF,0x12
4.528728583333334,0,0xFF,0x00
4.530686208333333,0,0xB0,0x12
4.530704250000000,0,0xFF,0x12
4.530722416666666,0,0xFF,0x00
4.532677750000000,0,0x98,0x10
4.532695791666667,0,0xFF,0x13
4.532714000000000,0,0xFF,0x00
4.532738791666667,0,0xC3,0x13
4.532756791666666,0,0xFF,0x00
4.532775000000000,0,0xFF,0x80
4.532795458333333,0,0x87,0x10
4.532813500000000,0,0x00,0x12
4.532831541666667,0,0x08,0x12
4.533778375000000,0,0x07,0x01
4.533796416666667,0,0x00,0x01
4.533814458333334,0,0x28,0x81
4.533835083333333,0,0x30,0x00
4.533853083333334,0,0x00,0x01
4.533871166666667,0,0xC0,0x01
4.533891375000000,0,0x07,0x81
4.533909416666667,0,0xFF,0x00
4.533927625000000,0,0xFF,0x28
4.533948500000000,0,0x07,0x01
4.533966500000000,0,0x80,0x81
4.533984583333333,0,0xA8,0x01
4.535376375000000,0,0xF0,0x12
4.535394375000000,0,0x7F,0x12
4.535412583333334,0,0xFF,0x18
4.537363833333333,0,0xB0,0x12
4.537381875000000,0,0xFF,0x12
4.537400083333333,0,0xFF,0x00
4.539351666666667,0,0x98,0x12
4.539369708333333,0,0xFF,0x12
4.539387875000000,0,0xFF,0x10
4.541339833333334,0,0xF0,0x12
4.541357833333334,0,0x7F,0x12
4.541376041666667,0,0xFF,0x18
4.543338750000000,0,0xB0,0x12
4.543356791666667,0,0xFF,0x12
4.543375000000000,0,0xFF,0x00
4.545337833333333,0,0xB0,0x12
4.545355875000000,0,0xFF,0x12
4.545374041666666,0,0xFF,0x18
4.547331500000000,0,0x98,0x1A
4.547349541666667,0,0xFF,0x02
4.547367750000000,0,0xFF,0x10
4.549330833333333,0,0xB0,0x13
4.549348833333333,0,0x7F,0x18
4.549367041666667,0,0xFF,0x10
4.551324250000000,0,0xB0,0x12
4.551342291666667,0,0xFF,0x12
4.551360500000000,0,0xFF,0x10
4.553313125000000,0,0x98,0x10
4.553331166666666,0,0xFF,0x02
4.553349375000000,0,0xFF,0x10
4.555311833333334,0,0xB0,0x12
4.555329875000000,0,0xFF,0x12
4.555348041666667,0,0xFF,0x18
4.557300833333334,0,0xB0,0x12
4.557318833333333,0,0xFF,0x12
4.557337041666667,0,0xFF,0x00
4.559296458333334,0,0xB0,0x12
4.559314500000000,0,0xFF,0x12
4.559332708333334,0,0xFF,0x10
4.561293375000000,0,0x98,0x12
4.561311416666666,0,0xFF,0x13
4.561329625000000,0,0xFF,0x10
4.563280166666667,0,0x98,0x1A
4.563298208333333,0,0xFF,0x02
4.563316416666667,0,0xFF,0x10
4.565267750000000,0,0xB0,0x12
4.565285750000000,0,0xFF,0x12
4.565303958333334,0,0xFF,0x10
4.565328750000000,0,0x87,0x12
4.565346791666666,0,0xFF,0x00
4.565365000000000,0,0xFF,0xA8
4.565385541666667,0,0x03,0x12
4.565403541666667,0,0x80,0x1A
4.565421625000000,0,0x0A,0x12
4.565567833333334,0,0x07,0x01
4.565585875000000,0,0x00,0x01
4.565603916666666,0,0x00,0x01
4.565624541666667,0,0x34,0x01
4.565642541666667,0,0x80,0x01
4.565660625000000,0,0x80,0x00
4.565680833333333,0,0x07,0x01
4.565698875000000,0,0xFF,0x00
4.565717083333333,0,0xFF,0x0E
4.565737958333333,0,0x03,0x00
4.565755958333333,0,0x00,0x01
4.565774041666667,0,0xCA,0x01
4.567258916666667,0,0xF0,0x13
4.567276916666667,0,0x7F,0x18
4.567295125000000,0,0xFF,0x14
4.569247208333334,0,0xB0,0x12
4.569265250000000,0,0xFF,0x12
4.569283458333333,0,0xFF,0x14
4.571245375000000,0,0xF0,0x02
4.571263375000000,0,0x7F,0x12
4.571281583333334,0,0xFF,0x1C
4.573242000000000,0,0xF0,0x02
4.573260000000000,0,0x7F,0x1A
4.573278208333333,0,0xFF,0x16
4.575234458333333,0,0xB0,0x12
4.575252458333333,0,0xFF,0x12
4.575270666666666,0,0xFF,0x14
4.577233875000000,0,0xB0,0x13
4.577251875000000,0,0x7F,0x18
4.577270083333334,0,0xFF,0x16
4.579228500000000,0,0xB0,0x12
4.579246541666667,0,0xFF,0x12
4.579264708333334,0,0xFF,0x14
4.581215750000000,0,0xF0,0x13
4.581233750000000,0,0x7F,0x18
4.581251958333334,0,0xFF,0x14
4.583214750000000,0,0xB0,0x13
4.583232750000000,0,0xFF,0x10
4.583250958333333,0,0xFF,0x14
4.585206708333334,0,0xB0,0x12
4.585224708333334,0,0xFF,0x12
4.585242916666667,0,0xFF,0x14
4.587201833333333,0,0x90,0x12
4.587219875000000,0,0xFF,0x12
4.587238083333333,0,0xFF,0x04
4.589197333333333,0,0x98,0x10
4.589215375000000,0,0xFF,0x02
4.589233583333334,0,0xFF,0x14
4.591185416666667,0,0xB0,0x12
4.591203458333333,0,0xFF,0x13
4.591221666666667,0,0xFF,0x14
4.593176375000000,0,0x98,0x1A
4.593194416666667,0,0xFF,0x02
4.593212625000000,0,0xFF,0x14
4.595171333333333,0,0xB0,0x12
4.595189375000000,0,0xFF,0x12
4.595207541666666,0,0xFF,0x1C
4.597161958333333,0,0xB0,0x12
4.597180000000000,0,0xFF,0x13
4.597198208333333,0,0xFF,0x14
4.597223000000000,0,0xC3,0x13
4.597241000000000,0,0xFF,0x00
4.597259208333333,0,0xFF,0x8A
4.597279750000000,0,0x87,0x18
4.597297791666667,0,0x00,0x02
4.597315833333333,0,0x12,0x12
4.597359958333334,0,0x07,0x01
4.597378000000000,0,0x00,0x01
4.597396041666666,0,0x12,0x81
4.597416666666667,0,0x30,0x00
4.597434666666667,0,0x00,0x01
4.597452750000000,0,0xC0,0x01
4.597472958333333,0,0x07,0x81
4.597491000000000,0,0xFF,0x00
4.597509208333333,0,0xFF,0x33
4.597530083333333,0,0x07,0x01
4.597548083333334,0,0x00,0x01
4.597566166666667,0,0xB3,0x01
4.599152500000000,0,0x18,0x10
4.599170541666667,0,0xFF,0x13
4.599188750000000,0,0xFF,0x04
4.601149416666667,0,0xF0,0x12
4.601167416666667,0,0x7F,0x12
4.601185625000000,0,0xFF,0x06
4.603143750000000,0,0xB0,0x12
4.603161791666667,0,0xFF,0x12
4.603179958333333,0,0xFF,0x04
4.605135000000000,0,0xF0,0x02
4.605153000000000,0,0x7F,0x1A
4.605171208333333,0,0xFF,0x06
4.607128791666667,0,0xB0,0x12
4.607146833333333,0,0xFF,0x12
4.607165000000000,0,0xFF,0x04
4.609121833333333,0,0xB0,0x12
4.609139875000000,0,0xFF,0x12
4.609158083333333,0,0xFF,0x00
4.611112625000000,0,0xB0,0x12
4.611130625000000,0,0xFF,0x12
4.611148833333333,0,0xFF,0x04
4.613104333333333,0,0x98,0x18
4.613122375000000,0,0xFF,0x02
4.613140583333333,0,0xFF,0x04
4.615097875000000,0,0x98,0x10
4.615115916666666,0,0xFF,0x13
4.615134125000000,0,0xFF,0x04
4.617089666666667,0,0xB0,0x12
4.617107666666667,0,0x7F,0x12
4.617125875000000,0,0xFF,0x06
4.619078000000000,0,0xB0,0x13
4.619096000000000,0,0xFF,0x10
4.619114208333333,0,0xFF,0x04
4.621069125000000,0,0x90,0x12
4.621087166666666,0,0xFF,0x13
4.621105375000000,0,0xFF,0x04
4.623060291666667,0,0x90,0x12
4.623078333333333,0,0xFF,0x12
4.623096500000000,0,0xFF,0x04
4.625046750000000,0,0x98,0x1A
4.625064791666667,0,0xFF,0x12
4.625083000000000,0,0xFF,0x00
4.627039416666666,0,0xB0,0x12
4.627057458333334,0,0xFF,0x12
4.627075666666666,0,0xFF,0x00
4.629028500000000,0,0xF0,0x02
4.629046500000000,0,0x7F,0x18
4.629064708333333,0,0xFF,0x04
4.629089500000000,0,0x87,0x10
4.629107541666666,0,0xFF,0x00
4.629125750000000,0,0xFF,0xB2
4.629148333333333,0,0x03,0x12
4.629166333333333,0,0x00,0x10
4.629184416666667,0,0x00,0x02
4.630141750000000,0,0x07,0x01
4.630159791666666,0,0x00,0x01
4.630177833333334,0,0x16,0x01
4.630198416666667,0,0x34,0x81
4.630216458333333,0,0xC0,0x01
4.630234500000000,0,0x00,0x81
4.630254750000000,0,0x87,0x01
4.630272791666667,0,0xFF,0x00
4.630290958333333,0,0xFF,0x14
4.630311833333334,0,0x07,0x01
4.630329875000000,0,0x00,0x00
4.630347916666667,0,0x1C,0x01
4.631737541666666,0,0x30,0x92
4.631755583333334,0,0xFF,0x12
4.631773791666666,0,0xFF,0x08
4.633725250000000,0,0xB0,0x12
4.633743250000000,0,0xFF,0x12
4.633761458333334,0,0xFF,0x08
4.635712416666666,0,0xB0,0x12
4.635730416666667,0,0x7F,0x12
4.635748625000000,0,0xFF,0x00
4.637700083333334,0,0xB0,0x12
4.637718125000000,0,0xFF,0x12
4.637736291666666,0,0xFF,0x00
4.639698750000000,0,0x98,0x18
4.639716791666666,0,0xFF,0x02
4.639735000000000,0,0xFF,0x08
4.641697041666666,0,0xF0,0x02
4.641715041666667,0,0x7F,0x1A
4.641733250000000,0,0xFF,0x08
4.643683583333333,0,0x98,0x18
4.643701625000000,0,0xFF,0x02
4.643719833333333,0,0xFF,0x08
4.645682583333334,0,0xB0,0x12
4.645700625000000,0,0xFF,0x13
4.645718833333333,0,0xFF,0x08
4.647672083333333,0,0xF0,0x12
4.647690083333333,0,0x7F,0x12
4.647708291666667,0,0xFF,0x08
4.649659625000000,0,0x98,0x10
4.649677666666666,0,0xFF,0x13
4.649695875000000,0,0xFF,0x08
4.651649291666667,0,0xF0,0x02
4.651667291666667,0,0x7F,0x18
4.651685500000000,0,0xFF,0x08
4.653637291666667,0,0xF0,0x12
4.653655291666666,0,0x7F,0x12
4.653673500000000,0,0xFF,0x08
4.655629791666667,0,0xB0,0x12
4.655647833333333,0,0xFF,0x12
4.655666000000000,0,0xFF,0x08
4.657620583333333,0,0xB0,0x12
4.657638625000000,0,0xFF,0x12
4.657656833333333,0,0xFF,0x08
4.659614375000000,0,0x98,0x18
4.659632416666667,0,0xFF,0x02
4.659650625000000,0,0xFF,0x08
4.661602000000000,0,0xB0,0x12
4.661620041666667,0,0xFF,0x12
4.661638208333334,0,0xFF,0x08
4.661663041666666,0,0x87,0x12
4.661681041666666,0,0xFF,0x00
4.661699250000000,0,0xFF,0x94
4.661719791666667,0,0x03,0x02
4.661737791666667,0,0x80,0x1A
4.661755875000000,0,0x3C,0x02
4.661930166666667,0,0x03,0x01
4.661948166666667,0,0x00,0x01
4.661966250000000,0,0x3C,0x00
4.661986833333334,0,0x34,0x01
4.662004833333333,0,0x00,0x81
4.662022916666666,0,0x80,0x01
4.662043166666667,0,0xC3,0x00
4.662061166666667,0,0xFF,0x00
4.662079375000000,0,0xFF,0x3C
4.662100250000000,0,0x03,0x01
4.662118250000000,0,0x80,0x01
4.662136333333334,0,0xFC,0x01
4.663598625000000,0,0xB0,0x12
4.663616625000000,0,0x7F,0x12
4.663634833333333,0,0xFF,0x18
4.665587750000000,0,0x90,0x12
4.665605791666667,0,0xFF,0x12
4.665623958333334,0,0xFF,0x18
4.667581541666666,0,0xF0,0x13
4.667599541666666,0,0x7F,0x10
4.667617750000000,0,0xFF,0x18
4.669572041666667,0,0xB0,0x12
4.669590083333333,0,0xFF,0x12
4.669608291666667,0,0xFF,0x18
4.671567125000000,0,0xB0,0x12
4.671585125000000,0,0xFF,0x12
4.671603333333334,0,0xFF,0x18
4.673555291666666,0,0x98,0x12
4.673573333333334,0,0xFF,0x13
4.673591541666666,0,0xFF,0x18
4.675553333333333,0,0xF0,0x02
4.675571333333333,0,0x7F,0x1A
4.675589541666667,0,0xFF,0x18
4.677540541666667,0,0xF0,0x12
4.677558583333333,0,0xFF,0x12
4.677576750000000,0,0xFF,0x18
4.679534958333333,0,0xB0,0x12
4.679552958333334,0,0xFF,0x12
4.679571166666666,0,0xFF,0x18
4.681527916666667,0,0x90,0x12
4.681545958333333,0,0xFF,0x12
4.681564166666667,0,0xFF,0x08
4.683519625000000,0,0xB0,0x12
4.683537666666667,0,0xFF,0x13
4.683555875000000,0,0xFF,0x18
4.685509375000000,0,0x98,0x10
4.685527416666667,0,0xFF,0x12
4.685545625000000,0,0xFF,0x18
4.687497041666667,0,0xF0,0x02
4.687515041666667,0,0x7F,0x12
4.687533250000000,0,0xFF,0x18
4.689489208333334,0,0xB0,0x12
4.689507250000000,0,0xFF,0x12
4.689525458333334,0,0xFF,0x18
4.691483750000000,0,0x98,0x10
4.691501791666667,0,0xFF,0x02
4.691520000000000,0,0xFF,0x18
4.693476708333334,0,0xF0,0x12
4.693494708333334,0,0x7F,0x12
4.693512916666666,0,0xFF,0x18
4.693537708333333,0,0x87,0x12
4.693555750000000,0,0xFF,0x00
4.693573958333333,0,0xFF,0xFC
4.693594500000000,0,0x07,0x12
4.693612541666667,0,0x00,0x12
4.693630583333333,0,0x1E,0x10
4.693720041666666,0,0x07,0x01
4.693738083333334,0,0x00,0x01
4.693756125000000,0,0x1E,0x01
4.693776750000000,0,0x34,0x01
4.693794750000000,0,0x80,0x01
4.693812833333333,0,0xC0,0x01
4.693833083333334,0,0x87,0x01
4.693851083333334,0,0xFF,0x00
4.693869291666667,0,0xFF,0x1E
4.693890166666667,0,0x03,0x01
4.693908166666667,0,0x80,0x01
4.693926250000000,0,0xCE,0x01
4.695473750000000,0,0x18,0x1A
4.695491791666667,0,0xFF,0x02
4.695510000000000,0,0xFF,0x1C
4.697463375000000,0,0xB0,0x12
4.697481416666666,0,0xFF,0x12
4.697499625000000,0,0xFF,0x1C
4.699461083333333,0,0x90,0x12
4.699479125000000,0,0xFF,0x12
4.699497333333333,0,0xFF,0x1C
4.701449541666666,0,0x98,0x10
4.701467583333334,0,0xFF,0x02
4.701485791666666,0,0xFF,0x1C
4.703439166666667,0,0xB0,0x12
4.703457166666666,0,0xFF,0x12
4.703475375000000,0,0xFF,0x1C
4.705427125000000,0,0xB0,0x12
4.705445166666666,0,0xFF,0x12
4.705463333333333,0,0xFF,0x1C
4.707424333333333,0,0xF0,0x12
4.707442333333334,0,0x7F,0x12
4.707460541666666,0,0xFF,0x1E
4.709414333333333,0,0xB0,0x12
4.709432333333333,0,0x7F,0x12
4.709450541666667,0,0xFF,0x1C
4.711405375000000,0,0xB0,0x12
4.711423416666666,0,0xFF,0x12
4.711441625000000,0,0xFF,0x1C
4.713391750000000,0,0xB0,0x12
4.713409750000000,0,0xFF,0x12
4.713427958333333,0,0xFF,0x1C
4.715388500000000,0,0xF0,0x13
4.715406500000000,0,0x7F,0x1A
4.715424708333333,0,0xFF,0x1C
4.717387708333334,0,0xB0,0x12
4.717405750000000,0,0xFF,0x12
4.717423958333334,0,0xFF,0x1C
4.719382166666667,0,0xB0,0x12
4.719400166666667,0,0xFF,0x12
4.719418375000000,0,0xFF,0x0C
4.721371583333333,0,0xF0,0x13
4.721389583333333,0,0x7F,0x1A
4.721407791666667,0,0xFF,0x1E
4.723357833333333,0,0xB0,0x12
4.723375833333334,0,0xFF,0x12
4.723394041666666,0,0xFF,0x1C
4.725347625000000,0,0xB0,0x12
4.725365666666667,0,0xFF,0x12
4.725383833333333,0,0xFF,0x1C
4.725408625000000,0,0x87,0x12
4.725426666666666,0,0xFF,0x00
4.725444875000000,0,0xFF,0xCE
4.725465416666666,0,0x07,0x12
4.725483458333334,0,0x00,0x12
4.725501500000000,0,0x66,0x18
4.726504083333333,0,0x07,0x01
4.726522083333333,0,0x80,0x81
4.726540166666667,0,0x46,0x01
4.726560750000000,0,0x1C,0x81
4.726578791666666,0,0xC0,0x01
4.726596833333334,0,0x00,0x81
4.726617083333333,0,0x87,0x01
4.726635125000000,0,0xFF,0x00
4.726653333333333,0,0xFF,0x46
4.726674166666666,0,0x87,0x01
4.726692208333334,0,0x00,0x01
4.726710291666667,0,0xC3,0x00
4.728123625000000,0,0xB0,0x12
4.728141666666667,0,0xFF,0x12
4.728159833333334,0,0xFF,0x04
4.730122708333333,0,0xB0,0x12
4.730140708333334,0,0xFF,0x12
4.730158916666666,0,0xFF,0x0C
4.732112833333334,0,0x90,0x12
4.732130875000000,0,0xFF,0x13
4.732149083333334,0,0xFF,0x0C
4.734105416666667,0,0xF0,0x13
4.734123416666667,0,0xFF,0x12
4.734141625000000,0,0xFF,0x0C
4.736101333333333,0,0xB0,0x13
4.736119333333333,0,0xFF,0x10
4.736137541666666,0,0xFF,0x0C
4.738089625000000,0,0xF0,0x13
4.738107625000000,0,0x7F,0x18
4.738125833333333,0,0xFF,0x0C
4.740085541666667,0,0xB0,0x12
4.740103583333333,0,0xFF,0x12
4.740121750000000,0,0xFF,0x0C
4.742076125000000,0,0x98,0x1A
4.742094166666667,0,0xFF,0x02
4.742112375000000,0,0xFF,0x0C
4.744064375000000,0,0x98,0x10
4.744082416666667,0,0xFF,0x02
4.744100625000000,0,0xFF,0x0C
4.746057750000000,0,0xB0,0x12
4.746075750000000,0,0xFF,0x12
4.746093958333334,0,0xFF,0x0C
4.748051791666667,0,0xF0,0x12
4.748069791666667,0,0x7F,0x12
4.748088000000000,0,0xFF,0x04
4.750039375000000,0,0xB0,0x13
4.750057375000000,0,0xFF,0x10
4.750075583333333,0,0xFF,0x0C
4.752036541666667,0,0x98,0x1A
4.752054583333333,0,0xFF,0x02
4.752072791666667,0,0xFF,0x0C
4.754024583333333,0,0xF0,0x02
4.754042583333334,0,0x7F,0x12
4.754060791666666,0,0xFF,0x06
4.756012291666667,0,0xB0,0x13
4.756030291666667,0,0x7F,0x1A
4.756048500000000,0,0xFF,0x06
4.758011000000000,0,0xF0,0x12
4.758029000000000,0,0x7F,0x1A
4.758047208333333,0,0xFF,0x0E
4.758072000000000,0,0x87,0x1A
4.758090041666667,0,0xFF,0x00
4.758108250000000,0,0xFF,0xC7
4.758128791666667,0,0x07,0x12
4.758146791666666,0,0x80,0x12
4.758164875000000,0,0x00,0x12
4.758294875000000,0,0x07,0x01
4.758312875000000,0,0x80,0x81
4.758330958333334,0,0x00,0x01
4.758351541666666,0,0x1C,0x01
4.758369583333334,0,0xC0,0x01
4.758387666666667,0,0x80,0x01
4.758407875000000,0,0x87,0x01
4.758425916666667,0,0xFF,0x00
4.758444083333333,0,0xFF,0x00
4.758464958333334,0,0x07,0x01
4.758483000000000,0,0x00,0x00
4.758501041666666,0,0x00,0x01
4.760007666666667,0,0x18,0x18
4.760025708333333,0,0xFF,0x02
4.760043916666667,0,0xFF,0x00
4.761997666666667,0,0x98,0x10
4.762015708333333,0,0xFF,0x13
4.762033916666667,0,0xFF,0x00
4.763989458333334,0,0xF0,0x02
4.764007458333333,0,0x7F,0x1A
4.764025666666667,0,0xFF,0x00
4.765980333333333,0,0xF0,0x03
4.765998333333333,0,0x7F,0x10
4.766016541666667,0,0xFF,0x00
4.767969250000000,0,0xB0,0x12
4.767987291666667,0,0xFF,0x12
4.768005458333334,0,0xFF,0x00
4.769967708333334,0,0xB0,0x12
4.769985708333333,0,0xFF,0x12
4.770003916666667,0,0xFF,0x00
4.771954083333333,0,0xB0,0x12
4.771972125000000,0,0xFF,0x12
4.771990333333333,0,0xFF,0x00
4.773945875000000,0,0xB0,0x12
4.773963875000000,0,0xFF,0x12
4.773982083333333,0,0xFF,0x00
4.775941125000000,0,0xF0,0x13
4.775959125000000,0,0x7F,0x10
4.775977333333334,0,0xFF,0x00
4.777928833333333,0,0xF0,0x02
4.777946833333333,0,0x7F,0x18
4.777965041666667,0,0xFF,0x00
4.779917666666667,0,0xB0,0x12
4.779935708333333,0,0xFF,0x12
4.779953916666667,0,0xFF,0x00
4.781909041666666,0,0x98,0x10
4.781927083333334,0,0xFF,0x02
4.781945291666666,0,0xFF,0x00
4.783895708333334,0,0x98,0x1A
4.783913750000000,0,0xFF,0x02
4.783931958333334,0,0xFF,0x00
4.785886500000000,0,0xB0,0x12
4.785904500000000,0,0xFF,0x10
4.785922708333334,0,0xFF,0x00
4.787875333333333,0,0xB0,0x12
4.787893333333333,0,0xFF,0x12
4.787911541666666,0,0xFF,0x00
4.789865625000000,0,0xB0,0x12
4.789883625000000,0,0xFF,0x12
4.789901833333333,0,0xFF,0x00
4.789926625000000,0,0x87,0x12
4.789944666666667,0,0xFF,0x00
4.789962833333333,0,0xFF,0x00
4.789983416666667,0,0x07,0x12
4.790001416666667,0,0x00,0x12
4.790019500000000,0,0x3C,0x12
4.790083791666667,0,0x07,0x01
4.790101833333333,0,0x00,0x01
4.790119875000000,0,0x00,0x01
4.790140500000000,0,0x34,0x01
4.790158500000000,0,0x80,0x01
4.790176583333333,0,0x80,0x00
4.790196791666666,0,0x07,0x01
4.790214833333334,0,0xFF,0x00
4.790233041666666,0,0xFF,0x28
4.790253875000000,0,0x87,0x01
4.790271916666667,0,0x00,0x01
4.790290000000000,0,0xA8,0x01
4.791852625000000,0,0xB0,0x12
4.791870666666667,0,0xFF,0x13
4.791888875000000,0,0xFF,0x10
4.793847625000000,0,0xB0,0x12
4.793865625000000,0,0xFF,0x12
4.793883833333333,0,0xFF,0x10
4.795838500000000,0,0x90,0x12
4.795856541666667,0,0xFF,0x12
4.795874750000000,0,0xFF,0x00
4.797827833333334,0,0x98,0x1A
4.797845875000000,0,0xFF,0x02
4.797864083333334,0,0xFF,0x10
4.799822875000000,0,0x98,0x12
4.799840916666667,0,0xFF,0x12
4.799859083333334,0,0xFF,0x10
4.801811541666667,0,0x98,0x10
4.801829583333333,0,0xFF,0x02
4.801847791666667,0,0xFF,0x10
4.803809250000000,0,0xB0,0x12
4.803827250000000,0,0x7F,0x12
4.803845458333333,0,0xFF,0x18
4.805801208333333,0,0xB0,0x12
4.805819250000000,0,0xFF,0x13
4.805837458333333,0,0xFF,0x10
4.807795416666667,0,0xB0,0x12
4.807813458333333,0,0xFF,0x12
4.807831625000000,0,0xFF,0x10
4.809789583333333,0,0xF0,0x02
4.809807583333333,0,0x7F,0x1A
4.809825791666666,0,0xFF,0x10
4.811777500000000,0,0xF0,0x13
4.811795500000000,0,0x7F,0x18
4.811813708333333,0,0xFF,0x10
4.813767375000000,0,0xB0,0x12
4.813785375000000,0,0xFF,0x10
4.813803583333334,0,0xFF,0x10
4.815758541666667,0,0x98,0x18
4.815776583333333,0,0xFF,0x02
4.815794791666667,0,0xFF,0x10
4.817753708333333,0,0x98,0x10
4.817771750000000,0,0xFF,0x12
4.817789958333333,0,0xFF,0x10
4.819743125000000,0,0xB0,0x12
4.819761125000000,0,0xFF,0x12
4.819779333333333,0,0xFF,0x00
4.821733083333333,0,0x98,0x10
4.821751125000000,0,0xFF,0x02
4.821769333333333,0,0xFF,0x10
4.821794125000000,0,0xC7,0x02
4.821812125000000,0,0xFF,0x00
4.821830333333334,0,0xFF,0x80
4.821850916666667,0,0x07,0x12
4.821868916666666,0,0x00,0x12
4.821887208333333,0,0x00,0x10
4.822867625000000,0,0x07,0x01
4.822885625000000,0,0x80,0x81
4.822903708333333,0,0x00,0x01
4.822924333333333,0,0x34,0x01
4.822942333333334,0,0x80,0x01
4.822960416666667,0,0xC0,0x01
4.822980666666667,0,0x87,0x01
4.822998666666667,0,0xFF,0x00
4.823016875000000,0,0xFF,0x0A
4.823037750000000,0,0x07,0x01
4.823055750000000,0,0x80,0x81
4.823073833333333,0,0x80,0x01
4.824443458333334,0,0xF0,0x02
4.824461458333333,0,0x7F,0x12
4.824479666666667,0,0xFF,0x14
4.826434875000000,0,0xF0,0x12
4.826452875000000,0,0x7F,0x12
4.826471083333334,0,0xFF,0x1E
4.828426583333333,0,0xB0,0x12
4.828444625000000,0,0xFF,0x13
4.828462833333333,0,0xFF,0x14
4.830422583333333,0,0xB0,0x12
4.830440583333333,0,0xFF,0x12
4.830458791666667,0,0xFF,0x14
4.832414833333333,0,0xF0,0x02
4.832432833333334,0,0x7F,0x1A
4.832451041666666,0,0xFF,0x16
4.834402708333333,0,0xB0,0x12
4.834420708333333,0,0xFF,0x12
4.834438916666667,0,0xFF,0x14
4.836397833333334,0,0xB0,0x12
4.836415833333334,0,0xFF,0x12
4.836434041666666,0,0xFF,0x14
4.838396583333333,0,0xB0,0x12
4.838414625000000,0,0xFF,0x12
4.838432833333333,0,0xFF,0x14
4.840395791666666,0,0xF0,0x12
4.840413791666666,0,0x7F,0x12
4.840432000000000,0,0xFF,0x1C
4.842382791666667,0,0xB0,0x12
4.842400791666667,0,0xFF,0x12
4.842419000000000,0,0xFF,0x04
4.844370291666666,0,0xB0,0x13
4.844388291666666,0,0x7F,0x18
4.844406500000000,0,0xFF,0x16
4.846361041666666,0,0xB0,0x12
4.846379083333333,0,0xFF,0x12
4.846397250000000,0,0xFF,0x14
4.848349666666667,0,0xB0,0x12
4.848367666666666,0,0xFF,0x12
4.848385875000000,0,0xFF,0x14
4.850337000000000,0,0xB0,0x12
4.850355041666667,0,0xFF,0x12
4.850373208333333,0,0xFF,0x14
4.852330791666667,0,0xF0,0x02
4.852348791666667,0,0x7F,0x12
4.852367000000000,0,0xFF,0x16
4.854318000000000,0,0xF0,0x02
4.854336000000000,0,0x7F,0x12
4.854354208333334,0,0xFF,0x14
4.854379041666666,0,0xC3,0x12
4.854397041666667,0,0xFF,0x00
4.854415250000000,0,0xFF,0x88
4.854435833333334,0,0x07,0x12
4.854453833333333,0,0x00,0x12
4.854471916666666,0,0x32,0x02
4.854659208333334,0,0x07,0x01
4.854677250000000,0,0x00,0x01
4.854695291666666,0,0x32,0x81
4.854715916666667,0,0x30,0x01
4.854733916666667,0,0x00,0x01
4.854752000000000,0,0x80,0x01
4.854772250000000,0,0xC3,0x00
4.854790250000000,0,0xFF,0x00
4.854808458333333,0,0xFF,0x30
4.854829333333333,0,0x07,0x01
4.854847375000000,0,0x00,0x00
4.854865416666667,0,0x1A,0x01
4.856307166666666,0,0xB0,0x12
4.856325208333334,0,0xFF,0x12
4.856343375000000,0,0xFF,0x04
4.858305208333333,0,0xB0,0x12
4.858323250000000,0,0xFF,0x12
4.858341458333333,0,0xFF,0x00
4.860304791666667,0,0xB0,0x12
4.860322791666666,0,0xFF,0x12
4.860341000000000,0,0xFF,0x04
4.862292125000000,0,0xF0,0x13
4.862310125000000,0,0xFF,0x10
4.862328333333333,0,0xFF,0x04
4.864280500000000,0,0x98,0x10
4.864298541666667,0,0xFF,0x13
4.864316750000000,0,0xFF,0x04
4.866267500000000,0,0xB0,0x12
4.866285500000000,0,0xFF,0x12
4.866303708333334,0,0xFF,0x04
4.868265958333334,0,0xF0,0x02
4.868283958333333,0,0x7F,0x18
4.868302166666667,0,0xFF,0x04
4.870256458333333,0,0xB0,0x12
4.870274458333333,0,0xFF,0x12
4.870292666666667,0,0xFF,0x04
4.872248625000000,0,0xB0,0x12
4.872266666666667,0,0xFF,0x02
4.872284875000000,0,0xFF,0x04
4.874238958333334,0,0xB0,0x12
4.874256958333334,0,0xFF,0x12
4.874275166666667,0,0xFF,0x04
4.876232500000000,0,0x98,0x12
4.876250541666667,0,0xFF,0x13
4.876268750000000,0,0xFF,0x04
4.878219625000000,0,0x98,0x1A
4.878237666666666,0,0xFF,0x02
4.878255875000000,0,0xFF,0x04
4.880208958333333,0,0xB0,0x12
4.880227000000000,0,0xFF,0x12
4.880245208333333,0,0xFF,0x00
4.882203833333334,0,0x98,0x18
4.882221875000000,0,0xFF,0x02
4.882240083333333,0,0xFF,0x04
4.884195208333334,0,0xB0,0x12
4.884213250000000,0,0xFF,0x12
4.884231458333334,0,0xFF,0x00
4.886185250000000,0,0xB0,0x13
4.886203250000000,0,0xFF,0x12
4.886221458333333,0,0xFF,0x04
4.886246250000000,0,0x87,0x12
4.886264291666667,0,0xFF,0x00
4.886282458333334,0,0xFF,0x32
4.886303041666666,0,0x03,0x12
4.886321041666666,0,0x00,0x12
4.886339125000000,0,0x00,0x12
4.886448625000000,0,0x03,0x00
4.886466625000000,0,0x00,0x01
4.886484708333334,0,0x00,0x01
4.886505291666666,0,0x1E,0x01
4.886523333333334,0,0xC0,0x00
4.886541375000000,0,0x00,0x01
4.886561625000000,0,0xC7,0x01
4.886579625000000,0,0xFF,0x80
4.886597833333333,0,0xFF,0x1E
4.886618708333334,0,0x07,0x01
4.886636750000000,0,0x00,0x01
4.886654791666666,0,0x9E,0x01
4.888179166666666,0,0xB0,0x12
4.888197166666667,0,0xFF,0x12
4.888215375000000,0,0xFF,0x08
4.890168375000000,0,0xB0,0x12
4.890186416666666,0,0xFF,0x12
4.890204583333333,0,0xFF,0x08
4.892155166666667,0,0xB0,0x12
4.892173166666667,0,0xFF,0x12
4.892191375000000,0,0xFF,0x08
4.894153708333334,0,0xB0,0x12
4.894171750000000,0,0xFF,0x12
4.894189958333333,0,0xFF,0x08
4.896149833333333,0,0x98,0x10
4.896167875000000,0,0xFF,0x12
4.896186083333333,0,0xFF,0x08
4.898148083333333,0,0x98,0x1A
4.898166125000000,0,0xFF,0x12
4.898184333333333,0,0xFF,0x08
4.900137125000000,0,0xF0,0x13
4.900155125000000,0,0xFF,0x12
4.900173333333333,0,0xFF,0x08
4.902124958333333,0,0xB0,0x12
4.902143000000000,0,0xFF,0x12
4.902161166666667,0,0xFF,0x00
4.904113625000000,0,0xF0,0x02
4.904131625000000,0,0x7F,0x12
4.904149833333333,0,0xFF,0x00
4.906106875000000,0,0x98,0x12
4.906124916666666,0,0xFF,0x13
4.906143125000000,0,0xFF,0x08
4.908101875000000,0,0xB0,0x13
4.908119875000000,0,0xFF,0x10
4.908138083333333,0,0xFF,0x08
4.910093291666667,0,0xF0,0x13
4.910111291666666,0,0x7F,0x18
4.910129500000000,0,0xFF,0x08
4.912083125000000,0,0x90,0x12
4.912101166666667,0,0xFF,0x12
4.912119375000000,0,0xFF,0x0C
4.914071500000000,0,0xB0,0x12
4.914089541666667,0,0xFF,0x13
4.914107750000000,0,0xFF,0x08
4.916067083333333,0,0xF0,0x02
4.916085083333333,0,0x7F,0x1A
4.916103291666666,0,0xFF,0x08
4.918063708333333,0,0x98,0x12
4.918081750000000,0,0xFF,0x13
4.918099916666667,0,0xFF,0x08
4.918124750000000,0,0x83,0x12
4.918142750000000,0,0xFF,0x00
4.918160958333333,0,0xFF,0x94
4.918181500000000,0,0x07,0x12
4.918199541666667,0,0x00,0x12
4.918217583333333,0,0x1E,0x10
4.919231666666667,0,0x07,0x01
4.919249708333333,0,0x00,0x00
4.919267750000000,0,0x1C,0x01
4.919288375000000,0,0x30,0x00
4.919306375000000,0,0x00,0x01
4.919324458333334,0,0xC0,0x01
4.919344708333333,0,0x83,0x00
4.919362708333333,0,0xFF,0x00
4.919380916666666,0,0xFF,0x3C
4.919401791666667,0,0x07,0x01
4.919419791666667,0,0x80,0x81
4.919437875000000,0,0xBC,0x01
4.920802791666667,0,0x18,0x10
4.920820833333333,0,0xFF,0x12
4.920839041666667,0,0xFF,0x18
4.922798333333334,0,0xB0,0x12
4.922816375000000,0,0xFF,0x13
4.922834583333334,0,0xFF,0x18
4.924792625000000,0,0xB0,0x12
4.924810666666667,0,0xFF,0x13
4.924828875000000,0,0xFF,0x18
4.926786250000000,0,0xB0,0x12
4.926804250000000,0,0x7F,0x12
4.926822458333334,0,0xFF,0x18
4.928778458333333,0,0x98,0x10
4.928796500000000,0,0xFF,0x12
4.928814708333333,0,0xFF,0x18
4.930766333333334,0,0xF0,0x02
4.930784333333333,0,0x7F,0x12
4.930802541666667,0,0xFF,0x18
4.932753208333334,0,0xF0,0x12
4.932771208333333,0,0x7F,0x18
4.932789416666667,0,0xFF,0x18
4.934746791666667,0,0x98,0x12
4.934764833333333,0,0xFF,0x13
4.934783041666667,0,0xFF,0x18
4.936737583333334,0,0xF0,0x13
4.936755583333333,0,0x7F,0x18
4.936773791666667,0,0xFF,0x18
4.938735250000000,0,0x98,0x12
4.938753291666667,0,0xFF,0x13
4.938771500000000,0,0xFF,0x18
4.940723041666667,0,0xF0,0x13
4.940741041666667,0,0xFF,0x12
4.940759250000000,0,0xFF,0x18
4.942720333333333,0,0xF0,0x02
4.942738333333334,0,0x7F,0x12
4.942756541666666,0,0xFF,0x18
4.944710000000000,0,0x90,0x12
4.944728041666667,0,0xFF,0x13
4.944746250000000,0,0xFF,0x18
4.946707583333334,0,0xB0,0x12
4.946725625000000,0,0xFF,0x12
4.946743791666667,0,0xFF,0x18
4.948697583333334,0,0x98,0x10
4.948715625000000,0,0xFF,0x13
4.948733833333334,0,0xFF,0x18
4.950690958333333,0,0xB0,0x12
4.950708958333333,0,0xFF,0x12
4.950727166666667,0,0xFF,0x18
4.950751958333333,0,0x87,0x12
4.950770000000000,0,0xFF,0x00
4.950788166666666,0,0xFF,0x3C
4.950808750000000,0,0x03,0x13
4.950826750000000,0,0x00,0x10
4.950844833333333,0,0x0E,0x02
4.951022625000000,0,0x03,0x00
4.951040625000000,0,0x00,0x01
4.951058708333333,0,0x0E,0x01
4.951079291666667,0,0x1E,0x01
4.951097333333333,0,0xC0,0x00
4.951115375000000,0,0x00,0x01
4.951135625000000,0,0x87,0x01
4.951153666666666,0,0xFF,0x00
4.951171833333333,0,0xFF,0x1E
4.951192708333333,0,0x87,0x01
4.951210750000000,0,0x00,0x01
4.951228833333333,0,0x9F,0x01
4.952681541666666,0,0xF0,0x12
4.952699541666667,0,0x7F,0x12
4.952717750000000,0,0xFF,0x1E
4.954668833333334,0,0xB0,0x13
4.954686833333334,0,0xFF,0x10
4.954705041666666,0,0xFF,0x1C
4.956662291666666,0,0xB0,0x12
4.956680333333333,0,0xFF,0x12
4.956698500000000,0,0xFF,0x1C
4.958660583333334,0,0xB0,0x12
4.958678625000000,0,0xFF,0x13
4.958696833333334,0,0xFF,0x1C
4.960658083333334,0,0x98,0x1A
4.960676125000000,0,0xFF,0x12
4.960694333333334,0,0xFF,0x1C
4.962654708333333,0,0x98,0x12
4.962672750000000,0,0xFF,0x13
4.962690958333333,0,0xFF,0x1C
4.964648375000000,0,0xB0,0x12
4.964666375000000,0,0xFF,0x10
4.964684583333334,0,0xFF,0x1C
4.966637000000000,0,0x98,0x1A
4.966655041666667,0,0xFF,0x02
4.966673250000000,0,0xFF,0x1C
4.968636083333333,0,0xF0,0x02
4.968654083333333,0,0x7F,0x1A
4.968672291666667,0,0xFF,0x1E
4.970625041666667,0,0x98,0x18
4.970643083333333,0,0xFF,0x02
4.970661291666667,0,0xFF,0x1C
4.972615333333334,0,0xF0,0x13
4.972633333333333,0,0x7F,0x10
4.972651541666667,0,0xFF,0x1C
4.974602916666667,0,0x90,0x12
4.974620958333333,0,0xFF,0x12
4.974639166666667,0,0xFF,0x1C
4.976597750000000,0,0xF0,0x02
4.976615750000000,0,0x7F,0x12
4.976633958333333,0,0xFF,0x1E
4.978596833333333,0,0x90,0x12
4.978614875000000,0,0xFF,0x13
4.978633083333333,0,0xFF,0x1C
4.980593000000000,0,0xF0,0x02
4.980611000000000,0,0x7F,0x1A
4.980629208333333,0,0xFF,0x1C
4.982592541666667,0,0xB0,0x12
4.982610541666666,0,0xFF,0x12
4.982628750000000,0,0xFF,0x1C
4.982653541666667,0,0x87,0x12
4.982671583333333,0,0xFF,0x00
4.982689750000000,0,0xFF,0x1E
4.982710333333333,0,0x03,0x13
4.982728333333333,0,0x80,0x18
4.982746416666667,0,0x06,0x02
4.982811375000000,0,0x07,0x01
4.982829375000000,0,0x00,0x01
4.982847458333334,0,0x02,0x01
4.982868041666666,0,0x1E,0x01
4.982886083333334,0,0x80,0x00
4.982904125000000,0,0x00,0x01
4.982924375000000,0,0x87,0x01
4.982942375000000,0,0xFF,0x80
4.982960583333333,0,0xFF,0x46
4.982981458333334,0,0x07,0x01
4.982999500000000,0,0x00,0x01
4.983017541666666,0,0x66,0x01
4.984583500000000,0,0xB0,0x12
4.984601541666667,0,0xFF,0x13
4.984619750000000,0,0xFF,0x0C
4.986576166666667,0,0xB0,0x12
4.986594166666666,0,0xFF,0x12
4.986612375000000,0,0xFF,0x0C
4.988569500000000,0,0xB0,0x12
4.988587541666667,0,0xFF,0x12
4.988605708333333,0,0xFF,0x04
4.990561666666666,0,0x98,0x1A
4.990579708333334,0,0xFF,0x02
4.990597916666666,0,0xFF,0x0C
4.992557500000000,0,0xB0,0x12
4.992575541666667,0,0xFF,0x13
4.992593750000000,0,0xFF,0x0C
4.994548041666667,0,0xB0,0x12
4.994566083333333,0,0xFF,0x12
4.994584291666667,0,0xFF,0x0C
4.996535208333333,0,0xB0,0x12
4.996553208333333,0,0xFF,0x12
4.996571416666667,0,0xFF,0x0C
4.998523666666666,0,0xB0,0x12
4.998541708333334,0,0xFF,0x12
4.998559875000000,0,0xFF,0x04
5.000511333333334,0,0xB0,0x12
5.000529333333334,0,0x7F,0x12
5.000547541666666,0,0xFF,0x06
5.002499083333333,0,0xB0,0x12
5.002517125000000,0,0xFF,0x12
5.002535291666667,0,0xFF,0x0C
5.004496666666666,0,0xF0,0x02
5.004514666666666,0,0x7F,0x1A
5.004532875000000,0,0xFF,0x0E
5.006487000000000,0,0xB0,0x12
5.006505041666666,0,0xFF,0x12
5.006523208333333,0,0xFF,0x0C
5.008481833333334,0,0xF0,0x13
5.008499833333333,0,0x7F,0x1A
5.008518041666667,0,0xFF,0x0C
5.010476291666667,0,0xB0,0x12
5.010494291666666,0,0x7F,0x12
5.010512500000000,0,0xFF,0x06
5.012463541666667,0,0xF0,0x12
5.012481541666666,0,0x7F,0x12
5.012499750000000,0,0xFF,0x04
5.014456333333333,0,0xB0,0x12
5.014474375000000,0,0xFF,0x12
5.014492583333333,0,0xFF,0x0C
5.014517375000000,0,0x87,0x12
5.014535416666667,0,0xFF,0x00
5.014553625000000,0,0xFF,0xC6
5.014574166666667,0,0x07,0x02
5.014592166666667,0,0x80,0x12
5.014610125000000,0,0x00,0x02
5.015594500000000,0,0x03,0x01
5.015612500000000,0,0x80,0x01
5.015630583333333,0,0x00,0x01
5.015651166666666,0,0x34,0x81
5.015669208333334,0,0x80,0x01
5.015687291666667,0,0x80,0x00
5.015707500000000,0,0x07,0x01
5.015725541666667,0,0xFF,0x00
5.015743750000000,0,0xFF,0x00
5.015764625000000,0,0x03,0x00
5.015782625000000,0,0x00,0x01
5.015800708333333,0,0xC0,0x01
5.017192583333333,0,0xB0,0x12
5.017210583333333,0,0xFF,0x12
5.017228791666667,0,0xFF,0x00
5.019182208333334,0,0xF0,0x13
5.019200208333333,0,0x7F,0x18
5.019218416666667,0,0xFF,0x00
5.021179833333333,0,0xB0,0x12
5.021197833333333,0,0xFF,0x12
5.021216041666666,0,0xFF,0x00
5.023176583333333,0,0xF0,0x02
5.023194583333333,0,0x7F,0x1A
5.023212791666666,0,0xFF,0x00
5.025174125000000,0,0x98,0x10
5.025192166666667,0,0xFF,0x13
5.025210375000000,0,0xFF,0x00
5.027173583333333,0,0x98,0x10
5.027191625000000,0,0xFF,0x13
5.027209833333333,0,0xFF,0x00
5.029160291666667,0,0x98,0x10
5.029178333333333,0,0xFF,0x13
5.029196541666667,0,0xFF,0x00
5.031147333333333,0,0xB0,0x12
5.031165333333333,0,0x7F,0x12
5.031183541666667,0,0xFF,0x00
5.033138541666666,0,0xB0,0x12
5.033156583333334,0,0xFF,0x12
5.033174750000000,0,0xFF,0x00
5.035136125000000,0,0xF0,0x02
5.035154125000000,0,0x7F,0x12
5.035172333333334,0,0xFF,0x00
5.037126041666666,0,0xF0,0x13
5.037144041666667,0,0xFF,0x10
5.037162250000000,0,0xFF,0x00
5.039125416666667,0,0xB0,0x12
5.039143458333333,0,0xFF,0x12
5.039161625000000,0,0xFF,0x00
5.041121708333334,0,0xF0,0x13
5.041139708333334,0,0x7F,0x18
5.041157916666666,0,0xFF,0x00
5.043109958333333,0,0xF0,0x12
5.043128000000000,0,0xFF,0x12
5.043146208333333,0,0xFF,0x00
5.045104166666667,0,0xB0,0x13
5.045122166666666,0,0xFF,0x10
5.045140375000000,0,0xFF,0x00
5.047095041666666,0,0xB0,0x12
5.047113041666667,0,0xFF,0x12
5.047131250000000,0,0xFF,0x00
5.047156041666667,0,0x87,0x12
5.047174083333333,0,0xFF,0x00
5.047192250000000,0,0xFF,0x00
5.047212833333333,0,0x07,0x12
5.047230833333334,0,0x00,0x12
5.047248916666667,0,0x3C,0x13
5.047384333333333,0,0x03,0x01
5.047402333333333,0,0x80,0x01
5.047420416666666,0,0x28,0x01
5.047441000000000,0,0x1C,0x01
5.047459041666666,0,0xC0,0x01
5.047477083333333,0,0x00,0x81
5.047497333333333,0,0x87,0x01
5.047515375000000,0,0xFF,0x00
5.047533583333333,0,0xFF,0x28
5.047554416666666,0,0x87,0x01
5.047572458333334,0,0x00,0x01
5.047590500000000,0,0x28,0x81
5.049087125000000,0,0xF0,0x02
5.049105125000000,0,0x7F,0x12
5.049123333333333,0,0xFF,0x18
5.051074791666666,0,0xB0,0x12
5.051092791666667,0,0xFF,0x12
5.051111000000000,0,0xFF,0x00
5.053072583333333,0,0x98,0x1A
5.053090625000000,0,0xFF,0x02
5.053108833333333,0,0xFF,0x10
5.055061916666666,0,0xF0,0x13
5.055079916666666,0,0x7F,0x18
5.055098125000000,0,0xFF,0x10
5.057056583333333,0,0xF0,0x02
5.057074583333334,0,0x7F,0x12
5.057092791666666,0,0xFF,0x18
5.059049500000000,0,0xF0,0x12
5.059067500000000,0,0x7F,0x12
5.059085708333333,0,0xFF,0x18
5.061045416666667,0,0xB0,0x12
5.061063416666666,0,0xFF,0x12
5.061081625000000,0,0xFF,0x10
5.063037625000000,0,0xB0,0x12
5.063055625000000,0,0xFF,0x12
5.063073833333333,0,0xFF,0x10
5.065026125000000,0,0x90,0x12
5.065044166666667,0,0xFF,0x13
5.065062375000000,0,0xFF,0x10
5.067017291666667,0,0xF0,0x12
5.067035291666667,0,0x7F,0x12
5.067053500000000,0,0xFF,0x18
5.069011166666667,0,0x98,0x12
5.069029208333333,0,0xFF,0x13
5.069047416666667,0,0xFF,0x10
5.071003500000000,0,0x90,0x12
5.071021541666667,0,0xFF,0x12
5.071039708333333,0,0xFF,0x18
5.072992375000000,0,0x98,0x18
5.073010416666667,0,0xFF,0x02
5.073028625000000,0,0xFF,0x10
5.074983833333333,0,0xB0,0x12
5.075001875000000,0,0xFF,0x12
5.075020083333333,0,0xFF,0x10
5.076977583333333,0,0xF0,0x12
5.076995583333333,0,0x7F,0x12
5.077013791666666,0,0xFF,0x10
5.078967541666667,0,0x98,0x10
5.078985583333333,0,0xFF,0x13
5.079003791666667,0,0xFF,0x10
5.079028583333334,0,0xC3,0x13
5.079046583333334,0,0xFF,0x00
5.079064791666666,0,0xFF,0xA8
5.079085375000000,0,0x07,0x12
5.079103375000000,0,0x00,0x12
5.079121458333334,0,0x0F,0x12
5.079173125000000,0,0x07,0x01
5.079191125000000,0,0x00,0x01
5.079209208333333,0,0x0E,0x01
5.079229791666667,0,0x36,0x01
5.079247833333334,0,0x80,0x01
5.079265875000000,0,0x80,0x01
5.079286125000000,0,0xC3,0x01
5.079304125000000,0,0xFF,0x00
5.079322333333334,0,0xFF,0x0A
5.079343208333333,0,0x07,0x01
5.079361250000000,0,0x00,0x01
5.079379291666666,0,0x80,0x01
5.080964208333334,0,0x30,0x92
5.080982250000000,0,0xFF,0x12
5.081000458333333,0,0xFF,0x14
5.082963291666666,0,0x90,0x12
5.082981333333334,0,0xFF,0x12
5.082999541666666,0,0xFF,0x00
5.084958583333333,0,0x98,0x10
5.084976625000000,0,0xFF,0x02
5.084994833333333,0,0xFF,0x14
5.086950125000000,0,0xF0,0x02
5.086968125000000,0,0x7F,0x10
5.086986333333333,0,0xFF,0x14
5.088938041666666,0,0x98,0x1A
5.088956083333334,0,0xFF,0x02
5.088974291666666,0,0xFF,0x14
5.090935666666667,0,0xB0,0x12
5.090953666666667,0,0xFF,0x12
5.090971875000000,0,0xFF,0x14
5.092922333333333,0,0xB0,0x12
5.092940375000000,0,0xFF,0x12
5.092958541666667,0,0xFF,0x14
5.094921916666666,0,0xB0,0x13
5.094939916666666,0,0xFF,0x12
5.094958125000000,0,0xFF,0x14
5.096918958333333,0,0x90,0x12
5.096937000000000,0,0xFF,0x13
5.096955208333333,0,0xFF,0x14
5.098909583333334,0,0xF0,0x02
5.098927583333333,0,0x7F,0x18
5.098945791666667,0,0xFF,0x14
5.100895791666667,0,0xB0,0x12
5.100913833333333,0,0xFF,0x12
5.100932041666667,0,0xFF,0x14
5.102882666666667,0,0xB0,0x12
5.102900666666667,0,0xFF,0x12
5.102918875000000,0,0xFF,0x14
5.104881208333333,0,0xF0,0x12
5.104899208333333,0,0x7F,0x12
5.104917416666667,0,0xFF,0x1E
5.106869958333333,0,0xB0,0x12
5.106888000000000,0,0xFF,0x12
5.106906166666667,0,0xFF,0x14
5.108863000000000,0,0xF0,0x02
5.108881000000000,0,0x7F,0x12
5.108899208333334,0,0xFF,0x1E
5.110850833333333,0,0xF0,0x02
5.110868833333333,0,0x7F,0x12
5.110887041666667,0,0xFF,0x16
5.110911833333334,0,0x87,0x1A
5.110929875000000,0,0xFF,0x00
5.110948083333334,0,0xFF,0x8B
5.110968833333334,0,0x87,0x12
5.110986875000000,0,0x00,0x12
5.111004916666666,0,0x32,0x12
5.111955625000000,0,0x07,0x01
5.111973625000000,0,0x00,0x01
5.111991708333333,0,0x33,0x01
5.112012291666667,0,0x34,0x01
5.112030291666667,0,0x00,0x81
5.112048375000000,0,0x80,0x01
5.112068625000000,0,0x83,0x01
5.112086625000000,0,0xFF,0x00
5.112104833333333,0,0xFF,0x32
5.112125708333333,0,0x03,0x01
5.112143708333333,0,0x80,0x01
5.112161791666667,0,0xF2,0x01
5.113528583333333,0,0x30,0x92
5.113546625000000,0,0xFF,0x12
5.113564833333333,0,0xFF,0x00
5.115515166666667,0,0x98,0x10
5.115533208333333,0,0xFF,0x12
5.115551416666666,0,0xFF,0x04
5.117511291666666,0,0xF0,0x12
5.117529291666667,0,0x7F,0x1A
5.117547500000000,0,0xFF,0x06
5.119497875000000,0,0xB0,0x13
5.119515875000000,0,0xFF,0x12
5.119534083333333,0,0xFF,0x04
5.121489125000000,0,0xB0,0x12
5.121507125000000,0,0xFF,0x12
5.121525333333333,0,0xFF,0x00
5.123482375000000,0,0xF0,0x02
5.123500375000000,0,0x7F,0x18
5.123518583333333,0,0xFF,0x04
5.125477375000000,0,0xB0,0x12
5.125495375000000,0,0xFF,0x12
5.125513583333333,0,0xFF,0x00
5.127468833333333,0,0xB0,0x12
5.127486833333333,0,0x7F,0x12
5.127505041666667,0,0xFF,0x06
5.129464083333334,0,0xF0,0x02
5.129482083333333,0,0x7F,0x1A
5.129500291666667,0,0xFF,0x04
5.131454666666666,0,0xB0,0x12
5.131472708333333,0,0xFF,0x02
5.131490916666666,0,0xFF,0x04
5.133446875000000,0,0xB0,0x12
5.133464875000000,0,0x7F,0x12
5.133483083333333,0,0xFF,0x06
5.135438125000000,0,0xF0,0x12
5.135456125000000,0,0x7F,0x12
5.135474333333334,0,0xFF,0x06
5.137425208333333,0,0xB0,0x12
5.137443208333333,0,0xFF,0x12
5.137461416666667,0,0xFF,0x04
5.139416541666667,0,0xB0,0x12
5.139434541666667,0,0xFF,0x12
5.139452750000000,0,0xFF,0x00
5.141407833333333,0,0xF0,0x02
5.141425833333333,0,0x7F,0x1A
5.141444041666666,0,0xFF,0x04
5.143398041666667,0,0xB0,0x12
5.143416083333333,0,0xFF,0x12
5.143434250000000,0,0xFF,0x04
5.143459083333333,0,0x87,0x12
5.143477083333333,0,0xFF,0x00
5.143495291666667,0,0xFF,0xF2
5.143515833333334,0,0x07,0x12
5.143533875000000,0,0x00,0x12
5.143551916666667,0,0x16,0x12
5.143743583333333,0,0x07,0x01
5.143761625000000,0,0x00,0x01
5.143779666666667,0,0x1C,0x01
5.143800291666667,0,0x30,0x00
5.143818291666666,0,0x00,0x01
5.143836375000000,0,0xC0,0x01
5.143856625000000,0,0x87,0x01
5.143874625000000,0,0xFF,0x00
5.143892833333333,0,0xFF,0x14
5.143913708333334,0,0x03,0x01
5.143931708333334,0,0x80,0x01
5.143949791666667,0,0x94,0x01
5.145393583333333,0,0xB0,0x12
5.145411583333333,0,0xFF,0x12
5.145429791666666,0,0xFF,0x08
5.147381750000000,0,0x98,0x10
5.147399791666667,0,0xFF,0x02
5.147418000000000,0,0xFF,0x08
5.149372416666667,0,0xB0,0x12
5.149390416666667,0,0x7F,0x12
5.149408625000000,0,0xFF,0x00
5.151367000000000,0,0xF0,0x12
5.151385000000000,0,0x7F,0x18
5.151403208333333,0,0xFF,0x08
5.153362416666667,0,0xB0,0x12
5.153380416666667,0,0xFF,0x12
5.153398625000000,0,0xFF,0x0C
5.155349500000000,0,0x98,0x10
5.155367541666667,0,0xFF,0x12
5.155385750000000,0,0xFF,0x08
5.157342666666667,0,0xB0,0x12
5.157360708333333,0,0xFF,0x12
5.157378875000000,0,0xFF,0x00
5.159335458333334,0,0xB0,0x12
5.159353458333333,0,0xFF,0x12
5.159371666666667,0,0xFF,0x08
5.161325333333333,0,0x90,0x12
5.161343375000000,0,0xFF,0x12
5.161361541666666,0,0xFF,0x08
5.163322458333333,0,0xB0,0x12
5.163340458333334,0,0xFF,0x12
5.163358666666666,0,0xFF,0x08
5.165311083333333,0,0x90,0x12
5.165329125000000,0,0xFF,0x12
5.165347291666667,0,0xFF,0x08
5.167298041666666,0,0xB0,0x12
5.167316041666667,0,0xFF,0x12
5.167334250000000,0,0xFF,0x0C
5.169292458333334,0,0x98,0x10
5.169310500000000,0,0xFF,0x13
5.169328708333333,0,0xFF,0x08
5.171282500000000,0,0xF0,0x12
5.171300500000000,0,0x7F,0x12
5.171318708333334,0,0xFF,0x08
5.173278041666666,0,0xB0,0x12
5.173296041666666,0,0x7F,0x12
5.173314250000000,0,0xFF,0x00
5.175270750000000,0,0xB0,0x12
5.175288750000000,0,0xFF,0x12
5.175306958333334,0,0xFF,0x0C
5.175331750000000,0,0x87,0x12
5.175349750000000,0,0xFF,0x00
5.175367958333333,0,0xFF,0x9C
5.175388541666667,0,0x07,0x12
5.175406541666667,0,0x00,0x12
5.175424625000000,0,0x3C,0x13
5.175532250000000,0,0x07,0x01
5.175550291666666,0,0x00,0x01
5.175568333333334,0,0x1E,0x01
5.175588958333333,0,0x34,0x01
5.175606958333334,0,0x80,0x01
5.175625041666667,0,0x80,0x01
5.175645250000000,0,0x87,0x01
5.175663291666667,0,0xFF,0x00
5.175681458333333,0,0xFF,0x3C
5.175702333333334,0,0x87,0x01
5.175720375000000,0,0x00,0x00
5.175738416666666,0,0x1E,0x01
5.177258708333333,0,0x18,0x1A
5.177276750000000,0,0xFF,0x02
5.177294958333333,0,0xFF,0x18
5.179256291666666,0,0x98,0x10
5.179274333333334,0,0xFF,0x13
5.179292500000000,0,0xFF,0x18
5.181252208333333,0,0xF0,0x02
5.181270208333333,0,0x7F,0x10
5.181288416666667,0,0xFF,0x18
5.183242750000000,0,0xF0,0x02
5.183260750000000,0,0x7F,0x18
5.183278958333333,0,0xFF,0x18
5.185237583333334,0,0xB0,0x12
5.185255625000000,0,0xFF,0x12
5.185273791666667,0,0xFF,0x18
5.187228333333334,0,0xF0,0x13
5.187246333333333,0,0x7F,0x10
5.187264541666667,0,0xFF,0x18
5.189224875000000,0,0xB0,0x12
5.189242916666666,0,0xFF,0x12
5.189261083333333,0,0xFF,0x18
5.191216666666667,0,0xF0,0x02
5.191234666666666,0,0x7F,0x1A
5.191252875000000,0,0xFF,0x18
5.193210375000000,0,0xB0,0x12
5.193228416666667,0,0xFF,0x12
5.193246583333333,0,0xFF,0x18
5.195198708333334,0,0xB0,0x12
5.195216708333334,0,0x7F,0x12
5.195234916666666,0,0xFF,0x18
5.197196250000000,0,0x90,0x12
5.197214291666667,0,0xFF,0x12
5.197232458333334,0,0xFF,0x18
5.199188125000000,0,0xB0,0x12
5.199206166666666,0,0xFF,0x12
5.199224333333333,0,0xFF,0x18
5.201175833333333,0,0x98,0x12
5.201193875000000,0,0xFF,0x12
5.201212041666667,0,0xFF,0x18
5.203167666666666,0,0xB0,0x13
5.203185666666666,0,0xFF,0x12
5.203203875000000,0,0xFF,0x18
5.205163500000000,0,0xB0,0x12
5.205181500000000,0,0xFF,0x12
5.205199708333334,0,0xFF,0x08
5.207161583333333,0,0xB0,0x12
5.207179583333334,0,0xFF,0x12
5.207197791666666,0,0xFF,0x0C
5.207222583333333,0,0x87,0x12
5.207240625000000,0,0xFF,0x00
5.207258791666667,0,0xFF,0x9C
5.207279375000000,0,0x07,0x12
5.207297375000000,0,0x00,0x12
5.207317625000000,0,0x1F,0x12
5.208313166666667,0,0x07,0x01
5.208331166666667,0,0x00,0x01
5.208349250000000,0,0x1F,0x01
5.208369833333333,0,0x30,0x01
5.208387833333333,0,0x00,0x01
5.208405916666667,0,0xC0,0x01
5.208426125000000,0,0x07,0x81
5.208444166666666,0,0xFF,0x00
5.208462375000000,0,0xFF,0x1F
5.208483250000000,0,0x07,0x01
5.208501250000000,0,0x00,0x01
5.208519333333333,0,0x9F,0x01
5.209936833333333,0,0xB0,0x12
5.209954833333334,0,0xFF,0x12
5.209973041666666,0,0xFF,0x1C
5.211923750000000,0,0xF0,0x02
5.211941750000000,0,0x7F,0x1A
5.211959958333333,0,0xFF,0x1C
5.213915083333333,0,0xB0,0x12
5.213933083333333,0,0xFF,0x12
5.213951291666667,0,0xFF,0x1C
5.215906125000000,0,0xF0,0x02
5.215924125000000,0,0x7F,0x1A
5.215942333333333,0,0xFF,0x1E
5.217892791666666,0,0xB0,0x12
5.217910791666666,0,0xFF,0x12
5.217929000000000,0,0xFF,0x0C
5.219879500000000,0,0xF0,0x13
5.219897500000000,0,0x7F,0x10
5.219915708333334,0,0xFF,0x1C
5.221867208333333,0,0xB0,0x12
5.221885250000000,0,0xFF,0x12
5.221903416666667,0,0xFF,0x1C
5.223866583333334,0,0xF0,0x02
5.223884583333334,0,0x7F,0x1A
5.223902791666666,0,0xFF,0x1E
5.225856208333333,0,0x98,0x1A
5.225874250000000,0,0xFF,0x02
5.225892458333333,0,0xFF,0x1C
5.227847125000000,0,0x98,0x1A
5.227865166666667,0,0xFF,0x02
5.227883375000000,0,0xFF,0x1C
5.229840791666667,0,0xF0,0x12
5.229858791666667,0,0x7F,0x12
5.229877000000000,0,0xFF,0x1C
5.231839291666667,0,0x98,0x18
5.231857333333333,0,0xFF,0x13
5.231875541666667,0,0xFF,0x1C
5.233827625000000,0,0xF0,0x02
5.233845625000000,0,0x7F,0x10
5.233863833333333,0,0xFF,0x1C
5.235824875000000,0,0xB0,0x12
5.235842875000000,0,0x7F,0x12
5.235861083333333,0,0xFF,0x1E
5.237812625000000,0,0xF0,0x02
5.237830625000000,0,0x7F,0x18
5.237848833333334,0,0xFF,0x1C
5.239804875000000,0,0xB0,0x12
5.239822875000000,0,0xFF,0x12
5.239841083333333,0,0xFF,0x1C
5.239865875000000,0,0xC3,0x02
5.239883875000000,0,0xFF,0x00
5.239902083333333,0,0xFF,0x9E
5.239922625000000,0,0x07,0x12
5.239940666666667,0,0x00,0x12
5.239958708333333,0,0x66,0x10
5.240101125000000,0,0x03,0x01
5.240119125000000,0,0x80,0x01
5.240137208333334,0,0x06,0x01
5.240157791666666,0,0x1E,0x01
5.240175833333334,0,0x80,0x01
5.240193875000000,0,0x00,0x01
5.240214125000000,0,0xC3,0x01
5.240232125000000,0,0xFF,0x00
5.240250333333333,0,0xFF,0x46
5.240271208333334,0,0x03,0x01
5.240289208333333,0,0x80,0x01
5.240307291666666,0,0xC6,0x01
5.241803708333333,0,0xF0,0x13
5.241821708333333,0,0xFF,0x12
5.241839916666667,0,0xFF,0x0C
5.243790666666666,0,0x98,0x10
5.243808708333333,0,0xFF,0x13
5.243826916666666,0,0xFF,0x0C
5.245788500000000,0,0xB0,0x12
5.245806541666667,0,0xFF,0x12
5.245824708333333,0,0xFF,0x06
5.247784333333334,0,0xB0,0x12
5.247802375000000,0,0xFF,0x12
5.247820541666667,0,0xFF,0x0C
5.249774833333333,0,0xB0,0x12
5.249792875000000,0,0xFF,0x12
5.249811083333333,0,0xFF,0x0C
5.251763875000000,0,0xB0,0x12
5.251781875000000,0,0x7F,0x12
5.251800083333333,0,0xFF,0x06
5.253758333333334,0,0x98,0x18
5.253776375000000,0,0xFF,0x13
5.253794583333334,0,0xFF,0x0C
5.255748166666667,0,0xF0,0x02
5.255766166666667,0,0x7F,0x1A
5.255784375000000,0,0xFF,0x0C
5.257734666666667,0,0xB0,0x12
5.257752666666667,0,0xFF,0x12
5.257770875000000,0,0xFF,0x0C
5.259726041666666,0,0xB0,0x12
5.259744083333334,0,0xFF,0x12
5.259762250000000,0,0xFF,0x04
5.261723083333333,0,0xB0,0x12
5.261741083333333,0,0x7F,0x12
5.261759291666666,0,0xFF,0x0C
5.263716416666667,0,0x98,0x10
5.263734458333333,0,0xFF,0x13
5.263752666666667,0,0xFF,0x0C
5.265708250000000,0,0xB0,0x12
5.265726250000000,0,0xFF,0x12
5.265744458333334,0,0xFF,0x0C
5.267698875000000,0,0xB0,0x12
5.267716875000000,0,0x7F,0x12
5.267735083333333,0,0xFF,0x0E
5.269694708333334,0,0xB0,0x12
5.269712708333333,0,0xFF,0x12
5.269730916666667,0,0xFF,0x0C
5.271688875000000,0,0xB0,0x12
5.271706875000000,0,0x7F,0x12
5.271725083333333,0,0xFF,0x0C
5.271749875000000,0,0x87,0x10
5.271767916666667,0,0xFF,0x00
5.271786125000000,0,0xFF,0xC6
5.271806666666667,0,0x03,0x02
5.271824666666666,0,0x80,0x18
5.271842750000000,0,0x00,0x02
5.271886875000000,0,0x03,0x00
5.271904875000000,0,0x00,0x01
5.271922958333334,0,0x00,0x00
5.271943541666666,0,0x34,0x01
5.271961583333334,0,0x80,0x01
5.271979625000000,0,0x80,0x01
5.271999875000000,0,0x87,0x01
5.272017875000000,0,0xFF,0x00
5.272036083333333,0,0xFF,0x00
5.272056958333334,0,0x03,0x00
5.272074958333334,0,0x00,0x01
5.272093041666666,0,0xC0,0x00
5.273679416666667,0,0xB0,0x12
5.273697416666667,0,0xFF,0x12
5.273715625000000,0,0xFF,0x00
5.275668291666666,0,0x98,0x10
5.275686333333334,0,0xFF,0x12
5.275704541666666,0,0xFF,0x00
5.277660416666667,0,0xB0,0x12
5.277678458333333,0,0xFF,0x12
5.277696625000000,0,0xFF,0x00
5.279649916666667,0,0x98,0x1A
5.279667958333333,0,0xFF,0x12
5.279686166666667,0,0xFF,0x00
5.281637208333334,0,0xB0,0x12
5.281655208333333,0,0xFF,0x12
5.281673416666667,0,0xFF,0x00
5.283628833333333,0,0xB0,0x12
5.283646875000000,0,0xFF,0x12
5.283665083333333,0,0xFF,0x00
5.285625041666667,0,0xF0,0x13
5.285643041666667,0,0x7F,0x18
5.285661250000000,0,0xFF,0x00
5.287611875000000,0,0x98,0x18
5.287629916666667,0,0xFF,0x02
5.287648125000000,0,0xFF,0x00
5.289601500000000,0,0xB0,0x12
5.289619541666666,0,0xFF,0x12
5.289637708333333,0,0xFF,0x00
5.291591333333334,0,0xB0,0x12
5.291609375000000,0,0xFF,0x02
5.291627583333334,0,0xFF,0x00
5.293586541666667,0,0xB0,0x12
5.293604583333333,0,0xFF,0x12
5.293622791666666,0,0xFF,0x00
5.295578250000000,0,0xB0,0x12
5.295596291666667,0,0xFF,0x12
5.295614500000000,0,0xFF,0x00
5.297566541666667,0,0x98,0x10
5.297584583333333,0,0xFF,0x13
5.297602791666667,0,0xFF,0x00
5.299556291666667,0,0xB0,0x12
5.299574291666667,0,0x7F,0x12
5.299592500000000,0,0xFF,0x00
5.301544500000000,0,0xB0,0x12
5.301562541666667,0,0xFF,0x12
5.301580708333334,0,0xFF,0x00
5.303538500000000,0,0x90,0x12
5.303556541666667,0,0xFF,0x12
5.303574708333334,0,0xFF,0x00
5.303599500000000,0,0x87,0x12
5.303617541666667,0,0xFF,0x00
5.303635750000000,0,0xFF,0x80
5.303656291666667,0,0x03,0x02
5.303675125000000,0,0x00,0x02
5.303693166666666,0,0x28,0x12
5.304669083333334,0,0x07,0x01
5.304687125000000,0,0x00,0x01
5.304705208333333,0,0x28,0x01
5.304725791666667,0,0x30,0x01
5.304743791666667,0,0x00,0x01
5.304761875000000,0,0xC0,0x01
5.304782125000000,0,0x87,0x01
5.304800125000000,0,0xFF,0x00
5.304818333333333,0,0xFF,0x28
5.304839208333333,0,0x03,0x00
5.304857208333333,0,0x00,0x01
5.304875291666667,0,0xFC,0x01
5.306253583333334,0,0xF0,0x02
5.306271583333333,0,0x7F,0x18
5.306289791666667,0,0xFF,0x10
5.308241791666667,0,0x98,0x1A
5.308259833333334,0,0xFF,0x02
5.308278041666667,0,0xFF,0x10
5.310238250000000,0,0xB0,0x12
5.310256291666667,0,0xFF,0x12
5.310274458333334,0,0xFF,0x10
5.312237083333334,0,0xF0,0x02
5.312255083333334,0,0x7F,0x18
5.312273291666667,0,0xFF,0x10
5.314224291666667,0,0x98,0x1A
5.314242333333334,0,0xFF,0x02
5.314260541666667,0,0xFF,0x10
5.316212166666666,0,0xB0,0x12
5.316230208333334,0,0xFF,0x12
5.316248375000000,0,0xFF,0x18
5.318208875000000,0,0xB0,0x12
5.318226875000000,0,0xFF,0x12
5.318245083333333,0,0xFF,0x00
5.320194791666666,0,0xB0,0x12
5.320212833333334,0,0xFF,0x12
5.320231041666666,0,0xFF,0x10
5.322181666666666,0,0xB0,0x12
5.322199666666667,0,0xFF,0x12
5.322217875000000,0,0xFF,0x00
5.324169458333333,0,0xF0,0x13
5.324187458333333,0,0x7F,0x10
5.324205666666667,0,0xFF,0x10
5.326158708333334,0,0xF0,0x13
5.326176708333334,0,0x7F,0x10
5.326194916666666,0,0xFF,0x10
5.328148791666667,0,0xB0,0x12
5.328166833333333,0,0xFF,0x12
5.328185000000000,0,0xFF,0x10
5.330145833333333,0,0xB0,0x12
5.330163875000000,0,0xFF,0x12
5.330182041666666,0,0xFF,0x18
5.332142416666667,0,0xB0,0x12
5.332160416666667,0,0xFF,0x12
5.332178625000000,0,0xFF,0x00
5.334132041666667,0,0x98,0x1A
5.334150083333333,0,0xFF,0x02
5.334168291666667,0,0xFF,0x10
5.336122333333333,0,0xB0,0x12
5.336140333333334,0,0xFF,0x12
5.336158541666666,0,0xFF,0x00
5.336183333333334,0,0xC3,0x02
5.336201333333333,0,0xFF,0x00
5.336219541666667,0,0xFF,0xA8
5.336240083333333,0,0x87,0x1A
5.336258125000000,0,0x00,0x02
5.336276166666667,0,0x0A,0x12
5.336455458333333,0,0x07,0x01
5.336473500000000,0,0x00,0x01
5.336491583333333,0,0x0B,0x01
5.336512166666667,0,0x30,0x00
5.336530166666667,0,0x00,0x01
5.336548250000000,0,0xC0,0x01
5.336568458333334,0,0x07,0x81
5.336586500000000,0,0xFF,0x00
5.336604708333334,0,0xFF,0x0E
5.336625583333333,0,0x03,0x01
5.336643583333333,0,0x00,0x01
5.336661666666667,0,0x8F,0x01
5.338116958333333,0,0xF0,0x12
5.338134958333334,0,0x7F,0x12
5.338153166666666,0,0xFF,0x14
5.340115500000000,0,0xF0,0x13
5.340133500000000,0,0xFF,0x12
5.340151708333333,0,0xFF,0x14
5.342102666666666,0,0xF0,0x13
5.342120666666666,0,0x7F,0x10
5.342138875000000,0,0xFF,0x14
5.344091708333333,0,0xB0,0x12
5.344109708333334,0,0x7F,0x12
5.344127916666666,0,0xFF,0x16
5.346088083333333,0,0xB0,0x12
5.346106083333333,0,0xFF,0x12
5.346124291666666,0,0xFF,0x14
5.348079333333334,0,0xF0,0x02
5.348097333333333,0,0x7F,0x1A
5.348115541666667,0,0xFF,0x14
5.350066416666666,0,0xB0,0x12
5.350084416666666,0,0xFF,0x12
5.350102625000000,0,0xFF,0x14
5.352053916666667,0,0xB0,0x12
5.352071916666667,0,0xFF,0x12
5.352090125000000,0,0xFF,0x00
5.354048583333333,0,0xB0,0x12
5.354066583333333,0,0xFF,0x12
5.354084791666667,0,0xFF,0x04
5.356042000000000,0,0xB0,0x12
5.356060041666667,0,0xFF,0x02
5.356078250000000,0,0xFF,0x14
5.358034041666667,0,0x98,0x12
5.358052083333333,0,0xFF,0x12
5.358070250000000,0,0xFF,0x14
5.360023791666666,0,0x98,0x1A
5.360041833333334,0,0xFF,0x02
5.360060041666666,0,0xFF,0x14
5.362022583333333,0,0xB0,0x12
5.362040625000000,0,0xFF,0x12
5.362058833333333,0,0xFF,0x00
5.364011375000000,0,0xB0,0x12
5.364029375000000,0,0xFF,0x12
5.364047583333333,0,0xFF,0x04
5.366000750000000,0,0xB0,0x12
5.366018750000000,0,0xFF,0x12
5.366036958333333,0,0xFF,0x14
5.367990833333334,0,0x98,0x10
5.368008875000000,0,0xFF,0x13
5.368027083333334,0,0xFF,0x14
5.368051875000000,0,0x83,0x12
5.368069875000000,0,0xFF,0x00
5.368088083333333,0,0xFF,0x8A
5.368108625000000,0,0x07,0x12
5.368126666666667,0,0x00,0x12
5.368144708333333,0,0x18,0x10
5.368240833333333,0,0x07,0x01
5.368258875000000,0,0x00,0x01
5.368276958333333,0,0x33,0x01
5.368297541666666,0,0x34,0x01
5.368315541666667,0,0x00,0x81
5.368333625000000,0,0x80,0x01
5.368353875000000,0,0x83,0x00
5.368371875000000,0,0xFF,0x00
5.368390083333333,0,0xFF,0x32
5.368410958333333,0,0x03,0x01
5.368428958333333,0,0x80,0x01
5.368447041666666,0,0xB2,0x01
5.369985583333333,0,0xB0,0x12
5.370003625000000,0,0xFF,0x12
5.370021791666667,0,0xFF,0x04
5.371972708333334,0,0xB0,0x12
5.371990708333334,0,0x7F,0x12
5.372008916666666,0,0xFF,0x06
5.373959250000000,0,0x98,0x1A
5.373977291666667,0,0xFF,0x02
5.373995500000000,0,0xFF,0x04
5.375947541666667,0,0x90,0x12
5.375965583333334,0,0xFF,0x12
5.375983791666667,0,0xFF,0x00
5.377942791666666,0,0xF0,0x12
5.377960791666666,0,0x7F,0x18
5.377979000000000,0,0xFF,0x04
5.379940208333333,0,0xF0,0x13
5.379958208333333,0,0x7F,0x18
5.379976416666667,0,0xFF,0x04
5.381934250000000,0,0xB0,0x13
5.381952250000000,0,0xFF,0x10
5.381970458333333,0,0xFF,0x04
5.383924500000000,0,0xF0,0x12
5.383942500000000,0,0x7F,0x12
5.383960708333333,0,0xFF,0x04
5.385915750000000,0,0x90,0x12
5.385933791666667,0,0xFF,0x12
5.385951958333333,0,0xFF,0x04
5.387904625000000,0,0xF0,0x13
5.387922625000000,0,0xFF,0x12
5.387940833333333,0,0xFF,0x04
5.389895166666666,0,0xB0,0x12
5.389913166666667,0,0xFF,0x12
5.389931375000000,0,0xFF,0x04
5.391884083333333,0,0x98,0x12
5.391902125000000,0,0xFF,0x12
5.391920291666667,0,0xFF,0x04
5.393876458333334,0,0xB0,0x12
5.393894500000000,0,0xFF,0x12
5.393912666666667,0,0xFF,0x06
5.395864916666667,0,0xB0,0x12
5.395882958333333,0,0xFF,0x12
5.395901125000000,0,0xFF,0x04
5.397859250000000,0,0x98,0x1A
5.397877291666667,0,0xFF,0x02
5.397895500000000,0,0xFF,0x04
5.399846291666667,0,0xB0,0x12
5.399864291666667,0,0xFF,0x12
5.399882500000000,0,0xFF,0x04
5.399907291666667,0,0x87,0x12
5.399925333333333,0,0xFF,0x00
5.399943500000000,0,0xFF,0x32
5.399964083333334,0,0x03,0x12
5.399982083333334,0,0x00,0x12
5.400000166666667,0,0x00,0x13
5.400029416666666,0,0x07,0x01
5.400047458333334,0,0x00,0x00
5.400065500000000,0,0x1E,0x01
5.400086125000000,0,0x34,0x01
5.400104125000000,0,0x80,0x01
5.400122208333333,0,0x80,0x01
5.400142416666666,0,0x07,0x01
5.400160458333334,0,0xFF,0x00
5.400178666666666,0,0xFF,0x14
5.400199500000000,0,0x87,0x01
5.400217541666667,0,0x00,0x01
5.400235583333333,0,0x14,0x81
5.401835458333333,0,0x30,0x92
5.401853500000000,0,0xFF,0x12
5.401871708333333,0,0xFF,0x0C
5.403824875000000,0,0xB0,0x12
5.403842875000000,0,0x7F,0x12
5.403861083333333,0,0xFF,0x00
5.405822208333333,0,0xF0,0x13
5.405840208333333,0,0xFF,0x10
5.405858416666667,0,0xFF,0x08
5.407813208333334,0,0xF0,0x02
5.407831208333334,0,0x7F,0x12
5.407849416666667,0,0xFF,0x00
5.409804458333333,0,0xB0,0x12
5.409822458333333,0,0x7F,0x12
5.409840666666667,0,0xFF,0x08
5.411794750000000,0,0xB0,0x12
5.411812791666667,0,0xFF,0x12
5.411831000000000,0,0xFF,0x08
5.413784916666667,0,0xB0,0x12
5.413802958333333,0,0xFF,0x12
5.413821166666667,0,0xFF,0x08
5.415771291666666,0,0xF0,0x02
5.415789291666667,0,0x7F,0x18
5.415807500000000,0,0xFF,0x08
5.417759375000000,0,0x98,0x1A
5.417777416666667,0,0xFF,0x12
5.417795625000000,0,0xFF,0x0C
5.419747083333333,0,0xB0,0x12
5.419765125000000,0,0xFF,0x12
5.419783291666667,0,0xFF,0x08
5.421739208333333,0,0x98,0x1A
5.421757250000000,0,0xFF,0x02
5.421775458333333,0,0xFF,0x08
5.423731666666667,0,0x90,0x12
5.423749708333333,0,0xFF,0x12
5.423767916666667,0,0xFF,0x0C
5.425728333333334,0,0xB0,0x12
5.425746333333334,0,0xFF,0x12
5.425764541666667,0,0xFF,0x08
5.427716291666667,0,0xF0,0x02
5.427734291666667,0,0x7F,0x1A
5.427752500000000,0,0xFF,0x08
5.429710000000000,0,0xB0,0x12
5.429728041666666,0,0xFF,0x13
5.429746250000000,0,0xFF,0x08
5.431699333333333,0,0xF0,0x12
5.431717333333333,0,0x7F,0x12
5.431735541666667,0,0xFF,0x00
5.431760375000000,0,0x87,0x12
5.431778375000000,0,0xFF,0x00
5.431796583333333,0,0xFF,0xC4
5.431819333333333,0,0x87,0x1A
5.431837375000000,0,0x00,0x12
5.431855458333334,0,0x3C,0x12
5.432811666666667,0,0x07,0x01
5.432829666666667,0,0x80,0x81
5.432847750000000,0,0x3C,0x01
5.432868333333333,0,0x1E,0x01
5.432886375000000,0,0xC0,0x01
5.432904416666666,0,0x00,0x81
5.432924666666667,0,0x87,0x01
5.432942708333333,0,0xFF,0x00
5.432960875000000,0,0xFF,0x3C
5.432981750000000,0,0x87,0x01
5.432999791666667,0,0x00,0x01
5.433017833333333,0,0x3C,0x81
5.434406250000000,0,0x18,0x10
5.434424291666667,0,0xFF,0x12
5.434442500000000,0,0xFF,0x18
5.436404083333334,0,0xB0,0x12
5.436422083333333,0,0xFF,0x12
5.436440291666667,0,0xFF,0x18
5.438390916666667,0,0xB0,0x12
5.438408958333333,0,0xFF,0x12
5.438427125000000,0,0xFF,0x18
5.440390625000000,0,0xB0,0x12
5.440408666666666,0,0xFF,0x12
5.440426875000000,0,0xFF,0x0C
5.442377375000000,0,0xF0,0x02
5.442395375000000,0,0x7F,0x12
5.442413583333333,0,0xFF,0x18
5.444364333333334,0,0xB0,0x12
5.444382375000000,0,0xFF,0x12
5.444400583333334,0,0xFF,0x0C
5.446353000000000,0,0xB0,0x12
5.446371000000000,0,0xFF,0x12
5.446389208333334,0,0xFF,0x0C
5.448342833333333,0,0xB0,0x12
5.448360833333333,0,0xFF,0x12
5.448379041666667,0,0xFF,0x08
5.450340833333334,0,0xB0,0x12
5.450358833333333,0,0xFF,0x12
5.450377041666667,0,0xFF,0x0C
5.452330250000000,0,0xB0,0x13
5.452348250000000,0,0xFF,0x12
5.452366458333334,0,0xFF,0x18
5.454318916666667,0,0xB0,0x12
5.454336916666667,0,0xFF,0x12
5.454355125000000,0,0xFF,0x18
5.456307041666666,0,0xB0,0x12
5.456325041666667,0,0xFF,0x12
5.456343250000000,0,0xFF,0x18
5.458298666666667,0,0xB0,0x12
5.458316708333333,0,0xFF,0x12
5.458334875000000,0,0xFF,0x18
5.460286125000000,0,0x98,0x10
5.460304166666667,0,0xFF,0x02
5.460322375000000,0,0xFF,0x18
5.462280583333333,0,0xB0,0x12
5.462298583333333,0,0x7F,0x12
5.462316791666667,0,0xFF,0x18
5.464271833333333,0,0xB0,0x12
5.464289875000000,0,0xFF,0x12
5.464308041666667,0,0xFF,0x18
5.464332833333334,0,0x87,0x1A
5.464350875000000,0,0xFF,0x00
5.464369083333334,0,0xFF,0xBC
5.464389625000000,0,0x03,0x02
5.464407625000000,0,0x80,0x18
5.464425708333334,0,0x1E,0x12
5.464599208333333,0,0x07,0x01
5.464617208333333,0,0x80,0x01
5.464635291666666,0,0x1E,0x01
5.464655875000000,0,0x1E,0x01
5.464673916666666,0,0x80,0x01
5.464691958333334,0,0x80,0x01
5.464712208333333,0,0xC3,0x00
5.464730208333333,0,0xFF,0x00
5.464748416666667,0,0xFF,0x1E
5.464769291666666,0,0x03,0x01
5.464787291666667,0,0x00,0x01
5.464805375000000,0,0x9F,0x01
5.466264666666667,0,0x18,0x18
5.466282708333333,0,0xFF,0x02
5.466300916666667,0,0xFF,0x1C
5.468259083333334,0,0x98,0x10
5.468277125000000,0,0xFF,0x13
5.468295333333334,0,0xFF,0x1C
5.470253791666667,0,0x98,0x18
5.470271833333333,0,0xFF,0x02
5.470290041666667,0,0xFF,0x1C
5.472245708333333,0,0xF0,0x02
5.472263708333333,0,0x7F,0x10
5.472281916666667,0,0xFF,0x1C
5.474239625000000,0,0xF0,0x02
5.474257625000000,0,0x7F,0x1A
5.474275833333333,0,0xFF,0x1C
5.476228208333334,0,0xB0,0x13
5.476246208333333,0,0xFF,0x10
5.476264416666667,0,0xFF,0x1C
5.478220458333333,0,0xB0,0x12
5.478238500000000,0,0xFF,0x12
5.478256708333333,0,0xFF,0x0C
5.480210458333334,0,0xB0,0x12
5.480228458333333,0,0x7F,0x12
5.480246666666667,0,0xFF,0x1E
5.482204583333333,0,0xB0,0x12
5.482222625000000,0,0xFF,0x12
5.482240791666666,0,0xFF,0x1C
5.484196833333334,0,0xF0,0x12
5.484214833333334,0,0x7F,0x12
5.484233041666666,0,0xFF,0x1C
5.486196458333334,0,0xF0,0x02
5.486214458333333,0,0x7F,0x1A
5.486232666666667,0,0xFF,0x1E
5.488187000000000,0,0x98,0x10
5.488205041666666,0,0xFF,0x02
5.488223250000000,0,0xFF,0x1C
5.490183791666666,0,0x98,0x10
5.490201833333333,0,0xFF,0x12
5.490220041666666,0,0xFF,0x1C
5.492174500000000,0,0xF0,0x13
5.492192500000000,0,0x7F,0x10
5.492210708333333,0,0xFF,0x1C
5.494165083333334,0,0xF0,0x13
5.494183083333334,0,0xFF,0x10
5.494201291666666,0,0xFF,0x1C
5.496153666666666,0,0xB0,0x12
5.496171708333334,0,0xFF,0x12
5.496189875000000,0,0xFF,0x1C
5.496214666666667,0,0x87,0x12
5.496232708333333,0,0xFF,0x00
5.496250916666667,0,0xFF,0xCE
5.496271458333333,0,0x07,0x12
5.496289500000000,0,0x00,0x13
5.496307541666667,0,0x66,0x1A
5.496388916666667,0,0x07,0x01
5.496406958333333,0,0x00,0x01
5.496425041666667,0,0x47,0x01
5.496445625000000,0,0x34,0x01
5.496463625000000,0,0x00,0x81
5.496481708333333,0,0x80,0x01
5.496501958333333,0,0x83,0x00
5.496519958333334,0,0xFF,0x00
5.496538166666666,0,0xFF,0x46
5.496559041666667,0,0x07,0x01
5.496577041666667,0,0x80,0x81
5.496595125000000,0,0xC6,0x01
5.498141750000000,0,0x90,0x12
5.498159791666667,0,0xFF,0x13
5.498178000000000,0,0xFF,0x0C
5.500130208333333,0,0xF0,0x12
5.500148208333333,0,0x7F,0x1A
5.500166416666667,0,0xFF,0x0E
5.502127208333333,0,0x98,0x18
5.502145250000000,0,0xFF,0x02
5.502163458333333,0,0xFF,0x0C
5.504118916666667,0,0xB0,0x12
5.504136916666667,0,0xFF,0x12
5.504155125000000,0,0xFF,0x0C
5.506108916666666,0,0xF0,0x02
5.506126916666667,0,0x7F,0x1A
5.506145125000000,0,0xFF,0x0E
5.508100583333333,0,0xF0,0x02
5.508118583333333,0,0x7F,0x12
5.508136791666667,0,0xFF,0x06
5.510096541666667,0,0x90,0x12
5.510114583333333,0,0xFF,0x12
5.510132791666667,0,0xFF,0x0C
5.512087791666667,0,0xB0,0x12
5.512105791666666,0,0xFF,0x12
5.512124000000000,0,0xFF,0x0C
5.514077583333333,0,0xB0,0x12
5.514095625000000,0,0xFF,0x12
5.514113833333333,0,0xFF,0x0C
5.516069166666667,0,0x98,0x1A
5.516087208333333,0,0xFF,0x02
5.516105416666667,0,0xFF,0x0C
5.518064375000000,0,0xB0,0x12
5.518082375000000,0,0xFF,0x12
5.518100583333333,0,0xFF,0x0C
5.520062083333333,0,0xF0,0x13
5.520080083333333,0,0x7F,0x10
5.520098291666667,0,0xFF,0x0C
5.522055875000000,0,0xB0,0x12
5.522073916666667,0,0xFF,0x12
5.522092125000000,0,0xFF,0x0C
5.524048083333334,0,0xB0,0x12
5.524066083333333,0,0xFF,0x12
5.524084291666667,0,0xFF,0x0C
5.526036750000000,0,0xB0,0x12
5.526054791666667,0,0xFF,0x12
5.526073000000000,0,0xFF,0x0C
5.528025375000000,0,0xB0,0x12
5.528043375000000,0,0xFF,0x12
5.528061583333334,0,0xFF,0x0C
5.528086375000000,0,0x87,0x1A
5.528104416666666,0,0xFF,0x00
5.528122625000000,0,0xFF,0xC2
5.528143166666666,0,0x07,0x12
5.528161208333334,0,0x00,0x12
5.528179416666666,0,0x00,0x12
5.529173250000000,0,0x07,0x01
5.529191291666667,0,0x00,0x01
5.529209333333333,0,0x00,0x81
5.529229958333334,0,0x30,0x00
5.529247958333333,0,0x00,0x01
5.529266041666666,0,0x80,0x01
5.529286291666667,0,0x83,0x00
5.529304291666667,0,0xFF,0x00
5.529322500000000,0,0xFF,0x00
5.529343375000000,0,0x07,0x01
5.529361416666666,0,0x00,0x01
5.529379458333334,0,0x80,0x01
5.530797125000000,0,0xB0,0x12
5.530815125000000,0,0xFF,0x12
5.530833333333334,0,0xFF,0x00
5.532792416666667,0,0xF0,0x13
5.532810416666667,0,0x7F,0x10
5.532828625000000,0,0xFF,0x00
5.534780750000000,0,0xB0,0x12
5.534798791666667,0,0xFF,0x12
5.534817000000000,0,0xFF,0x00
5.536779333333333,0,0x98,0x10
5.536797375000000,0,0xFF,0x13
5.536815583333333,0,0xFF,0x00
5.538770375000000,0,0xB0,0x12
5.538788416666667,0,0xFF,0x12
5.538806625000000,0,0xFF,0x00
5.540759166666667,0,0xB0,0x12
5.540777166666667,0,0xFF,0x12
5.540795375000000,0,0xFF,0x00
5.542755916666667,0,0xB0,0x12
5.542773958333333,0,0xFF,0x12
5.542792166666667,0,0xFF,0x00
5.544744041666666,0,0xB0,0x12
5.544762041666667,0,0xFF,0x12
5.544780250000000,0,0xFF,0x00
5.546743250000000,0,0xB0,0x12
5.546761291666667,0,0xFF,0x12
5.546779500000000,0,0xFF,0x00
5.548736708333333,0,0xF0,0x13
5.548754708333333,0,0x7F,0x10
5.548772916666667,0,0xFF,0x00
5.550723583333333,0,0xB0,0x12
5.550741625000000,0,0xFF,0x12
5.550759791666667,0,0xFF,0x00
5.552715833333333,0,0xF0,0x02
5.552733833333333,0,0x7F,0x12
5.552752041666666,0,0xFF,0x00
5.554704625000000,0,0xB0,0x12
5.554722666666667,0,0xFF,0x12
5.554740833333334,0,0xFF,0x00
5.556692958333334,0,0x98,0x12
5.556711000000000,0,0xFF,0x13
5.556729208333334,0,0xFF,0x00
5.558682833333333,0,0xB0,0x13
5.558700833333333,0,0xFF,0x10
5.558719041666667,0,0xFF,0x00
5.560681875000000,0,0x98,0x1A
5.560699916666667,0,0xFF,0x02
5.560718125000000,0,0xFF,0x00
5.560742916666666,0,0x87,0x12
5.560760916666666,0,0xFF,0x00
5.560779125000000,0,0xFF,0x80
5.560799708333334,0,0x07,0x12
5.560817708333333,0,0x00,0x12
5.560835791666666,0,0x3C,0x13
5.560964541666666,0,0x07,0x01
5.560982541666666,0,0x00,0x01
5.561000625000000,0,0x28,0x01
5.561021208333333,0,0x34,0x01
5.561039208333334,0,0x00,0x81
5.561057291666667,0,0x80,0x01
5.561077541666666,0,0xC3,0x01
5.561095541666667,0,0xFF,0x00
5.561113750000000,0,0xFF,0x20
5.561134625000000,0,0x07,0x01
5.561152666666667,0,0x00,0x01
5.561170708333333,0,0x80,0x01
5.562679166666666,0,0xB0,0x12
5.562697166666666,0,0xFF,0x12
5.562715375000000,0,0xFF,0x10
5.564666833333333,0,0xF0,0x02
5.564684833333334,0,0x7F,0x12
5.564703041666666,0,0xFF,0x10
5.566657666666667,0,0x98,0x10
5.566675708333333,0,0xFF,0x02
5.566693916666667,0,0xFF,0x10
5.568656458333333,0,0x98,0x12
5.568674500000000,0,0xFF,0x13
5.568692708333334,0,0xFF,0x10
5.570647458333333,0,0xB0,0x13
5.570665458333333,0,0x7F,0x10
5.570683666666667,0,0xFF,0x10
5.572646750000000,0,0xB0,0x12
5.572664791666667,0,0xFF,0x12
5.572682958333333,0,0xFF,0x10
5.574644541666666,0,0xF0,0x02
5.574662541666667,0,0x7F,0x12
5.574680750000000,0,0xFF,0x18
5.576636666666666,0,0xB0,0x12
5.576654666666666,0,0xFF,0x10
5.576672875000000,0,0xFF,0x10
5.578633291666667,0,0xB0,0x12
5.578651333333333,0,0xFF,0x12
5.578669500000000,0,0xFF,0x18
5.580620375000000,0,0xF0,0x02
5.580638375000000,0,0x7F,0x12
5.580656583333333,0,0xFF,0x10
5.582610500000000,0,0xB0,0x12
5.582628541666667,0,0xFF,0x12
5.582646750000000,0,0xFF,0x10
5.584599250000000,0,0xB0,0x12
5.584617291666667,0,0xFF,0x12
5.584635500000000,0,0xFF,0x10
5.586591833333333,0,0x98,0x1A
5.586609875000000,0,0xFF,0x02
5.586628083333333,0,0xFF,0x10
5.588582166666667,0,0xB0,0x12
5.588600208333333,0,0xFF,0x12
5.588618416666667,0,0xFF,0x10
5.590572625000000,0,0xF0,0x02
5.590590625000000,0,0x7F,0x12
5.590608833333333,0,0xFF,0x18
5.592562791666666,0,0xB0,0x12
5.592580791666666,0,0xFF,0x12
5.592599000000000,0,0xFF,0x10
5.592623791666667,0,0x87,0x12
5.592641833333333,0,0xFF,0x00
5.592660000000000,0,0xFF,0x28
5.592680583333333,0,0x03,0x13
5.592698583333333,0,0x80,0x10
5.592716666666667,0,0x0A,0x02
5.592756625000000,0,0x07,0x01
5.592774666666666,0,0x00,0x00
5.592792708333334,0,0x00,0x01
5.592813333333333,0,0x30,0x00
5.592831333333334,0,0x80,0x01
5.592849416666667,0,0xC0,0x01
5.592869625000000,0,0x07,0x81
5.592887666666667,0,0xFF,0x00
5.592905875000000,0,0xFF,0x0E
5.592926750000000,0,0x03,0x00
5.592944750000000,0,0x00,0x01
5.592962833333333,0,0xCA,0x01
5.594561750000000,0,0xF0,0x02
5.594579750000000,0,0x7F,0x1A
5.594597958333333,0,0xFF,0x14
5.596554041666667,0,0xF0,0x12
5.596572041666667,0,0x7F,0x1A
5.596590250000000,0,0xFF,0x16
5.598549791666667,0,0xB0,0x12
5.598567833333333,0,0xFF,0x12
5.598586000000000,0,0xFF,0x14
5.600546708333333,0,0xB0,0x12
5.600564750000000,0,0xFF,0x13
5.600582958333334,0,0xFF,0x14
5.602540750000000,0,0xB0,0x13
5.602558750000000,0,0x7F,0x10
5.602576958333334,0,0xFF,0x14
5.604532375000000,0,0x98,0x10
5.604550416666667,0,0xFF,0x12
5.604568625000000,0,0xFF,0x14
5.606523458333333,0,0xF0,0x13
5.606541458333333,0,0x7F,0x18
5.606559666666667,0,0xFF,0x14
5.608510416666666,0,0x98,0x1A
5.608528458333334,0,0xFF,0x02
5.608546666666666,0,0xFF,0x14
5.610505666666667,0,0xB0,0x12
5.610523666666666,0,0xFF,0x12
5.610541875000000,0,0xFF,0x14
5.612497916666666,0,0xF0,0x02
5.612515916666666,0,0x7F,0x12
5.612534125000000,0,0xFF,0x1C
5.614486416666667,0,0xF0,0x02
5.614504416666667,0,0x7F,0x1A
5.614522625000000,0,0xFF,0x16
5.616477208333333,0,0x98,0x1A
5.616495250000000,0,0xFF,0x02
5.616513458333333,0,0xFF,0x14
5.618470416666667,0,0xB0,0x12
5.618488458333333,0,0xFF,0x12
5.618506625000000,0,0xFF,0x14
5.620467041666667,0,0x98,0x18
5.620485083333334,0,0xFF,0x02
5.620503291666667,0,0xFF,0x14
5.622455416666667,0,0x98,0x12
5.622473458333333,0,0xFF,0x13
5.622491666666667,0,0xFF,0x14
5.624448125000000,0,0xB0,0x12
5.624466166666667,0,0xFF,0x12
5.624484333333333,0,0xFF,0x14
5.624509166666667,0,0x83,0x13
5.624527166666667,0,0xFF,0x00
5.624547583333333,0,0xFF,0x82
5.624568166666666,0,0x03,0x12
5.624586166666667,0,0x00,0x10
5.624604250000000,0,0x32,0x02
5.625541708333333,0,0x07,0x01
5.625559750000000,0,0x00,0x01
5.625577833333334,0,0x33,0x01
5.625598416666667,0,0x34,0x01
5.625616416666666,0,0x00,0x81
5.625634500000000,0,0x80,0x01
5.625654750000000,0,0xC3,0x01
5.625672750000000,0,0xFF,0x00
5.625690958333333,0,0xFF,0x38
5.625711833333333,0,0x07,0x01
5.625729875000000,0,0x00,0x00
5.625747916666667,0,0x32,0x01
5.627124625000000,0,0xF0,0x12
5.627142666666667,0,0xFF,0x12
5.627160833333333,0,0xFF,0x04
5.629121541666667,0,0xF0,0x02
5.629139541666667,0,0x7F,0x12
5.629157750000000,0,0xFF,0x06
5.631108416666667,0,0xB0,0x12
5.631126458333333,0,0xFF,0x12
5.631144625000000,0,0xFF,0x04
5.633097500000000,0,0xB0,0x12
5.633115500000000,0,0xFF,0x12
5.633133708333333,0,0xFF,0x04
5.635089208333333,0,0xF0,0x13
5.635107208333333,0,0x7F,0x18
5.635125416666667,0,0xFF,0x04
5.637078750000000,0,0xB0,0x12
5.637096750000000,0,0xFF,0x12
5.637114958333333,0,0xFF,0x04
5.639073291666667,0,0xB0,0x12
5.639091333333333,0,0xFF,0x12
5.639109500000000,0,0xFF,0x04
5.641069875000000,0,0xB0,0x12
5.641087916666667,0,0xFF,0x12
5.641106125000000,0,0xFF,0x04
5.643066375000000,0,0x98,0x18
5.643084416666666,0,0xFF,0x02
5.643102625000000,0,0xFF,0x00
5.645058041666666,0,0xB0,0x12
5.645076083333334,0,0xFF,0x12
5.645094291666667,0,0xFF,0x04
5.647057583333333,0,0xB0,0x12
5.647075625000000,0,0xFF,0x12
5.647093833333333,0,0xFF,0x04
5.649044166666667,0,0xF0,0x02
5.649062166666667,0,0x7F,0x12
5.649080375000000,0,0xFF,0x06
5.651031916666667,0,0xF0,0x13
5.651049916666667,0,0xFF,0x10
5.651068125000000,0,0xFF,0x04
5.653030875000000,0,0xB0,0x12
5.653048916666667,0,0xFF,0x12
5.653067083333333,0,0xFF,0x04
5.655026750000000,0,0x98,0x10
5.655044791666667,0,0xFF,0x02
5.655063000000000,0,0xFF,0x04
5.657025750000000,0,0xF0,0x13
5.657043750000000,0,0x7F,0x10
5.657061958333333,0,0xFF,0x04
5.657086750000000,0,0x87,0x1A
5.657104791666667,0,0xFF,0x00
5.657123000000000,0,0xFF,0xB3
5.657143541666667,0,0x03,0x02
5.657161541666667,0,0x80,0x12
5.657179625000000,0,0x14,0x12
5.657332916666666,0,0x07,0x01
5.657350958333334,0,0x00,0x00
5.657369000000000,0,0x1C,0x01
5.657389625000000,0,0x30,0x01
5.657407625000000,0,0x80,0x01
5.657425708333333,0,0xC0,0x00
5.657445916666667,0,0x07,0x81
5.657463958333333,0,0xFF,0x00
5.657482166666667,0,0xFF,0x14
5.657503041666667,0,0x07,0x01
5.657521041666667,0,0x00,0x01
5.657539125000000,0,0x80,0x00
5.659018166666667,0,0x18,0x1A
5.659036208333333,0,0xFF,0x12
5.659054416666667,0,0xFF,0x0C
5.661006208333333,0,0xF0,0x12
5.661024208333333,0,0x7F,0x18
5.661042416666667,0,0xFF,0x08
5.662996708333333,0,0xF0,0x02
5.663014708333334,0,0x7F,0x12
5.663032916666666,0,0xFF,0x00
5.664984833333333,0,0xB0,0x12
5.665002875000000,0,0xFF,0x12
5.665021041666667,0,0xFF,0x08
5.666983208333333,0,0xB0,0x12
5.667001208333334,0,0xFF,0x12
5.667019416666666,0,0xFF,0x08
5.668972541666666,0,0xB0,0x12
5.668990541666667,0,0xFF,0x12
5.669008750000000,0,0xFF,0x08
5.670969041666667,0,0xB0,0x12
5.670987083333333,0,0xFF,0x12
5.671005250000000,0,0xFF,0x00
5.672958291666666,0,0xF0,0x12
5.672976291666667,0,0x7F,0x12
5.672994500000000,0,0xFF,0x00
5.674948208333333,0,0xF0,0x02
5.674966208333333,0,0x7F,0x18
5.674984416666667,0,0xFF,0x08
5.676940041666667,0,0xB0,0x12
5.676958083333333,0,0xFF,0x12
5.676976250000000,0,0xFF,0x08
5.678931541666667,0,0x98,0x1A
5.678949583333333,0,0xFF,0x02
5.678967791666667,0,0xFF,0x08
5.680919333333334,0,0xF0,0x02
5.680937333333334,0,0x7F,0x1A
5.680955541666667,0,0xFF,0x08
5.682915458333333,0,0x98,0x10
5.682933500000000,0,0xFF,0x02
5.682951708333333,0,0xFF,0x08
5.684913291666667,0,0xB0,0x12
5.684931333333333,0,0xFF,0x12
5.684949541666667,0,0xFF,0x08
5.686904500000000,0,0xF0,0x12
5.686922500000000,0,0x7F,0x12
5.686940708333333,0,0xFF,0x00
5.688894041666667,0,0x98,0x10
5.688912083333333,0,0xFF,0x13
5.688930291666667,0,0xFF,0x08
5.688955083333333,0,0xC3,0x13
5.688973083333333,0,0xFF,0x00
5.688991291666667,0,0xFF,0x94
5.689011833333334,0,0x87,0x1A
5.689029875000000,0,0x00,0x12
5.689047958333333,0,0x3C,0x12
5.689123666666666,0,0x07,0x01
5.689141708333334,0,0x00,0x01
5.689159750000000,0,0x1E,0x01
5.689180333333334,0,0x34,0x81
5.689198375000000,0,0x80,0x01
5.689216458333333,0,0x80,0x01
5.689236666666667,0,0x87,0x01
5.689254708333333,0,0xFF,0x00
5.689272916666667,0,0xFF,0x3C
5.689293750000000,0,0x87,0x01
5.689311791666666,0,0x00,0x01
5.689329875000000,0,0xBC,0x01
5.690892875000000,0,0xF0,0x12
5.690910916666667,0,0xFF,0x12
5.690929083333334,0,0xFF,0x18
5.692883916666666,0,0xB0,0x13
5.692901916666667,0,0x7F,0x10
5.692920125000000,0,0xFF,0x18
5.694882000000000,0,0xB0,0x13
5.694900000000000,0,0xFF,0x12
5.694918208333333,0,0xFF,0x18
5.696873875000000,0,0xF0,0x02
5.696891875000000,0,0x7F,0x18
5.696910083333333,0,0xFF,0x18
5.698865250000000,0,0xB0,0x12
5.698883250000000,0,0xFF,0x12
5.698901458333333,0,0xFF,0x0C
5.700856833333333,0,0xB0,0x12
5.700874833333334,0,0xFF,0x12
5.700893041666666,0,0xFF,0x08
5.702850541666667,0,0xB0,0x12
5.702868583333333,0,0xFF,0x13
5.702886791666667,0,0xFF,0x18
5.704839708333333,0,0xB0,0x12
5.704857708333333,0,0xFF,0x12
5.704875916666666,0,0xFF,0x18
5.706832791666667,0,0xF0,0x02
5.706850791666667,0,0x7F,0x1A
5.706869000000000,0,0xFF,0x18
5.708825875000000,0,0xB0,0x13
5.708843875000000,0,0x7F,0x10
5.708862083333333,0,0xFF,0x18
5.710823083333334,0,0xF0,0x12
5.710841083333333,0,0x7F,0x12
5.710859291666667,0,0xFF,0x18
5.712813041666666,0,0xB0,0x12
5.712831041666667,0,0xFF,0x12
5.712849250000000,0,0xFF,0x18
5.714808875000000,0,0xF0,0x12
5.714826875000000,0,0x7F,0x1A
5.714845083333334,0,0xFF,0x18
5.716806875000000,0,0xF0,0x12
5.716824875000000,0,0x7F,0x12
5.716843083333333,0,0xFF,0x18
5.718805625000000,0,0xB0,0x12
5.718823625000000,0,0xFF,0x12
5.718841833333333,0,0xFF,0x18
5.720795166666667,0,0x98,0x1A
5.720813208333333,0,0xFF,0x02
5.720831416666667,0,0xFF,0x18
5.720856208333333,0,0xC7,0x02
5.720874208333333,0,0xFF,0x00
5.720892416666667,0,0xFF,0xBE
5.720915000000000,0,0x87,0x10
5.720933041666667,0,0x00,0x13
5.720951083333333,0,0x1E,0x1A
5.721906833333334,0,0x03,0x00
5.721924833333333,0,0x00,0x01
5.721942916666666,0,0x0E,0x01
5.721963500000000,0,0x1E,0x01
5.721981541666667,0,0x80,0x01
5.721999583333333,0,0x00,0x01
5.722019833333333,0,0xC3,0x01
5.722037833333333,0,0xFF,0x00
5.722056041666667,0,0xFF,0x1E
5.722076916666667,0,0x07,0x01
5.722094916666666,0,0x80,0x01
5.722113000000000,0,0xDE,0x01
5.723486416666667,0,0xB0,0x12
5.723504416666667,0,0x7F,0x12
5.723522625000000,0,0xFF,0x1E
5.725483833333334,0,0xF0,0x02
5.725501833333333,0,0x7F,0x1A
5.725520041666667,0,0xFF,0x1E
5.727478416666667,0,0xB0,0x12
5.727496458333333,0,0xFF,0x12
5.727514666666667,0,0xFF,0x0C
5.729477416666667,0,0xB0,0x12
5.729495458333333,0,0xFF,0x12
5.729513666666667,0,0xFF,0x0C
5.731475791666667,0,0xB0,0x12
5.731493791666667,0,0xFF,0x12
5.731512000000000,0,0xFF,0x1C
5.733464791666667,0,0x90,0x12
5.733482833333333,0,0xFF,0x12
5.733501041666667,0,0xFF,0x1C
5.735455250000000,0,0x98,0x10
5.735473291666667,0,0xFF,0x12
5.735491500000000,0,0xFF,0x1C
5.737448791666667,0,0x98,0x10
5.737466833333333,0,0xFF,0x12
5.737485041666667,0,0xFF,0x1C
5.739438041666666,0,0x98,0x18
5.739456083333334,0,0xFF,0x02
5.739474291666666,0,0xFF,0x1C
5.741429250000000,0,0xB0,0x12
5.741447250000000,0,0xFF,0x12
5.741465458333334,0,0xFF,0x1C
5.743422166666667,0,0xB0,0x12
5.743440208333333,0,0xFF,0x12
5.743458416666667,0,0xFF,0x1C
5.745421041666667,0,0xF0,0x12
5.745439041666667,0,0x7F,0x12
5.745457250000000,0,0xFF,0x1C
5.747416083333333,0,0xB0,0x12
5.747434083333333,0,0xFF,0x12
5.747452291666667,0,0xFF,0x1C
5.749408208333334,0,0xB0,0x12
5.749426208333333,0,0x7F,0x12
5.749444416666667,0,0xFF,0x1C
5.751399666666667,0,0x98,0x1A
5.751417708333333,0,0xFF,0x12
5.751435916666667,0,0xFF,0x0C
5.753386625000000,0,0x98,0x12
5.753404666666667,0,0xFF,0x13
5.753422875000000,0,0xFF,0x1C
5.753447666666666,0,0xC3,0x13
5.753465666666667,0,0xFF,0x00
5.753483875000000,0,0xFF,0x9E
5.753504416666667,0,0x87,0x1A
5.753522458333333,0,0x00,0x02
5.753540541666666,0,0x46,0x12
5.753697750000000,0,0x07,0x01
5.753715750000000,0,0x80,0x81
5.753733833333333,0,0x46,0x01
5.753754416666666,0,0x34,0x81
5.753772458333334,0,0x80,0x01
5.753790541666667,0,0x80,0x01
5.753810750000000,0,0x07,0x01
5.753828791666667,0,0xFF,0x00
5.753847000000000,0,0xFF,0x47
5.753867875000000,0,0x07,0x01
5.753885875000000,0,0x00,0x01
5.753903958333333,0,0xC3,0x00
5.755384250000000,0,0x10,0x12
5.755402291666667,0,0xFF,0x12
5.755420500000000,0,0xFF,0x0C
5.757374166666667,0,0x90,0x12
5.757392208333333,0,0xFF,0x12
5.757410375000000,0,0xFF,0x0C
5.759363166666667,0,0xB0,0x12
5.759381208333333,0,0xFF,0x12
5.759399416666667,0,0xFF,0x0C
5.761351708333334,0,0xB0,0x12
5.761369708333334,0,0xFF,0x12
5.761387916666667,0,0xFF,0x0C
5.763347541666667,0,0xF0,0x02
5.763365541666666,0,0x7F,0x12
5.763383750000000,0,0xFF,0x0E
5.765344791666666,0,0xB0,0x12
5.765362833333334,0,0xFF,0x12
5.765381041666667,0,0xFF,0x0C
5.767338833333334,0,0x98,0x12
5.767356875000000,0,0xFF,0x13
5.767375083333333,0,0xFF,0x0C
5.769326291666666,0,0xB0,0x12
5.769344333333334,0,0xFF,0x12
5.769362500000000,0,0xFF,0x06
5.771316791666667,0,0xF0,0x12
5.771334791666667,0,0x7F,0x12
5.771353000000000,0,0xFF,0x0E
5.773304250000000,0,0xB0,0x12
5.773322291666667,0,0xFF,0x12
5.773340458333333,0,0xFF,0x0C
5.775293750000000,0,0xF0,0x02
5.775311750000000,0,0x7F,0x1A
5.775329958333334,0,0xFF,0x0C
5.777291291666667,0,0xB0,0x12
5.777309333333333,0,0xFF,0x12
5.777327541666667,0,0xFF,0x0C
5.779288791666667,0,0xB0,0x12
5.779306833333333,0,0xFF,0x12
5.779325041666667,0,0xFF,0x0C
5.781277666666667,0,0xF0,0x02
5.781295666666667,0,0x7F,0x12
5.781313875000000,0,0xFF,0x0E
5.783272000000000,0,0xB0,0x12
5.783290041666667,0,0xFF,0x12
5.783308250000000,0,0xFF,0x0C
5.785270666666666,0,0xB0,0x12
5.785288708333334,0,0xFF,0x12
5.785306875000000,0,0xFF,0x04
5.785331666666667,0,0x87,0x12
5.785349708333333,0,0xFF,0x00
5.785367916666667,0,0xFF,0xC2
5.785388458333333,0,0x07,0x12
5.785406458333333,0,0x80,0x12
5.785424541666667,0,0x00,0x12
5.785486375000000,0,0x03,0x01
5.785504375000000,0,0x00,0x01
5.785522458333333,0,0x00,0x00
5.785543041666667,0,0x36,0x01
5.785561083333334,0,0x80,0x01
5.785579125000000,0,0x00,0x01
5.785599375000000,0,0xC3,0x01
5.785617375000000,0,0xFF,0x00
5.785635583333334,0,0xFF,0x00
5.785656458333333,0,0x07,0x01
5.785674458333333,0,0x80,0x01
5.785692541666666,0,0x80,0x01
5.787266791666666,0,0xF0,0x02
5.787284791666667,0,0x7F,0x12
5.787303000000000,0,0xFF,0x00
5.789259791666667,0,0x98,0x1A
5.789277833333333,0,0xFF,0x02
5.789296041666667,0,0xFF,0x00
5.791254500000000,0,0xB0,0x12
5.791272500000000,0,0xFF,0x12
5.791290708333333,0,0xFF,0x00
5.793245000000000,0,0x98,0x10
5.793263041666667,0,0xFF,0x13
5.793281250000000,0,0xFF,0x00
5.795237875000000,0,0xF0,0x02
5.795255875000000,0,0x7F,0x12
5.795274083333333,0,0xFF,0x00
5.797231916666667,0,0xB0,0x12
5.797249958333333,0,0xFF,0x12
5.797268166666667,0,0xFF,0x00
5.799229291666666,0,0xF0,0x02
5.799247291666667,0,0x7F,0x12
5.799265500000000,0,0xFF,0x00
5.801222416666667,0,0xF0,0x12
5.801240416666666,0,0x7F,0x12
5.801258625000000,0,0xFF,0x00
5.803212291666667,0,0xB0,0x12
5.803230291666667,0,0xFF,0x12
5.803248500000000,0,0xFF,0x00
5.805210208333333,0,0xF0,0x02
5.805228208333333,0,0x7F,0x12
5.805246416666667,0,0xFF,0x00
5.807200583333334,0,0xB0,0x12
5.807218583333333,0,0x7F,0x12
5.807236791666667,0,0xFF,0x00
5.809187583333333,0,0xB0,0x12
5.809205583333333,0,0xFF,0x12
5.809223791666667,0,0xFF,0x00
5.811178250000000,0,0xB0,0x12
5.811196291666667,0,0xFF,0x12
5.811214500000000,0,0xFF,0x00
5.813170083333334,0,0xB0,0x12
5.813188125000000,0,0xFF,0x12
5.813206291666667,0,0xFF,0x00
5.815157750000000,0,0xB0,0x12
5.815175791666666,0,0xFF,0x12
5.815193958333333,0,0xFF,0x00
5.817155750000000,0,0xB0,0x12
5.817173750000000,0,0xFF,0x12
5.817191958333333,0,0xFF,0x00
5.817216750000000,0,0x87,0x12
5.817234791666666,0,0xFF,0x00
5.817252958333333,0,0xFF,0x00
5.817275666666666,0,0x03,0x13
5.817293666666667,0,0x00,0x10
5.817311750000000,0,0x3C,0x02
5.818269250000000,0,0x07,0x01
5.818287291666667,0,0x00,0x00
5.818305333333333,0,0x08,0x01
5.818325958333333,0,0x30,0x01
5.818343958333333,0,0x00,0x01
5.818362041666667,0,0x80,0x01
5.818382291666667,0,0xC3,0x00
5.818400291666666,0,0xFF,0x00
5.818418500000000,0,0xFF,0x28
5.818439375000000,0,0x07,0x01
5.818457416666667,0,0x00,0x01
5.818475458333333,0,0x00,0x01
5.819869541666667,0,0xF0,0x12
5.819887541666667,0,0x7F,0x12
5.819905750000000,0,0xFF,0x18
5.821859375000000,0,0xB0,0x12
5.821877416666666,0,0xFF,0x12
5.821895625000000,0,0xFF,0x10
5.823853375000000,0,0xB0,0x12
5.823871375000000,0,0xFF,0x12
5.823889583333333,0,0xFF,0x00
5.825840375000000,0,0x90,0x12
5.825858416666667,0,0xFF,0x12
5.825876583333334,0,0xFF,0x10
5.827826916666667,0,0x98,0x18
5.827844958333333,0,0xFF,0x02
5.827863166666667,0,0xFF,0x10
5.829823375000000,0,0xB0,0x12
5.829841375000000,0,0xFF,0x12
5.829859583333334,0,0xFF,0x10
5.831816375000000,0,0xB0,0x12
5.831834375000000,0,0x7F,0x12
5.831852583333333,0,0xFF,0x18
5.833804625000000,0,0xB0,0x12
5.833822625000000,0,0xFF,0x12
5.833840833333333,0,0xFF,0x10
5.835791208333333,0,0xB0,0x12
5.835809208333333,0,0xFF,0x12
5.835827416666667,0,0xFF,0x00
5.837782666666667,0,0xB0,0x12
5.837800666666666,0,0x7F,0x12
5.837818875000000,0,0xFF,0x18
5.839769416666667,0,0x98,0x18
5.839787458333333,0,0xFF,0x02
5.839805666666667,0,0xFF,0x10
5.841756125000000,0,0xF0,0x02
5.841774125000000,0,0x7F,0x18
5.841792333333333,0,0xFF,0x10
5.843744458333333,0,0xB0,0x12
5.843762500000000,0,0xFF,0x12
5.843780666666667,0,0xFF,0x10
5.845731125000000,0,0x90,0x12
5.845749166666667,0,0xFF,0x12
5.845767333333334,0,0xFF,0x10
5.847729416666667,0,0x90,0x12
5.847747458333333,0,0xFF,0x13
5.847765666666667,0,0xFF,0x10
5.849717208333334,0,0xB0,0x12
5.849735208333334,0,0xFF,0x12
5.849753416666666,0,0xFF,0x10
5.849778208333333,0,0x87,0x12
5.849796250000000,0,0xFF,0x00
5.849814458333333,0,0xFF,0xA8
5.849835000000000,0,0x03,0x02
5.849853000000000,0,0x80,0x1A
5.849871083333333,0,0x0A,0x12
5.850058375000000,0,0x07,0x01
5.850076416666667,0,0x00,0x01
5.850094458333333,0,0x0A,0x81
5.850115083333334,0,0x30,0x01
5.850133083333334,0,0x00,0x01
5.850151166666667,0,0x80,0x01
5.850171416666667,0,0xC3,0x01
5.850189416666667,0,0xFF,0x00
5.850207625000000,0,0xFF,0x00
5.850228500000000,0,0x07,0x01
5.850246541666666,0,0x00,0x00
5.850264583333334,0,0x00,0x01
5.851715333333333,0,0xB0,0x12
5.851733375000000,0,0xFF,0x13
5.851751583333333,0,0xFF,0x14
5.853704958333333,0,0xF0,0x02
5.853722958333333,0,0x7F,0x12
5.853741166666667,0,0xFF,0x16
5.855691791666667,0,0xB0,0x12
5.855709791666666,0,0xFF,0x10
5.855728000000000,0,0xFF,0x14
5.857690416666666,0,0xB0,0x12
5.857708416666667,0,0xFF,0x12
5.857726625000000,0,0xFF,0x14
5.859687083333333,0,0x90,0x12
5.859705125000000,0,0xFF,0x13
5.859723333333333,0,0xFF,0x14
5.861680125000000,0,0xB0,0x13
5.861698125000000,0,0x7F,0x10
5.861716333333334,0,0xFF,0x14
5.863671916666667,0,0xB0,0x12
5.863689916666667,0,0xFF,0x12
5.863708125000000,0,0xFF,0x14
5.865664500000000,0,0xB0,0x12
5.865682500000000,0,0xFF,0x12
5.865700708333334,0,0xFF,0x00
5.867655083333333,0,0xB0,0x12
5.867673125000000,0,0xFF,0x12
5.867691333333333,0,0xFF,0x00
5.869645958333333,0,0x98,0x18
5.869664000000000,0,0xFF,0x02
5.869682208333334,0,0xFF,0x14
5.871639333333333,0,0x98,0x1A
5.871657375000000,0,0xFF,0x02
5.871675583333333,0,0xFF,0x14
5.873631000000000,0,0xB0,0x12
5.873649000000000,0,0xFF,0x12
5.873667208333333,0,0xFF,0x14
5.875622416666666,0,0x98,0x10
5.875640458333334,0,0xFF,0x13
5.875658666666666,0,0xFF,0x14
5.877613750000000,0,0xB0,0x12
5.877631791666666,0,0xFF,0x12
5.877650000000000,0,0xFF,0x00
5.879608458333333,0,0xB0,0x12
5.879626458333333,0,0xFF,0x12
5.879644666666667,0,0xFF,0x14
5.881598375000000,0,0x98,0x1A
5.881616416666667,0,0xFF,0x02
5.881634625000000,0,0xFF,0x14
5.881659416666666,0,0xC3,0x02
5.881677416666666,0,0xFF,0x00
5.881695625000000,0,0xFF,0x8A
5.881716166666667,0,0x87,0x12
5.881734208333333,0,0x00,0x12
5.881752291666666,0,0x33,0x12
5.881848541666667,0,0x07,0x01
5.881866583333333,0,0x00,0x00
5.881884625000000,0,0x18,0x01
5.881905250000000,0,0x34,0x01
5.881923250000000,0,0x80,0x01
5.881941333333334,0,0xC0,0x00
5.881961541666667,0,0x07,0x81
5.881979583333333,0,0xFF,0x00
5.881997791666667,0,0xFF,0x32
5.882018666666666,0,0x03,0x00
5.882036666666667,0,0x00,0x01
5.882054750000000,0,0xF2,0x01
5.883597500000000,0,0x90,0x12
5.883615541666667,0,0xFF,0x12
5.883633708333333,0,0xFF,0x04
5.885585750000000,0,0x98,0x1A
5.885603791666667,0,0xFF,0x12
5.885622000000000,0,0xFF,0x00
5.887578666666666,0,0xB0,0x12
5.887596666666667,0,0xFF,0x12
5.887614875000000,0,0xFF,0x00
5.889577208333334,0,0xB0,0x12
5.889595208333334,0,0xFF,0x12
5.889613416666666,0,0xFF,0x00
5.891573750000000,0,0xF0,0x12
5.891591750000000,0,0xFF,0x12
5.891609958333333,0,0xFF,0x00
5.893563083333333,0,0xF0,0x02
5.893581083333333,0,0x7F,0x18
5.893599291666667,0,0xFF,0x04
5.895549291666667,0,0xF0,0x02
5.895567291666667,0,0x7F,0x1A
5.895585500000000,0,0xFF,0x04
5.897540375000000,0,0xB0,0x12
5.897558375000000,0,0x7F,0x12
5.897576583333334,0,0xFF,0x04
5.899528208333333,0,0x98,0x12
5.899546250000000,0,0xFF,0x13
5.899564458333334,0,0xFF,0x04
5.901517416666667,0,0xF0,0x02
5.901535416666666,0,0x7F,0x12
5.901553625000000,0,0xFF,0x04
5.903506875000000,0,0xB0,0x12
5.903524875000000,0,0xFF,0x12
5.903543083333333,0,0xFF,0x04
5.905505875000000,0,0xF0,0x02
5.905523875000000,0,0x7F,0x18
5.905542083333334,0,0xFF,0x04
5.907500458333334,0,0xF0,0x13
5.907518458333334,0,0x7F,0x18
5.907536666666667,0,0xFF,0x04
5.909492666666667,0,0xB0,0x12
5.909510666666667,0,0xFF,0x12
5.909528875000000,0,0xFF,0x04
5.911483458333334,0,0xB0,0x12
5.911501500000000,0,0xFF,0x12
5.911519708333334,0,0xFF,0x00
5.913474541666667,0,0xB0,0x12
5.913492541666667,0,0xFF,0x12
5.913510750000000,0,0xFF,0x04
5.913535541666667,0,0x87,0x12
5.913553583333333,0,0xFF,0x00
5.913571750000000,0,0xFF,0x32
5.913592333333333,0,0x03,0x12
5.913610333333334,0,0x00,0x12
5.913628416666667,0,0x00,0x13
5.914630541666667,0,0x03,0x01
5.914648541666667,0,0x80,0x01
5.914666625000000,0,0x04,0x01
5.914687208333334,0,0x1E,0x01
5.914705250000000,0,0xC0,0x01
5.914723291666666,0,0x00,0x81
5.914743541666667,0,0x87,0x01
5.914761583333333,0,0xFF,0x00
5.914779750000000,0,0xFF,0x14
5.914800625000000,0,0x87,0x01
5.914818666666666,0,0x00,0x01
5.914836750000000,0,0x94,0x01
5.916212625000000,0,0x30,0x92
5.916230666666666,0,0xFF,0x12
5.916248875000000,0,0xFF,0x08
5.918199291666666,0,0xB0,0x12
5.918217333333334,0,0xFF,0x12
5.918235500000000,0,0xFF,0x00
5.920188541666667,0,0xB0,0x12
5.920206583333333,0,0xFF,0x02
5.920224791666667,0,0xFF,0x08
5.922175125000000,0,0xB0,0x12
5.922193166666666,0,0xFF,0x12
5.922211333333333,0,0xFF,0x08
5.924172583333333,0,0xF0,0x02
5.924190583333333,0,0x7F,0x18
5.924208791666667,0,0xFF,0x08
5.926170666666667,0,0x98,0x1A
5.926188708333333,0,0xFF,0x02
5.926206916666667,0,0xFF,0x0C
5.928167916666666,0,0x98,0x1A
5.928185958333334,0,0xFF,0x02
5.928204166666666,0,0xFF,0x0C
5.930157791666667,0,0xB0,0x13
5.930175791666667,0,0x7F,0x10
5.930194000000000,0,0xFF,0x08
5.932151333333334,0,0xB0,0x12
5.932169375000000,0,0xFF,0x13
5.932187583333334,0,0xFF,0x08
5.934144916666667,0,0xB0,0x12
5.934162958333333,0,0xFF,0x12
5.934181125000000,0,0xFF,0x08
5.936132250000000,0,0xB0,0x12
5.936150250000000,0,0x7F,0x12
5.936168458333333,0,0xFF,0x08
5.938125208333333,0,0xB0,0x13
5.938143208333333,0,0x7F,0x10
5.938161416666667,0,0xFF,0x08
5.940115000000000,0,0xF0,0x13
5.940133000000000,0,0xFF,0x10
5.940151208333333,0,0xFF,0x08
5.942105625000000,0,0x98,0x1A
5.942123666666666,0,0xFF,0x02
5.942141875000000,0,0xFF,0x08
5.944098416666667,0,0xF0,0x02
5.944116416666667,0,0x7F,0x12
5.944134625000000,0,0xFF,0x00
5.946086083333333,0,0x98,0x1A
5.946104125000000,0,0xFF,0x12
5.946122333333333,0,0xFF,0x0C
5.946147125000000,0,0xC7,0x12
5.946165166666667,0,0xFF,0x00
5.946183333333333,0,0xFF,0x9C
5.946203916666667,0,0x03,0x12
5.946221916666667,0,0x00,0x10
5.946240000000000,0,0x3C,0x02
5.946421208333334,0,0x07,0x01
5.946439250000000,0,0x00,0x00
5.946457291666666,0,0x1C,0x01
5.946477916666667,0,0x30,0x01
5.946495916666667,0,0x00,0x01
5.946514000000000,0,0x80,0x01
5.946534250000000,0,0xC7,0x01
5.946552250000000,0,0xFF,0x80
5.946570458333333,0,0xFF,0x3C
5.946591333333333,0,0x87,0x01
5.946609375000000,0,0x00,0x01
5.946627416666667,0,0x3C,0x81
5.948080291666667,0,0xB0,0x12
5.948098333333333,0,0xFF,0x13
5.948116541666667,0,0xFF,0x18
5.950079333333333,0,0x98,0x12
5.950097375000000,0,0xFF,0x12
5.950115583333333,0,0xFF,0x18
5.952069833333334,0,0x98,0x10
5.952087875000000,0,0xFF,0x13
5.952106083333334,0,0xFF,0x18
5.954057458333334,0,0x98,0x1A
5.954075500000000,0,0xFF,0x02
5.954093708333334,0,0xFF,0x18
5.956044875000000,0,0x90,0x12
5.956062916666666,0,0xFF,0x12
5.956081083333333,0,0xFF,0x18
5.958041791666667,0,0xB0,0x13
5.958059791666667,0,0xFF,0x10
5.958078000000000,0,0xFF,0x18
5.960032666666667,0,0xB0,0x12
5.960050666666667,0,0xFF,0x12
5.960068875000000,0,0xFF,0x18
5.962020666666667,0,0xF0,0x12
5.962038666666666,0,0x7F,0x1A
5.962056875000000,0,0xFF,0x18
5.964015958333333,0,0xB0,0x12
5.964034000000000,0,0xFF,0x12
5.964052166666667,0,0xFF,0x18
5.966014291666666,0,0xF0,0x13
5.966032291666667,0,0x7F,0x10
5.966050500000000,0,0xFF,0x18
5.968005333333333,0,0xB0,0x12
5.968023375000000,0,0xFF,0x12
5.968041541666667,0,0xFF,0x18
5.970002708333333,0,0xB0,0x12
5.970020750000000,0,0xFF,0x12
5.970038958333333,0,0xFF,0x0C
5.971991583333334,0,0x98,0x10
5.972009625000000,0,0xFF,0x13
5.972027833333334,0,0xFF,0x18
5.973979291666667,0,0xF0,0x12
5.973997291666667,0,0x7F,0x12
5.974015500000000,0,0xFF,0x18
5.975968708333333,0,0xB0,0x12
5.975986750000000,0,0xFF,0x12
5.976004958333333,0,0xFF,0x18
5.977962208333333,0,0x98,0x1A
5.977980250000000,0,0xFF,0x02
5.977998458333333,0,0xFF,0x18
5.978023250000000,0,0xC3,0x02
5.978041250000000,0,0xFF,0x00
5.978059458333333,0,0xFF,0xBE
5.978080041666667,0,0x07,0x12
5.978098041666667,0,0x00,0x12
5.978116125000000,0,0x0F,0x13
5.978211708333333,0,0x07,0x01
5.978229750000000,0,0x00,0x01
5.978247791666667,0,0x1E,0x01
5.978268375000000,0,0x34,0x81
5.978286416666666,0,0x80,0x01
5.978304500000000,0,0x80,0x01
5.978324708333333,0,0x07,0x01
5.978342750000000,0,0xFF,0x00
5.978360958333333,0,0xFF,0x1F
5.978381833333334,0,0x07,0x01
5.978399833333333,0,0x00,0x01
5.978417916666666,0,0xCF,0x00
5.979959250000000,0,0x18,0x1A
5.979977291666667,0,0xFF,0x12
5.979995500000000,0,0xFF,0x1C
5.981950208333333,0,0xB0,0x12
5.981968250000000,0,0xFF,0x12
5.981986458333333,0,0xFF,0x1C
5.983940041666667,0,0xB0,0x12
5.983958083333333,0,0xFF,0x12
5.983976250000000,0,0xFF,0x1C
5.985931291666667,0,0xB0,0x13
5.985949291666667,0,0xFF,0x10
5.985967500000000,0,0xFF,0x1C
5.987929958333333,0,0xB0,0x12
5.987948000000000,0,0xFF,0x12
5.987966208333333,0,0xFF,0x1C
5.989924000000000,0,0xB0,0x12
5.989942041666667,0,0xFF,0x12
5.989960250000000,0,0xFF,0x0C
5.991913833333333,0,0x90,0x12
5.991931875000000,0,0xFF,0x12
5.991950083333333,0,0xFF,0x1C
5.993908708333334,0,0xB0,0x12
5.993926750000000,0,0xFF,0x12
5.993944916666667,0,0xFF,0x1C
5.995905791666667,0,0xF0,0x02
5.995923791666667,0,0x7F,0x1A
5.995942000000000,0,0xFF,0x1E
5.997897708333333,0,0xB0,0x12
5.997915750000000,0,0xFF,0x12
5.997933916666667,0,0xFF,0x1C
5.999895291666666,0,0xB0,0x12
5.999913333333334,0,0xFF,0x12
5.999931500000000,0,0xFF,0x1C
6.001883916666666,0,0xB0,0x12
6.001901916666666,0,0xFF,0x12
6.001920125000000,0,0xFF,0x1C
6.003882458333333,0,0xF0,0x02
6.003900458333334,0,0x7F,0x1A
6.003918666666666,0,0xFF,0x1C
6.005873333333334,0,0x98,0x18
6.005891375000000,0,0xFF,0x02
6.005909583333334,0,0xFF,0x1C
6.007862208333333,0,0xB0,0x12
6.007880208333333,0,0x7F,0x12
6.007898416666666,0,0xFF,0x1E
6.009861166666667,0,0xB0,0x12
6.009879208333333,0,0xFF,0x12
6.009897416666667,0,0xFF,0x0C
6.009922208333333,0,0x87,0x12
6.009940250000000,0,0xFF,0x00
6.009958416666667,0,0xFF,0x1E
6.009979000000000,0,0x03,0x02
6.009997000000000,0,0x80,0x12
6.010014916666667,0,0x43,0x12
6.010995500000000,0,0x07,0x01
6.011013541666666,0,0x00,0x01
6.011031625000000,0,0x02,0x01
6.011052208333333,0,0x1E,0x01
6.011070250000000,0,0xC0,0x01
6.011088291666667,0,0x00,0x81
6.011108541666666,0,0x87,0x01
6.011126583333334,0,0xFF,0x00
6.011144791666666,0,0xFF,0x47
6.011165666666667,0,0x07,0x01
6.011183666666667,0,0x00,0x01
6.011201750000000,0,0xC2,0x01
6.012607500000000,0,0xF0,0x12
6.012625500000000,0,0x7F,0x12
6.012643708333333,0,0xFF,0x04
6.014595791666666,0,0xF0,0x02
6.014613791666667,0,0x7F,0x1A
6.014632000000000,0,0xFF,0x0C
6.016592375000000,0,0xB0,0x12
6.016610416666667,0,0xFF,0x12
6.016628583333334,0,0xFF,0x0C
6.018582375000000,0,0xB0,0x12
6.018600416666667,0,0xFF,0x12
6.018618625000000,0,0xFF,0x0C
6.020572375000000,0,0xB0,0x12
6.020590375000000,0,0x7F,0x12
6.020608583333333,0,0xFF,0x04
6.022563125000000,0,0xB0,0x12
6.022581166666667,0,0xFF,0x12
6.022599333333333,0,0xFF,0x0C
6.024554166666666,0,0xF0,0x02
6.024572166666666,0,0x7F,0x12
6.024590375000000,0,0xFF,0x06
6.026545250000000,0,0xB0,0x12
6.026563250000000,0,0xFF,0x12
6.026581458333333,0,0xFF,0x0C
6.028536375000000,0,0xB0,0x12
6.028554416666666,0,0xFF,0x13
6.028572625000000,0,0xFF,0x0C
6.030524750000000,0,0xB0,0x13
6.030542750000000,0,0xFF,0x10
6.030560958333333,0,0xFF,0x0C
6.032515958333334,0,0xF0,0x02
6.032533958333334,0,0x7F,0x1A
6.032552166666667,0,0xFF,0x0E
6.034507083333334,0,0xB0,0x12
6.034525125000000,0,0xFF,0x12
6.034543291666667,0,0xFF,0x0C
6.036503083333334,0,0x98,0x18
6.036521125000000,0,0xFF,0x02
6.036539333333334,0,0xFF,0x0C
6.038490041666667,0,0x98,0x12
6.038508083333333,0,0xFF,0x13
6.038526291666667,0,0xFF,0x0C
6.040485041666667,0,0x98,0x10
6.040503083333333,0,0xFF,0x02
6.040521291666667,0,0xFF,0x0C
6.042472166666666,0,0xB0,0x12
6.042490166666667,0,0xFF,0x12
6.042508375000000,0,0xFF,0x0C
6.042533166666667,0,0x87,0x12
6.042551208333333,0,0xFF,0x00
6.042569375000000,0,0xFF,0x66
6.042589958333333,0,0x03,0x12
6.042607958333333,0,0x00,0x12
6.042626041666667,0,0x00,0x12
6.042785791666667,0,0x07,0x01
6.042803833333333,0,0x00,0x01
6.042821875000000,0,0x00,0x01
6.042842500000000,0,0x34,0x01
6.042860500000000,0,0x80,0x01
6.042878583333334,0,0x80,0x00
6.042898791666667,0,0x07,0x01
6.042916833333333,0,0xFF,0x00
6.042935041666667,0,0xFF,0x00
6.042955916666667,0,0x03,0x01
6.042973916666667,0,0x80,0x01
6.042992000000000,0,0xC0,0x01
6.044460625000000,0,0xF0,0x13
6.044478625000000,0,0x7F,0x18
6.044496833333334,0,0xFF,0x00
6.046450958333334,0,0xB0,0x12
6.046468958333334,0,0xFF,0x12
6.046487166666667,0,0xFF,0x00
6.048439833333333,0,0xB0,0x12
6.048457833333333,0,0xFF,0x12
6.048476041666667,0,0xFF,0x00
6.050430750000000,0,0xB0,0x12
6.050448750000000,0,0xFF,0x12
6.050466958333334,0,0xFF,0x00
6.052427500000000,0,0xB0,0x12
6.052445541666667,0,0xFF,0x12
6.052463750000000,0,0xFF,0x00
6.054419750000000,0,0xB0,0x12
6.054437791666667,0,0xFF,0x12
6.054455958333333,0,0xFF,0x00
6.056408458333333,0,0xB0,0x12
6.056426458333333,0,0xFF,0x12
6.056444666666667,0,0xFF,0x00
6.058401458333333,0,0xB0,0x12
6.058419500000000,0,0xFF,0x12
6.058437708333333,0,0xFF,0x00
6.060396125000000,0,0xF0,0x02
6.060414125000000,0,0x7F,0x12
6.060432333333333,0,0xFF,0x00
6.062388458333333,0,0x98,0x10
6.062406500000000,0,0xFF,0x02
6.062424708333333,0,0xFF,0x00
6.064380541666667,0,0xB0,0x13
6.064398541666667,0,0xFF,0x10
6.064416750000000,0,0xFF,0x00
6.066378833333333,0,0xB0,0x12
6.066396875000000,0,0xFF,0x12
6.066415041666667,0,0xFF,0x00
6.068370708333333,0,0x98,0x10
6.068388750000000,0,0xFF,0x12
6.068406958333333,0,0xFF,0x00
6.070369125000000,0,0x90,0x12
6.070387166666666,0,0xFF,0x12
6.070405333333333,0,0xFF,0x00
6.072360500000000,0,0xB0,0x12
6.072378541666667,0,0xFF,0x12
6.072396708333334,0,0xFF,0x00
6.074349041666666,0,0x98,0x18
6.074367083333334,0,0xFF,0x02
6.074385291666666,0,0xFF,0x00
6.074410083333333,0,0xC3,0x13
6.074428083333333,0,0xFF,0x00
6.074446291666667,0,0xFF,0x80
6.074466833333333,0,0x87,0x1A
6.074484875000000,0,0x00,0x02
6.074502916666667,0,0x28,0x12
6.074575333333334,0,0x03,0x00
6.074593333333334,0,0x00,0x01
6.074611416666666,0,0x38,0x01
6.074632000000000,0,0x1E,0x01
6.074650041666667,0,0xC0,0x01
6.074668083333333,0,0x00,0x01
6.074688333333333,0,0x87,0x01
6.074706333333333,0,0xFF,0x80
6.074724541666667,0,0xFF,0x00
6.074745416666667,0,0x07,0x01
6.074763458333333,0,0x00,0x01
6.074781500000000,0,0x00,0x01
6.076343291666666,0,0xB0,0x12
6.076361291666666,0,0xFF,0x12
6.076379500000000,0,0xFF,0x00
6.078331625000000,0,0xB0,0x12
6.078349625000000,0,0x7F,0x12
6.078367833333333,0,0xFF,0x10
6.080318791666667,0,0xF0,0x02
6.080336791666666,0,0x7F,0x1A
6.080355000000000,0,0xFF,0x10
6.082311541666667,0,0xB0,0x12
6.082329541666667,0,0x7F,0x12
6.082347750000000,0,0xFF,0x18
6.084300291666667,0,0xB0,0x12
6.084318291666666,0,0xFF,0x12
6.084336500000000,0,0xFF,0x00
6.086299291666666,0,0xB0,0x12
6.086317291666667,0,0xFF,0x12
6.086335500000000,0,0xFF,0x00
6.088290666666667,0,0xF0,0x02
6.088308666666666,0,0x7F,0x12
6.088326875000000,0,0xFF,0x18
6.090279250000000,0,0xB0,0x12
6.090297291666666,0,0xFF,0x12
6.090315500000000,0,0xFF,0x00
6.092266166666667,0,0xB0,0x12
6.092284208333333,0,0xFF,0x12
6.092302416666667,0,0xFF,0x00
6.094253583333333,0,0xB0,0x12
6.094271625000000,0,0xFF,0x02
6.094289833333334,0,0xFF,0x10
6.096250541666667,0,0xB0,0x12
6.096268583333333,0,0xFF,0x12
6.096286750000000,0,0xFF,0x18
6.098237083333333,0,0xB0,0x12
6.098255125000000,0,0xFF,0x12
6.098273333333333,0,0xFF,0x10
6.100227916666666,0,0x98,0x1A
6.100245958333334,0,0xFF,0x02
6.100264166666666,0,0xFF,0x10
6.102214500000000,0,0xF0,0x02
6.102232500000000,0,0x7F,0x12
6.102250708333333,0,0xFF,0x18
6.104210375000000,0,0x90,0x12
6.104228416666666,0,0xFF,0x12
6.104246625000000,0,0xFF,0x00
6.106200333333334,0,0xF0,0x02
6.106218333333334,0,0x7F,0x10
6.106236541666667,0,0xFF,0x10
6.106261333333333,0,0x87,0x12
6.106279375000000,0,0xFF,0x00
6.106297541666667,0,0xFF,0x28
6.106318125000000,0,0x07,0x12
6.106336125000000,0,0x00,0x12
6.106354208333333,0,0x0F,0x12
6.107356666666667,0,0x03,0x00
6.107374666666667,0,0x00,0x01
6.107392750000000,0,0x0F,0x00
6.107413333333334,0,0x34,0x01
6.107431375000000,0,0x80,0x01
6.107449416666666,0,0x80,0x01
6.107469666666667,0,0xC3,0x01
6.107487666666667,0,0xFF,0x00
6.107505875000000,0,0xFF,0x08
6.107526750000000,0,0x07,0x01
6.107544791666666,0,0x00,0x01
6.107562833333334,0,0x80,0x01
6.108939000000000,0,0x18,0x1A
6.108957041666667,0,0xFF,0x12
6.108975250000000,0,0xFF,0x00
6.110938083333333,0,0x98,0x18
6.110956125000000,0,0xFF,0x02
6.110974333333333,0,0xFF,0x14
6.112928291666667,0,0xB0,0x12
6.112946333333333,0,0xFF,0x12
6.112964541666667,0,0xFF,0x14
6.114919291666666,0,0xF0,0x12
6.114937291666667,0,0x7F,0x12
6.114955500000000,0,0xFF,0x16
6.116910791666666,0,0xB0,0x13
6.116928791666667,0,0xFF,0x10
6.116947000000000,0,0xFF,0x14
6.118909375000000,0,0xF0,0x13
6.118927375000000,0,0xFF,0x12
6.118945583333334,0,0xFF,0x14
6.120904708333334,0,0xB0,0x12
6.120922750000000,0,0xFF,0x12
6.120940916666667,0,0xFF,0x14
6.122897541666667,0,0xB0,0x12
6.122915583333334,0,0xFF,0x12
6.122933750000000,0,0xFF,0x14
6.124893250000000,0,0xB0,0x12
6.124911291666667,0,0xFF,0x12
6.124929500000000,0,0xFF,0x14
6.126883083333333,0,0x98,0x10
6.126901125000000,0,0xFF,0x13
6.126919333333333,0,0xFF,0x14
6.128875750000000,0,0xF0,0x13
6.128893750000000,0,0xFF,0x10
6.128911958333333,0,0xFF,0x14
6.130875291666666,0,0xF0,0x13
6.130893291666666,0,0x7F,0x10
6.130911500000000,0,0xFF,0x14
6.132866916666667,0,0xB0,0x12
6.132884916666667,0,0xFF,0x12
6.132903125000000,0,0xFF,0x14
6.134856708333333,0,0xB0,0x12
6.134874750000000,0,0xFF,0x12
6.134892958333333,0,0xFF,0x14
6.136846791666667,0,0xF0,0x13
6.136864791666667,0,0x7F,0x10
6.136883000000000,0,0xFF,0x14
6.138834833333333,0,0xF0,0x12
6.138852833333333,0,0x7F,0x12
6.138871041666667,0,0xFF,0x1E
6.138895833333334,0,0x87,0x12
6.138913875000000,0,0xFF,0x00
6.138932083333334,0,0xFF,0x8E
6.138952625000000,0,0x07,0x12
6.138970666666666,0,0x00,0x12
6.138988708333334,0,0x30,0x12
6.139146208333333,0,0x07,0x01
6.139164250000000,0,0x00,0x01
6.139182291666667,0,0x18,0x01
6.139202916666667,0,0x30,0x01
6.139220916666667,0,0x80,0x01
6.139239000000000,0,0xC0,0x01
6.139259208333334,0,0x07,0x81
6.139277250000000,0,0xFF,0x00
6.139295458333334,0,0xFF,0x32
6.139316333333333,0,0x03,0x01
6.139334333333333,0,0x00,0x01
6.139352416666667,0,0xF3,0x00
6.140831291666666,0,0x90,0x12
6.140849333333334,0,0xFF,0x13
6.140867541666666,0,0xFF,0x04
6.142819916666666,0,0xB0,0x12
6.142837958333334,0,0xFF,0x12
6.142856166666666,0,0xFF,0x04
6.144813625000000,0,0x98,0x10
6.144831666666667,0,0xFF,0x12
6.144849875000000,0,0xFF,0x04
6.146800666666667,0,0x98,0x1A
6.146818708333333,0,0xFF,0x02
6.146836916666667,0,0xFF,0x04
6.148794041666667,0,0xF0,0x02
6.148812041666667,0,0x7F,0x18
6.148830250000000,0,0xFF,0x04
6.150784208333334,0,0xF0,0x12
6.150802208333333,0,0x7F,0x12
6.150820416666667,0,0xFF,0x06
6.152779458333334,0,0x98,0x10
6.152797500000000,0,0xFF,0x13
6.152815708333334,0,0xFF,0x04
6.154769583333334,0,0xF0,0x02
6.154787583333333,0,0x7F,0x1A
6.154805791666667,0,0xFF,0x06
6.156764791666666,0,0xB0,0x12
6.156782791666667,0,0xFF,0x12
6.156801000000000,0,0xFF,0x04
6.158764000000000,0,0xB0,0x12
6.158782000000000,0,0xFF,0x12
6.158800208333333,0,0xFF,0x04
6.160757208333333,0,0xB0,0x12
6.160775208333333,0,0xFF,0x12
6.160793416666666,0,0xFF,0x04
6.162744083333333,0,0x98,0x18
6.162762125000000,0,0xFF,0x13
6.162780333333333,0,0xFF,0x04
6.164737875000000,0,0x98,0x12
6.164755916666667,0,0xFF,0x13
6.164774125000000,0,0xFF,0x04
6.166725708333333,0,0xB0,0x12
6.166743708333334,0,0xFF,0x12
6.166761916666666,0,0xFF,0x00
6.168720083333334,0,0xB0,0x12
6.168738083333333,0,0xFF,0x12
6.168756291666667,0,0xFF,0x04
6.170710458333334,0,0xB0,0x12
6.170728500000000,0,0xFF,0x12
6.170746708333334,0,0xFF,0x00
6.170771500000000,0,0xC3,0x02
6.170789500000000,0,0xFF,0x00
6.170807708333333,0,0xFF,0xB2
6.170828250000000,0,0x87,0x1A
6.170846291666667,0,0x00,0x02
6.170864333333333,0,0x14,0x12
6.170934041666666,0,0x03,0x00
6.170952041666666,0,0x00,0x01
6.170970125000000,0,0x14,0x01
6.170990708333333,0,0x1E,0x01
6.171008750000000,0,0xC0,0x00
6.171026791666667,0,0x00,0x01
6.171047041666666,0,0x87,0x01
6.171065083333334,0,0xFF,0x00
6.171083250000000,0,0xFF,0x14
6.171104125000000,0,0x07,0x01
6.171122166666667,0,0x00,0x01
6.171140208333333,0,0x14,0x81
6.172701166666666,0,0xF0,0x12
6.172719166666667,0,0x7F,0x12
6.172737375000000,0,0xFF,0x08
6.174692083333333,0,0x90,0x12
6.174710125000000,0,0xFF,0x12
6.174728333333333,0,0xFF,0x08
6.176685291666667,0,0x98,0x10
6.176703333333333,0,0xFF,0x02
6.176721541666667,0,0xFF,0x08
6.178674875000000,0,0xB0,0x12
6.178692916666667,0,0xFF,0x12
6.178711125000000,0,0xFF,0x08
6.180664791666667,0,0xB0,0x12
6.180682833333333,0,0xFF,0x12
6.180701041666667,0,0xFF,0x0C
6.182658625000000,0,0x98,0x1A
6.182676666666667,0,0xFF,0x02
6.182694875000000,0,0xFF,0x08
6.184650375000000,0,0xB0,0x12
6.184668375000000,0,0xFF,0x12
6.184686583333334,0,0xFF,0x08
6.186645625000000,0,0x90,0x12
6.186663666666667,0,0xFF,0x02
6.186681875000000,0,0xFF,0x08
6.188633791666667,0,0x98,0x18
6.188651833333333,0,0xFF,0x02
6.188670041666667,0,0xFF,0x08
6.190624708333333,0,0xB0,0x12
6.190642750000000,0,0xFF,0x12
6.190660916666666,0,0xFF,0x08
6.192614333333333,0,0xF0,0x02
6.192632333333333,0,0x7F,0x1A
6.192650541666667,0,0xFF,0x08
6.194603083333333,0,0xB0,0x12
6.194621125000000,0,0xFF,0x12
6.194639333333333,0,0xFF,0x08
6.196597000000000,0,0xB0,0x12
6.196615041666667,0,0xFF,0x12
6.196633250000000,0,0xFF,0x0C
6.198588833333333,0,0xB0,0x12
6.198606875000000,0,0xFF,0x12
6.198625083333333,0,0xFF,0x0C
6.200583500000000,0,0xB0,0x12
6.200601541666667,0,0xFF,0x12
6.200619708333333,0,0xFF,0x08
6.202572833333333,0,0xB0,0x13
6.202590833333334,0,0xFF,0x12
6.202609041666666,0,0xFF,0x08
6.202633833333334,0,0x87,0x12
6.202651875000000,0,0xFF,0x00
6.202670041666667,0,0xFF,0x14
6.202690625000000,0,0x03,0x13
6.202708625000000,0,0x80,0x10
6.202726916666666,0,0x1E,0x18
6.203718166666667,0,0x07,0x01
6.203736208333333,0,0x00,0x00
6.203754250000000,0,0x1C,0x01
6.203774875000000,0,0x30,0x00
6.203792875000000,0,0x00,0x01
6.203810958333333,0,0xC0,0x01
6.203831166666666,0,0x07,0x81
6.203849208333334,0,0xFF,0x00
6.203867416666666,0,0xFF,0x3C
6.203888291666667,0,0x07,0x01
6.203906291666667,0,0x00,0x01
6.203924375000000,0,0xBC,0x01
6.205307541666667,0,0xB0,0x13
6.205325541666666,0,0x7F,0x18
6.205343750000000,0,0xFF,0x18
6.207294791666667,0,0xB0,0x12
6.207312833333333,0,0xFF,0x12
6.207331000000000,0,0xFF,0x18
6.209291750000000,0,0xF0,0x13
6.209309750000000,0,0xFF,0x10
6.209327958333334,0,0xFF,0x18
6.211281333333333,0,0xB0,0x12
6.211299333333334,0,0x7F,0x12
6.211317541666666,0,0xFF,0x18
6.213273000000000,0,0xB0,0x12
6.213291041666666,0,0xFF,0x02
6.213309250000000,0,0xFF,0x18
6.215262291666667,0,0xF0,0x02
6.215280291666667,0,0x7F,0x1A
6.215298500000000,0,0xFF,0x18
6.217259291666666,0,0xF0,0x12
6.217277291666667,0,0x7F,0x12
6.217295500000000,0,0xFF,0x18
6.219246083333333,0,0xB0,0x12
6.219264083333333,0,0xFF,0x12
6.219282291666667,0,0xFF,0x18
6.221236791666667,0,0xB0,0x12
6.221254833333333,0,0xFF,0x12
6.221273041666667,0,0xFF,0x18
6.223223625000000,0,0x98,0x12
6.223241666666667,0,0xFF,0x12
6.223259833333334,0,0xFF,0x18
6.225215333333334,0,0xB0,0x12
6.225233375000000,0,0xFF,0x12
6.225251541666666,0,0xFF,0x18
6.227204666666666,0,0xB0,0x12
6.227222708333334,0,0xFF,0x12
6.227240875000000,0,0xFF,0x18
6.229193583333333,0,0xB0,0x12
6.229211583333333,0,0xFF,0x12
6.229229791666667,0,0xFF,0x18
6.231180000000000,0,0xB0,0x12
6.231198000000000,0,0xFF,0x12
6.231216208333334,0,0xFF,0x18
6.233174583333334,0,0xF0,0x02
6.233192583333333,0,0x7F,0x1A
6.233210791666667,0,0xFF,0x18
6.235164625000000,0,0xF0,0x13
6.235182625000000,0,0x7F,0x10
6.235200833333334,0,0xFF,0x18
6.235225625000000,0,0x87,0x12
6.235243666666666,0,0xFF,0x00
6.235261833333333,0,0xFF,0x9C
6.235282416666666,0,0x07,0x12
6.235300416666667,0,0x00,0x12
6.235318500000000,0,0x1E,0x12
6.235506000000000,0,0x07,0x01
6.235524041666666,0,0x00,0x01
6.235542125000000,0,0x1F,0x01
6.235562708333333,0,0x30,0x01
6.235580708333333,0,0x00,0x01
6.235598791666667,0,0xC0,0x01
6.235619041666666,0,0x87,0x01
6.235637041666667,0,0xFF,0x00
6.235655250000000,0,0xFF,0x0E
6.235676125000000,0,0x07,0x01
6.235694125000000,0,0x00,0x01
6.235712208333333,0,0x8F,0x01
6.237151166666667,0,0xB0,0x12
6.237169166666667,0,0xFF,0x12
6.237187375000000,0,0xFF,0x1C
6.239137541666667,0,0xB0,0x12
6.239155541666666,0,0xFF,0x12
6.239173750000000,0,0xFF,0x1C
6.241130125000000,0,0x98,0x10
6.241148166666667,0,0xFF,0x13
6.241166375000000,0,0xFF,0x1C
6.243119041666667,0,0xF0,0x13
6.243137041666666,0,0x7F,0x10
6.243155250000000,0,0xFF,0x1C
6.245116875000000,0,0xB0,0x12
6.245134916666666,0,0xFF,0x12
6.245153083333333,0,0xFF,0x1C
6.247108291666667,0,0x90,0x12
6.247126333333333,0,0xFF,0x13
6.247144541666667,0,0xFF,0x1C
6.249098458333333,0,0x98,0x10
6.249116500000000,0,0xFF,0x13
6.249134666666667,0,0xFF,0x1C
6.251086250000000,0,0xF0,0x13
6.251104250000000,0,0xFF,0x12
6.251122458333334,0,0xFF,0x1C
6.253072750000000,0,0xB0,0x12
6.253090750000000,0,0xFF,0x12
6.253108958333334,0,0xFF,0x0C
6.255062666666666,0,0xB0,0x12
6.255080666666666,0,0xFF,0x12
6.255098875000000,0,0xFF,0x0C
6.257061750000000,0,0xB0,0x12
6.257079750000000,0,0x7F,0x1A
6.257097958333333,0,0xFF,0x1C
6.259054875000000,0,0xB0,0x12
6.259072875000000,0,0xFF,0x12
6.259091083333334,0,0xFF,0x0C
6.261045625000000,0,0x98,0x10
6.261063666666667,0,0xFF,0x13
6.261081875000000,0,0xFF,0x1C
6.263033583333334,0,0xB0,0x12
6.263051583333334,0,0xFF,0x12
6.263069791666667,0,0xFF,0x0C
6.265025125000000,0,0xB0,0x12
6.265043125000000,0,0xFF,0x12
6.265061333333334,0,0xFF,0x0C
6.267012125000000,0,0x90,0x12
6.267030166666666,0,0xFF,0x02
6.267048375000000,0,0xFF,0x1C
6.267073166666667,0,0x87,0x12
6.267091166666667,0,0xFF,0x00
6.267109375000000,0,0xFF,0xCE
6.267129916666667,0,0x07,0x12
6.267147916666667,0,0x80,0x12
6.267166000000000,0,0x46,0x12
6.267293541666667,0,0x07,0x01
6.267311583333333,0,0x00,0x01
6.267329625000000,0,0x46,0x01
6.267350208333333,0,0x1C,0x01
6.267368250000000,0,0xC0,0x01
6.267386291666667,0,0x00,0x81
6.267406541666666,0,0x87,0x01
6.267424541666666,0,0xFF,0x80
6.267442750000000,0,0xFF,0x66
6.267463625000000,0,0x07,0x01
6.267481666666667,0,0x00,0x01
6.267499708333333,0,0xC6,0x01
6.268999041666667,0,0xF0,0x13
6.269017041666666,0,0x7F,0x10
6.269035250000000,0,0xFF,0x0C
6.270990833333333,0,0xB0,0x12
6.271008833333333,0,0xFF,0x12
6.271027041666667,0,0xFF,0x0C
6.272984166666666,0,0xB0,0x12
6.273002166666667,0,0xFF,0x12
6.273020375000000,0,0xFF,0x0C
6.274978166666667,0,0xB0,0x12
6.274996208333333,0,0xFF,0x12
6.275014416666667,0,0xFF,0x0C
6.276974250000000,0,0xB0,0x12
6.276992250000000,0,0x7F,0x12
6.277010458333334,0,0xFF,0x0E
6.278963958333334,0,0x98,0x12
6.278982000000000,0,0xFF,0x13
6.279000208333334,0,0xFF,0x0C
6.280951333333333,0,0x98,0x1A
6.280969375000000,0,0xFF,0x02
6.280987583333333,0,0xFF,0x0C
6.282941916666666,0,0xF0,0x02
6.282959916666667,0,0x7F,0x1A
6.282978125000000,0,0xFF,0x0C
6.284930916666666,0,0x98,0x1A
6.284948958333334,0,0xFF,0x12
6.284967166666667,0,0xFF,0x0C
6.286917375000000,0,0xB0,0x12
6.286935416666667,0,0xFF,0x12
6.286953625000000,0,0xFF,0x0C
6.288907041666667,0,0xB0,0x12
6.288925041666666,0,0xFF,0x12
6.288943250000000,0,0xFF,0x0C
6.290905750000000,0,0xB0,0x12
6.290923791666667,0,0xFF,0x12
6.290941958333334,0,0xFF,0x0C
6.292903250000000,0,0x98,0x1A
6.292921291666667,0,0xFF,0x02
6.292939500000000,0,0xFF,0x0C
6.294897958333333,0,0x98,0x1A
6.294916000000000,0,0xFF,0x02
6.294934208333333,0,0xFF,0x0C
6.296888166666666,0,0xB0,0x12
6.296906166666667,0,0xFF,0x12
6.296924375000000,0,0xFF,0x0C
6.298876250000000,0,0x98,0x18
6.298894291666667,0,0xFF,0x03
6.298912500000000,0,0xFF,0x0C
6.298937291666666,0,0x83,0x13
6.298955291666666,0,0xFF,0x00
6.298973500000000,0,0xFF,0xC6
6.298994041666667,0,0x87,0x10
6.299012083333333,0,0x00,0x13
6.299030125000000,0,0x00,0x1A
6.299082625000000,0,0x03,0x00
6.299100625000000,0,0x80,0x01
6.299118708333333,0,0x00,0x01
6.299139291666667,0,0x1E,0x01
6.299157333333333,0,0xC0,0x00
6.299175375000000,0,0x00,0x01
6.299195625000000,0,0x87,0x01
6.299213625000000,0,0xFF,0x80
6.299231833333334,0,0xFF,0x00
6.299252708333333,0,0x07,0x01
6.299270750000000,0,0x00,0x01
6.299288791666667,0,0x00,0x01
6.300869041666667,0,0xF0,0x02
6.300887041666667,0,0x7F,0x1A
6.300905250000000,0,0xFF,0x00
6.302858291666666,0,0xB0,0x12
6.302876333333334,0,0xFF,0x12
6.302894500000000,0,0xFF,0x00
6.304852458333333,0,0xB0,0x12
6.304870458333333,0,0xFF,0x10
6.304888666666667,0,0xFF,0x00
6.306850333333333,0,0xF0,0x02
6.306868333333333,0,0x7F,0x12
6.306886541666667,0,0xFF,0x00
6.308846958333334,0,0xB0,0x12
6.308865000000000,0,0xFF,0x12
6.308883208333333,0,0xFF,0x00
6.310846500000000,0,0xB0,0x12
6.310864541666667,0,0xFF,0x13
6.310882750000000,0,0xFF,0x00
6.312837166666666,0,0xF0,0x02
6.312855166666667,0,0x7F,0x12
6.312873375000000,0,0xFF,0x00
6.314829500000000,0,0xB0,0x12
6.314847500000000,0,0xFF,0x12
6.314865708333333,0,0xFF,0x00
6.316826750000000,0,0xB0,0x12
6.316844750000000,0,0x7F,0x12
6.316862958333333,0,0xFF,0x00
6.318819291666666,0,0x98,0x1A
6.318837333333334,0,0xFF,0x12
6.318855541666666,0,0xFF,0x00
6.320807583333333,0,0xB0,0x12
6.320825625000000,0,0xFF,0x12
6.320843833333333,0,0xFF,0x00
6.322796708333334,0,0xB0,0x12
6.322814708333333,0,0xFF,0x12
6.322832916666667,0,0xFF,0x00
6.324786875000000,0,0xF0,0x02
6.324804875000000,0,0x7F,0x1A
6.324823083333333,0,0xFF,0x00
6.326779583333333,0,0x90,0x12
6.326797625000000,0,0xFF,0x13
6.326815833333334,0,0xFF,0x00
6.328767458333333,0,0x98,0x10
6.328785500000000,0,0xFF,0x02
6.328803708333333,0,0xFF,0x00
6.330759625000000,0,0x90,0x12
6.330777666666667,0,0xFF,0x12
6.330795875000000,0,0xFF,0x00
6.330820666666667,0,0xC7,0x12
6.330838666666667,0,0xFF,0x00
6.330856875000000,0,0xFF,0x80
6.330877291666667,0,0x87,0x1A
6.330895333333333,0,0x00,0x02
6.330913416666666,0,0x28,0x12
6.331865708333333,0,0x03,0x00
6.331883708333334,0,0x00,0x01
6.331901791666667,0,0x3C,0x00
6.331922375000000,0,0x34,0x01
6.331940375000000,0,0x00,0x81
6.331958458333333,0,0x80,0x01
6.331978708333334,0,0x87,0x01
6.331996708333334,0,0xFF,0x00
6.332014916666667,0,0xFF,0x3C
6.332035791666667,0,0x03,0x01
6.332053791666667,0,0x00,0x01
6.332071875000000,0,0xFC,0x00
6.333476750000000,0,0x18,0x10
6.333494791666666,0,0xFF,0x02
6.333513000000000,0,0xFF,0x10
6.335473291666666,0,0xF0,0x13
6.335491291666667,0,0x7F,0x10
6.335509500000000,0,0xFF,0x10
6.337472250000000,0,0xB0,0x12
6.337490291666667,0,0xFF,0x12
6.337508458333334,0,0xFF,0x10
6.339462291666667,0,0xF0,0x02
6.339480291666667,0,0x7F,0x1A
6.339498500000000,0,0xFF,0x10
6.341450250000000,0,0xF0,0x13
6.341468250000000,0,0xFF,0x10
6.341486458333334,0,0xFF,0x10
6.343446666666667,0,0x90,0x12
6.343464708333333,0,0xFF,0x12
6.343482916666667,0,0xFF,0x10
6.345434375000000,0,0xB0,0x12
6.345452416666666,0,0xFF,0x12
6.345470583333333,0,0xFF,0x10
6.347431291666667,0,0xB0,0x12
6.347449333333333,0,0xFF,0x12
6.347467541666667,0,0xFF,0x10
6.349421333333333,0,0xF0,0x13
6.349439333333334,0,0xFF,0x10
6.349457541666666,0,0xFF,0x10
6.351411250000000,0,0xB0,0x12
6.351429291666666,0,0xFF,0x12
6.351447500000000,0,0xFF,0x00
6.353409583333334,0,0xB0,0x12
6.353427583333334,0,0xFF,0x12
6.353445791666666,0,0xFF,0x10
6.355396875000000,0,0xB0,0x12
6.355414875000000,0,0xFF,0x12
6.355433083333334,0,0xFF,0x00
6.357392000000000,0,0xF0,0x02
6.357410000000000,0,0x7F,0x12
6.357428208333333,0,0xFF,0x18
6.359384583333333,0,0x90,0x12
6.359402625000000,0,0xFF,0x12
6.359420833333333,0,0xFF,0x10
6.361381750000000,0,0x98,0x12
6.361399791666667,0,0xFF,0x12
6.361418000000000,0,0xFF,0x10
6.363374708333334,0,0xB0,0x12
6.363392750000000,0,0xFF,0x12
6.363410958333334,0,0xFF,0x00
6.363435750000000,0,0xC7,0x12
6.363453750000000,0,0xFF,0x00
6.363471958333333,0,0xFF,0xA8
6.363492500000000,0,0x87,0x12
6.363510541666667,0,0x00,0x02
6.363528583333333,0,0x0A,0x12
6.363654166666667,0,0x03,0x00
6.363672166666666,0,0x00,0x01
6.363690250000000,0,0x0F,0x00
6.363710833333333,0,0x36,0x01
6.363728875000000,0,0x80,0x01
6.363746916666667,0,0x80,0x01
6.363767166666666,0,0xC3,0x01
6.363785166666666,0,0xFF,0x00
6.363803375000000,0,0xFF,0x0A
6.363824250000000,0,0x07,0x01
6.363842250000000,0,0x80,0x81
6.363860333333333,0,0x8A,0x01
6.365368916666666,0,0xB0,0x12
6.365386958333334,0,0xFF,0x12
6.365405125000000,0,0xFF,0x1C
6.367367375000000,0,0x98,0x10
6.367385416666667,0,0xFF,0x12
6.367403625000000,0,0xFF,0x14
6.369358958333334,0,0xB0,0x12
6.369377000000000,0,0xFF,0x12
6.369395166666667,0,0xFF,0x14
6.371352500000000,0,0xF0,0x13
6.371370500000000,0,0x7F,0x18
6.371388708333333,0,0xFF,0x14
6.373341958333334,0,0xB0,0x12
6.373359958333333,0,0xFF,0x12
6.373378166666667,0,0xFF,0x00
6.375339958333333,0,0xB0,0x13
6.375357958333334,0,0xFF,0x10
6.375376166666666,0,0xFF,0x14
6.377328000000000,0,0xB0,0x12
6.377346041666667,0,0xFF,0x12
6.377364208333334,0,0xFF,0x14
6.379319541666667,0,0xB0,0x12
6.379337541666667,0,0xFF,0x12
6.379355750000000,0,0xFF,0x14
6.381316333333333,0,0xB0,0x12
6.381334333333333,0,0x7F,0x12
6.381352541666667,0,0xFF,0x1C
6.383312250000000,0,0xB0,0x12
6.383330291666667,0,0xFF,0x13
6.383348500000000,0,0xFF,0x14
6.385303125000000,0,0xB0,0x12
6.385321166666666,0,0xFF,0x12
6.385339333333333,0,0xFF,0x14
6.387294833333334,0,0xB0,0x12
6.387312875000000,0,0xFF,0x12
6.387331083333334,0,0xFF,0x14
6.389287750000000,0,0x98,0x12
6.389305791666667,0,0xFF,0x12
6.389323958333334,0,0xFF,0x14
6.391286541666667,0,0x98,0x10
6.391304583333334,0,0xFF,0x12
6.391322791666667,0,0xFF,0x14
6.393278625000000,0,0xB0,0x12
6.393296666666667,0,0xFF,0x12
6.393314833333333,0,0xFF,0x14
6.395278000000000,0,0xB0,0x12
6.395296000000000,0,0xFF,0x12
6.395314208333334,0,0xFF,0x14
6.395339000000000,0,0x87,0x10
6.395357041666666,0,0xFF,0x00
6.395375250000000,0,0xFF,0x8B
6.395395791666667,0,0x07,0x12
6.395413791666667,0,0x80,0x12
6.395431875000000,0,0x18,0x10
6.396437791666667,0,0x07,0x01
6.396455791666667,0,0x00,0x01
6.396473875000000,0,0x33,0x01
6.396494458333334,0,0x34,0x01
6.396512458333333,0,0x00,0x81
6.396530541666666,0,0x80,0x01
6.396550791666667,0,0xC3,0x00
6.396568791666667,0,0xFF,0x00
6.396587000000000,0,0xFF,0x32
6.396607875000000,0,0x07,0x01
6.396625916666666,0,0x00,0x01
6.396643958333334,0,0x98,0x01
6.398027916666667,0,0xB0,0x13
6.398045916666667,0,0xFF,0x10
6.398064125000000,0,0xFF,0x04
6.400024166666666,0,0xF0,0x12
6.400042166666666,0,0x7F,0x12
6.400060375000000,0,0xFF,0x06
6.402010833333334,0,0xB0,0x12
6.402028833333334,0,0xFF,0x12
6.402047041666667,0,0xFF,0x04
6.404004291666666,0,0x90,0x12
6.404022333333334,0,0xFF,0x12
6.404040541666666,0,0xFF,0x00
6.405999083333334,0,0x90,0x12
6.406017125000000,0,0xFF,0x13
6.406035333333334,0,0xFF,0x04
6.407995750000000,0,0xF0,0x13
6.408013750000000,0,0x7F,0x18
6.408031958333333,0,0xFF,0x04
6.409994375000000,0,0xB0,0x12
6.410012416666667,0,0xFF,0x12
6.410030583333334,0,0xFF,0x04
6.411991375000000,0,0xF0,0x13
6.412009375000000,0,0xFF,0x10
6.412027583333333,0,0xFF,0x04
6.413987541666667,0,0xF0,0x13
6.414005541666667,0,0xFF,0x10
6.414023750000000,0,0xFF,0x04
6.415974875000000,0,0xF0,0x13
6.415992875000000,0,0xFF,0x10
6.416011083333333,0,0xFF,0x04
6.417970208333333,0,0xB0,0x12
6.417988208333333,0,0x7F,0x12
6.418006416666667,0,0xFF,0x06
6.419968916666667,0,0x98,0x12
6.419986958333333,0,0xFF,0x13
6.420005166666667,0,0xFF,0x04
6.421964125000000,0,0xF0,0x12
6.421982125000000,0,0x7F,0x18
6.422000333333333,0,0xFF,0x06
6.423955791666667,0,0xB0,0x12
6.423973791666667,0,0x7F,0x12
6.423992000000000,0,0xFF,0x04
6.425952666666666,0,0x98,0x10
6.425970708333334,0,0xFF,0x13
6.425988916666666,0,0xFF,0x04
6.427951166666666,0,0xB0,0x13
6.427969166666666,0,0xFF,0x10
6.427987375000000,0,0xFF,0x04
6.428012166666667,0,0x87,0x12
6.428030208333333,0,0xFF,0x00
6.428048375000000,0,0xFF,0x32
6.428068958333333,0,0x03,0x13
6.428086958333333,0,0x80,0x18
6.428105041666667,0,0x14,0x12
6.428227041666666,0,0x07,0x01
6.428245083333334,0,0x00,0x00
6.428263125000000,0,0x14,0x01
6.428283750000000,0,0x30,0x00
6.428301750000000,0,0x00,0x01
6.428319833333333,0,0xC0,0x01
6.428340083333334,0,0x87,0x01
6.428358083333333,0,0xFF,0x00
6.428376291666667,0,0xFF,0x14
6.428397166666667,0,0x03,0x01
6.428415166666666,0,0x80,0x01
6.428433250000000,0,0x94,0x01
6.429938333333333,0,0xF0,0x13
6.429956333333333,0,0xFF,0x10
6.429974541666667,0,0xFF,0x08
6.431925166666667,0,0xB0,0x13
6.431943166666667,0,0xFF,0x10
6.431961375000000,0,0xFF,0x08
6.433916458333333,0,0x90,0x12
6.433934500000000,0,0xFF,0x12
6.433952708333333,0,0xFF,0x0C
6.435905500000000,0,0xF0,0x02
6.435923500000000,0,0x7F,0x12
6.435941708333333,0,0xFF,0x08
6.437895791666667,0,0xB0,0x12
6.437913791666666,0,0xFF,0x12
6.437932000000000,0,0xFF,0x08
6.439889291666667,0,0x98,0x18
6.439907333333333,0,0xFF,0x13
6.439925541666667,0,0xFF,0x08
6.441880125000000,0,0xF0,0x13
6.441898125000000,0,0x7F,0x10
6.441916333333333,0,0xFF,0x08
6.443874250000000,0,0xB0,0x12
6.443892250000000,0,0xFF,0x12
6.443910458333334,0,0xFF,0x08
6.445869000000000,0,0x90,0x12
6.445887041666666,0,0xFF,0x12
6.445905208333333,0,0xFF,0x08
6.447856125000000,0,0xB0,0x12
6.447874166666667,0,0xFF,0x12
6.447892333333333,0,0xFF,0x00
6.449850083333334,0,0x98,0x10
6.449868125000000,0,0xFF,0x13
6.449886333333334,0,0xFF,0x08
6.451839041666667,0,0xF0,0x12
6.451857041666667,0,0x7F,0x1A
6.451875250000000,0,0xFF,0x08
6.453826375000000,0,0xB0,0x12
6.453844375000000,0,0xFF,0x12
6.453862583333334,0,0xFF,0x0C
6.455820083333333,0,0xB0,0x12
6.455838125000000,0,0xFF,0x12
6.455856291666667,0,0xFF,0x08
6.457807166666667,0,0xF0,0x13
6.457825166666667,0,0xFF,0x12
6.457843375000000,0,0xFF,0x08
6.459799208333333,0,0x98,0x12
6.459817250000000,0,0xFF,0x13
6.459835458333333,0,0xFF,0x08
6.459860250000000,0,0xC3,0x13
6.459878250000000,0,0xFF,0x00
6.459896458333334,0,0xFF,0x96
6.459917000000000,0,0x87,0x12
6.459935041666666,0,0x00,0x12
6.459953125000000,0,0x3C,0x13
6.460016458333333,0,0x07,0x01
6.460034500000000,0,0x00,0x01
6.460052541666666,0,0x3C,0x81
6.460073166666667,0,0x30,0x01
6.460091166666666,0,0x00,0x01
6.460109250000000,0,0x80,0x01
6.460129500000000,0,0xC3,0x00
6.460147500000000,0,0xFF,0x00
6.460165708333333,0,0xFF,0x3C
6.460186583333333,0,0x07,0x01
6.460204625000000,0,0x00,0x01
6.460222666666667,0,0x1E,0x01
6.461791166666667,0,0x98,0x12
6.461809208333333,0,0xFF,0x13
6.461827416666667,0,0xFF,0x18
6.463779916666667,0,0xB0,0x12
6.463797958333333,0,0xFF,0x12
6.463816125000000,0,0xFF,0x18
6.465772541666666,0,0xB0,0x12
6.465790541666666,0,0xFF,0x12
6.465808750000000,0,0xFF,0x18
6.467765625000000,0,0x98,0x12
6.467783666666667,0,0xFF,0x12
6.467801833333334,0,0xFF,0x18
6.469754125000000,0,0x90,0x12
6.469772166666667,0,0xFF,0x12
6.469790375000000,0,0xFF,0x18
6.471743791666666,0,0xB0,0x12
6.471761791666666,0,0xFF,0x12
6.471780000000000,0,0xFF,0x18
6.473732208333334,0,0x98,0x1A
6.473750250000000,0,0xFF,0x12
6.473768458333334,0,0xFF,0x0C
6.475720833333333,0,0xB0,0x12
6.475738875000000,0,0xFF,0x12
6.475757041666666,0,0xFF,0x18
6.477716375000000,0,0x98,0x10
6.477734416666666,0,0xFF,0x12
6.477752625000000,0,0xFF,0x18
6.479714750000000,0,0x98,0x1A
6.479732791666667,0,0xFF,0x02
6.479751000000000,0,0xFF,0x18
6.481713500000000,0,0xB0,0x12
6.481731500000000,0,0xFF,0x12
6.481749708333333,0,0xFF,0x18
6.483700708333333,0,0xB0,0x12
6.483718750000000,0,0xFF,0x13
6.483736958333333,0,0xFF,0x18
6.485697750000000,0,0xB0,0x12
6.485715791666666,0,0xFF,0x12
6.485734000000000,0,0xFF,0x18
6.487687125000000,0,0xB0,0x12
6.487705166666666,0,0xFF,0x12
6.487723333333333,0,0xFF,0x18
6.489674583333334,0,0xB0,0x12
6.489692583333333,0,0xFF,0x10
6.489710791666667,0,0xFF,0x18
6.491665625000000,0,0x98,0x18
6.491683666666667,0,0xFF,0x02
6.491701875000000,0,0xFF,0x18
6.491726666666667,0,0xC7,0x12
6.491744666666666,0,0xFF,0x00
6.491762875000000,0,0xFF,0x9C
6.491783458333333,0,0x07,0x12
6.491803541666667,0,0x00,0x12
6.491821625000000,0,0x1F,0x13
6.492799083333334,0,0x03,0x00
6.492817083333334,0,0x00,0x01
6.492835166666667,0,0x0E,0x01
6.492855750000000,0,0x1E,0x01
6.492873791666667,0,0x80,0x00
6.492891833333333,0,0x00,0x01
6.492912083333334,0,0xC7,0x01
6.492930083333333,0,0xFF,0x80
6.492948291666667,0,0xFF,0x1E
6.492969166666667,0,0x07,0x01
6.492987208333333,0,0x00,0x01
6.493005250000000,0,0x9E,0x01
6.494410791666667,0,0xB0,0x12
6.494428833333333,0,0xFF,0x12
6.494447000000000,0,0xFF,0x1C
6.496398166666666,0,0x90,0x12
6.496416208333334,0,0xFF,0x12
6.496434375000000,0,0xFF,0x1C
6.498394000000000,0,0x98,0x18
6.498412041666667,0,0xFF,0x02
6.498430250000000,0,0xFF,0x1C
