Time [s],Packet ID,MOSI,MISO
0.165913250000000,0,0x00,0x00
0.165931250000000,0,0x67,0x01
0.165949333333333,0,0xE0,0x01
0.165969000000000,0,0x00,0x00
0.165987000000000,0,0x7E,0x01
0.166005083333333,0,0x81,0x01
0.166024708333333,0,0x03,0x01
0.166042708333333,0,0x66,0x01
0.166060791666667,0,0x07,0x01
0.166080416666667,0,0x84,0x81
0.166098458333333,0,0x9E,0x01
0.166116541666667,0,0xCD,0x01
0.166136125000000,0,0x85,0x01
0.166154166666667,0,0x66,0x01
0.166172250000000,0,0x33,0x00
0.166191875000000,0,0x87,0x01
0.166209916666667,0,0x00,0x01
0.166228000000000,0,0x00,0x01
0.166247583333333,0,0x00,0x01
0.166265625000000,0,0x3C,0x01
0.166283666666667,0,0x10,0x81
0.166303333333333,0,0x01,0x01
0.166321375000000,0,0x08,0x01
0.166339458333333,0,0x00,0x01
0.166359041666667,0,0x00,0x01
0.166377083333333,0,0x3F,0x01
0.166395166666667,0,0xFC,0x00
0.166414791666667,0,0x03,0x01
0.166432833333333,0,0x00,0x01
0.166450916666667,0,0x0C,0x00
0.166470500000000,0,0x06,0x01
0.166488541666667,0,0x00,0x01
0.166506625000000,0,0x00,0x00
0.166526250000000,0,0x05,0x01
0.166544291666667,0,0x08,0x01
0.166562375000000,0,0xBC,0x00
0.166581958333333,0,0x1E,0x01
0.166600000000000,0,0x00,0x01
0.166618083333333,0,0xFF,0x00
0.166637708333333,0,0x1F,0x01
0.166655750000000,0,0x80,0x01
0.166673833333333,0,0x01,0x01
0.166693416666667,0,0x98,0x01
0.166711458333333,0,0x00,0x01
0.166729541666667,0,0x33,0x00
0.166749166666667,0,0x99,0x01
0.166767208333333,0,0x16,0x01
0.166785291666667,0,0x0D,0x01
0.166804875000000,0,0x9A,0x01
0.166822916666667,0,0x19,0x01
0.166841000000000,0,0xF0,0x00
0.166860625000000,0,0x1B,0x01
0.166878666666667,0,0x13,0x01
0.166896750000000,0,0x00,0x01
0.166916208333333,0,0x1C,0x01
0.166934208333333,0,0x18,0x81
0.166952291666667,0,0x00,0x01
0.166971958333333,0,0x20,0x01
0.166989958333333,0,0x48,0x81
0.167008041666667,0,0x00,0x01
0.167027666666667,0,0x31,0x01
0.167045666666667,0,0x9F,0x01
0.167063750000000,0,0xC7,0x01
0.167083416666667,0,0x32,0x01
0.167101416666667,0,0x20,0x81
0.167119500000000,0,0x00,0x01
0.167139125000000,0,0x33,0x01
0.167157125000000,0,0x83,0x01
0.167175208333333,0,0x00,0x01
0.167194875000000,0,0x30,0x01
0.167212875000000,0,0x23,0x81
0.167230958333333,0,0x19,0x01
0.167250583333333,0,0x30,0x00
0.167268583333333,0,0x86,0x01
0.167286666666667,0,0x8C,0x01
0.167306333333333,0,0x33,0x00
0.167324333333333,0,0x78,0x01
0.167342416666667,0,0x1A,0x01
0.167362000000000,0,0x27,0x81
0.167380041666667,0,0x00,0x01
0.167398125000000,0,0x33,0x00
0.167417750000000,0,0x80,0x01
0.167435791666667,0,0x44,0x01
0.167453875000000,0,0x00,0x00
0.167473458333333,0,0x01,0x01
0.167491500000000,0,0xF0,0x01
0.167509541666667,0,0x00,0x81
0.167529208333333,0,0x20,0x01
0.167547250000000,0,0xFD,0x01
0.167565291666667,0,0xB0,0x81
0.167584916666667,0,0x29,0x01
0.167602958333333,0,0x00,0x00
0.167621000000000,0,0x0F,0x01
0.167640666666667,0,0x32,0x01
0.167658708333333,0,0x00,0x00
0.167676750000000,0,0x00,0x01
0.178830833333333,0,0xA3,0x01
0.178848833333333,0,0x7F,0x20
0.178867041666667,0,0xFF,0x00
0.178887041666667,0,0xA8,0x01
0.178905041666667,0,0xFF,0x46
0.178923250000000,0,0xFF,0x01
0.193738666666667,0,0x34,0x01
0.193756666666667,0,0x00,0x81
0.193774750000000,0,0x80,0x01
0.193794958333333,0,0xC3,0x01
0.193812958333333,0,0xFF,0x80
0.193831166666667,0,0xFF,0x00
0.193852041666667,0,0x87,0x01
0.193870083333333,0,0x00,0x01
0.193888166666667,0,0xFF,0x00
0.193923083333333,0,0xF0,0x03
0.193941083333333,0,0x7F,0x03
0.193959291666667,0,0xFF,0x1C
0.196725166666667,0,0xB0,0x13
0.196743166666667,0,0xFF,0x10
0.196761375000000,0,0xFF,0x14
0.198712250000000,0,0xF0,0x12
0.198730250000000,0,0x7F,0x12
0.198748458333333,0,0xFF,0x1C
0.200699583333333,0,0xF0,0x02
0.200717583333333,0,0x7F,0x12
0.200735791666667,0,0xFF,0x14
0.202686833333333,0,0xF0,0x12
0.202704833333333,0,0x7F,0x12
0.202723041666667,0,0xFF,0x1C
0.204674083333333,0,0x98,0x10
0.204692125000000,0,0xFF,0x02
0.204710333333333,0,0xFF,0x10
0.206661375000000,0,0xB0,0x12
0.206679416666667,0,0xFF,0x12
0.206697583333333,0,0xFF,0x14
0.208648583333333,0,0xF0,0x02
0.208666583333333,0,0x7F,0x12
0.208684791666667,0,0xFF,0x14
0.210635750000000,0,0xF0,0x02
0.210653750000000,0,0x7F,0x12
0.210671958333333,0,0xFF,0x14
0.212623083333333,0,0x98,0x10
0.212641125000000,0,0xFF,0x02
0.212659333333333,0,0xFF,0x14
0.214610166666667,0,0xF0,0x02
0.214628166666667,0,0x7F,0x12
0.214646375000000,0,0xFF,0x14
0.216597375000000,0,0xF0,0x13
0.216615375000000,0,0x7F,0x1A
0.216633583333333,0,0xFF,0x1E
0.218584541666667,0,0x98,0x12
0.218602583333333,0,0xFF,0x12
0.218620750000000,0,0xFF,0x14
0.220571750000000,0,0xB0,0x12
0.220589791666667,0,0xFF,0x13
0.220608000000000,0,0xFF,0x14
0.222559000000000,0,0xB0,0x12
0.222577000000000,0,0xFF,0x12
0.222595208333333,0,0xFF,0x14
0.224546166666667,0,0x98,0x10
0.224564208333333,0,0xFF,0x02
0.224582416666667,0,0xFF,0x14
0.224607208333333,0,0xC7,0x12
0.224625250000000,0,0xFF,0x00
0.224643416666667,0,0xFF,0x2A
0.224664000000000,0,0x03,0x02
0.224682000000000,0,0x80,0x12
0.224700083333333,0,0x00,0x10
0.225529750000000,0,0x07,0x01
0.225547791666667,0,0x00,0x01
0.225565833333333,0,0x28,0x81
0.225586458333333,0,0x34,0x01
0.225604500000000,0,0x80,0x01
0.225622541666667,0,0x00,0x01
0.225642791666667,0,0x87,0x01
0.225660833333333,0,0xFF,0x00
0.225679041666667,0,0xFF,0x28
0.225699916666667,0,0x07,0x01
0.225717916666667,0,0x00,0x01
0.225736000000000,0,0xE8,0x01
0.226533833333333,0,0xF0,0x02
0.226551833333333,0,0x7F,0x12
0.226570041666667,0,0xFF,0x18
0.228520791666667,0,0xB0,0x12
0.228538791666667,0,0xFF,0x12
0.228557000000000,0,0xFF,0x10
0.230508041666667,0,0x90,0x12
0.230526083333333,0,0xFF,0x13
0.230544291666667,0,0xFF,0x10
0.232495500000000,0,0xB0,0x12
0.232513500000000,0,0xFF,0x12
0.232531708333333,0,0xFF,0x10
0.234482416666667,0,0x98,0x1A
0.234500458333333,0,0xFF,0x12
0.234518666666667,0,0xFF,0x00
0.236469958333333,0,0xB0,0x12
0.236488000000000,0,0xFF,0x12
0.236506208333333,0,0xFF,0x10
0.238457083333333,0,0xB0,0x12
0.238475125000000,0,0xFF,0x12
0.238493333333333,0,0xFF,0x10
0.240444416666667,0,0xB0,0x12
0.240462458333333,0,0xFF,0x13
0.240480666666667,0,0xFF,0x10
0.242431666666667,0,0xF0,0x02
0.242449666666667,0,0x7F,0x1A
0.242467875000000,0,0xFF,0x10
0.244418958333333,0,0x98,0x1A
0.244437000000000,0,0xFF,0x12
0.244455208333333,0,0xFF,0x00
0.246406333333333,0,0xF0,0x12
0.246424333333333,0,0x7F,0x1A
0.246442541666667,0,0xFF,0x10
0.248393500000000,0,0x90,0x12
0.248411541666667,0,0xFF,0x12
0.248429750000000,0,0xFF,0x00
0.250380625000000,0,0xF0,0x12
0.250398625000000,0,0x7F,0x18
0.250416833333333,0,0xFF,0x10
0.252367875000000,0,0xB0,0x13
0.252385875000000,0,0xFF,0x10
0.252404083333333,0,0xFF,0x10
0.254355208333333,0,0xB0,0x13
0.254373208333333,0,0xFF,0x10
0.254391416666667,0,0xFF,0x10
0.256342541666667,0,0xB0,0x12
0.256360541666667,0,0xFF,0x10
0.256378750000000,0,0xFF,0x10
0.256403541666667,0,0x87,0x1A
0.256421583333333,0,0xFF,0x00
0.256439791666667,0,0xFF,0xF8
0.256460333333333,0,0x07,0x12
0.256478375000000,0,0x00,0x13
0.256496416666667,0,0x0A,0x12
0.257326083333333,0,0x03,0x00
0.257344083333333,0,0x00,0x01
0.257362166666667,0,0x0A,0x01
0.257382750000000,0,0x14,0x01
0.257400791666667,0,0x80,0x01
0.257418875000000,0,0x80,0x00
0.257439083333333,0,0x07,0x01
0.257457125000000,0,0xFF,0x00
0.257475333333333,0,0xFF,0x0A
0.257496208333333,0,0x07,0x01
0.257514208333333,0,0x80,0x81
0.257532291666667,0,0x80,0x01
0.258329875000000,0,0xB0,0x13
0.258347875000000,0,0x7F,0x18
0.258366083333333,0,0xFF,0x16
0.260317083333333,0,0x98,0x10
0.260335125000000,0,0xFF,0x13
0.260353333333333,0,0xFF,0x14
0.262304291666667,0,0x98,0x12
0.262322333333333,0,0xFF,0x12
0.262340541666667,0,0xFF,0x14
0.264291625000000,0,0x98,0x10
0.264309666666667,0,0xFF,0x12
0.264327875000000,0,0xFF,0x14
0.266279083333333,0,0xB0,0x12
0.266297125000000,0,0xFF,0x13
0.266315333333333,0,0xFF,0x14
0.268266500000000,0,0xF0,0x12
0.268284541666667,0,0xFF,0x12
0.268302708333333,0,0xFF,0x14
0.270253916666667,0,0xB0,0x12
0.270271958333333,0,0xFF,0x12
0.270290166666667,0,0xFF,0x14
0.272241208333333,0,0xF0,0x02
0.272259208333333,0,0x7F,0x1A
0.272277416666667,0,0xFF,0x1E
0.274228583333333,0,0xF0,0x02
0.274246583333333,0,0x7F,0x12
0.274264791666667,0,0xFF,0x14
0.276215833333333,0,0xB0,0x12
0.276233875000000,0,0xFF,0x12
0.276252083333333,0,0xFF,0x14
0.278202958333333,0,0xF0,0x02
0.278220958333333,0,0x7F,0x12
0.278239166666667,0,0xFF,0x14
0.280190416666667,0,0x98,0x1A
0.280208458333333,0,0xFF,0x12
0.280226666666667,0,0xFF,0x14
0.282177750000000,0,0xF0,0x02
0.282195750000000,0,0x7F,0x12
0.282213958333333,0,0xFF,0x1C
0.284164916666667,0,0xF0,0x13
0.284182916666667,0,0x7F,0x18
0.284201125000000,0,0xFF,0x14
0.286152250000000,0,0xB0,0x13
0.286170250000000,0,0xFF,0x10
0.286188458333333,0,0xFF,0x16
0.288139500000000,0,0xB0,0x12
0.288157541666667,0,0xFF,0x12
0.288175750000000,0,0xFF,0x14
0.288200541666667,0,0x87,0x18
0.288218583333333,0,0xFF,0x00
0.288236791666667,0,0xFF,0x8E
0.288257333333333,0,0x07,0x12
0.288275375000000,0,0x00,0x12
0.288293416666667,0,0x18,0x10
0.289122916666667,0,0x07,0x01
0.289140958333333,0,0x00,0x01
0.289159000000000,0,0x33,0x81
0.289179625000000,0,0x34,0x01
0.289197625000000,0,0x00,0x81
0.289215708333333,0,0x80,0x01
0.289235958333333,0,0xC7,0x01
0.289253958333333,0,0xFF,0x80
0.289272166666667,0,0xFF,0x1A
0.289293041666667,0,0x07,0x01
0.289311083333333,0,0x00,0x01
0.289329125000000,0,0x33,0x81
0.290126625000000,0,0xB0,0x12
0.290144666666667,0,0xFF,0x12
0.290162875000000,0,0xFF,0x04
0.292113916666667,0,0x98,0x18
0.292131958333333,0,0xFF,0x02
0.292150166666667,0,0xFF,0x04
0.294101083333333,0,0xB0,0x12
0.294119125000000,0,0xFF,0x12
0.294137333333333,0,0xFF,0x04
0.296088333333333,0,0xF0,0x02
0.296106333333333,0,0x7F,0x12
0.296124541666667,0,0xFF,0x04
0.298075750000000,0,0x98,0x10
0.298093791666667,0,0xFF,0x02
0.298112000000000,0,0xFF,0x04
0.300063041666667,0,0xB0,0x12
0.300081083333333,0,0xFF,0x12
0.300099291666667,0,0xFF,0x00
0.302050375000000,0,0xB0,0x12
0.302068416666667,0,0xFF,0x10
0.302086625000000,0,0xFF,0x04
0.304037541666667,0,0xF0,0x02
0.304055541666667,0,0x7F,0x12
0.304073750000000,0,0xFF,0x06
0.306024916666667,0,0xB0,0x12
0.306042958333333,0,0xFF,0x12
0.306061125000000,0,0xFF,0x04
0.308012000000000,0,0x98,0x10
0.308030041666667,0,0xFF,0x02
0.308048250000000,0,0xFF,0x00
0.309999083333333,0,0x98,0x10
0.310017125000000,0,0xFF,0x13
0.310035333333333,0,0xFF,0x04
0.311986166666667,0,0xB0,0x13
0.312004166666667,0,0xFF,0x10
0.312022375000000,0,0xFF,0x06
0.313973500000000,0,0xF0,0x02
0.313991500000000,0,0x7F,0x12
0.314009708333333,0,0xFF,0x04
0.315960916666667,0,0x98,0x10
0.315978958333333,0,0xFF,0x02
0.315997166666667,0,0xFF,0x04
0.317948375000000,0,0xB0,0x13
0.317966375000000,0,0xFF,0x10
0.317984583333333,0,0xFF,0x06
0.319935708333333,0,0x98,0x10
0.319953750000000,0,0xFF,0x02
0.319971958333333,0,0xFF,0x00
0.319996750000000,0,0x87,0x12
0.320014791666667,0,0xFF,0x00
0.320033000000000,0,0xFF,0xB2
0.320053541666667,0,0x07,0x12
0.320071583333333,0,0x00,0x12
0.320089625000000,0,0x1C,0x1A
0.320919291666667,0,0x07,0x01
0.320937333333333,0,0x00,0x01
0.320955375000000,0,0x1C,0x01
0.320976000000000,0,0x30,0x00
0.320994000000000,0,0x00,0x01
0.321012083333333,0,0x80,0x01
0.321032333333333,0,0xC3,0x01
0.321050333333333,0,0xFF,0x00
0.321068541666667,0,0xFF,0x1E
0.321089416666667,0,0x07,0x01
0.321107458333333,0,0x00,0x01
0.321125541666667,0,0x94,0x01
0.321923125000000,0,0xB0,0x12
0.321941125000000,0,0xFF,0x10
0.321959333333333,0,0xFF,0x08
0.323910458333333,0,0xB0,0x13
0.323928458333333,0,0x7F,0x1A
0.323946666666667,0,0xFF,0x00
0.325897750000000,0,0x90,0x12
0.325915791666667,0,0xFF,0x13
0.325934000000000,0,0xFF,0x08
0.327885208333333,0,0x98,0x10
0.327903250000000,0,0xFF,0x02
0.327921458333333,0,0xFF,0x08
0.329872458333333,0,0x98,0x18
0.329890500000000,0,0xFF,0x02
0.329908708333333,0,0xFF,0x0C
0.331859791666667,0,0x98,0x18
0.331877833333333,0,0xFF,0x02
0.331896041666667,0,0xFF,0x0C
0.333847041666667,0,0x98,0x10
0.333865083333333,0,0xFF,0x02
0.333883291666667,0,0xFF,0x08
0.335834250000000,0,0xB0,0x12
0.335852291666667,0,0xFF,0x12
0.335870500000000,0,0xFF,0x0C
0.337821458333333,0,0xF0,0x13
0.337839458333333,0,0x7F,0x18
0.337857666666667,0,0xFF,0x08
0.339808708333333,0,0xB0,0x12
0.339826750000000,0,0xFF,0x12
0.339844958333333,0,0xFF,0x08
0.341796041666667,0,0xF0,0x12
0.341814041666667,0,0x7F,0x12
0.341832250000000,0,0xFF,0x00
0.343783041666667,0,0x98,0x1A
0.343801083333333,0,0xFF,0x12
0.343819291666667,0,0xFF,0x08
0.345770416666667,0,0xB0,0x13
0.345788416666667,0,0xFF,0x10
0.345806625000000,0,0xFF,0x08
0.347757458333333,0,0x98,0x10
0.347775500000000,0,0xFF,0x13
0.347793708333333,0,0xFF,0x08
0.349744625000000,0,0xB0,0x12
0.349762666666667,0,0xFF,0x12
0.349780875000000,0,0xFF,0x08
0.351731833333333,0,0xB0,0x12
0.351749833333333,0,0xFF,0x12
0.351768041666667,0,0xFF,0x08
0.351792833333333,0,0x87,0x1A
0.351810875000000,0,0xFF,0x00
0.351829083333333,0,0xFF,0xC4
0.351849625000000,0,0x07,0x10
0.351867666666667,0,0x00,0x02
0.351885708333333,0,0x3C,0x12
0.352715333333333,0,0x07,0x01
0.352733375000000,0,0x00,0x00
0.352751416666667,0,0x1C,0x01
0.352772041666667,0,0x30,0x00
0.352790041666667,0,0x00,0x01
0.352808125000000,0,0xC0,0x01
0.352828375000000,0,0x83,0x01
0.352846375000000,0,0xFF,0x00
0.352864583333333,0,0xFF,0x3C
0.352885458333333,0,0x07,0x01
0.352903500000000,0,0x00,0x01
0.352921541666667,0,0x1E,0x01
0.353719083333333,0,0x98,0x10
0.353737125000000,0,0xFF,0x02
0.353755333333333,0,0xFF,0x0C
0.355706500000000,0,0xF0,0x12
0.355724500000000,0,0x7F,0x12
0.355742708333333,0,0xFF,0x18
0.357693916666667,0,0xF0,0x02
0.357711916666667,0,0x7F,0x12
0.357730125000000,0,0xFF,0x18
0.359681583333333,0,0x90,0x12
0.359699625000000,0,0xFF,0x12
0.359717833333333,0,0xFF,0x18
0.361668875000000,0,0x98,0x10
0.361686916666667,0,0xFF,0x02
0.361705125000000,0,0xFF,0x18
0.363656500000000,0,0xB0,0x12
0.363674541666667,0,0xFF,0x13
0.363692750000000,0,0xFF,0x18
0.365643708333333,0,0x98,0x1A
0.365661750000000,0,0xFF,0x12
0.365679958333333,0,0xFF,0x08
0.367630916666667,0,0x98,0x18
0.367648958333333,0,0xFF,0x12
0.367667166666667,0,0xFF,0x08
0.369618250000000,0,0xB0,0x12
0.369636291666667,0,0xFF,0x12
0.369654458333333,0,0xFF,0x18
0.371605500000000,0,0x98,0x1A
0.371623541666667,0,0xFF,0x02
0.371641750000000,0,0xFF,0x0C
0.373592708333333,0,0xB0,0x12
0.373610708333333,0,0xFF,0x10
0.373628916666667,0,0xFF,0x18
0.375580166666667,0,0xF0,0x12
0.375598166666667,0,0x7F,0x12
0.375616375000000,0,0xFF,0x18
0.377567166666667,0,0x98,0x10
0.377585208333333,0,0xFF,0x12
0.377603416666667,0,0xFF,0x18
0.379554625000000,0,0xB0,0x13
0.379572625000000,0,0x7F,0x1A
0.379590833333333,0,0xFF,0x18
0.381541875000000,0,0x90,0x12
0.381559916666667,0,0xFF,0x12
0.381578125000000,0,0xFF,0x18
0.383529250000000,0,0xB0,0x12
0.383547250000000,0,0xFF,0x10
0.383565458333333,0,0xFF,0x18
0.383590250000000,0,0x87,0x12
0.383608291666667,0,0xFF,0x00
0.383626500000000,0,0xFF,0xBC
0.383647041666667,0,0x87,0x12
0.383665083333333,0,0x00,0x12
0.383683166666667,0,0x0E,0x02
0.384512666666667,0,0x07,0x01
0.384530708333333,0,0x00,0x01
0.384548791666667,0,0x0E,0x01
0.384569375000000,0,0x1C,0x01
0.384587416666667,0,0xC0,0x01
0.384605500000000,0,0x80,0x00
0.384625708333333,0,0x07,0x01
0.384643750000000,0,0xFF,0x00
0.384661958333333,0,0xFF,0x1E
0.384682833333333,0,0x07,0x01
0.384700875000000,0,0x00,0x00
0.384718916666667,0,0x1E,0x01
0.385516458333333,0,0x30,0x12
0.385534500000000,0,0xFF,0x12
0.385552708333333,0,0xFF,0x1C
0.387503875000000,0,0xF0,0x02
0.387521875000000,0,0x7F,0x1A
0.387540083333333,0,0xFF,0x1E
0.389491333333333,0,0xF0,0x12
0.389509333333333,0,0x7F,0x12
0.389527541666667,0,0xFF,0x1C
0.391478791666667,0,0xF0,0x02
0.391496791666667,0,0x7F,0x1A
0.391515000000000,0,0xFF,0x1E
0.393466333333333,0,0xF0,0x02
0.393484333333333,0,0x7F,0x12
0.393502541666667,0,0xFF,0x1E
0.395453666666667,0,0x98,0x10
0.395471708333333,0,0xFF,0x02
0.395489916666667,0,0xFF,0x1C
0.397440666666667,0,0x98,0x18
0.397458708333333,0,0xFF,0x12
0.397476916666667,0,0xFF,0x0C
0.399427958333333,0,0xF0,0x13
0.399445958333333,0,0x7F,0x1A
0.399464166666667,0,0xFF,0x1E
0.401415083333333,0,0x90,0x12
0.401433125000000,0,0xFF,0x12
0.401451333333333,0,0xFF,0x0C
0.403402500000000,0,0xF0,0x02
0.403420500000000,0,0x7F,0x12
0.403438708333333,0,0xFF,0x1C
0.405389833333333,0,0xF0,0x02
0.405407833333333,0,0x7F,0x12
0.405426041666667,0,0xFF,0x1C
0.407377041666667,0,0xB0,0x12
0.407395083333333,0,0xFF,0x13
0.407413291666667,0,0xFF,0x1C
0.409364500000000,0,0xB0,0x13
0.409382500000000,0,0xFF,0x10
0.409400708333333,0,0xFF,0x1C
0.411351708333333,0,0xB0,0x12
0.411369708333333,0,0xFF,0x12
0.411387916666667,0,0xFF,0x1C
0.413338916666667,0,0xB0,0x12
0.413356958333333,0,0xFF,0x12
0.413375166666667,0,0xFF,0x1C
0.415326208333333,0,0xF0,0x13
0.415344208333333,0,0x7F,0x1A
0.415362416666667,0,0xFF,0x1E
0.415387208333333,0,0x87,0x12
0.415405250000000,0,0xFF,0x00
0.415423458333333,0,0xFF,0x9E
0.415444000000000,0,0x07,0x10
0.415462041666667,0,0x00,0x02
0.415480083333333,0,0x46,0x12
0.416309708333333,0,0x07,0x01
0.416327750000000,0,0x00,0x01
0.416345791666667,0,0x47,0x81
0.416366416666667,0,0x30,0x01
0.416384416666667,0,0x00,0x81
0.416402500000000,0,0x80,0x01
0.416422750000000,0,0xC3,0x00
0.416440750000000,0,0xFF,0x00
0.416458958333333,0,0xFF,0x46
0.416479833333333,0,0x07,0x01
0.416497833333333,0,0x80,0x81
0.416515916666667,0,0xC6,0x01
0.417313333333333,0,0xB0,0x13
0.417331333333333,0,0xFF,0x10
0.417349541666667,0,0xFF,0x0C
0.419300458333333,0,0xB0,0x12
0.419318458333333,0,0xFF,0x12
0.419336666666667,0,0xFF,0x0C
0.421287708333333,0,0x98,0x10
0.421305750000000,0,0xFF,0x02
0.421323958333333,0,0xFF,0x0C
0.423275000000000,0,0xF0,0x02
0.423293000000000,0,0x7F,0x1A
0.423311208333333,0,0xFF,0x06
0.425262208333333,0,0x90,0x12
0.425280250000000,0,0xFF,0x12
0.425298458333333,0,0xFF,0x0C
0.427249500000000,0,0xB0,0x12
0.427267500000000,0,0xFF,0x10
0.427285708333333,0,0xFF,0x0C
0.429236708333333,0,0x98,0x1A
0.429254750000000,0,0xFF,0x12
0.429272958333333,0,0xFF,0x0C
0.431224000000000,0,0xB0,0x12
0.431242041666667,0,0xFF,0x12
0.431260208333333,0,0xFF,0x0C
0.433211208333333,0,0xB0,0x12
0.433229250000000,0,0xFF,0x12
0.433247416666667,0,0xFF,0x0C
0.435198583333333,0,0xF0,0x02
0.435216583333333,0,0x7F,0x12
0.435234791666667,0,0xFF,0x04
0.437185833333333,0,0xF0,0x12
0.437203833333333,0,0x7F,0x12
0.437222041666667,0,0xFF,0x06
0.439173041666667,0,0xB0,0x12
0.439191083333333,0,0xFF,0x12
0.439209250000000,0,0xFF,0x0C
0.441160208333333,0,0xB0,0x12
0.441178208333333,0,0xFF,0x10
0.441196416666667,0,0xFF,0x0C
0.443147583333333,0,0xF0,0x12
0.443165583333333,0,0x7F,0x1A
0.443183791666667,0,0xFF,0x0E
0.445134750000000,0,0xB0,0x12
0.445152791666667,0,0xFF,0x12
0.445171000000000,0,0xFF,0x0C
0.447121916666667,0,0x98,0x18
0.447139958333333,0,0xFF,0x02
0.447158166666667,0,0xFF,0x0C
0.447182958333333,0,0x87,0x12
0.447201000000000,0,0xFF,0x00
0.447219208333333,0,0xFF,0xC6
0.447239750000000,0,0x07,0x12
0.447257791666667,0,0x00,0x12
0.447275833333333,0,0x00,0x10
0.448105250000000,0,0x07,0x01
0.448123291666667,0,0x00,0x01
0.448141375000000,0,0x00,0x00
0.448161958333333,0,0x1E,0x01
0.448180000000000,0,0xC0,0x01
0.448198041666667,0,0x00,0x81
0.448218291666667,0,0x07,0x01
0.448236333333333,0,0xFF,0x00
0.448254541666667,0,0xFF,0x00
0.448275416666667,0,0x03,0x01
0.448293416666667,0,0x80,0x01
0.448311500000000,0,0x80,0x01
0.449108958333333,0,0x18,0x1A
0.449127000000000,0,0xFF,0x12
0.449145208333333,0,0xFF,0x00
0.451096125000000,0,0x98,0x18
0.451114166666667,0,0xFF,0x02
0.451132375000000,0,0xFF,0x00
0.453083208333333,0,0xB0,0x12
0.453101208333333,0,0x7F,0x12
0.453119416666667,0,0xFF,0x00
0.455070291666667,0,0x98,0x10
0.455088333333333,0,0xFF,0x13
0.455106541666667,0,0xFF,0x00
0.457057458333333,0,0xB0,0x12
0.457075458333333,0,0xFF,0x12
0.457093666666667,0,0xFF,0x00
0.459044500000000,0,0xB0,0x12
0.459062541666667,0,0xFF,0x12
0.459080750000000,0,0xFF,0x00
0.461031666666667,0,0x98,0x1A
0.461049708333333,0,0xFF,0x12
0.461067916666667,0,0xFF,0x00
0.463018875000000,0,0x90,0x12
0.463036916666667,0,0xFF,0x12
0.463055125000000,0,0xFF,0x00
0.465005916666667,0,0xB0,0x12
0.465023916666667,0,0xFF,0x12
0.465042125000000,0,0xFF,0x00
0.466993000000000,0,0xF0,0x12
0.467011000000000,0,0x7F,0x12
0.467029208333333,0,0xFF,0x00
0.468980000000000,0,0xF0,0x13
0.468998000000000,0,0x7F,0x18
0.469016208333333,0,0xFF,0x00
0.470967125000000,0,0xB0,0x12
0.470985125000000,0,0xFF,0x12
0.471003333333333,0,0xFF,0x00
0.472954250000000,0,0x98,0x1A
0.472972291666667,0,0xFF,0x02
0.472990500000000,0,0xFF,0x00
0.474941333333333,0,0xB0,0x12
0.474959375000000,0,0xFF,0x13
0.474977583333333,0,0xFF,0x00
0.476928500000000,0,0xF0,0x12
0.476946541666667,0,0xFF,0x12
0.476964708333333,0,0xFF,0x00
0.478915750000000,0,0xB0,0x12
0.478933791666667,0,0xFF,0x12
0.478952000000000,0,0xFF,0x00
0.478976791666667,0,0x87,0x12
0.478994833333333,0,0xFF,0x00
0.479013041666667,0,0xFF,0x80
0.479033625000000,0,0x07,0x12
0.479051625000000,0,0x00,0x10
0.479069708333333,0,0x28,0x12
0.479899458333333,0,0x07,0x01
0.479917458333333,0,0x00,0x01
0.479935541666667,0,0x38,0x01
0.479956125000000,0,0x1C,0x01
0.479974166666667,0,0xC0,0x01
0.479992250000000,0,0x80,0x00
0.480012458333333,0,0x07,0x81
0.480030500000000,0,0xFF,0x00
0.480048708333333,0,0xFF,0x28
0.480069583333333,0,0x07,0x01
0.480087625000000,0,0x00,0x01
0.480105708333333,0,0xAC,0x01
0.480903541666667,0,0x10,0x12
0.480921583333333,0,0xFF,0x12
0.480939791666667,0,0xFF,0x10
0.482890708333333,0,0xB0,0x12
0.482908750000000,0,0xFF,0x12
0.482926958333333,0,0xFF,0x00
0.484878125000000,0,0xF0,0x02
0.484896125000000,0,0x7F,0x12
0.484914333333333,0,0xFF,0x18
0.486865416666667,0,0xB0,0x13
0.486883416666667,0,0x7F,0x18
0.486901625000000,0,0xFF,0x10
0.488852666666667,0,0x98,0x10
0.488870708333333,0,0xFF,0x02
0.488888916666667,0,0xFF,0x10
0.490839916666667,0,0xF0,0x12
0.490857916666667,0,0x7F,0x12
0.490876125000000,0,0xFF,0x10
0.492827000000000,0,0xF0,0x02
0.492845000000000,0,0x7F,0x1A
0.492863208333333,0,0xFF,0x18
0.494814208333333,0,0x98,0x10
0.494832250000000,0,0xFF,0x12
0.494850458333333,0,0xFF,0x10
0.496801333333333,0,0x98,0x1A
0.496819375000000,0,0xFF,0x02
0.496837583333333,0,0xFF,0x10
0.498788541666667,0,0x98,0x10
0.498806583333333,0,0xFF,0x12
0.498824791666667,0,0xFF,0x10
0.500775666666667,0,0x98,0x18
0.500793708333333,0,0xFF,0x02
0.500811916666667,0,0xFF,0x00
0.502762958333333,0,0xF0,0x02
0.502780958333333,0,0x7F,0x12
0.502799166666667,0,0xFF,0x10
0.504750083333333,0,0xB0,0x13
0.504768083333333,0,0x7F,0x1A
0.504786291666667,0,0xFF,0x10
0.506737416666667,0,0xF0,0x02
0.506755416666667,0,0x7F,0x1A
0.506773625000000,0,0xFF,0x10
0.508724333333333,0,0x98,0x12
0.508742375000000,0,0xFF,0x13
0.508760583333333,0,0xFF,0x10
0.510711500000000,0,0x98,0x10
0.510729541666667,0,0xFF,0x12
0.510747750000000,0,0xFF,0x10
0.510772541666667,0,0xC3,0x13
0.510790541666667,0,0xFF,0x00
0.510808750000000,0,0xFF,0xA8
0.510829291666667,0,0x87,0x12
0.510847333333333,0,0x00,0x12
0.510865416666667,0,0x0B,0x12
0.511694833333333,0,0x07,0x01
0.511712833333333,0,0x00,0x01
0.511730916666667,0,0x0E,0x01
0.511751500000000,0,0x1E,0x01
0.511769541666667,0,0xC0,0x01
0.511787583333333,0,0x00,0x81
0.511807833333333,0,0x87,0x01
0.511825875000000,0,0xFF,0x00
0.511844083333333,0,0xFF,0x0A
0.511864916666667,0,0x87,0x01
0.511882958333333,0,0x00,0x01
0.511901041666667,0,0x8F,0x00
0.512698500000000,0,0x18,0x10
0.512716541666667,0,0xFF,0x13
0.512734750000000,0,0xFF,0x14
0.514685541666667,0,0xB0,0x12
0.514703583333333,0,0xFF,0x12
0.514721791666667,0,0xFF,0x00
0.516672708333333,0,0xF0,0x02
0.516690708333333,0,0x7F,0x12
0.516708916666667,0,0xFF,0x1C
0.518659916666667,0,0xF0,0x02
0.518677916666667,0,0x7F,0x12
0.518696125000000,0,0xFF,0x1E
0.520647000000000,0,0x98,0x10
0.520665041666667,0,0xFF,0x02
0.520683250000000,0,0xFF,0x14
0.522634250000000,0,0x90,0x12
0.522652291666667,0,0xFF,0x12
0.522670500000000,0,0xFF,0x14
0.524621500000000,0,0xB0,0x12
0.524639541666667,0,0xFF,0x12
0.524657750000000,0,0xFF,0x00
0.526608833333333,0,0xB0,0x12
0.526626833333333,0,0xFF,0x10
0.526645041666667,0,0xFF,0x14
0.528596000000000,0,0x98,0x12
0.528614041666667,0,0xFF,0x12
0.528632250000000,0,0xFF,0x14
0.530583166666667,0,0xF0,0x02
0.530601166666667,0,0x7F,0x12
0.530619375000000,0,0xFF,0x16
0.532570291666667,0,0xF0,0x02
0.532588291666667,0,0x7F,0x1A
0.532606500000000,0,0xFF,0x14
0.534557333333333,0,0xF0,0x02
0.534575333333333,0,0x7F,0x1A
0.534593541666667,0,0xFF,0x16
0.536544250000000,0,0xB0,0x12
0.536562291666667,0,0xFF,0x12
0.536580458333333,0,0xFF,0x1C
0.538531291666667,0,0x90,0x12
0.538549333333333,0,0xFF,0x13
0.538567541666667,0,0xFF,0x14
0.540518458333333,0,0xB0,0x12
0.540536500000000,0,0xFF,0x12
0.540554666666667,0,0xFF,0x14
0.542505833333333,0,0xF0,0x02
0.542523833333333,0,0x7F,0x12
0.542542041666667,0,0xFF,0x1C
0.542566875000000,0,0x87,0x12
0.542584875000000,0,0xFF,0x00
0.542603083333333,0,0xFF,0x88
0.542623625000000,0,0x87,0x12
0.542641666666667,0,0x00,0x12
0.542659750000000,0,0x32,0x02
0.543489208333333,0,0x07,0x01
0.543507250000000,0,0x00,0x01
0.543525291666667,0,0x18,0x01
0.543545916666667,0,0x30,0x00
0.543563916666667,0,0x00,0x01
0.543582000000000,0,0xC0,0x01
0.543602250000000,0,0x83,0x00
0.543620250000000,0,0xFF,0x00
0.543638458333333,0,0xFF,0x32
0.543659333333333,0,0x07,0x01
0.543677375000000,0,0x00,0x00
0.543695416666667,0,0x1A,0x01
0.544492916666667,0,0x98,0x12
0.544510958333333,0,0xFF,0x13
0.544529166666667,0,0xFF,0x04
0.546480125000000,0,0xB0,0x12
0.546498166666667,0,0xFF,0x12
0.546516375000000,0,0xFF,0x04
0.548467375000000,0,0xF0,0x02
0.548485375000000,0,0x7F,0x12
0.548503583333333,0,0xFF,0x04
0.550454666666667,0,0xB0,0x12
0.550472708333333,0,0xFF,0x13
0.550490916666667,0,0xFF,0x04
0.552442291666667,0,0xB0,0x12
0.552460291666667,0,0xFF,0x10
0.552478500000000,0,0xFF,0x04
0.554429583333333,0,0xB0,0x12
0.554447625000000,0,0xFF,0x12
0.554465791666667,0,0xFF,0x04
0.556416833333333,0,0xB0,0x12
0.556434833333333,0,0xFF,0x12
0.556453041666667,0,0xFF,0x04
0.558404208333333,0,0x98,0x1A
0.558422250000000,0,0xFF,0x02
0.558440458333333,0,0xFF,0x00
0.560391583333333,0,0x98,0x18
0.560409625000000,0,0xFF,0x12
0.560427833333333,0,0xFF,0x04
0.562378958333333,0,0xB0,0x12
0.562397000000000,0,0xFF,0x12
0.562415208333333,0,0xFF,0x04
0.564366250000000,0,0xB0,0x13
0.564384250000000,0,0xFF,0x10
0.564402458333333,0,0xFF,0x04
0.566353458333333,0,0xB0,0x12
0.566371500000000,0,0xFF,0x12
0.566389708333333,0,0xFF,0x04
0.568340791666667,0,0xB0,0x12
0.568358833333333,0,0xFF,0x13
0.568377041666667,0,0xFF,0x04
0.570327958333333,0,0x98,0x18
0.570346000000000,0,0xFF,0x02
0.570364208333333,0,0xFF,0x04
0.572315041666667,0,0xB0,0x12
0.572333083333333,0,0xFF,0x12
0.572351250000000,0,0xFF,0x04
0.574302291666667,0,0xF0,0x12
0.574320333333333,0,0xFF,0x12
0.574338500000000,0,0xFF,0x04
0.574363333333333,0,0xC3,0x13
0.574381333333333,0,0xFF,0x00
0.574399541666667,0,0xFF,0xB0
0.574420083333333,0,0x87,0x12
0.574438125000000,0,0x00,0x12
0.574456208333333,0,0x00,0x02
0.575285791666667,0,0x07,0x01
0.575303833333333,0,0x00,0x01
0.575321875000000,0,0x1E,0x01
0.575342500000000,0,0x34,0x01
0.575360500000000,0,0x80,0x01
0.575378583333333,0,0xC0,0x01
0.575398791666667,0,0x07,0x81
0.575416833333333,0,0xFF,0x00
0.575435041666667,0,0xFF,0x14
0.575455916666667,0,0x03,0x01
0.575473916666667,0,0x80,0x01
0.575492000000000,0,0x94,0x01
0.576289458333333,0,0xB0,0x13
0.576307458333333,0,0xFF,0x12
0.576325666666667,0,0xFF,0x08
0.578276708333333,0,0xB0,0x12
0.578294750000000,0,0xFF,0x12
0.578312958333333,0,0xFF,0x08
0.580264083333333,0,0xF0,0x02
0.580282083333333,0,0x7F,0x12
0.580300291666667,0,0xFF,0x08
0.582251625000000,0,0xF0,0x12
0.582269666666667,0,0xFF,0x12
0.582287833333333,0,0xFF,0x08
0.584238875000000,0,0xB0,0x12
0.584256916666667,0,0xFF,0x12
0.584275125000000,0,0xFF,0x08
0.586226291666667,0,0xB0,0x12
0.586244291666667,0,0xFF,0x12
0.586262500000000,0,0xFF,0x08
0.588213583333333,0,0xB0,0x12
0.588231625000000,0,0xFF,0x12
0.588249833333333,0,0xFF,0x08
0.590200666666667,0,0xF0,0x02
0.590218666666667,0,0x7F,0x12
0.590236875000000,0,0xFF,0x00
0.592187833333333,0,0xB0,0x12
0.592205875000000,0,0xFF,0x12
0.592224083333333,0,0xFF,0x08
0.594175250000000,0,0xB0,0x12
0.594193250000000,0,0xFF,0x10
0.594211458333333,0,0xFF,0x08
0.596162541666667,0,0x90,0x12
0.596180583333333,0,0xFF,0x12
0.596198791666667,0,0xFF,0x08
0.598149541666667,0,0xB0,0x12
0.598167541666667,0,0xFF,0x12
0.598185750000000,0,0xFF,0x08
0.600136875000000,0,0x98,0x18
0.600154916666667,0,0xFF,0x02
0.600173125000000,0,0xFF,0x0C
0.602124208333333,0,0xB0,0x12
0.602142250000000,0,0xFF,0x12
0.602160458333333,0,0xFF,0x08
0.604111250000000,0,0xF0,0x12
0.604129291666667,0,0xFF,0x12
0.604147458333333,0,0xFF,0x08
0.606098500000000,0,0x98,0x1A
0.606116541666667,0,0xFF,0x02
0.606134750000000,0,0xFF,0x0C
0.606159541666667,0,0x87,0x12
0.606177583333333,0,0xFF,0x00
0.606195750000000,0,0xFF,0x14
0.606216333333333,0,0x03,0x13
0.606234333333333,0,0x80,0x1A
0.606252416666667,0,0x3C,0x12
0.607081958333333,0,0x07,0x01
0.607100000000000,0,0x00,0x01
0.607118041666667,0,0x3C,0x81
0.607138666666667,0,0x30,0x01
0.607156666666667,0,0x00,0x81
0.607174750000000,0,0x80,0x01
0.607195000000000,0,0xC3,0x00
0.607213000000000,0,0xFF,0x00
0.607231208333333,0,0xFF,0x3E
0.607252083333333,0,0x07,0x01
0.607270125000000,0,0x00,0x00
0.607288166666667,0,0x1C,0x01
0.608085958333333,0,0xF0,0x13
0.608103958333333,0,0x7F,0x18
0.608122166666667,0,0xFF,0x18
0.610072916666667,0,0xF0,0x02
0.610090916666667,0,0x7F,0x12
0.610109125000000,0,0xFF,0x18
0.612060083333333,0,0x98,0x18
0.612078125000000,0,0xFF,0x02
0.612096333333333,0,0xFF,0x0C
0.614047375000000,0,0x98,0x1A
0.614065416666667,0,0xFF,0x02
0.614083625000000,0,0xFF,0x18
0.616034625000000,0,0x90,0x12
0.616052666666667,0,0xFF,0x13
0.616070875000000,0,0xFF,0x18
0.618021833333333,0,0xB0,0x12
0.618039875000000,0,0xFF,0x12
0.618058041666667,0,0xFF,0x18
0.620008750000000,0,0x90,0x12
0.620026791666667,0,0xFF,0x12
0.620045000000000,0,0xFF,0x1C
0.621995750000000,0,0xB0,0x12
0.622013791666667,0,0xFF,0x12
0.622031958333333,0,0xFF,0x18
0.623982625000000,0,0xF0,0x02
0.624000625000000,0,0x7F,0x1A
0.624018833333333,0,0xFF,0x18
0.625969583333333,0,0xF0,0x02
0.625987583333333,0,0x7F,0x18
0.626005791666667,0,0xFF,0x18
0.627956958333333,0,0xF0,0x02
0.627974958333333,0,0x7F,0x12
0.627993166666667,0,0xFF,0x18
0.629943791666667,0,0xF0,0x02
0.629961791666667,0,0x7F,0x1A
0.629980000000000,0,0xFF,0x18
0.631930833333333,0,0x98,0x18
0.631948875000000,0,0xFF,0x02
0.631967083333333,0,0xFF,0x18
0.633918000000000,0,0xB0,0x12
0.633936041666667,0,0xFF,0x12
0.633954250000000,0,0xFF,0x0C
0.635905166666667,0,0x98,0x1A
0.635923208333333,0,0xFF,0x02
0.635941416666667,0,0xFF,0x0C
0.637892416666667,0,0xB0,0x12
0.637910458333333,0,0xFF,0x12
0.637928666666667,0,0xFF,0x0C
0.637953458333333,0,0x87,0x12
0.637971458333333,0,0xFF,0x00
0.637989666666667,0,0xFF,0x9E
0.638010250000000,0,0x07,0x12
0.638028250000000,0,0x00,0x12
0.638046333333333,0,0x1F,0x12
0.638875791666667,0,0x07,0x01
0.638893833333333,0,0x00,0x00
0.638911875000000,0,0x1E,0x01
0.638932500000000,0,0x34,0x01
0.638950500000000,0,0x80,0x01
0.638968583333333,0,0xC0,0x00
0.638988791666667,0,0x07,0x01
0.639006833333333,0,0xFF,0x00
0.639025041666667,0,0xFF,0x1E
0.639045916666667,0,0x03,0x00
0.639063916666667,0,0x00,0x01
0.639082000000000,0,0xCE,0x01
0.639879125000000,0,0x18,0x1A
0.639897166666667,0,0xFF,0x12
0.639915375000000,0,0xFF,0x1C
0.641866541666667,0,0xB0,0x12
0.641884541666667,0,0xFF,0x12
0.641902750000000,0,0xFF,0x1C
0.643853250000000,0,0xB0,0x12
0.643871291666667,0,0xFF,0x13
0.643889500000000,0,0xFF,0x1C
0.645840125000000,0,0xB0,0x12
0.645858166666667,0,0xFF,0x12
0.645876333333333,0,0xFF,0x1C
0.647827208333333,0,0xF0,0x12
0.647845208333333,0,0x7F,0x12
0.647863416666667,0,0xFF,0x1E
0.649814041666667,0,0x90,0x12
0.649832083333333,0,0xFF,0x12
0.649850291666667,0,0xFF,0x0C
0.651801333333333,0,0xF0,0x02
0.651819333333333,0,0x7F,0x12
0.651837541666667,0,0xFF,0x1C
0.653788416666667,0,0x90,0x12
0.653806458333333,0,0xFF,0x12
0.653824666666667,0,0xFF,0x1C
0.655775375000000,0,0x98,0x10
0.655793416666667,0,0xFF,0x02
0.655811625000000,0,0xFF,0x1C
0.657762583333333,0,0xB0,0x13
0.657780583333333,0,0x7F,0x10
0.657798791666667,0,0xFF,0x1E
0.659749916666667,0,0xF0,0x02
0.659767916666667,0,0x7F,0x12
0.659786125000000,0,0xFF,0x1C
0.661737208333333,0,0xB0,0x12
0.661755250000000,0,0xFF,0x13
0.661773458333333,0,0xFF,0x1C
0.663724541666667,0,0xB0,0x12
0.663742583333333,0,0xFF,0x12
0.663760791666667,0,0xFF,0x1C
0.665712083333333,0,0xB0,0x12
0.665730125000000,0,0xFF,0x13
0.665748333333333,0,0xFF,0x1C
0.667699416666667,0,0xF0,0x12
0.667717458333333,0,0xFF,0x12
0.667735666666667,0,0xFF,0x1C
0.669686750000000,0,0xB0,0x12
0.669704791666667,0,0xFF,0x13
0.669723000000000,0,0xFF,0x1C
0.669747791666667,0,0xC3,0x02
0.669765791666667,0,0xFF,0x00
0.669784000000000,0,0xFF,0x9E
0.669804583333333,0,0x03,0x13
0.669822583333333,0,0x00,0x10
0.669840666666667,0,0x06,0x12
0.670670291666667,0,0x07,0x01
0.670688291666667,0,0x00,0x01
0.670706375000000,0,0x02,0x01
0.670726958333333,0,0x1E,0x01
0.670745000000000,0,0xC0,0x01
0.670763041666667,0,0x00,0x81
0.670783291666667,0,0x87,0x01
0.670801333333333,0,0xFF,0x00
0.670819541666667,0,0xFF,0x46
0.670840416666667,0,0x03,0x00
0.670858416666667,0,0x80,0x01
0.670876500000000,0,0xC6,0x01
0.671673958333333,0,0x30,0x92
0.671692000000000,0,0xFF,0x12
0.671710208333333,0,0xFF,0x0C
0.673661166666667,0,0xB0,0x12
0.673679208333333,0,0xFF,0x12
0.673697416666667,0,0xFF,0x0C
0.675648500000000,0,0xF0,0x12
0.675666500000000,0,0x7F,0x12
0.675684708333333,0,0xFF,0x0C
0.677635750000000,0,0x90,0x12
0.677653791666667,0,0xFF,0x12
0.677672000000000,0,0xFF,0x0C
0.679623291666667,0,0xF0,0x02
0.679641291666667,0,0x7F,0x12
0.679659500000000,0,0xFF,0x04
0.681610666666667,0,0x98,0x10
0.681628708333333,0,0xFF,0x12
0.681646916666667,0,0xFF,0x0C
0.683597833333333,0,0xF0,0x02
0.683615833333333,0,0x7F,0x12
0.683634041666667,0,0xFF,0x04
0.685585125000000,0,0xF0,0x12
0.685603125000000,0,0x7F,0x12
0.685621333333333,0,0xFF,0x04
0.687572416666667,0,0xF0,0x13
0.687590416666667,0,0x7F,0x18
0.687608625000000,0,0xFF,0x0C
0.689559666666667,0,0x98,0x1A
0.689577708333333,0,0xFF,0x12
0.689595916666667,0,0xFF,0x0C
0.691547000000000,0,0x98,0x12
0.691565041666667,0,0xFF,0x13
0.691583250000000,0,0xFF,0x0C
0.693534041666667,0,0x98,0x10
0.693552083333333,0,0xFF,0x02
0.693570291666667,0,0xFF,0x0C
0.695521333333333,0,0x98,0x1A
0.695539375000000,0,0xFF,0x12
0.695557583333333,0,0xFF,0x0C
0.697508625000000,0,0xB0,0x13
0.697526625000000,0,0xFF,0x10
0.697544833333333,0,0xFF,0x0C
0.699495833333333,0,0xF0,0x13
0.699513833333333,0,0x7F,0x10
0.699532041666667,0,0xFF,0x0C
0.701483041666667,0,0xF0,0x12
0.701501083333333,0,0xFF,0x12
0.701519250000000,0,0xFF,0x0C
0.701544083333333,0,0xC3,0x12
0.701562083333333,0,0xFF,0x00
0.701580291666667,0,0xFF,0xC6
0.701600875000000,0,0x07,0x12
0.701618875000000,0,0x00,0x12
0.701636958333333,0,0x00,0x02
0.702466541666667,0,0x07,0x01
0.702484583333333,0,0x00,0x01
0.702502625000000,0,0x00,0x81
0.702523250000000,0,0x30,0x01
0.702541250000000,0,0x00,0x81
0.702559333333333,0,0x80,0x01
0.702579583333333,0,0xC3,0x00
0.702597583333333,0,0xFF,0x00
0.702615791666667,0,0xFF,0x00
0.702636666666667,0,0x07,0x01
0.702654666666667,0,0x80,0x81
0.702672750000000,0,0x80,0x01
0.703470250000000,0,0xB0,0x13
0.703488250000000,0,0xFF,0x10
0.703506458333333,0,0xFF,0x00
0.705457416666667,0,0xF0,0x12
0.705475416666667,0,0x7F,0x12
0.705493625000000,0,0xFF,0x00
0.707444625000000,0,0xB0,0x12
0.707462666666667,0,0xFF,0x12
0.707480833333333,0,0xFF,0x00
0.709431833333333,0,0xF0,0x12
0.709449833333333,0,0x7F,0x12
0.709468041666667,0,0xFF,0x00
0.711419208333333,0,0x98,0x1A
0.711437250000000,0,0xFF,0x02
0.711455458333333,0,0xFF,0x00
0.713406333333333,0,0xB0,0x13
0.713424333333333,0,0xFF,0x18
0.713442541666667,0,0xFF,0x00
0.715393291666667,0,0xB0,0x12
0.715411333333333,0,0xFF,0x12
0.715429541666667,0,0xFF,0x00
0.717380208333333,0,0xF0,0x13
0.717398208333333,0,0xFF,0x10
0.717416416666667,0,0xFF,0x00
0.719367625000000,0,0xF0,0x12
0.719385625000000,0,0x7F,0x12
0.719403833333333,0,0xFF,0x00
0.721354625000000,0,0xF0,0x12
0.721372625000000,0,0x7F,0x1A
0.721390833333333,0,0xFF,0x00
0.723341875000000,0,0xB0,0x12
0.723359916666667,0,0xFF,0x12
0.723378125000000,0,0xFF,0x00
0.725329208333333,0,0x90,0x12
0.725347250000000,0,0xFF,0x12
0.725365458333333,0,0xFF,0x00
0.727316458333333,0,0xB0,0x13
0.727334458333333,0,0xFF,0x18
0.727352666666667,0,0xFF,0x00
0.729303708333333,0,0xF0,0x12
0.729321708333333,0,0x7F,0x12
0.729339916666667,0,0xFF,0x00
0.731291083333333,0,0xB0,0x12
0.731309125000000,0,0xFF,0x12
0.731327333333333,0,0xFF,0x00
0.733278458333333,0,0xB0,0x12
0.733296500000000,0,0xFF,0x13
0.733314708333333,0,0xFF,0x00
0.733339500000000,0,0xC7,0x02
0.733357500000000,0,0xFF,0x00
0.733375708333333,0,0xFF,0x80
0.733396291666667,0,0x03,0x12
0.733414291666667,0,0x80,0x12
0.733432375000000,0,0x20,0x12
0.734262041666667,0,0x07,0x01
0.734280083333333,0,0x00,0x01
0.734298166666667,0,0x3C,0x00
0.734318750000000,0,0x36,0x01
0.734336791666667,0,0x80,0x00
0.734354833333333,0,0x00,0x01
0.734375083333333,0,0x87,0x01
0.734393125000000,0,0xFF,0x00
0.734411333333333,0,0xFF,0x28
0.734432208333333,0,0x03,0x01
0.734450208333333,0,0x00,0x01
0.734468291666667,0,0xE8,0x01
0.735265791666667,0,0x30,0x92
0.735283833333333,0,0xFF,0x12
0.735302041666667,0,0xFF,0x10
0.737253000000000,0,0xB0,0x12
0.737271041666667,0,0xFF,0x12
0.737289250000000,0,0xFF,0x00
0.739240250000000,0,0xB0,0x12
0.739258291666667,0,0xFF,0x12
0.739276500000000,0,0xFF,0x10
0.741227541666667,0,0xB0,0x12
0.741245583333333,0,0xFF,0x12
0.741263791666667,0,0xFF,0x10
0.743214791666667,0,0xB0,0x12
0.743232791666667,0,0xFF,0x12
0.743251000000000,0,0xFF,0x10
0.745202083333333,0,0xB0,0x12
0.745220083333333,0,0xFF,0x10
0.745238291666667,0,0xFF,0x10
0.747189208333333,0,0x98,0x10
0.747207250000000,0,0xFF,0x02
0.747225458333333,0,0xFF,0x00
0.749176416666667,0,0x98,0x10
0.749194458333333,0,0xFF,0x13
0.749212666666667,0,0xFF,0x10
0.751163541666667,0,0xF0,0x02
0.751181541666667,0,0x7F,0x1A
0.751199750000000,0,0xFF,0x10
0.753150625000000,0,0xB0,0x12
0.753168625000000,0,0xFF,0x12
0.753186833333333,0,0xFF,0x10
0.755137625000000,0,0x98,0x1A
0.755155666666667,0,0xFF,0x02
0.755173875000000,0,0xFF,0x10
0.757124875000000,0,0xB0,0x13
0.757142875000000,0,0x7F,0x10
0.757161083333333,0,0xFF,0x10
0.759112041666667,0,0xF0,0x02
0.759130041666667,0,0x7F,0x1A
0.759148250000000,0,0xFF,0x10
0.761099083333333,0,0xF0,0x02
0.761117083333333,0,0x7F,0x12
0.761135291666667,0,0xFF,0x18
0.763086166666667,0,0xF0,0x02
0.763104166666667,0,0x7F,0x1A
0.763122375000000,0,0xFF,0x10
0.765073250000000,0,0xF0,0x02
0.765091250000000,0,0x7F,0x1A
0.765109458333333,0,0xFF,0x18
0.765134250000000,0,0x87,0x12
0.765152291666667,0,0xFF,0x00
0.765170500000000,0,0xFF,0xA8
0.765191041666667,0,0x07,0x10
0.765209083333333,0,0x00,0x02
0.765227125000000,0,0x0A,0x12
0.766056708333333,0,0x07,0x01
0.766074750000000,0,0x00,0x00
0.766092791666667,0,0x02,0x01
0.766113416666667,0,0x30,0x00
0.766131416666667,0,0x00,0x01
0.766149500000000,0,0xC0,0x01
0.766169750000000,0,0x83,0x01
0.766187750000000,0,0xFF,0x00
0.766205958333333,0,0xFF,0x08
0.766226833333333,0,0x07,0x01
0.766244875000000,0,0x00,0x01
0.766262916666667,0,0x0B,0x81
0.767060416666667,0,0xB0,0x12
0.767078458333333,0,0xFF,0x13
0.767096666666667,0,0xFF,0x14
0.769047541666667,0,0xF0,0x02
0.769065541666667,0,0x7F,0x12
0.769083750000000,0,0xFF,0x1C
0.771034625000000,0,0xF0,0x02
0.771052625000000,0,0x7F,0x1A
0.771070833333333,0,0xFF,0x16
0.773021666666667,0,0x98,0x10
0.773039708333333,0,0xFF,0x02
0.773057916666667,0,0xFF,0x14
0.775008791666667,0,0xB0,0x12
0.775026791666667,0,0xFF,0x12
0.775045000000000,0,0xFF,0x14
0.776996000000000,0,0xF0,0x13
0.777014000000000,0,0x7F,0x10
0.777032208333333,0,0xFF,0x14
0.778983083333333,0,0xB0,0x13
0.779001083333333,0,0x7F,0x1A
0.779019291666667,0,0xFF,0x16
0.780970208333333,0,0x98,0x18
0.780988250000000,0,0xFF,0x02
0.781006458333333,0,0xFF,0x10
0.782957375000000,0,0xB0,0x12
0.782975416666667,0,0xFF,0x12
0.782993583333333,0,0xFF,0x14
0.784944583333333,0,0xF0,0x02
0.784962583333333,0,0x7F,0x12
0.784980791666667,0,0xFF,0x14
0.786931750000000,0,0xF0,0x02
0.786949750000000,0,0x7F,0x12
0.786967958333333,0,0xFF,0x14
0.788919000000000,0,0x98,0x1A
0.788937041666667,0,0xFF,0x12
0.788955250000000,0,0xFF,0x00
0.790906250000000,0,0xB0,0x12
0.790924291666667,0,0xFF,0x12
0.790942500000000,0,0xFF,0x14
0.792893541666667,0,0xB0,0x13
0.792911541666667,0,0xFF,0x10
0.792929750000000,0,0xFF,0x14
0.794880541666667,0,0x98,0x18
0.794898583333333,0,0xFF,0x12
0.794916791666667,0,0xFF,0x14
0.796867583333333,0,0xB0,0x13
0.796885583333333,0,0x7F,0x18
0.796903791666667,0,0xFF,0x16
0.796928583333333,0,0x87,0x12
0.796946625000000,0,0xFF,0x00
0.796964833333333,0,0xFF,0x8A
0.796985375000000,0,0x87,0x1A
0.797003416666667,0,0x00,0x02
0.797021458333333,0,0x32,0x12
0.797851083333333,0,0x07,0x01
0.797869125000000,0,0x00,0x01
0.797887166666667,0,0x18,0x01
0.797907791666667,0,0x30,0x00
0.797925791666667,0,0x00,0x01
0.797943875000000,0,0xC0,0x01
0.797964125000000,0,0x83,0x01
0.797982125000000,0,0xFF,0x00
0.798000333333333,0,0xFF,0x32
0.798021208333333,0,0x07,0x01
0.798039250000000,0,0x00,0x00
0.798057291666667,0,0x1A,0x01
0.798854750000000,0,0xB0,0x12
0.798872791666667,0,0xFF,0x12
0.798890958333333,0,0xFF,0x04
0.800841916666667,0,0xB0,0x12
0.800859916666667,0,0xFF,0x12
0.800878125000000,0,0xFF,0x04
0.802829166666667,0,0xF0,0x12
0.802847208333333,0,0xFF,0x12
0.802865375000000,0,0xFF,0x04
0.804816416666667,0,0xF0,0x02
0.804834416666667,0,0x7F,0x1A
0.804852625000000,0,0xFF,0x06
0.806803458333333,0,0xF0,0x02
0.806821458333333,0,0x7F,0x12
0.806839666666667,0,0xFF,0x04
0.808790541666667,0,0xB0,0x12
0.808808583333333,0,0xFF,0x13
0.808826791666667,0,0xFF,0x04
0.810777666666667,0,0x98,0x1A
0.810795708333333,0,0xFF,0x12
0.810813916666667,0,0xFF,0x00
0.812764916666667,0,0x98,0x10
0.812782958333333,0,0xFF,0x12
0.812801166666667,0,0xFF,0x04
0.814752083333333,0,0x98,0x1A
0.814770125000000,0,0xFF,0x12
0.814788333333333,0,0xFF,0x00
0.816739208333333,0,0xB0,0x12
0.816757208333333,0,0x7F,0x12
0.816775416666667,0,0xFF,0x04
0.818726250000000,0,0xF0,0x12
0.818744250000000,0,0x7F,0x1A
0.818762458333333,0,0xFF,0x04
0.820713291666667,0,0xB0,0x12
0.820731291666667,0,0xFF,0x12
0.820749500000000,0,0xFF,0x04
0.822700375000000,0,0xF0,0x02
0.822718375000000,0,0x7F,0x1A
0.822736583333333,0,0xFF,0x04
0.824687541666667,0,0x98,0x18
0.824705583333333,0,0xFF,0x02
0.824723791666667,0,0xFF,0x00
0.826674708333333,0,0xB0,0x13
0.826692708333333,0,0xFF,0x10
0.826710916666667,0,0xFF,0x04
0.828661875000000,0,0x98,0x10
0.828679916666667,0,0xFF,0x02
0.828698125000000,0,0xFF,0x04
0.828722916666667,0,0xC7,0x12
0.828740916666667,0,0xFF,0x00
0.828759125000000,0,0xFF,0x9A
0.828779708333333,0,0x03,0x13
0.828797708333333,0,0x00,0x10
0.828815791666667,0,0x04,0x02
0.829645375000000,0,0x07,0x01
0.829663416666667,0,0x00,0x01
0.829681500000000,0,0x14,0x01
0.829702083333333,0,0x34,0x01
0.829720125000000,0,0x80,0x01
0.829738166666667,0,0x00,0x01
0.829758416666667,0,0x87,0x01
0.829776458333333,0,0xFF,0x00
0.829794666666667,0,0xFF,0x14
0.829815500000000,0,0x87,0x01
0.829833541666667,0,0x00,0x01
0.829851625000000,0,0xC0,0x01
0.830649125000000,0,0x30,0x92
0.830667166666667,0,0xFF,0x12
0.830685375000000,0,0xFF,0x08
0.832636416666667,0,0xB0,0x12
0.832654416666667,0,0xFF,0x12
0.832672625000000,0,0xFF,0x08
0.834623500000000,0,0xF0,0x12
0.834641500000000,0,0x7F,0x12
0.834659708333333,0,0xFF,0x00
0.836610583333333,0,0xB0,0x12
0.836628625000000,0,0xFF,0x12
0.836646833333333,0,0xFF,0x08
0.838597625000000,0,0xB0,0x12
0.838615625000000,0,0xFF,0x10
0.838633833333333,0,0xFF,0x08
0.840584666666667,0,0xF0,0x02
0.840602666666667,0,0x7F,0x12
0.840620875000000,0,0xFF,0x08
0.842571916666667,0,0xB0,0x12
0.842589916666667,0,0xFF,0x12
0.842608125000000,0,0xFF,0x08
0.844558916666667,0,0x98,0x1A
0.844576958333333,0,0xFF,0x12
0.844595166666667,0,0xFF,0x08
0.846546000000000,0,0xB0,0x12
0.846564000000000,0,0x7F,0x12
0.846582208333333,0,0xFF,0x00
0.848533083333333,0,0xF0,0x12
0.848551083333333,0,0x7F,0x18
0.848569291666667,0,0xFF,0x08
0.850520166666667,0,0xF0,0x02
0.850538166666667,0,0x7F,0x1A
0.850556375000000,0,0xFF,0x08
0.852507333333333,0,0xB0,0x12
0.852525333333333,0,0xFF,0x12
0.852543541666667,0,0xFF,0x08
0.854494375000000,0,0x98,0x1A
0.854512416666667,0,0xFF,0x02
0.854530625000000,0,0xFF,0x08
0.856481458333333,0,0xB0,0x13
0.856499458333333,0,0xFF,0x10
0.856517666666667,0,0xFF,0x08
0.858468708333333,0,0x98,0x10
0.858486750000000,0,0xFF,0x02
0.858504958333333,0,0xFF,0x08
0.860455958333333,0,0xB0,0x12
0.860474000000000,0,0xFF,0x12
0.860492208333333,0,0xFF,0x08
0.860517000000000,0,0x87,0x1A
0.860535041666667,0,0xFF,0x00
0.860553250000000,0,0xFF,0xD4
0.860573791666667,0,0x07,0x10
0.860591833333333,0,0x00,0x02
0.860609916666667,0,0x3C,0x12
0.861439541666667,0,0x07,0x01
0.861457583333333,0,0x00,0x00
0.861475625000000,0,0x1C,0x01
0.861496250000000,0,0x30,0x00
0.861514250000000,0,0x00,0x01
0.861532333333333,0,0xC0,0x01
0.861552583333333,0,0xC3,0x00
0.861570583333333,0,0xFF,0x00
0.861588791666667,0,0xFF,0x3E
0.861609666666667,0,0x07,0x01
0.861627708333333,0,0x00,0x01
0.861645750000000,0,0x3C,0x81
0.862443291666667,0,0xB0,0x12
0.862461333333333,0,0xFF,0x13
0.862479541666667,0,0xFF,0x18
0.864430750000000,0,0x98,0x10
0.864448791666667,0,0xFF,0x02
0.864467000000000,0,0xFF,0x08
0.866418166666667,0,0xB0,0x12
0.866436208333333,0,0xFF,0x13
0.866454416666667,0,0xFF,0x18
0.868405375000000,0,0xB0,0x12
0.868423416666667,0,0xFF,0x12
0.868441625000000,0,0xFF,0x08
0.870392500000000,0,0x90,0x12
0.870410541666667,0,0xFF,0x12
0.870428750000000,0,0xFF,0x1C
0.872379583333333,0,0xB0,0x12
0.872397625000000,0,0xFF,0x12
0.872415833333333,0,0xFF,0x18
0.874366666666667,0,0xB0,0x12
0.874384708333333,0,0xFF,0x13
0.874402916666667,0,0xFF,0x18
0.876353833333333,0,0xB0,0x12
0.876371875000000,0,0xFF,0x12
0.876390041666667,0,0xFF,0x18
0.878340958333333,0,0xF0,0x13
0.878358958333333,0,0x7F,0x1A
0.878377166666667,0,0xFF,0x18
0.880328000000000,0,0xB0,0x12
0.880346041666667,0,0xFF,0x12
0.880364208333333,0,0xFF,0x18
0.882315041666667,0,0xB0,0x12
0.882333083333333,0,0xFF,0x13
0.882351291666667,0,0xFF,0x18
0.884302125000000,0,0x98,0x10
0.884320166666667,0,0xFF,0x02
0.884338375000000,0,0xFF,0x18
0.886289333333333,0,0xB0,0x12
0.886307333333333,0,0x7F,0x12
0.886325541666667,0,0xFF,0x18
0.888276416666667,0,0xF0,0x02
0.888294416666667,0,0x7F,0x1A
0.888312625000000,0,0xFF,0x18
0.890263583333333,0,0xB0,0x12
0.890281583333333,0,0xFF,0x10
0.890299791666667,0,0xFF,0x18
0.892250666666667,0,0xB0,0x12
0.892268708333333,0,0xFF,0x12
0.892286916666667,0,0xFF,0x0C
0.892311708333333,0,0x87,0x12
0.892329750000000,0,0xFF,0x00
0.892347916666667,0,0xFF,0x3C
0.892368500000000,0,0x03,0x13
0.892386500000000,0,0x00,0x10
0.892404583333333,0,0x0E,0x02
0.893234083333333,0,0x07,0x01
0.893252125000000,0,0x00,0x01
0.893270208333333,0,0x0F,0x00
0.893290791666667,0,0x1E,0x01
0.893308833333333,0,0xC0,0x00
0.893326875000000,0,0x00,0x01
0.893347125000000,0,0x87,0x01
0.893365166666667,0,0xFF,0x00
0.893383375000000,0,0xFF,0x1E
0.893404208333333,0,0x87,0x01
0.893422250000000,0,0x00,0x01
0.893440333333333,0,0x9F,0x01
0.894237750000000,0,0xB0,0x12
0.894255750000000,0,0xFF,0x12
0.894273958333333,0,0xFF,0x1C
0.896224791666667,0,0xB0,0x12
0.896242833333333,0,0xFF,0x12
0.896261000000000,0,0xFF,0x1C
0.898211791666667,0,0xB0,0x12
0.898229833333333,0,0xFF,0x12
0.898248000000000,0,0xFF,0x1C
0.900198833333333,0,0xB0,0x12
0.900216875000000,0,0xFF,0x12
0.900235083333333,0,0xFF,0x1C
0.902185875000000,0,0x90,0x12
0.902203916666667,0,0xFF,0x13
0.902222125000000,0,0xFF,0x1C
0.904172958333333,0,0xB0,0x12
0.904190958333333,0,0xFF,0x12
0.904209166666667,0,0xFF,0x1C
0.906160000000000,0,0xF0,0x12
0.906178000000000,0,0x7F,0x12
0.906196208333333,0,0xFF,0x1C
0.908147125000000,0,0xB0,0x12
0.908165125000000,0,0xFF,0x12
0.908183333333333,0,0xFF,0x1C
0.910134166666667,0,0xF0,0x02
0.910152166666667,0,0x7F,0x1A
0.910170375000000,0,0xFF,0x1E
0.912121125000000,0,0xF0,0x13
0.912139125000000,0,0x7F,0x10
0.912157333333333,0,0xFF,0x1C
0.914108166666667,0,0xF0,0x13
0.914126166666667,0,0x7F,0x10
0.914144375000000,0,0xFF,0x1C
0.916095250000000,0,0x90,0x12
0.916113291666667,0,0xFF,0x12
0.916131500000000,0,0xFF,0x1C
0.918082541666667,0,0xB0,0x12
0.918100583333333,0,0xFF,0x12
0.918118750000000,0,0xFF,0x1C
0.920069583333333,0,0x98,0x18
0.920087625000000,0,0xFF,0x02
0.920105833333333,0,0xFF,0x1C
0.922056666666667,0,0xB0,0x12
0.922074708333333,0,0xFF,0x12
0.922092916666667,0,0xFF,0x1C
0.924043791666667,0,0x98,0x1A
0.924061833333333,0,0xFF,0x02
0.924080041666667,0,0xFF,0x1C
0.924104833333333,0,0xC3,0x02
0.924122833333333,0,0xFF,0x00
0.924141041666667,0,0xFF,0x9E
0.924161625000000,0,0x07,0x12
0.924179625000000,0,0x00,0x12
0.924197708333333,0,0x02,0x12
0.925027250000000,0,0x03,0x00
0.925045250000000,0,0x00,0x01
0.925063333333333,0,0x02,0x01
0.925083916666667,0,0x1E,0x01
0.925101958333333,0,0xC0,0x01
0.925120000000000,0,0x00,0x81
0.925140250000000,0,0x87,0x01
0.925158291666667,0,0xFF,0x00
0.925176458333333,0,0xFF,0x46
0.925197333333333,0,0x87,0x01
0.925215375000000,0,0x00,0x01
0.925233458333333,0,0xC7,0x01
0.926030875000000,0,0x30,0x92
0.926048916666667,0,0xFF,0x12
0.926067125000000,0,0xFF,0x0C
0.928017833333333,0,0xB0,0x12
0.928035875000000,0,0xFF,0x12
0.928054083333333,0,0xFF,0x0C
0.930004916666667,0,0xB0,0x12
0.930022958333333,0,0xFF,0x13
0.930041166666667,0,0xFF,0x0C
0.931992083333333,0,0xB0,0x13
0.932010083333333,0,0xFF,0x10
0.932028291666667,0,0xFF,0x0C
0.933979166666667,0,0xF0,0x12
0.933997208333333,0,0xFF,0x12
0.934015375000000,0,0xFF,0x0C
0.935966416666667,0,0xB0,0x12
0.935984458333333,0,0xFF,0x12
0.936002666666667,0,0xFF,0x0C
0.937953791666667,0,0xB0,0x13
0.937971791666667,0,0xFF,0x10
0.937990000000000,0,0xFF,0x0E
0.939941083333333,0,0x98,0x1A
0.939959125000000,0,0xFF,0x02
0.939977333333333,0,0xFF,0x0C
0.941928250000000,0,0x98,0x18
0.941946291666667,0,0xFF,0x02
0.941964500000000,0,0xFF,0x0C
0.943915458333333,0,0x90,0x12
0.943933500000000,0,0xFF,0x13
0.943951708333333,0,0xFF,0x0C
0.945902750000000,0,0xF0,0x12
0.945920750000000,0,0x7F,0x12
0.945938958333333,0,0xFF,0x04
0.947890041666667,0,0xB0,0x13
0.947908041666667,0,0xFF,0x10
0.947926250000000,0,0xFF,0x0E
0.949877250000000,0,0xB0,0x12
0.949895291666667,0,0xFF,0x13
0.949913500000000,0,0xFF,0x0C
0.951864416666667,0,0xB0,0x12
0.951882458333333,0,0xFF,0x13
0.951900666666667,0,0xFF,0x0C
0.953851583333333,0,0xF0,0x12
0.953869625000000,0,0xFF,0x12
0.953887791666667,0,0xFF,0x0C
0.955838791666667,0,0xF0,0x02
0.955856791666667,0,0x7F,0x12
0.955875000000000,0,0xFF,0x06
0.955899791666667,0,0x87,0x12
0.955917833333333,0,0xFF,0x00
0.955936041666667,0,0xFF,0xC6
0.955956583333333,0,0x07,0x10
0.955974625000000,0,0x00,0x02
0.955992666666667,0,0x00,0x12
0.956822250000000,0,0x07,0x01
0.956840291666667,0,0x00,0x01
0.956858375000000,0,0x00,0x01
0.956878958333333,0,0x1E,0x01
0.956897000000000,0,0xC0,0x01
0.956915041666667,0,0x00,0x81
0.956935291666667,0,0x87,0x01
0.956953333333333,0,0xFF,0x00
0.956971541666667,0,0xFF,0x00
0.956992375000000,0,0x87,0x01
0.957010416666667,0,0x00,0x01
0.957028500000000,0,0xC0,0x00
0.957825958333333,0,0xB0,0x12
0.957844000000000,0,0xFF,0x13
0.957862208333333,0,0xFF,0x00
0.959813166666667,0,0xB0,0x12
0.959831208333333,0,0xFF,0x12
0.959849416666667,0,0xFF,0x00
0.961800333333333,0,0x90,0x12
0.961818375000000,0,0xFF,0x13
0.961836583333333,0,0xFF,0x00
0.963787583333333,0,0xB0,0x13
0.963805583333333,0,0xFF,0x10
0.963823791666667,0,0xFF,0x00
0.965774791666667,0,0xF0,0x02
0.965792791666667,0,0x7F,0x12
0.965811000000000,0,0xFF,0x00
0.967762041666667,0,0xB0,0x12
0.967780083333333,0,0xFF,0x12
0.967798250000000,0,0xFF,0x00
0.969749250000000,0,0xB0,0x12
0.969767291666667,0,0xFF,0x12
0.969785458333333,0,0xFF,0x00
0.971736375000000,0,0xB0,0x12
0.971754375000000,0,0xFF,0x12
0.971772583333333,0,0xFF,0x00
0.973723416666667,0,0x98,0x1A
0.973741458333333,0,0xFF,0x12
0.973759666666667,0,0xFF,0x00
0.975710500000000,0,0xB0,0x12
0.975728541666667,0,0xFF,0x13
0.975746750000000,0,0xFF,0x00
0.977697583333333,0,0xF0,0x12
0.977715583333333,0,0x7F,0x12
0.977733791666667,0,0xFF,0x00
0.979685000000000,0,0xB0,0x12
0.979703000000000,0,0xFF,0x10
0.979721208333333,0,0xFF,0x00
0.981672250000000,0,0x98,0x18
0.981690291666667,0,0xFF,0x02
0.981708500000000,0,0xFF,0x00
0.983659625000000,0,0xB0,0x12
0.983677625000000,0,0xFF,0x12
0.983695833333333,0,0xFF,0x00
0.985646875000000,0,0xB0,0x12
0.985664875000000,0,0xFF,0x12
0.985683083333333,0,0xFF,0x00
0.987634208333333,0,0xF0,0x02
0.987652208333333,0,0x7F,0x12
0.987670416666667,0,0xFF,0x00
0.987695250000000,0,0xC3,0x12
0.987713250000000,0,0xFF,0x00
0.987731458333333,0,0xFF,0x80
0.987752041666667,0,0x03,0x12
0.987770041666667,0,0x00,0x10
0.987788125000000,0,0x38,0x02
0.988617750000000,0,0x07,0x01
0.988635750000000,0,0x80,0x81
0.988653833333333,0,0x28,0x01
0.988674416666667,0,0x34,0x81
0.988692458333333,0,0x80,0x01
0.988710541666667,0,0x80,0x00
0.988730750000000,0,0x07,0x01
0.988748791666667,0,0xFF,0x00
0.988767000000000,0,0xFF,0x3C
0.988787875000000,0,0x03,0x00
0.988805875000000,0,0x80,0x01
0.988823958333333,0,0xA8,0x01
0.989621458333333,0,0x18,0x1A
0.989639500000000,0,0xFF,0x12
0.989657708333333,0,0xFF,0x00
0.991608750000000,0,0xF0,0x13
0.991626750000000,0,0x7F,0x1A
0.991644958333333,0,0xFF,0x10
0.993595875000000,0,0xF0,0x02
0.993613875000000,0,0x7F,0x12
0.993632083333333,0,0xFF,0x10
0.995583166666667,0,0x90,0x12
0.995601208333333,0,0xFF,0x12
0.995619416666667,0,0xFF,0x10
0.997570416666667,0,0xB0,0x12
0.997588458333333,0,0xFF,0x12
0.997606625000000,0,0xFF,0x10
0.999557708333333,0,0xF0,0x13
0.999575708333333,0,0xFF,0x10
0.999593916666667,0,0xFF,0x10
1.001545000000000,0,0xF0,0x02
1.001563000000000,0,0x7F,0x12
1.001581208333333,0,0xFF,0x18
1.003532208333333,0,0x90,0x12
1.003550250000000,0,0xFF,0x13
1.003568458333333,0,0xFF,0x10
1.005519458333333,0,0xB0,0x13
1.005537458333333,0,0x7F,0x10
1.005555666666667,0,0xFF,0x10
1.007506708333333,0,0xB0,0x12
1.007524708333333,0,0xFF,0x12
1.007542916666667,0,0xFF,0x10
1.009494041666667,0,0xB0,0x13
1.009512041666667,0,0x7F,0x1A
1.009530250000000,0,0xFF,0x18
1.011481375000000,0,0x98,0x1A
1.011499416666667,0,0xFF,0x12
1.011517625000000,0,0xFF,0x10
1.013469000000000,0,0xF0,0x02
1.013487000000000,0,0x7F,0x12
1.013505208333333,0,0xFF,0x10
1.015456000000000,0,0xB0,0x12
1.015474041666667,0,0xFF,0x13
1.015492250000000,0,0xFF,0x10
1.017443625000000,0,0xB0,0x12
1.017461625000000,0,0xFF,0x10
1.017479833333333,0,0xFF,0x10
1.019430625000000,0,0xB0,0x12
1.019448625000000,0,0xFF,0x10
1.019466833333333,0,0xFF,0x10
1.019491625000000,0,0x87,0x1A
1.019509666666667,0,0xFF,0x00
1.019527875000000,0,0xFF,0xE8
1.019548416666667,0,0x87,0x1A
1.019566458333333,0,0x00,0x12
1.019584541666667,0,0x0F,0x13
1.020414208333333,0,0x07,0x01
1.020432208333333,0,0x80,0x81
1.020450291666667,0,0x00,0x01
1.020470916666667,0,0x30,0x00
1.020488916666667,0,0x00,0x01
1.020507000000000,0,0xC0,0x01
1.020527250000000,0,0x83,0x01
1.020545250000000,0,0xFF,0x00
1.020563458333333,0,0xFF,0x08
1.020584333333333,0,0x07,0x01
1.020602375000000,0,0x00,0x00
1.020620416666667,0,0x0A,0x01
1.021418166666667,0,0x18,0x1A
1.021436208333333,0,0xFF,0x12
1.021454416666667,0,0xFF,0x14
1.023405333333333,0,0xB0,0x12
1.023423375000000,0,0xFF,0x12
1.023441583333333,0,0xFF,0x14
1.025392583333333,0,0xF0,0x12
1.025410583333333,0,0x7F,0x1A
1.025428791666667,0,0xFF,0x16
1.027379750000000,0,0x98,0x10
1.027397791666667,0,0xFF,0x02
1.027416000000000,0,0xFF,0x00
1.029366958333333,0,0x98,0x10
1.029385000000000,0,0xFF,0x02
1.029403208333333,0,0xFF,0x10
1.031354250000000,0,0xF0,0x13
1.031372250000000,0,0x7F,0x18
1.031390458333333,0,0xFF,0x14
1.033341541666667,0,0xB0,0x12
1.033359583333333,0,0xFF,0x12
1.033377791666667,0,0xFF,0x14
1.035328916666667,0,0xB0,0x12
1.035346958333333,0,0xFF,0x13
1.035365166666667,0,0xFF,0x14
1.037316125000000,0,0x98,0x1A
1.037334166666667,0,0xFF,0x02
1.037352375000000,0,0xFF,0x10
1.039303291666667,0,0xB0,0x13
1.039321291666667,0,0xFF,0x10
1.039339500000000,0,0xFF,0x14
1.041290583333333,0,0xF0,0x13
1.041308583333333,0,0x7F,0x1A
1.041326791666667,0,0xFF,0x16
1.043277875000000,0,0x98,0x10
1.043295916666667,0,0xFF,0x13
1.043314125000000,0,0xFF,0x14
1.045265166666667,0,0xF0,0x13
1.045283166666667,0,0x7F,0x10
1.045301375000000,0,0xFF,0x14
1.047252375000000,0,0xB0,0x12
1.047270416666667,0,0xFF,0x12
1.047288625000000,0,0xFF,0x14
1.049239791666667,0,0xB0,0x12
1.049257833333333,0,0xFF,0x12
1.049276041666667,0,0xFF,0x14
1.051227000000000,0,0xB0,0x12
1.051245041666667,0,0xFF,0x13
1.051263250000000,0,0xFF,0x14
1.051288041666667,0,0xC3,0x02
1.051306041666667,0,0xFF,0x00
1.051324250000000,0,0xFF,0x80
1.051344833333333,0,0x07,0x12
1.051362833333333,0,0x00,0x10
1.051380916666667,0,0x32,0x12
1.052210541666667,0,0x03,0x00
1.052228541666667,0,0x00,0x01
1.052246625000000,0,0x32,0x01
1.052267208333333,0,0x1E,0x01
1.052285250000000,0,0x80,0x00
1.052303291666667,0,0x00,0x01
1.052323541666667,0,0x87,0x01
1.052341583333333,0,0xFF,0x00
1.052359791666667,0,0xFF,0x32
1.052380625000000,0,0x87,0x01
1.052398666666667,0,0x00,0x01
1.052416750000000,0,0xF2,0x01
1.053213875000000,0,0x30,0x92
1.053231916666667,0,0xFF,0x12
1.053250125000000,0,0xFF,0x04
1.055201000000000,0,0x98,0x1A
1.055219041666667,0,0xFF,0x02
1.055237250000000,0,0xFF,0x00
1.057188208333333,0,0xB0,0x12
1.057206250000000,0,0xFF,0x12
1.057224458333333,0,0xFF,0x04
1.059175458333333,0,0xB0,0x12
1.059193500000000,0,0xFF,0x12
1.059211666666667,0,0xFF,0x04
1.061162583333333,0,0xB0,0x12
1.061180625000000,0,0xFF,0x12
1.061198791666667,0,0xFF,0x04
1.063149750000000,0,0xB0,0x12
1.063167791666667,0,0xFF,0x12
1.063186000000000,0,0xFF,0x04
1.065136916666667,0,0xF0,0x13
1.065154916666667,0,0x7F,0x18
1.065173125000000,0,0xFF,0x06
1.067124083333333,0,0xB0,0x13
1.067142083333333,0,0x7F,0x18
1.067160291666667,0,0xFF,0x04
1.069111416666667,0,0xF0,0x12
1.069129416666667,0,0x7F,0x12
1.069147625000000,0,0xFF,0x04
1.071098458333333,0,0xF0,0x12
1.071116458333333,0,0x7F,0x1A
1.071134666666667,0,0xFF,0x06
1.073085583333333,0,0x90,0x12
1.073103625000000,0,0xFF,0x12
1.073121833333333,0,0xFF,0x00
1.075072708333333,0,0xB0,0x12
1.075090750000000,0,0xFF,0x12
1.075108958333333,0,0xFF,0x04
1.077059791666667,0,0xB0,0x12
1.077077791666667,0,0xFF,0x10
1.077096000000000,0,0xFF,0x04
1.079046958333333,0,0xF0,0x12
1.079064958333333,0,0x7F,0x18
1.079083166666667,0,0xFF,0x06
1.081034208333333,0,0xB0,0x13
1.081052208333333,0,0x7F,0x1A
1.081070416666667,0,0xFF,0x04
1.083021333333333,0,0x98,0x10
1.083039375000000,0,0xFF,0x13
1.083057583333333,0,0xFF,0x04
1.083082375000000,0,0xC3,0x13
1.083100375000000,0,0xFF,0x00
1.083118583333333,0,0xFF,0xB2
1.083139125000000,0,0x87,0x12
1.083157166666667,0,0x00,0x12
1.083175250000000,0,0x10,0x12
1.084004833333333,0,0x03,0x01
1.084022833333333,0,0x80,0x01
1.084040916666667,0,0x14,0x01
1.084061500000000,0,0x14,0x81
1.084079541666667,0,0x80,0x01
1.084097625000000,0,0x80,0x00
1.084117833333333,0,0x07,0x01
1.084135875000000,0,0xFF,0x00
1.084154083333333,0,0xFF,0x00
1.084174958333333,0,0x03,0x00
1.084192958333333,0,0x00,0x01
1.084211041666667,0,0x94,0x01
1.085008458333333,0,0x18,0x1A
1.085026500000000,0,0xFF,0x02
1.085044708333333,0,0xFF,0x0C
1.086995750000000,0,0xF0,0x02
1.087013750000000,0,0x7F,0x12
1.087031958333333,0,0xFF,0x08
1.088982833333333,0,0xB0,0x13
1.089000833333333,0,0x7F,0x10
1.089019041666667,0,0xFF,0x08
1.090970125000000,0,0x98,0x12
1.090988166666667,0,0xFF,0x12
1.091006375000000,0,0xFF,0x08
1.092957458333333,0,0xB0,0x13
1.092975458333333,0,0x7F,0x1A
1.092993666666667,0,0xFF,0x00
1.094944875000000,0,0xB0,0x12
1.094962916666667,0,0xFF,0x12
1.094981125000000,0,0xFF,0x08
1.096932083333333,0,0x98,0x1A
1.096950125000000,0,0xFF,0x12
1.096968333333333,0,0xFF,0x0C
1.098919375000000,0,0xB0,0x13
1.098937375000000,0,0xFF,0x10
1.098955583333333,0,0xFF,0x08
1.100906625000000,0,0xB0,0x12
1.100924625000000,0,0xFF,0x12
1.100942833333333,0,0xFF,0x08
1.102893875000000,0,0x98,0x1A
1.102911916666667,0,0xFF,0x12
1.102930125000000,0,0xFF,0x08
1.104881125000000,0,0x98,0x10
1.104899166666667,0,0xFF,0x02
1.104917375000000,0,0xFF,0x08
1.106868333333333,0,0xB0,0x12
1.106886375000000,0,0xFF,0x12
1.106904583333333,0,0xFF,0x08
1.108855958333333,0,0xF0,0x02
1.108873958333333,0,0x7F,0x12
1.108892166666667,0,0xFF,0x08
1.110843333333333,0,0xF0,0x13
1.110861333333333,0,0x7F,0x1A
1.110879541666667,0,0xFF,0x08
1.112830666666667,0,0xF0,0x12
1.112848666666667,0,0x7F,0x12
1.112866875000000,0,0xFF,0x08
1.114817958333333,0,0xF0,0x12
1.114835958333333,0,0x7F,0x1A
1.114854166666667,0,0xFF,0x00
1.114878958333333,0,0x87,0x12
1.114897000000000,0,0xFF,0x00
1.114915208333333,0,0xFF,0x94
1.114935750000000,0,0x87,0x18
1.114953791666667,0,0x00,0x02
1.114971833333333,0,0x3C,0x12
1.115801375000000,0,0x07,0x01
1.115819416666667,0,0x00,0x01
1.115837500000000,0,0x3C,0x00
1.115858083333333,0,0x34,0x01
1.115876125000000,0,0x80,0x01
1.115894166666667,0,0x80,0x01
1.115914416666667,0,0xC3,0x01
1.115932416666667,0,0xFF,0x80
1.115950625000000,0,0xFF,0x1C
1.115971500000000,0,0x87,0x01
1.115989541666667,0,0x00,0x01
1.116007625000000,0,0xBC,0x01
1.116805125000000,0,0x18,0x1A
1.116823166666667,0,0xFF,0x12
1.116841375000000,0,0xFF,0x08
1.118792291666667,0,0xF0,0x02
1.118810291666667,0,0x7F,0x12
1.118828500000000,0,0xFF,0x18
1.120779541666667,0,0xB0,0x12
1.120797583333333,0,0xFF,0x12
1.120815750000000,0,0xFF,0x18
1.122766833333333,0,0xB0,0x12
1.122784875000000,0,0xFF,0x12
1.122803083333333,0,0xFF,0x18
1.124754250000000,0,0xF0,0x02
1.124772250000000,0,0x7F,0x12
1.124790458333333,0,0xFF,0x18
1.126741583333333,0,0xF0,0x12
1.126759583333333,0,0x7F,0x1A
1.126777791666667,0,0xFF,0x18
1.128728500000000,0,0x98,0x18
1.128746541666667,0,0xFF,0x02
1.128764750000000,0,0xFF,0x0C
1.130715708333333,0,0xF0,0x12
1.130733708333333,0,0x7F,0x12
1.130751916666667,0,0xFF,0x18
1.132702875000000,0,0xB0,0x12
1.132720916666667,0,0xFF,0x12
1.132739125000000,0,0xFF,0x18
1.134690125000000,0,0x98,0x1A
1.134708166666667,0,0xFF,0x12
1.134726375000000,0,0xFF,0x0C
1.136677416666667,0,0xB0,0x12
1.136695416666667,0,0xFF,0x12
1.136713625000000,0,0xFF,0x18
1.138664500000000,0,0xF0,0x13
1.138682500000000,0,0x7F,0x10
1.138700708333333,0,0xFF,0x18
1.140651708333333,0,0xF0,0x02
1.140669708333333,0,0x7F,0x12
1.140687916666667,0,0xFF,0x18
1.142638916666667,0,0xB0,0x12
1.142656958333333,0,0xFF,0x12
1.142675166666667,0,0xFF,0x18
1.144626125000000,0,0xB0,0x12
1.144644125000000,0,0xFF,0x10
1.144662333333333,0,0xFF,0x18
1.146613333333333,0,0xB0,0x12
1.146631375000000,0,0xFF,0x12
1.146649583333333,0,0xFF,0x18
1.146674375000000,0,0xC3,0x02
1.146692375000000,0,0xFF,0x00
1.146710583333333,0,0xFF,0x9E
1.146731166666667,0,0x03,0x12
1.146749166666667,0,0x00,0x10
1.146767250000000,0,0x1E,0x12
1.147596875000000,0,0x03,0x01
1.147614875000000,0,0x80,0x01
1.147632958333333,0,0x1E,0x01
1.147653541666667,0,0x1C,0x01
1.147671583333333,0,0xC0,0x01
1.147689666666667,0,0x80,0x01
1.147709875000000,0,0x07,0x01
1.147727916666667,0,0xFF,0x00
1.147746125000000,0,0xFF,0x0E
1.147767000000000,0,0x03,0x01
1.147785000000000,0,0x80,0x01
1.147803083333333,0,0x9E,0x01
1.148600583333333,0,0xB0,0x13
1.148618583333333,0,0xFF,0x10
1.148636791666667,0,0xFF,0x1C
1.150587708333333,0,0x98,0x10
1.150605750000000,0,0xFF,0x12
1.150623958333333,0,0xFF,0x1C
1.152574958333333,0,0xF0,0x02
1.152592958333333,0,0x7F,0x12
1.152611166666667,0,0xFF,0x1C
1.154562000000000,0,0xB0,0x12
1.154580041666667,0,0xFF,0x12
1.154598250000000,0,0xFF,0x1C
1.156549250000000,0,0xB0,0x12
1.156567291666667,0,0xFF,0x13
1.156585500000000,0,0xFF,0x1C
1.158536500000000,0,0x98,0x10
1.158554541666667,0,0xFF,0x02
1.158572750000000,0,0xFF,0x1C
1.160523708333333,0,0xF0,0x02
1.160541708333333,0,0x7F,0x1A
1.160559916666667,0,0xFF,0x1E
1.162511000000000,0,0xF0,0x13
1.162529000000000,0,0x7F,0x1A
1.162547208333333,0,0xFF,0x1C
1.164498083333333,0,0xF0,0x12
1.164516083333333,0,0x7F,0x12
1.164534291666667,0,0xFF,0x1E
1.166485208333333,0,0xB0,0x12
1.166503250000000,0,0xFF,0x12
1.166521416666667,0,0xFF,0x1C
1.168472666666667,0,0xB0,0x12
1.168490708333333,0,0xFF,0x13
1.168508916666667,0,0xFF,0x1C
1.170459791666667,0,0xF0,0x13
1.170477791666667,0,0x7F,0x18
1.170496000000000,0,0xFF,0x1C
1.172446791666667,0,0xB0,0x13
1.172464791666667,0,0xFF,0x12
1.172483000000000,0,0xFF,0x1C
1.174434000000000,0,0xB0,0x12
1.174452041666667,0,0xFF,0x13
1.174470250000000,0,0xFF,0x1C
1.176421166666667,0,0xB0,0x12
1.176439208333333,0,0xFF,0x12
1.176457416666667,0,0xFF,0x1C
1.178408416666667,0,0xB0,0x12
1.178426458333333,0,0xFF,0x13
1.178444666666667,0,0xFF,0x1C
1.178469458333333,0,0xC7,0x02
1.178487458333333,0,0xFF,0x00
1.178505666666667,0,0xFF,0x1E
1.178526250000000,0,0x03,0x12
1.178544250000000,0,0x80,0x1A
1.178562333333333,0,0x46,0x12
1.179391958333333,0,0x03,0x01
1.179409958333333,0,0x80,0x01
1.179428041666667,0,0x46,0x01
1.179448625000000,0,0x1C,0x01
1.179466666666667,0,0xC0,0x01
1.179484708333333,0,0x00,0x81
1.179504958333333,0,0x07,0x01
1.179523000000000,0,0xFF,0x00
1.179541208333333,0,0xFF,0x47
1.179562083333333,0,0x07,0x01
1.179580083333333,0,0x00,0x01
1.179598166666667,0,0xC2,0x01
1.180395625000000,0,0x18,0x1A
1.180413666666667,0,0xFF,0x02
1.180431875000000,0,0xFF,0x0C
1.182382791666667,0,0xB0,0x12
1.182400833333333,0,0xFF,0x12
1.182419041666667,0,0xFF,0x0C
1.184369958333333,0,0xB0,0x12
1.184387958333333,0,0xFF,0x12
1.184406166666667,0,0xFF,0x0C
1.186357041666667,0,0xB0,0x12
1.186375083333333,0,0xFF,0x13
1.186393291666667,0,0xFF,0x0C
1.188343875000000,0,0x98,0x18
1.188361916666667,0,0xFF,0x02
1.188380125000000,0,0xFF,0x0C
1.190331083333333,0,0xF0,0x13
1.190349083333333,0,0x7F,0x1A
1.190367291666667,0,0xFF,0x0E
1.192318250000000,0,0xF0,0x12
1.192336250000000,0,0x7F,0x12
1.192354458333333,0,0xFF,0x0C
1.194305250000000,0,0xF0,0x02
1.194323250000000,0,0x7F,0x12
1.194341458333333,0,0xFF,0x0C
1.196292125000000,0,0xB0,0x12
1.196310125000000,0,0xFF,0x12
1.196328333333333,0,0xFF,0x0C
1.198279166666667,0,0x98,0x10
1.198297208333333,0,0xFF,0x02
1.198315416666667,0,0xFF,0x0C
1.200266250000000,0,0xF0,0x02
1.200284250000000,0,0x7F,0x12
1.200302458333333,0,0xFF,0x06
1.202253500000000,0,0xF0,0x02
1.202271500000000,0,0x7F,0x12
1.202289708333333,0,0xFF,0x0C
1.204240666666667,0,0xB0,0x12
1.204258708333333,0,0xFF,0x12
1.204276875000000,0,0xFF,0x0C
1.206227916666667,0,0x98,0x1A
1.206245958333333,0,0xFF,0x12
1.206264166666667,0,0xFF,0x0C
1.208215416666667,0,0xB0,0x12
1.208233458333333,0,0xFF,0x12
1.208251625000000,0,0xFF,0x0C
1.210202500000000,0,0xB0,0x12
1.210220541666667,0,0xFF,0x12
1.210238708333333,0,0xFF,0x0C
1.210263541666667,0,0x83,0x12
1.210281541666667,0,0xFF,0x00
1.210299750000000,0,0xFF,0xC6
1.210320291666667,0,0x87,0x12
1.210338333333333,0,0x00,0x12
1.210356416666667,0,0x00,0x13
1.211186000000000,0,0x07,0x01
1.211204041666667,0,0x00,0x01
1.211222125000000,0,0x00,0x00
1.211242708333333,0,0x1E,0x01
1.211260750000000,0,0xC0,0x01
1.211278833333333,0,0x80,0x01
1.211299041666667,0,0x07,0x01
1.211317083333333,0,0xFF,0x00
1.211335291666667,0,0xFF,0x00
1.211356166666667,0,0x07,0x01
1.211374166666667,0,0x80,0x81
1.211392250000000,0,0x80,0x01
1.212189833333333,0,0x98,0x10
1.212207875000000,0,0xFF,0x02
1.212226083333333,0,0xFF,0x00
1.214177083333333,0,0xB8,0x12
1.214195125000000,0,0xFF,0x12
1.214213333333333,0,0xFF,0x00
1.216164291666667,0,0x98,0x18
1.216182333333333,0,0xFF,0x02
1.216200541666667,0,0xFF,0x00
1.218151333333333,0,0xF0,0x02
1.218169333333333,0,0x7F,0x12
1.218187541666667,0,0xFF,0x00
1.220138500000000,0,0xB0,0x12
1.220156541666667,0,0xFF,0x12
1.220174750000000,0,0xFF,0x00
1.222125458333333,0,0xB0,0x12
1.222143500000000,0,0xFF,0x13
1.222161708333333,0,0xFF,0x00
1.224112666666667,0,0xF0,0x02
1.224130666666667,0,0x7F,0x12
1.224148875000000,0,0xFF,0x00
1.226099833333333,0,0x90,0x12
1.226117875000000,0,0xFF,0x12
1.226136083333333,0,0xFF,0x00
1.228087375000000,0,0xB0,0x12
1.228105416666667,0,0xFF,0x12
1.228123583333333,0,0xFF,0x00
1.230074541666667,0,0x98,0x1A
1.230092583333333,0,0xFF,0x12
1.230110791666667,0,0xFF,0x00
1.232061791666667,0,0xF0,0x02
1.232079791666667,0,0x7F,0x12
1.232098000000000,0,0xFF,0x00
1.234048875000000,0,0x98,0x1A
1.234066916666667,0,0xFF,0x02
1.234085125000000,0,0xFF,0x00
1.236036083333333,0,0x98,0x1A
1.236054125000000,0,0xFF,0x12
1.236072333333333,0,0xFF,0x00
1.238023250000000,0,0xB0,0x12
1.238041291666667,0,0xFF,0x12
1.238059458333333,0,0xFF,0x00
1.240010458333333,0,0xB0,0x12
1.240028458333333,0,0x7F,0x12
1.240046666666667,0,0xFF,0x00
1.241997541666667,0,0xF0,0x12
1.242015541666667,0,0x7F,0x12
1.242033750000000,0,0xFF,0x00
1.242058583333333,0,0x87,0x12
1.242076583333333,0,0xFF,0x00
1.242094791666667,0,0xFF,0x80
1.242115333333333,0,0x87,0x12
1.242133375000000,0,0x00,0x12
1.242151458333333,0,0x3C,0x13
1.242981041666667,0,0x07,0x01
1.242999041666667,0,0x80,0x81
1.243017125000000,0,0x28,0x01
1.243037708333333,0,0x34,0x81
1.243055750000000,0,0x80,0x01
1.243073833333333,0,0x80,0x00
1.243094041666667,0,0x07,0x01
1.243112083333333,0,0xFF,0x00
1.243130291666667,0,0xFF,0x2C
1.243151166666667,0,0x03,0x00
1.243169166666667,0,0x00,0x01
1.243187250000000,0,0xFC,0x01
1.243984750000000,0,0xF0,0x02
1.244002750000000,0,0x7F,0x12
1.244020958333333,0,0xFF,0x18
1.245972000000000,0,0xF0,0x02
1.245990000000000,0,0x7F,0x12
1.246008208333333,0,0xFF,0x10
1.247959041666667,0,0xB0,0x12
1.247977041666667,0,0xFF,0x10
1.247995250000000,0,0xFF,0x10
1.249946375000000,0,0xF0,0x13
1.249964375000000,0,0xFF,0x10
1.249982583333333,0,0xFF,0x10
1.251933666666667,0,0x98,0x10
1.251951708333333,0,0xFF,0x02
1.251969916666667,0,0xFF,0x10
1.253920791666667,0,0xB0,0x12
1.253938791666667,0,0xFF,0x10
1.253957000000000,0,0xFF,0x10
1.255908041666667,0,0xB0,0x12
1.255926041666667,0,0xFF,0x10
1.255944250000000,0,0xFF,0x10
1.257895083333333,0,0xF0,0x02
1.257913083333333,0,0x7F,0x12
1.257931291666667,0,0xFF,0x10
1.259882083333333,0,0xB0,0x12
1.259900125000000,0,0xFF,0x12
1.259918333333333,0,0xFF,0x00
1.261869166666667,0,0xB0,0x12
1.261887208333333,0,0xFF,0x12
1.261905416666667,0,0xFF,0x10
1.263856250000000,0,0xB0,0x12
1.263874250000000,0,0xFF,0x12
1.263892458333333,0,0xFF,0x10
1.265843333333333,0,0xB0,0x13
1.265861333333333,0,0xFF,0x10
1.265879541666667,0,0xFF,0x10
1.267830666666667,0,0xF0,0x13
1.267848666666667,0,0x7F,0x10
1.267866875000000,0,0xFF,0x10
1.269817708333333,0,0x90,0x12
1.269835750000000,0,0xFF,0x12
1.269853958333333,0,0xFF,0x10
1.271804916666667,0,0xB0,0x12
1.271822958333333,0,0xFF,0x12
1.271841166666667,0,0xFF,0x00
1.273792125000000,0,0xB0,0x12
1.273810125000000,0,0xFF,0x12
1.273828333333333,0,0xFF,0x10
1.273853125000000,0,0x87,0x12
1.273871166666667,0,0xFF,0x00
1.273889375000000,0,0xFF,0xA8
1.273909916666667,0,0x07,0x02
1.273927916666667,0,0x80,0x12
1.273946000000000,0,0x0A,0x12
1.274775500000000,0,0x07,0x01
1.274793541666667,0,0x00,0x01
1.274811625000000,0,0x0E,0x01
1.274832208333333,0,0x1E,0x01
1.274850250000000,0,0x80,0x00
1.274868291666667,0,0x00,0x01
1.274888541666667,0,0x87,0x01
1.274906583333333,0,0xFF,0x00
1.274924750000000,0,0xFF,0x0A
1.274945625000000,0,0x87,0x01
1.274963666666667,0,0x00,0x01
1.274981708333333,0,0x02,0x01
1.275779208333333,0,0xB0,0x12
1.275797208333333,0,0xFF,0x12
1.275815416666667,0,0xFF,0x14
1.277766250000000,0,0xB0,0x12
1.277784291666667,0,0xFF,0x02
1.277802500000000,0,0xFF,0x10
1.279753083333333,0,0xB0,0x12
1.279771083333333,0,0xFF,0x12
1.279789291666667,0,0xFF,0x14
1.281740208333333,0,0x98,0x10
1.281758250000000,0,0xFF,0x02
1.281776458333333,0,0xFF,0x14
1.283727375000000,0,0x90,0x12
1.283745416666667,0,0xFF,0x12
1.283763625000000,0,0xFF,0x04
1.285714583333333,0,0xF0,0x12
1.285732583333333,0,0x7F,0x1A
1.285750791666667,0,0xFF,0x16
1.287702000000000,0,0xB0,0x12
1.287720041666667,0,0xFF,0x12
1.287738208333333,0,0xFF,0x14
1.289688958333333,0,0xB0,0x12
1.289707000000000,0,0xFF,0x12
1.289725166666667,0,0xFF,0x14
1.291675875000000,0,0xB0,0x12
1.291693916666667,0,0xFF,0x12
1.291712125000000,0,0xFF,0x14
1.293662875000000,0,0xB0,0x12
1.293680916666667,0,0xFF,0x12
1.293699083333333,0,0xFF,0x14
1.295649958333333,0,0x98,0x18
1.295668000000000,0,0xFF,0x02
1.295686208333333,0,0xFF,0x00
1.297637125000000,0,0x90,0x12
1.297655166666667,0,0xFF,0x12
1.297673375000000,0,0xFF,0x14
1.299624291666667,0,0x98,0x1A
1.299642333333333,0,0xFF,0x02
1.299660541666667,0,0xFF,0x14
1.301611500000000,0,0xB0,0x13
1.301629500000000,0,0xFF,0x10
1.301647708333333,0,0xFF,0x16
1.303598666666667,0,0xB0,0x12
1.303616708333333,0,0xFF,0x12
1.303634916666667,0,0xFF,0x04
1.305585958333333,0,0xF0,0x02
1.305603958333333,0,0x7F,0x12
1.305622166666667,0,0xFF,0x1C
1.305647000000000,0,0x87,0x12
1.305665000000000,0,0xFF,0x00
1.305683208333333,0,0xFF,0x8A
1.305703750000000,0,0x87,0x12
1.305721791666667,0,0x00,0x12
1.305739875000000,0,0x32,0x12
1.306569541666667,0,0x07,0x01
1.306587583333333,0,0x00,0x01
1.306605625000000,0,0x33,0x81
1.306626250000000,0,0x34,0x01
1.306644291666667,0,0x80,0x00
1.306662333333333,0,0x00,0x01
1.306682583333333,0,0x87,0x01
1.306700625000000,0,0xFF,0x00
1.306718833333333,0,0xFF,0x32
1.306739708333333,0,0x03,0x01
1.306757708333333,0,0x00,0x01
1.306775791666667,0,0xF2,0x01
1.307573333333333,0,0xF0,0x13
1.307591333333333,0,0x7F,0x1A
1.307609541666667,0,0xFF,0x04
1.309560583333333,0,0xB0,0x12
1.309578625000000,0,0xFF,0x10
1.309596833333333,0,0xFF,0x06
1.311547916666667,0,0xB0,0x12
1.311565958333333,0,0xFF,0x12
1.311584166666667,0,0xFF,0x04
1.313535208333333,0,0xB0,0x12
1.313553250000000,0,0xFF,0x12
1.313571458333333,0,0xFF,0x04
1.315522583333333,0,0xB0,0x12
1.315540625000000,0,0xFF,0x12
1.315558833333333,0,0xFF,0x04
1.317509958333333,0,0xF0,0x12
1.317527958333333,0,0x7F,0x12
1.317546166666667,0,0xFF,0x04
1.319497208333333,0,0xB0,0x12
1.319515250000000,0,0xFF,0x12
1.319533416666667,0,0xFF,0x04
1.321484208333333,0,0xB0,0x12
1.321502250000000,0,0xFF,0x12
1.321520458333333,0,0xFF,0x04
1.323471458333333,0,0xB0,0x12
1.323489500000000,0,0xFF,0x13
1.323507708333333,0,0xFF,0x04
1.325458666666667,0,0xF0,0x12
1.325476666666667,0,0x7F,0x1A
1.325494875000000,0,0xFF,0x06
1.327446208333333,0,0xB0,0x13
1.327464208333333,0,0xFF,0x18
1.327482416666667,0,0xFF,0x06
1.329433500000000,0,0xB0,0x12
1.329451541666667,0,0xFF,0x12
1.329469750000000,0,0xFF,0x04
1.331420875000000,0,0xB0,0x12
1.331438875000000,0,0xFF,0x10
1.331457083333333,0,0xFF,0x04
1.333408000000000,0,0x98,0x1A
1.333426041666667,0,0xFF,0x12
1.333444250000000,0,0xFF,0x00
1.335395083333333,0,0x98,0x10
1.335413125000000,0,0xFF,0x02
1.335431333333333,0,0xFF,0x04
1.337381791666667,0,0xB0,0x12
1.337399833333333,0,0xFF,0x12
1.337418041666667,0,0xFF,0x04
1.337442833333333,0,0x87,0x12
1.337460875000000,0,0xFF,0x00
1.337479041666667,0,0xFF,0x9A
1.337499625000000,0,0x07,0x12
1.337517625000000,0,0x00,0x12
1.337535708333333,0,0x10,0x13
1.338365291666667,0,0x03,0x01
1.338383291666667,0,0x80,0x01
1.338401375000000,0,0x16,0x01
1.338421958333333,0,0x34,0x81
1.338440000000000,0,0x80,0x01
1.338458083333333,0,0x80,0x00
1.338478291666667,0,0x07,0x81
1.338496333333333,0,0xFF,0x00
1.338514541666667,0,0xFF,0x14
1.338535416666667,0,0x07,0x01
1.338553416666667,0,0x80,0x81
1.338571500000000,0,0x9E,0x01
1.339369041666667,0,0xB0,0x12
1.339387083333333,0,0xFF,0x12
1.339405291666667,0,0xFF,0x08
1.341356291666667,0,0xF0,0x02
1.341374291666667,0,0x7F,0x12
1.341392500000000,0,0xFF,0x08
1.343343541666667,0,0xF0,0x02
1.343361541666667,0,0x7F,0x12
1.343379750000000,0,0xFF,0x00
1.345330791666667,0,0x98,0x1A
1.345348833333333,0,0xFF,0x12
1.345367041666667,0,0xFF,0x0C
1.347318333333333,0,0x98,0x10
1.347336375000000,0,0xFF,0x02
1.347354583333333,0,0xFF,0x08
1.349305750000000,0,0x98,0x10
1.349323791666667,0,0xFF,0x12
1.349342000000000,0,0xFF,0x08
1.351293166666667,0,0xB0,0x13
1.351311166666667,0,0x7F,0x1A
1.351329375000000,0,0xFF,0x00
1.353280541666667,0,0xB0,0x12
1.353298583333333,0,0xFF,0x13
1.353316791666667,0,0xFF,0x08
1.355267625000000,0,0x98,0x10
1.355285666666667,0,0xFF,0x02
1.355303875000000,0,0xFF,0x08
1.357254916666667,0,0xF0,0x13
1.357272916666667,0,0x7F,0x18
1.357291125000000,0,0xFF,0x08
1.359241875000000,0,0xB0,0x12
1.359259916666667,0,0xFF,0x12
1.359278125000000,0,0xFF,0x08
1.361229125000000,0,0xB0,0x13
1.361247125000000,0,0xFF,0x10
1.361265333333333,0,0xFF,0x08
1.363216458333333,0,0x98,0x1A
1.363234500000000,0,0xFF,0x12
1.363252708333333,0,0xFF,0x08
1.365203833333333,0,0xB0,0x13
1.365221833333333,0,0xFF,0x10
1.365240041666667,0,0xFF,0x08
1.367191375000000,0,0xB0,0x12
1.367209375000000,0,0xFF,0x12
1.367227583333333,0,0xFF,0x08
1.369178583333333,0,0xF0,0x02
1.369196583333333,0,0x7F,0x12
1.369214791666667,0,0xFF,0x08
1.369239625000000,0,0x83,0x13
1.369257625000000,0,0xFF,0x00
1.369275833333333,0,0xFF,0x96
1.369296375000000,0,0x87,0x12
1.369314416666667,0,0x00,0x12
1.369332500000000,0,0x3C,0x13
1.370162125000000,0,0x07,0x01
1.370180166666667,0,0x00,0x01
1.370198250000000,0,0x3C,0x01
1.370218833333333,0,0x1E,0x01
1.370236875000000,0,0xC0,0x01
1.370254916666667,0,0x00,0x81
1.370275166666667,0,0x87,0x01
1.370293208333333,0,0xFF,0x00
1.370311416666667,0,0xFF,0x3C
1.370332291666667,0,0x07,0x01
1.370350291666667,0,0x00,0x01
1.370368375000000,0,0xFC,0x01
1.371165916666667,0,0xF0,0x02
1.371183916666667,0,0x7F,0x12
1.371202125000000,0,0xFF,0x18
1.373153125000000,0,0x90,0x12
1.373171166666667,0,0xFF,0x12
1.373189375000000,0,0xFF,0x18
1.375140375000000,0,0x98,0x1A
1.375158416666667,0,0xFF,0x12
1.375176625000000,0,0xFF,0x08
1.377127625000000,0,0xF0,0x12
1.377145625000000,0,0x7F,0x12
1.377163833333333,0,0xFF,0x18
1.379114791666667,0,0xB0,0x12
1.379132833333333,0,0xFF,0x13
1.379151041666667,0,0xFF,0x18
1.381102041666667,0,0xB0,0x12
1.381120083333333,0,0xFF,0x13
1.381138291666667,0,0xFF,0x18
1.383089333333333,0,0xF0,0x02
1.383107333333333,0,0x7F,0x12
1.383125541666667,0,0xFF,0x18
1.385076458333333,0,0x98,0x1A
1.385094500000000,0,0xFF,0x12
1.385112708333333,0,0xFF,0x0C
1.387063375000000,0,0xB0,0x12
1.387081416666667,0,0xFF,0x12
1.387099583333333,0,0xFF,0x18
1.389050458333333,0,0x98,0x1A
1.389068500000000,0,0xFF,0x12
1.389086708333333,0,0xFF,0x1C
1.391037625000000,0,0xB0,0x12
1.391055666666667,0,0xFF,0x12
1.391073875000000,0,0xFF,0x18
1.393024791666667,0,0xF0,0x12
1.393042833333333,0,0xFF,0x12
1.393061000000000,0,0xFF,0x18
1.395011916666667,0,0x98,0x10
1.395029958333333,0,0xFF,0x13
1.395048166666667,0,0xFF,0x18
1.396999000000000,0,0x98,0x10
1.397017041666667,0,0xFF,0x13
1.397035250000000,0,0xFF,0x18
1.398986125000000,0,0x98,0x10
1.399004166666667,0,0xFF,0x02
1.399022375000000,0,0xFF,0x0C
1.400973416666667,0,0xF0,0x13
1.400991416666667,0,0x7F,0x1A
1.401009625000000,0,0xFF,0x18
1.401034416666667,0,0x87,0x12
1.401052458333333,0,0xFF,0x00
1.401070666666667,0,0xFF,0xFC
1.401091208333333,0,0x07,0x10
1.401109250000000,0,0x00,0x12
1.401127291666667,0,0x1E,0x12
1.401956916666667,0,0x07,0x01
1.401974958333333,0,0x00,0x01
1.401993041666667,0,0x0E,0x01
1.402013625000000,0,0x1C,0x01
1.402031666666667,0,0xC0,0x01
1.402049750000000,0,0x80,0x01
1.402069958333333,0,0x07,0x01
1.402088000000000,0,0xFF,0x00
1.402106208333333,0,0xFF,0x0E
1.402127083333333,0,0x03,0x01
1.402145083333333,0,0x80,0x81
1.402163166666667,0,0x9E,0x01
1.402960625000000,0,0x18,0x1A
1.402978666666667,0,0xFF,0x02
1.402996875000000,0,0xFF,0x1C
1.404947750000000,0,0x98,0x10
1.404965791666667,0,0xFF,0x02
1.404984000000000,0,0xFF,0x1C
1.406935166666667,0,0xB0,0x12
1.406953208333333,0,0xFF,0x12
1.406971416666667,0,0xFF,0x0C
1.408922250000000,0,0xF0,0x02
1.408940250000000,0,0x7F,0x1A
1.408958458333333,0,0xFF,0x1E
1.410909375000000,0,0xF0,0x02
1.410927375000000,0,0x7F,0x12
1.410945583333333,0,0xFF,0x1E
1.412896458333333,0,0x90,0x12
1.412914500000000,0,0xFF,0x12
1.412932708333333,0,0xFF,0x1C
1.414883625000000,0,0xB0,0x12
1.414901625000000,0,0xFF,0x12
1.414919833333333,0,0xFF,0x1C
1.416870833333333,0,0x98,0x18
1.416888875000000,0,0xFF,0x02
1.416907083333333,0,0xFF,0x0C
1.418858041666667,0,0xB0,0x12
1.418876041666667,0,0xFF,0x12
1.418894250000000,0,0xFF,0x1C
1.420845291666667,0,0x98,0x10
1.420863333333333,0,0xFF,0x12
1.420881541666667,0,0xFF,0x1C
1.422832625000000,0,0x98,0x10
1.422850666666667,0,0xFF,0x02
1.422868875000000,0,0xFF,0x1C
1.424819750000000,0,0xB0,0x12
1.424837791666667,0,0xFF,0x12
1.424856000000000,0,0xFF,0x0C
1.426806500000000,0,0xF0,0x13
1.426824500000000,0,0x7F,0x18
1.426842708333333,0,0xFF,0x1C
1.428793666666667,0,0xB0,0x12
1.428811708333333,0,0xFF,0x13
1.428829916666667,0,0xFF,0x1C
1.430780875000000,0,0x98,0x10
1.430798916666667,0,0xFF,0x02
1.430817125000000,0,0xFF,0x1C
1.432768083333333,0,0xB0,0x12
1.432786083333333,0,0xFF,0x12
1.432804291666667,0,0xFF,0x1C
1.432829083333333,0,0x87,0x10
1.432847125000000,0,0xFF,0x00
1.432865333333333,0,0xFF,0x9E
1.432885875000000,0,0x07,0x02
1.432903875000000,0,0x80,0x12
1.432921958333333,0,0x46,0x12
1.433751500000000,0,0x07,0x01
1.433769541666667,0,0x00,0x01
1.433787625000000,0,0x47,0x01
1.433808208333333,0,0x34,0x01
1.433826208333333,0,0x00,0x81
1.433844291666667,0,0x80,0x01
1.433864541666667,0,0xC7,0x01
1.433882541666667,0,0xFF,0x80
1.433900750000000,0,0xFF,0x66
1.433921625000000,0,0x07,0x01
1.433939666666667,0,0x00,0x01
1.433957708333333,0,0x46,0x01
1.434755166666667,0,0x98,0x12
1.434773208333333,0,0xFF,0x13
1.434791416666667,0,0xFF,0x0C
1.436742291666667,0,0xB0,0x12
1.436760333333333,0,0xFF,0x12
1.436778541666667,0,0xFF,0x0C
1.438729458333333,0,0xB0,0x12
1.438747500000000,0,0xFF,0x13
1.438765708333333,0,0xFF,0x0C
1.440716500000000,0,0xF0,0x13
1.440734500000000,0,0x7F,0x10
1.440752708333333,0,0xFF,0x0C
1.442703625000000,0,0xF0,0x12
1.442721625000000,0,0x7F,0x12
1.442739833333333,0,0xFF,0x0C
1.444690791666667,0,0xF0,0x02
1.444708791666667,0,0x7F,0x12
1.444727000000000,0,0xFF,0x0C
1.446678250000000,0,0x98,0x10
1.446696291666667,0,0xFF,0x02
1.446714500000000,0,0xFF,0x0C
1.448665416666667,0,0xB0,0x13
1.448683416666667,0,0x7F,0x10
1.448701625000000,0,0xFF,0x0C
1.450652625000000,0,0x98,0x10
1.450670666666667,0,0xFF,0x02
1.450688875000000,0,0xFF,0x0C
1.452639875000000,0,0xF0,0x13
1.452657875000000,0,0x7F,0x10
1.452676083333333,0,0xFF,0x0C
1.454627000000000,0,0xB0,0x12
1.454645041666667,0,0xFF,0x12
1.454663250000000,0,0xFF,0x0C
1.456614291666667,0,0xF0,0x12
1.456632333333333,0,0xFF,0x12
1.456650500000000,0,0xFF,0x0C
1.458601625000000,0,0xF0,0x02
1.458619625000000,0,0x7F,0x12
1.458637833333333,0,0xFF,0x0C
1.460588958333333,0,0x90,0x12
1.460607000000000,0,0xFF,0x12
1.460625208333333,0,0xFF,0x0C
1.462576083333333,0,0x90,0x12
1.462594125000000,0,0xFF,0x12
1.462612333333333,0,0xFF,0x0C
1.464563250000000,0,0xB0,0x12
1.464581291666667,0,0xFF,0x12
1.464599500000000,0,0xFF,0x0C
1.464624291666667,0,0x87,0x10
1.464642333333333,0,0xFF,0x00
1.464660541666667,0,0xFF,0xC2
1.464681083333333,0,0x07,0x12
1.464699125000000,0,0x00,0x13
1.464717166666667,0,0x00,0x1A
1.465546791666667,0,0x03,0x00
1.465564791666667,0,0x00,0x01
1.465582875000000,0,0x00,0x01
1.465603458333333,0,0x14,0x01
1.465621500000000,0,0x80,0x01
1.465639583333333,0,0x80,0x00
1.465659791666667,0,0x07,0x81
1.465677833333333,0,0xFF,0x00
1.465696041666667,0,0xFF,0x00
1.465716916666667,0,0x07,0x01
1.465734916666667,0,0x80,0x81
1.465753000000000,0,0x80,0x01
1.466550541666667,0,0xF0,0x02
1.466568541666667,0,0x7F,0x1A
1.466586750000000,0,0xFF,0x00
1.468537875000000,0,0xF0,0x12
1.468555875000000,0,0x7F,0x12
1.468574083333333,0,0xFF,0x00
1.470525208333333,0,0xB0,0x12
1.470543208333333,0,0xFF,0x12
1.470561416666667,0,0xFF,0x00
1.472512541666667,0,0xB0,0x13
1.472530541666667,0,0xFF,0x10
1.472548750000000,0,0xFF,0x00
1.474499708333333,0,0xF0,0x12
1.474517708333333,0,0x7F,0x12
1.474535916666667,0,0xFF,0x00
1.476486875000000,0,0xB0,0x12
1.476504916666667,0,0xFF,0x12
1.476523125000000,0,0xFF,0x00
1.478474083333333,0,0xF0,0x12
1.478492083333333,0,0x7F,0x12
1.478510291666667,0,0xFF,0x00
1.480461333333333,0,0xF0,0x02
1.480479333333333,0,0x7F,0x12
1.480497541666667,0,0xFF,0x00
1.482448500000000,0,0x98,0x1A
1.482466541666667,0,0xFF,0x12
1.482484750000000,0,0xFF,0x00
1.484435625000000,0,0x90,0x12
1.484453666666667,0,0xFF,0x12
1.484471875000000,0,0xFF,0x00
1.486422625000000,0,0xB0,0x12
1.486440625000000,0,0xFF,0x10
1.486458833333333,0,0xFF,0x00
1.488409833333333,0,0xF0,0x12
1.488427833333333,0,0x7F,0x12
1.488446041666667,0,0xFF,0x00
1.490397083333333,0,0xB0,0x12
1.490415083333333,0,0xFF,0x10
1.490433291666667,0,0xFF,0x00
1.492384375000000,0,0xB0,0x12
1.492402416666667,0,0xFF,0x12
1.492420625000000,0,0xFF,0x00
1.494371625000000,0,0x98,0x1A
1.494389666666667,0,0xFF,0x12
1.494407875000000,0,0xFF,0x00
1.496358791666667,0,0xB0,0x12
1.496376833333333,0,0xFF,0x12
1.496395000000000,0,0xFF,0x00
1.496419833333333,0,0x87,0x12
1.496437833333333,0,0xFF,0x00
1.496456041666667,0,0xFF,0x80
1.496476583333333,0,0x07,0x10
1.496494625000000,0,0x00,0x13
1.496512666666667,0,0x00,0x1A
1.497342208333333,0,0x07,0x01
1.497360250000000,0,0x00,0x01
1.497378291666667,0,0x00,0x01
1.497398916666667,0,0x34,0x01
1.497416916666667,0,0x80,0x01
1.497435000000000,0,0xC0,0x01
1.497455250000000,0,0x87,0x01
1.497473250000000,0,0xFF,0x00
1.497491458333333,0,0xFF,0x28
1.497512333333333,0,0x07,0x01
1.497530333333333,0,0x80,0x81
1.497548416666667,0,0xA8,0x01
1.498345875000000,0,0x10,0x12
1.498363916666667,0,0xFF,0x12
1.498382125000000,0,0xFF,0x00
1.500333041666667,0,0x98,0x10
1.500351083333333,0,0xFF,0x02
1.500369291666667,0,0xFF,0x10
1.502320250000000,0,0xB0,0x12
1.502338250000000,0,0xFF,0x12
1.502356458333333,0,0xFF,0x00
1.504307291666667,0,0xB0,0x12
1.504325333333333,0,0xFF,0x13
1.504343541666667,0,0xFF,0x10
1.506294791666667,0,0xF0,0x02
1.506312791666667,0,0x7F,0x12
1.506331000000000,0,0xFF,0x10
1.508282083333333,0,0x98,0x10
1.508300125000000,0,0xFF,0x02
1.508318333333333,0,0xFF,0x10
1.510269208333333,0,0xB0,0x12
1.510287208333333,0,0x7F,0x12
1.510305416666667,0,0xFF,0x18
1.512256375000000,0,0xB0,0x12
1.512274416666667,0,0xFF,0x12
1.512292583333333,0,0xFF,0x10
1.514243625000000,0,0xB0,0x12
1.514261666666667,0,0xFF,0x12
1.514279875000000,0,0xFF,0x10
1.516230916666667,0,0x98,0x10
1.516248958333333,0,0xFF,0x02
1.516267166666667,0,0xFF,0x00
1.518218041666667,0,0x98,0x10
1.518236083333333,0,0xFF,0x13
1.518254291666667,0,0xFF,0x10
1.520205125000000,0,0xF0,0x02
1.520223125000000,0,0x7F,0x1A
1.520241333333333,0,0xFF,0x10
1.522192083333333,0,0xF0,0x02
1.522210083333333,0,0x7F,0x1A
1.522228291666667,0,0xFF,0x10
1.524179083333333,0,0x98,0x18
1.524197125000000,0,0xFF,0x02
1.524215333333333,0,0xFF,0x10
1.526165916666667,0,0x98,0x1A
1.526183958333333,0,0xFF,0x12
1.526202166666667,0,0xFF,0x00
1.528152875000000,0,0x98,0x18
1.528170916666667,0,0xFF,0x02
1.528189125000000,0,0xFF,0x10
1.528213916666667,0,0xC3,0x02
1.528231916666667,0,0xFF,0x00
1.528250125000000,0,0xFF,0xA8
1.528270708333333,0,0x07,0x12
1.528288708333333,0,0x00,0x12
1.528306791666667,0,0x0E,0x12
1.529136291666667,0,0x07,0x01
1.529154333333333,0,0x00,0x01
1.529172375000000,0,0x08,0x01
1.529192958333333,0,0x1C,0x81
1.529211000000000,0,0xC0,0x01
1.529229083333333,0,0x80,0x01
1.529249291666667,0,0x87,0x01
1.529267333333333,0,0xFF,0x00
1.529285541666667,0,0xFF,0x0A
1.529306375000000,0,0x87,0x01
1.529324416666667,0,0x00,0x01
1.529342458333333,0,0x0A,0x81
1.530139875000000,0,0xB0,0x12
1.530157875000000,0,0xFF,0x12
1.530176083333333,0,0xFF,0x14
1.532126833333333,0,0xB0,0x12
1.532144833333333,0,0xFF,0x12
1.532163041666667,0,0xFF,0x14
1.534113916666667,0,0x98,0x10
1.534131958333333,0,0xFF,0x12
1.534150166666667,0,0xFF,0x14
1.536101083333333,0,0x98,0x12
1.536119125000000,0,0xFF,0x13
1.536137333333333,0,0xFF,0x14
1.538087916666667,0,0x98,0x10
1.538105958333333,0,0xFF,0x13
1.538124166666667,0,0xFF,0x14
1.540074833333333,0,0xF0,0x13
1.540092833333333,0,0x7F,0x10
1.540111041666667,0,0xFF,0x14
1.542061916666667,0,0x98,0x18
1.542079958333333,0,0xFF,0x02
1.542098166666667,0,0xFF,0x14
1.544049041666667,0,0xB0,0x12
1.544067083333333,0,0xFF,0x12
1.544085291666667,0,0xFF,0x14
1.546036500000000,0,0xB0,0x12
1.546054500000000,0,0xFF,0x10
1.546072708333333,0,0xFF,0x14
1.548023625000000,0,0xB0,0x12
1.548041666666667,0,0xFF,0x12
1.548059875000000,0,0xFF,0x10
1.550010583333333,0,0x98,0x1A
1.550028625000000,0,0xFF,0x02
1.550046833333333,0,0xFF,0x10
1.551997583333333,0,0x98,0x10
1.552015625000000,0,0xFF,0x02
1.552033833333333,0,0xFF,0x14
1.553984541666667,0,0xB0,0x12
1.554002583333333,0,0xFF,0x12
1.554020750000000,0,0xFF,0x1E
1.555971416666667,0,0xB0,0x12
1.555989458333333,0,0xFF,0x13
1.556007666666667,0,0xFF,0x14
1.557958333333333,0,0xF0,0x02
1.557976333333333,0,0x7F,0x1A
1.557994541666667,0,0xFF,0x14
1.559945291666667,0,0xB0,0x12
1.559963333333333,0,0xFF,0x12
1.559981500000000,0,0xFF,0x14
1.560006333333333,0,0x87,0x12
1.560024333333333,0,0xFF,0x00
1.560042541666667,0,0xFF,0xCA
1.560063083333333,0,0x07,0x12
1.560081125000000,0,0x00,0x13
1.560099166666667,0,0x1A,0x1A
1.560928666666667,0,0x07,0x01
1.560946708333333,0,0x00,0x01
1.560964750000000,0,0x32,0x81
1.560985375000000,0,0x30,0x00
1.561003375000000,0,0x00,0x01
1.561021458333333,0,0xC0,0x01
1.561041708333333,0,0x87,0x01
1.561059708333333,0,0xFF,0x00
1.561077916666667,0,0xFF,0x32
1.561098791666667,0,0x03,0x00
1.561116791666667,0,0x00,0x01
1.561134875000000,0,0xF2,0x01
1.561932250000000,0,0x98,0x12
1.561950291666667,0,0xFF,0x13
1.561968500000000,0,0xFF,0x04
1.563919250000000,0,0x98,0x10
1.563937291666667,0,0xFF,0x12
1.563955500000000,0,0xFF,0x04
1.565905916666667,0,0xB0,0x12
1.565923958333333,0,0xFF,0x02
1.565942166666667,0,0xFF,0x04
1.567893000000000,0,0xB0,0x12
1.567911000000000,0,0xFF,0x12
1.567929208333333,0,0xFF,0x04
1.569880083333333,0,0xB0,0x12
1.569898125000000,0,0xFF,0x12
1.569916333333333,0,0xFF,0x04
1.571867333333333,0,0xB0,0x12
1.571885375000000,0,0xFF,0x12
1.571903583333333,0,0xFF,0x04
1.573854458333333,0,0x98,0x1A
1.573872500000000,0,0xFF,0x02
1.573890708333333,0,0xFF,0x04
1.575841541666667,0,0xF0,0x02
1.575859541666667,0,0x7F,0x1A
1.575877750000000,0,0xFF,0x04
1.577828666666667,0,0xB0,0x12
1.577846666666667,0,0xFF,0x12
1.577864875000000,0,0xFF,0x04
1.579815708333333,0,0xB0,0x12
1.579833708333333,0,0xFF,0x12
1.579851916666667,0,0xFF,0x04
1.581802791666667,0,0xF0,0x13
1.581820791666667,0,0xFF,0x10
1.581839000000000,0,0xFF,0x04
1.583789750000000,0,0xB0,0x13
1.583807750000000,0,0xFF,0x12
1.583825958333333,0,0xFF,0x04
1.585777166666667,0,0x90,0x12
1.585795208333333,0,0xFF,0x13
1.585813416666667,0,0xFF,0x04
1.587764250000000,0,0xB0,0x12
1.587782250000000,0,0xFF,0x12
1.587800458333333,0,0xFF,0x04
1.589751250000000,0,0xB0,0x12
1.589769291666667,0,0xFF,0x12
1.589787458333333,0,0xFF,0x04
1.591738333333333,0,0xF0,0x02
1.591756333333333,0,0x7F,0x12
1.591774541666667,0,0xFF,0x04
1.591799375000000,0,0x83,0x13
1.591817375000000,0,0xFF,0x00
1.591835583333333,0,0xFF,0xB0
1.591856166666667,0,0x07,0x12
1.591874166666667,0,0x00,0x12
1.591892250000000,0,0x00,0x02
1.592721875000000,0,0x03,0x01
1.592739875000000,0,0x80,0x01
1.592757958333333,0,0x16,0x01
1.592778583333333,0,0x34,0x01
1.592796583333333,0,0x80,0x01
1.592814666666667,0,0xC0,0x01
1.592834916666667,0,0x83,0x00
1.592852916666667,0,0xFF,0x00
1.592871125000000,0,0xFF,0x16
1.592892000000000,0,0x07,0x01
1.592910041666667,0,0x00,0x01
1.592928083333333,0,0x14,0x81
1.593725541666667,0,0xB0,0x12
1.593743541666667,0,0x7F,0x12
1.593761750000000,0,0xFF,0x08
1.595712583333333,0,0x98,0x1A
1.595730625000000,0,0xFF,0x02
1.595748833333333,0,0xFF,0x08
1.597699583333333,0,0xB0,0x12
1.597717583333333,0,0xFF,0x12
1.597735791666667,0,0xFF,0x08
1.599686750000000,0,0xB0,0x12
1.599704791666667,0,0xFF,0x12
1.599723000000000,0,0xFF,0x08
1.601674000000000,0,0xF0,0x02
1.601692000000000,0,0x7F,0x1A
1.601710208333333,0,0xFF,0x08
1.603661083333333,0,0xB0,0x12
1.603679083333333,0,0xFF,0x12
1.603697291666667,0,0xFF,0x08
1.605647791666667,0,0xB0,0x12
1.605665791666667,0,0xFF,0x12
1.605684000000000,0,0xFF,0x08
1.607634875000000,0,0x90,0x12
1.607652916666667,0,0xFF,0x12
1.607671125000000,0,0xFF,0x08
1.609622000000000,0,0x98,0x18
1.609640041666667,0,0xFF,0x02
1.609658250000000,0,0xFF,0x0C
1.611609041666667,0,0x98,0x10
1.611627083333333,0,0xFF,0x13
1.611645291666667,0,0xFF,0x08
1.613596083333333,0,0x90,0x12
1.613614125000000,0,0xFF,0x13
1.613632333333333,0,0xFF,0x08
1.615583125000000,0,0xF0,0x12
1.615601125000000,0,0x7F,0x1A
1.615619333333333,0,0xFF,0x08
1.617570208333333,0,0xB0,0x12
1.617588208333333,0,0xFF,0x12
1.617606416666667,0,0xFF,0x08
1.619557291666667,0,0xF0,0x13
1.619575291666667,0,0xFF,0x10
1.619593500000000,0,0xFF,0x08
1.621544416666667,0,0xB0,0x13
1.621562416666667,0,0x7F,0x1A
1.621580625000000,0,0xFF,0x00
1.623531541666667,0,0xF0,0x02
1.623549541666667,0,0x7F,0x12
1.623567750000000,0,0xFF,0x00
1.623592541666667,0,0x87,0x12
1.623610583333333,0,0xFF,0x00
1.623628791666667,0,0xFF,0xC4
1.623649333333333,0,0x07,0x12
1.623667375000000,0,0x00,0x13
1.623685416666667,0,0x1C,0x1A
1.624515041666667,0,0x07,0x01
1.624533083333333,0,0x00,0x01
1.624551125000000,0,0x3C,0x81
1.624571750000000,0,0x34,0x01
1.624589750000000,0,0x00,0x81
1.624607833333333,0,0x80,0x01
1.624628083333333,0,0xC7,0x01
1.624646083333333,0,0xFF,0x80
1.624664291666667,0,0xFF,0x1C
1.624685166666667,0,0x87,0x01
1.624703208333333,0,0x00,0x01
1.624721250000000,0,0x3C,0x81
1.625518750000000,0,0xB0,0x12
1.625536791666667,0,0xFF,0x12
1.625554958333333,0,0xFF,0x18
1.627505916666667,0,0x90,0x12
1.627523958333333,0,0xFF,0x12
1.627542166666667,0,0xFF,0x0C
1.629493125000000,0,0x90,0x12
1.629511166666667,0,0xFF,0x13
1.629529375000000,0,0xFF,0x18
1.631480166666667,0,0xB0,0x12
1.631498208333333,0,0xFF,0x12
1.631516375000000,0,0xFF,0x18
1.633467291666667,0,0xF0,0x02
1.633485291666667,0,0x7F,0x12
1.633503500000000,0,0xFF,0x18
1.635454291666667,0,0xF0,0x12
1.635472291666667,0,0x7F,0x1A
1.635490500000000,0,0xFF,0x18
1.637441375000000,0,0x98,0x1A
1.637459416666667,0,0xFF,0x12
1.637477625000000,0,0xFF,0x08
1.639428541666667,0,0xB0,0x12
1.639446541666667,0,0xFF,0x12
1.639464750000000,0,0xFF,0x18
1.641415625000000,0,0xB0,0x12
1.641433625000000,0,0xFF,0x12
1.641451833333333,0,0xFF,0x18
1.643402625000000,0,0xB0,0x12
1.643420666666667,0,0xFF,0x12
1.643438833333333,0,0xFF,0x18
1.645389958333333,0,0xB0,0x12
1.645407958333333,0,0xFF,0x10
1.645426166666667,0,0xFF,0x18
1.647377083333333,0,0xB0,0x12
1.647395125000000,0,0xFF,0x12
1.647413333333333,0,0xFF,0x18
1.649364375000000,0,0xF0,0x12
1.649382375000000,0,0x7F,0x12
1.649400583333333,0,0xFF,0x18
1.651351583333333,0,0xF0,0x02
1.651369583333333,0,0x7F,0x12
1.651387791666667,0,0xFF,0x18
1.653338708333333,0,0x98,0x1A
1.653356750000000,0,0xFF,0x12
1.653374958333333,0,0xFF,0x0C
1.655325791666667,0,0x98,0x10
1.655343833333333,0,0xFF,0x02
1.655362041666667,0,0xFF,0x18
1.655386833333333,0,0xC3,0x02
1.655404833333333,0,0xFF,0x00
1.655423041666667,0,0xFF,0x9C
1.655443625000000,0,0x03,0x12
1.655461625000000,0,0x00,0x10
1.655479708333333,0,0x0E,0x02
1.656309291666667,0,0x03,0x00
1.656327291666667,0,0x00,0x01
1.656345375000000,0,0x0E,0x01
1.656365958333333,0,0x1E,0x01
1.656384000000000,0,0x80,0x00
1.656402041666667,0,0x00,0x01
1.656422291666667,0,0x87,0x01
1.656440333333333,0,0xFF,0x00
1.656458500000000,0,0xFF,0x1E
1.656479375000000,0,0x87,0x01
1.656497416666667,0,0x00,0x01
1.656515458333333,0,0x1F,0x81
1.657312916666667,0,0xB0,0x13
1.657330916666667,0,0xFF,0x10
1.657349125000000,0,0xFF,0x1C
1.659300000000000,0,0xF0,0x12
1.659318041666667,0,0xFF,0x12
1.659336208333333,0,0xFF,0x1C
1.661287125000000,0,0xF0,0x02
1.661305125000000,0,0x7F,0x12
1.661323333333333,0,0xFF,0x1E
1.663274375000000,0,0xB0,0x12
1.663292416666667,0,0xFF,0x12
1.663310625000000,0,0xFF,0x1C
1.665261291666667,0,0x98,0x1A
1.665279333333333,0,0xFF,0x12
1.665297541666667,0,0xFF,0x0C
1.667248375000000,0,0x98,0x10
1.667266416666667,0,0xFF,0x02
1.667284625000000,0,0xFF,0x1C
1.669235458333333,0,0xB0,0x12
1.669253458333333,0,0x7F,0x12
1.669271666666667,0,0xFF,0x1E
1.671222416666667,0,0xB0,0x12
1.671240458333333,0,0xFF,0x12
1.671258666666667,0,0xFF,0x0C
1.673209666666667,0,0xB0,0x12
1.673227666666667,0,0xFF,0x12
1.673245875000000,0,0xFF,0x1C
1.675196875000000,0,0xB0,0x12
1.675214875000000,0,0xFF,0x10
1.675233083333333,0,0xFF,0x1C
1.677183875000000,0,0x98,0x1A
1.677201916666667,0,0xFF,0x12
1.677220125000000,0,0xFF,0x1C
1.679170958333333,0,0xB0,0x12
1.679189000000000,0,0xFF,0x12
1.679207208333333,0,0xFF,0x1C
1.681157833333333,0,0x98,0x1A
1.681175875000000,0,0xFF,0x02
1.681194083333333,0,0xFF,0x1C
1.683144833333333,0,0x98,0x1A
1.683162875000000,0,0xFF,0x12
1.683181083333333,0,0xFF,0x1C
1.685132208333333,0,0xB0,0x12
1.685150250000000,0,0xFF,0x13
1.685168458333333,0,0xFF,0x1C
1.687119333333333,0,0xF0,0x02
1.687137333333333,0,0x7F,0x1A
1.687155541666667,0,0xFF,0x1E
1.687180333333333,0,0x87,0x12
1.687198375000000,0,0xFF,0x00
1.687216583333333,0,0xFF,0xDE
1.687237125000000,0,0x07,0x10
1.687255166666667,0,0x00,0x02
1.687273208333333,0,0x46,0x12
1.688102833333333,0,0x07,0x01
1.688120833333333,0,0x80,0x81
1.688138916666667,0,0x46,0x01
1.688159500000000,0,0x34,0x81
1.688177541666667,0,0x80,0x01
1.688195625000000,0,0xC0,0x00
1.688215833333333,0,0x07,0x81
1.688233875000000,0,0xFF,0x00
1.688252083333333,0,0xFF,0x46
1.688272958333333,0,0x07,0x01
1.688291000000000,0,0x00,0x01
1.688309041666667,0,0xE6,0x01
1.689106458333333,0,0xF0,0x02
1.689124458333333,0,0x7F,0x1A
1.689142666666667,0,0xFF,0x06
1.691093083333333,0,0xF0,0x13
1.691111083333333,0,0xFF,0x12
1.691129291666667,0,0xFF,0x0C
1.693080083333333,0,0xF0,0x13
1.693098083333333,0,0x7F,0x10
1.693116291666667,0,0xFF,0x0C
1.695067166666667,0,0xB0,0x12
1.695085166666667,0,0xFF,0x12
1.695103375000000,0,0xFF,0x0C
1.697054291666667,0,0xB0,0x12
1.697072291666667,0,0xFF,0x10
1.697090500000000,0,0xFF,0x0C
1.699041333333333,0,0xB0,0x12
1.699059333333333,0,0xFF,0x10
1.699077541666667,0,0xFF,0x0C
1.701028500000000,0,0x98,0x12
1.701046541666667,0,0xFF,0x13
1.701064750000000,0,0xFF,0x0C
1.703015708333333,0,0xF0,0x02
1.703033708333333,0,0x7F,0x1A
1.703051916666667,0,0xFF,0x0C
1.705003125000000,0,0xF0,0x12
1.705021125000000,0,0x7F,0x12
1.705039333333333,0,0xFF,0x0C
1.706990333333333,0,0xB0,0x12
1.707008375000000,0,0xFF,0x12
1.707026583333333,0,0xFF,0x0C
1.708977541666667,0,0xB0,0x12
1.708995583333333,0,0xFF,0x12
1.709013791666667,0,0xFF,0x0C
1.710964708333333,0,0xB0,0x13
1.710982708333333,0,0xFF,0x18
1.711000916666667,0,0xFF,0x0E
1.712951791666667,0,0x98,0x10
1.712969833333333,0,0xFF,0x02
1.712988041666667,0,0xFF,0x0C
1.714938958333333,0,0xF0,0x12
1.714956958333333,0,0x7F,0x12
1.714975166666667,0,0xFF,0x0C
1.716926083333333,0,0xB0,0x12
1.716944125000000,0,0xFF,0x12
1.716962333333333,0,0xFF,0x0C
1.718913416666667,0,0xB0,0x12
1.718931458333333,0,0xFF,0x12
1.718949666666667,0,0xFF,0x0C
1.718974458333333,0,0x87,0x18
1.718992500000000,0,0xFF,0x00
1.719010708333333,0,0xFF,0xC7
1.719031250000000,0,0x07,0x12
1.719049291666667,0,0x00,0x13
1.719067333333333,0,0x00,0x12
1.719897000000000,0,0x03,0x00
1.719915000000000,0,0x00,0x01
1.719933083333333,0,0x00,0x01
1.719953666666667,0,0x34,0x81
1.719971708333333,0,0x80,0x01
1.719989791666667,0,0xC0,0x01
1.720010041666667,0,0x83,0x01
1.720028041666667,0,0xFF,0x00
1.720046250000000,0,0xFF,0x00
1.720067125000000,0,0x07,0x01
1.720085166666667,0,0x00,0x01
1.720103208333333,0,0x00,0x81
1.720900750000000,0,0xB0,0x12
1.720918791666667,0,0xFF,0x12
1.720937000000000,0,0xFF,0x00
1.722887958333333,0,0x98,0x1A
1.722906000000000,0,0xFF,0x12
1.722924208333333,0,0xFF,0x00
1.724874875000000,0,0x98,0x1A
1.724892916666667,0,0xFF,0x12
1.724911125000000,0,0xFF,0x00
1.726862041666667,0,0xB0,0x12
1.726880041666667,0,0xFF,0x12
1.726898250000000,0,0xFF,0x00
1.728849208333333,0,0x90,0x12
1.728867250000000,0,0xFF,0x12
1.728885458333333,0,0xFF,0x00
1.730836416666667,0,0xB0,0x13
1.730854416666667,0,0xFF,0x10
1.730872625000000,0,0xFF,0x00
1.732823625000000,0,0x98,0x18
1.732841666666667,0,0xFF,0x02
1.732859875000000,0,0xFF,0x00
1.734810833333333,0,0xF0,0x02
1.734828833333333,0,0x7F,0x12
1.734847041666667,0,0xFF,0x00
1.736797875000000,0,0x98,0x12
1.736815916666667,0,0xFF,0x12
1.736834125000000,0,0xFF,0x00
1.738785083333333,0,0xB0,0x12
1.738803125000000,0,0xFF,0x12
1.738821333333333,0,0xFF,0x00
1.740772291666667,0,0xB0,0x13
1.740790291666667,0,0xFF,0x10
1.740808500000000,0,0xFF,0x00
1.742759375000000,0,0x90,0x12
1.742777416666667,0,0xFF,0x13
1.742795625000000,0,0xFF,0x00
1.744746791666667,0,0xB0,0x12
1.744764833333333,0,0xFF,0x12
1.744783041666667,0,0xFF,0x00
1.746734208333333,0,0xB0,0x12
1.746752208333333,0,0xFF,0x10
1.746770416666667,0,0xFF,0x00
1.748721375000000,0,0xB0,0x12
1.748739416666667,0,0xFF,0x12
1.748757625000000,0,0xFF,0x00
1.750708375000000,0,0xB0,0x13
1.750726375000000,0,0xFF,0x10
1.750744583333333,0,0xFF,0x00
1.750769375000000,0,0x87,0x12
1.750787416666667,0,0xFF,0x00
1.750805625000000,0,0xFF,0x80
1.750826166666667,0,0x87,0x12
1.750844208333333,0,0x00,0x12
1.750862291666667,0,0x3C,0x13
1.751691916666667,0,0x07,0x01
1.751709916666667,0,0x00,0x01
1.751728000000000,0,0x3C,0x00
1.751748583333333,0,0x36,0x01
1.751766625000000,0,0x80,0x01
1.751784666666667,0,0x00,0x01
1.751804916666667,0,0xC7,0x01
1.751822916666667,0,0xFF,0x80
1.751841125000000,0,0xFF,0x00
1.751862000000000,0,0x07,0x01
1.751880041666667,0,0x00,0x00
1.751898083333333,0,0x00,0x01
1.752695541666667,0,0x90,0x12
1.752713583333333,0,0xFF,0x13
1.752731791666667,0,0xFF,0x10
1.754682666666667,0,0xF0,0x12
1.754700666666667,0,0x7F,0x12
1.754718875000000,0,0xFF,0x10
1.756669666666667,0,0xB0,0x13
1.756687666666667,0,0xFF,0x10
1.756705875000000,0,0xFF,0x10
1.758656625000000,0,0xB0,0x12
1.758674666666667,0,0xFF,0x12
1.758692875000000,0,0xFF,0x10
1.760643708333333,0,0xF0,0x02
1.760661708333333,0,0x7F,0x12
1.760679916666667,0,0xFF,0x18
1.762630750000000,0,0xB0,0x12
1.762648791666667,0,0xFF,0x12
1.762666958333333,0,0xFF,0x10
1.764617958333333,0,0xB0,0x12
1.764636000000000,0,0xFF,0x12
1.764654166666667,0,0xFF,0x10
1.766604666666667,0,0xB0,0x12
1.766622666666667,0,0xFF,0x12
1.766640875000000,0,0xFF,0x10
1.768591583333333,0,0x98,0x10
1.768609625000000,0,0xFF,0x12
1.768627833333333,0,0xFF,0x10
1.770578583333333,0,0xB0,0x13
1.770596583333333,0,0xFF,0x12
1.770614791666667,0,0xFF,0x10
1.772565625000000,0,0xF0,0x02
1.772583625000000,0,0x7F,0x1A
1.772601833333333,0,0xFF,0x10
1.774552708333333,0,0xB0,0x12
1.774570708333333,0,0xFF,0x12
1.774588916666667,0,0xFF,0x10
1.776539666666667,0,0x98,0x12
1.776557708333333,0,0xFF,0x13
1.776575916666667,0,0xFF,0x10
1.778526708333333,0,0xB0,0x12
1.778544708333333,0,0x7F,0x12
1.778562916666667,0,0xFF,0x18
1.780513833333333,0,0xB0,0x12
1.780531833333333,0,0xFF,0x12
1.780550041666667,0,0xFF,0x10
1.782500875000000,0,0x98,0x1A
1.782518916666667,0,0xFF,0x02
1.782537125000000,0,0xFF,0x10
1.782561916666667,0,0xC7,0x12
1.782579958333333,0,0xFF,0x00
1.782598125000000,0,0xFF,0x28
1.782618708333333,0,0x03,0x13
1.782636708333333,0,0x00,0x10
1.782654791666667,0,0x0A,0x02
1.783484375000000,0,0x07,0x01
1.783502416666667,0,0x00,0x01
1.783520458333333,0,0x00,0x01
1.783541083333333,0,0x34,0x01
1.783559083333333,0,0x80,0x01
1.783577166666667,0,0xC0,0x01
1.783597375000000,0,0x07,0x81
1.783615416666667,0,0xFF,0x00
1.783633625000000,0,0xFF,0x0E
1.783654500000000,0,0x03,0x00
1.783672500000000,0,0x00,0x01
1.783690583333333,0,0xCA,0x01
1.784488000000000,0,0x98,0x12
1.784506041666667,0,0xFF,0x13
1.784524250000000,0,0xFF,0x14
1.786475083333333,0,0xF0,0x02
1.786493083333333,0,0x7F,0x1A
1.786511291666667,0,0xFF,0x1E
1.788462208333333,0,0xB0,0x12
1.788480250000000,0,0xFF,0x12
1.788498416666667,0,0xFF,0x14
1.790449333333333,0,0xB0,0x12
1.790467375000000,0,0xFF,0x13
1.790485583333333,0,0xFF,0x14
1.792436375000000,0,0xB0,0x13
1.792454375000000,0,0xFF,0x10
1.792472583333333,0,0xFF,0x14
1.794423625000000,0,0xF0,0x02
1.794441625000000,0,0x7F,0x12
1.794459833333333,0,0xFF,0x1C
1.796410875000000,0,0xB0,0x13
1.796428875000000,0,0xFF,0x10
1.796447083333333,0,0xFF,0x14
1.798398000000000,0,0xF0,0x02
1.798416000000000,0,0x7F,0x18
1.798434208333333,0,0xFF,0x16
1.800385041666667,0,0xB0,0x13
1.800403041666667,0,0xFF,0x10
1.800421250000000,0,0xFF,0x14
1.802372041666667,0,0x90,0x12
1.802390083333333,0,0xFF,0x12
1.802408291666667,0,0xFF,0x04
1.804359458333333,0,0xB0,0x12
1.804377500000000,0,0xFF,0x12
1.804395666666667,0,0xFF,0x14
1.806346625000000,0,0xF0,0x12
1.806364625000000,0,0x7F,0x12
1.806382833333333,0,0xFF,0x1C
1.808333666666667,0,0xB0,0x12
1.808351708333333,0,0xFF,0x12
1.808369916666667,0,0xFF,0x14
1.810320708333333,0,0xF0,0x02
1.810338708333333,0,0x7F,0x1A
1.810356916666667,0,0xFF,0x1E
1.812307791666667,0,0xF0,0x02
1.812325791666667,0,0x7F,0x1A
1.812344000000000,0,0xFF,0x1E
1.814294833333333,0,0xB0,0x12
1.814312833333333,0,0xFF,0x12
1.814331041666667,0,0xFF,0x14
1.814355833333333,0,0x87,0x18
1.814373875000000,0,0xFF,0x00
1.814392083333333,0,0xFF,0x8A
1.814412625000000,0,0x07,0x12
1.814430666666667,0,0x00,0x12
1.814448708333333,0,0x1A,0x1A
1.815278250000000,0,0x07,0x01
1.815296291666667,0,0x00,0x01
1.815314333333333,0,0x33,0x81
1.815334958333333,0,0x30,0x01
1.815352958333333,0,0x00,0x01
1.815371041666667,0,0x80,0x01
1.815391291666667,0,0xC3,0x00
1.815409291666667,0,0xFF,0x00
1.815427500000000,0,0xFF,0x32
1.815448375000000,0,0x07,0x01
1.815466416666667,0,0x00,0x01
1.815484458333333,0,0x18,0x01
1.816281916666667,0,0x30,0x92
1.816299958333333,0,0xFF,0x12
1.816318166666667,0,0xFF,0x04
1.818269000000000,0,0xF0,0x02
1.818287000000000,0,0x7F,0x12
1.818305208333333,0,0xFF,0x06
1.820256125000000,0,0xB0,0x12
1.820274125000000,0,0xFF,0x12
1.820292333333333,0,0xFF,0x04
1.822243166666667,0,0xB0,0x12
1.822261166666667,0,0xFF,0x12
1.822279375000000,0,0xFF,0x04
1.824229875000000,0,0x98,0x1A
1.824247916666667,0,0xFF,0x02
1.824266125000000,0,0xFF,0x04
1.826217041666667,0,0xB0,0x12
1.826235083333333,0,0xFF,0x12
1.826253291666667,0,0xFF,0x04
1.828204166666667,0,0x90,0x12
1.828222208333333,0,0xFF,0x12
1.828240416666667,0,0xFF,0x00
1.830191333333333,0,0xB0,0x13
1.830209333333333,0,0xFF,0x10
1.830227541666667,0,0xFF,0x04
1.832178291666667,0,0x90,0x12
1.832196333333333,0,0xFF,0x12
1.832214541666667,0,0xFF,0x04
1.834165291666667,0,0x90,0x12
1.834183333333333,0,0xFF,0x13
1.834201541666667,0,0xFF,0x04
1.836152333333333,0,0xB0,0x12
1.836170333333333,0,0xFF,0x12
1.836188541666667,0,0xFF,0x04
1.838139583333333,0,0xB0,0x13
1.838157583333333,0,0x7F,0x10
1.838175791666667,0,0xFF,0x04
1.840126750000000,0,0xF0,0x02
1.840144750000000,0,0x7F,0x12
1.840162958333333,0,0xFF,0x06
1.842113833333333,0,0x90,0x12
1.842131875000000,0,0xFF,0x12
1.842150083333333,0,0xFF,0x04
1.844101250000000,0,0xB0,0x12
1.844119291666667,0,0xFF,0x12
1.844137458333333,0,0xFF,0x04
1.846088416666667,0,0x98,0x18
1.846106458333333,0,0xFF,0x02
1.846124666666667,0,0xFF,0x00
1.846149458333333,0,0xC7,0x12
1.846167458333333,0,0xFF,0x00
1.846185666666667,0,0xFF,0x32
1.846206250000000,0,0x03,0x12
1.846224250000000,0,0x80,0x1A
1.846242333333333,0,0x14,0x12
1.847071958333333,0,0x07,0x01
1.847090000000000,0,0x00,0x01
1.847108083333333,0,0x00,0x00
1.847128666666667,0,0x3E,0x01
1.847146708333333,0,0xC0,0x00
1.847164750000000,0,0x00,0x01
1.847185000000000,0,0x87,0x01
1.847203041666667,0,0xFF,0x00
1.847221250000000,0,0xFF,0x14
1.847242125000000,0,0x07,0x01
1.847260125000000,0,0x00,0x01
1.847278208333333,0,0xC0,0x01
1.848075750000000,0,0xB0,0x12
1.848093750000000,0,0xFF,0x12
1.848111958333333,0,0xFF,0x08
1.850063000000000,0,0xF0,0x02
1.850081000000000,0,0x7F,0x12
1.850099208333333,0,0xFF,0x08
1.852050041666667,0,0xF0,0x13
1.852068041666667,0,0x7F,0x1A
1.852086250000000,0,0xFF,0x00
1.854037208333333,0,0xF0,0x02
1.854055208333333,0,0x7F,0x12
1.854073416666667,0,0xFF,0x08
1.856024666666667,0,0xB0,0x12
1.856042666666667,0,0xFF,0x12
1.856060875000000,0,0xFF,0x08
1.858011500000000,0,0x98,0x10
1.858029541666667,0,0xFF,0x02
1.858047750000000,0,0xFF,0x08
1.859998791666667,0,0xB0,0x12
1.860016791666667,0,0xFF,0x12
1.860035000000000,0,0xFF,0x0C
1.861985708333333,0,0xB0,0x12
1.862003750000000,0,0xFF,0x12
1.862021958333333,0,0xFF,0x0C
1.863972958333333,0,0xB0,0x12
1.863991000000000,0,0xFF,0x12
1.864009208333333,0,0xFF,0x08
1.865959833333333,0,0x98,0x12
1.865977875000000,0,0xFF,0x13
1.865996083333333,0,0xFF,0x08
1.867946750000000,0,0x98,0x10
1.867964791666667,0,0xFF,0x02
1.867983000000000,0,0xFF,0x08
1.869934208333333,0,0xF0,0x12
1.869952208333333,0,0x7F,0x12
1.869970416666667,0,0xFF,0x00
1.871921000000000,0,0x98,0x12
1.871939041666667,0,0xFF,0x13
1.871957250000000,0,0xFF,0x08
1.873908083333333,0,0xB0,0x12
1.873926083333333,0,0xFF,0x12
1.873944291666667,0,0xFF,0x08
1.875895000000000,0,0xB0,0x12
1.875913041666667,0,0xFF,0x12
1.875931208333333,0,0xFF,0x08
1.877882166666667,0,0x98,0x1A
1.877900208333333,0,0xFF,0x02
1.877918416666667,0,0xFF,0x0C
1.877943208333333,0,0xC7,0x12
1.877961208333333,0,0xFF,0x00
1.877979416666667,0,0xFF,0x9E
1.878000000000000,0,0x07,0x12
1.878018000000000,0,0x00,0x12
1.878036083333333,0,0x3C,0x12
1.878865666666667,0,0x07,0x01
1.878883708333333,0,0x00,0x00
1.878901750000000,0,0x1C,0x01
1.878922375000000,0,0x30,0x01
1.878940375000000,0,0x00,0x01
1.878958458333333,0,0x80,0x01
1.878978708333333,0,0x83,0x00
1.878996708333333,0,0xFF,0x00
1.879014916666667,0,0xFF,0x3C
1.879035791666667,0,0x07,0x01
1.879053833333333,0,0x00,0x01
1.879071875000000,0,0x9E,0x01
1.879869333333333,0,0xB0,0x12
1.879887375000000,0,0xFF,0x12
1.879905541666667,0,0xFF,0x18
1.881856416666667,0,0x98,0x10
1.881874458333333,0,0xFF,0x02
1.881892666666667,0,0xFF,0x18
1.883843500000000,0,0x98,0x12
1.883861541666667,0,0xFF,0x13
1.883879750000000,0,0xFF,0x18
1.885830541666667,0,0xB0,0x12
1.885848541666667,0,0xFF,0x12
1.885866750000000,0,0xFF,0x18
1.887817500000000,0,0x98,0x12
1.887835541666667,0,0xFF,0x12
1.887853750000000,0,0xFF,0x18
1.889804625000000,0,0xB0,0x12
1.889822625000000,0,0xFF,0x12
1.889840833333333,0,0xFF,0x18
1.891791708333333,0,0x98,0x10
1.891809750000000,0,0xFF,0x02
1.891827958333333,0,0xFF,0x18
1.893778875000000,0,0x98,0x1A
1.893796916666667,0,0xFF,0x12
1.893815125000000,0,0xFF,0x0C
1.895766125000000,0,0x98,0x10
1.895784166666667,0,0xFF,0x02
1.895802375000000,0,0xFF,0x18
1.897753208333333,0,0x98,0x1A
1.897771250000000,0,0xFF,0x12
1.897789458333333,0,0xFF,0x0C
1.899740291666667,0,0xB0,0x12
1.899758333333333,0,0xFF,0x13
1.899776541666667,0,0xFF,0x18
1.901727291666667,0,0x98,0x18
1.901745333333333,0,0xFF,0x02
1.901763541666667,0,0xFF,0x18
1.903714291666667,0,0xF0,0x13
1.903732291666667,0,0xFF,0x10
1.903750500000000,0,0xFF,0x18
1.905701208333333,0,0x90,0x12
1.905719250000000,0,0xFF,0x13
1.905737458333333,0,0xFF,0x18
1.907688125000000,0,0xB0,0x12
1.907706166666667,0,0xFF,0x12
1.907724375000000,0,0xFF,0x08
1.909675208333333,0,0x98,0x1A
1.909693250000000,0,0xFF,0x02
1.909711458333333,0,0xFF,0x0C
1.909736250000000,0,0xC7,0x12
1.909754250000000,0,0xFF,0x00
1.909772458333333,0,0xFF,0x3C
1.909793041666667,0,0x03,0x13
1.909811041666667,0,0x80,0x1A
1.909829125000000,0,0x1E,0x12
1.910658708333333,0,0x03,0x01
1.910676708333333,0,0x80,0x01
1.910694791666667,0,0x1E,0x01
1.910715416666667,0,0x34,0x01
1.910733416666667,0,0x80,0x01
1.910751500000000,0,0xC0,0x01
1.910771750000000,0,0x87,0x01
1.910789750000000,0,0xFF,0x00
1.910807958333333,0,0xFF,0x1E
1.910828833333333,0,0x07,0x01
1.910846875000000,0,0x00,0x01
1.910864916666667,0,0x1F,0x81
1.911662416666667,0,0x18,0x1A
1.911680458333333,0,0xFF,0x12
1.911698666666667,0,0xFF,0x0C
1.913649583333333,0,0xB0,0x12
1.913667625000000,0,0xFF,0x12
1.913685833333333,0,0xFF,0x1C
1.915636791666667,0,0x90,0x12
1.915654833333333,0,0xFF,0x12
1.915673041666667,0,0xFF,0x1C
1.917623875000000,0,0x98,0x1A
1.917641916666667,0,0xFF,0x12
1.917660125000000,0,0xFF,0x0C
1.919611000000000,0,0xB0,0x12
1.919629041666667,0,0xFF,0x12
1.919647250000000,0,0xFF,0x1C
1.921598291666667,0,0xF0,0x02
1.921616291666667,0,0x7F,0x12
1.921634500000000,0,0xFF,0x1E
1.923585375000000,0,0xF0,0x13
1.923603375000000,0,0x7F,0x18
1.923621583333333,0,0xFF,0x1E
1.925572500000000,0,0x90,0x12
1.925590541666667,0,0xFF,0x02
1.925608750000000,0,0xFF,0x1C
1.927559583333333,0,0xB0,0x12
1.927577625000000,0,0xFF,0x12
1.927595791666667,0,0xFF,0x1C
1.929546833333333,0,0xB0,0x12
1.929564833333333,0,0xFF,0x10
1.929583041666667,0,0xFF,0x1C
1.931534083333333,0,0xB0,0x12
1.931552125000000,0,0xFF,0x13
1.931570333333333,0,0xFF,0x1C
1.933521333333333,0,0x98,0x1A
1.933539375000000,0,0xFF,0x02
1.933557583333333,0,0xFF,0x0C
1.935508500000000,0,0xB0,0x12
1.935526541666667,0,0xFF,0x12
1.935544750000000,0,0xFF,0x1C
1.937495666666667,0,0x98,0x10
1.937513708333333,0,0xFF,0x02
1.937531916666667,0,0xFF,0x0C
1.939482875000000,0,0x98,0x10
1.939500916666667,0,0xFF,0x02
1.939519125000000,0,0xFF,0x1C
1.941470041666667,0,0xB0,0x13
1.941488041666667,0,0xFF,0x10
1.941506250000000,0,0xFF,0x1C
1.941531041666667,0,0x87,0x12
1.941549083333333,0,0xFF,0x00
1.941567291666667,0,0xFF,0x9E
1.941587833333333,0,0x87,0x1A
1.941605875000000,0,0x00,0x02
1.941623958333333,0,0x47,0x12
1.942453541666667,0,0x03,0x01
1.942471541666667,0,0x80,0x01
1.942489625000000,0,0x46,0x01
1.942510208333333,0,0x34,0x01
1.942528250000000,0,0x80,0x01
1.942546333333333,0,0x80,0x00
1.942566541666667,0,0x07,0x01
1.942584583333333,0,0xFF,0x00
1.942602791666667,0,0xFF,0x02
1.942623666666667,0,0x03,0x00
1.942641666666667,0,0x80,0x01
1.942659750000000,0,0xC6,0x01
1.943457250000000,0,0xF0,0x12
1.943475250000000,0,0x7F,0x12
1.943493458333333,0,0xFF,0x04
1.945444458333333,0,0x98,0x1A
1.945462500000000,0,0xFF,0x12
1.945480708333333,0,0xFF,0x0C
1.947431708333333,0,0xB0,0x12
1.947449750000000,0,0xFF,0x13
1.947467958333333,0,0xFF,0x0C
1.949418833333333,0,0xB0,0x13
1.949436833333333,0,0xFF,0x12
1.949455041666667,0,0xFF,0x0C
1.951406041666667,0,0x98,0x10
1.951424083333333,0,0xFF,0x02
1.951442291666667,0,0xFF,0x0C
1.953393291666667,0,0xB0,0x12
1.953411333333333,0,0xFF,0x12
1.953429541666667,0,0xFF,0x0C
1.955380583333333,0,0xF0,0x13
1.955398583333333,0,0x7F,0x18
1.955416791666667,0,0xFF,0x0C
1.957367708333333,0,0xF0,0x02
1.957385708333333,0,0x7F,0x12
1.957403916666667,0,0xFF,0x0C
1.959355000000000,0,0x98,0x1A
1.959373041666667,0,0xFF,0x12
1.959391250000000,0,0xFF,0x0C
1.961342250000000,0,0xF0,0x12
1.961360250000000,0,0x7F,0x1A
1.961378458333333,0,0xFF,0x0E
1.963329625000000,0,0xB0,0x12
1.963347625000000,0,0xFF,0x10
1.963365833333333,0,0xFF,0x0C
1.965316875000000,0,0x98,0x1A
1.965334916666667,0,0xFF,0x12
1.965353125000000,0,0xFF,0x0C
1.967304083333333,0,0xB0,0x12
1.967322083333333,0,0xFF,0x12
1.967340291666667,0,0xFF,0x0C
1.969291375000000,0,0xB0,0x12
1.969309375000000,0,0xFF,0x12
1.969327583333333,0,0xFF,0x0C
1.971278666666667,0,0xB0,0x12
1.971296708333333,0,0xFF,0x02
1.971314916666667,0,0xFF,0x0C
1.973265958333333,0,0xB0,0x12
1.973283958333333,0,0xFF,0x12
1.973302166666667,0,0xFF,0x0C
1.973326958333333,0,0x87,0x10
1.973345000000000,0,0xFF,0x00
1.973363208333333,0,0xFF,0xC7
1.973383750000000,0,0x07,0x12
1.973401791666667,0,0x00,0x12
1.973419833333333,0,0x00,0x12
1.974249458333333,0,0x03,0x01
1.974267458333333,0,0x80,0x81
1.974285541666667,0,0x00,0x01
1.974306125000000,0,0x34,0x81
1.974324166666667,0,0x80,0x01
1.974342250000000,0,0xC0,0x01
1.974362500000000,0,0xC3,0x01
1.974380500000000,0,0xFF,0x00
1.974398708333333,0,0xFF,0x00
1.974419583333333,0,0x87,0x01
1.974437625000000,0,0x00,0x01
1.974455708333333,0,0xC0,0x01
1.975253291666667,0,0xF0,0x02
1.975271291666667,0,0x7F,0x12
1.975289500000000,0,0xFF,0x00
1.977240708333333,0,0xB0,0x12
1.977258750000000,0,0xFF,0x12
1.977276958333333,0,0xFF,0x00
1.979228083333333,0,0xB0,0x12
1.979246083333333,0,0xFF,0x10
1.979264291666667,0,0xFF,0x00
1.981215458333333,0,0xB0,0x13
1.981233458333333,0,0x7F,0x1A
1.981251666666667,0,0xFF,0x00
1.983202750000000,0,0x90,0x12
1.983220791666667,0,0xFF,0x12
1.983239000000000,0,0xFF,0x00
1.985190041666667,0,0xB0,0x12
1.985208083333333,0,0xFF,0x13
1.985226291666667,0,0xFF,0x00
1.987177291666667,0,0x98,0x10
1.987195333333333,0,0xFF,0x12
1.987213541666667,0,0xFF,0x00
1.989164458333333,0,0xB0,0x12
1.989182500000000,0,0xFF,0x12
1.989200708333333,0,0xFF,0x00
1.991151666666667,0,0xB0,0x13
1.991169666666667,0,0xFF,0x10
1.991187875000000,0,0xFF,0x00
1.993138875000000,0,0xB0,0x12
1.993156916666667,0,0xFF,0x12
1.993175125000000,0,0xFF,0x00
1.995126250000000,0,0xB0,0x12
1.995144291666667,0,0xFF,0x12
1.995162500000000,0,0xFF,0x00
1.997113583333333,0,0x98,0x10
1.997131625000000,0,0xFF,0x02
1.997149833333333,0,0xFF,0x00
1.999100875000000,0,0xB0,0x13
1.999118875000000,0,0xFF,0x10
1.999137083333333,0,0xFF,0x00
2.001088166666666,0,0xB0,0x13
2.001106166666667,0,0x7F,0x18
2.001124375000000,0,0xFF,0x00
2.003075500000000,0,0xB0,0x12
2.003093500000000,0,0xFF,0x10
2.003111708333333,0,0xFF,0x00
2.005062750000000,0,0xB0,0x12
2.005080750000000,0,0xFF,0x12
2.005098958333333,0,0xFF,0x00
2.005123750000000,0,0x87,0x1A
2.005141791666667,0,0xFF,0x00
2.005160000000000,0,0xFF,0xC0
2.005180541666667,0,0x07,0x10
2.005198583333333,0,0x00,0x02
2.005216625000000,0,0x28,0x12
2.006046291666667,0,0x07,0x01
2.006064291666667,0,0x80,0x81
2.006082375000000,0,0x00,0x01
2.006103000000000,0,0x30,0x00
2.006121000000000,0,0x00,0x01
2.006139083333333,0,0xC0,0x01
2.006159333333333,0,0x83,0x00
2.006177333333333,0,0xFF,0x00
2.006195541666667,0,0xFF,0x00
2.006216416666667,0,0x87,0x01
2.006234458333333,0,0x00,0x01
2.006252541666667,0,0xFC,0x01
2.007050125000000,0,0xB0,0x13
2.007068125000000,0,0xFF,0x10
2.007086333333334,0,0xFF,0x10
2.009037500000000,0,0xB0,0x12
2.009055500000000,0,0xFF,0x12
2.009073708333333,0,0xFF,0x10
2.011024791666667,0,0xB0,0x12
2.011042791666667,0,0xFF,0x10
2.011061000000000,0,0xFF,0x10
2.013011958333333,0,0x98,0x1A
2.013030000000000,0,0xFF,0x12
2.013048208333333,0,0xFF,0x10
2.014999333333333,0,0xB0,0x12
2.015017333333333,0,0xFF,0x10
2.015035541666667,0,0xFF,0x10
2.016986541666667,0,0xB0,0x12
2.017004583333333,0,0xFF,0x12
2.017022791666667,0,0xFF,0x10
2.018973750000000,0,0xF0,0x02
2.018991750000000,0,0x7F,0x12
2.019009958333333,0,0xFF,0x10
2.020961125000000,0,0xF0,0x12
2.020979125000000,0,0x7F,0x12
2.020997333333333,0,0xFF,0x10
2.022948458333333,0,0xF0,0x02
2.022966500000000,0,0xFF,0x12
2.022984708333333,0,0xFF,0x10
2.024935750000000,0,0xF0,0x02
2.024953750000000,0,0x7F,0x12
2.024971958333333,0,0xFF,0x10
2.026923083333333,0,0x98,0x1A
2.026941125000000,0,0xFF,0x12
2.026959333333333,0,0xFF,0x00
2.028910291666667,0,0xB0,0x12
2.028928291666667,0,0xFF,0x12
2.028946500000000,0,0xFF,0x10
2.030897416666666,0,0xF0,0x02
2.030915416666667,0,0x7F,0x12
2.030933625000000,0,0xFF,0x18
2.032884583333333,0,0xB0,0x12
2.032902583333333,0,0xFF,0x10
2.032920791666667,0,0xFF,0x10
2.034871750000000,0,0x98,0x1A
2.034889791666667,0,0xFF,0x12
2.034908000000000,0,0xFF,0x00
2.036858958333333,0,0xF0,0x12
2.036876958333333,0,0x7F,0x12
2.036895166666667,0,0xFF,0x18
2.036920000000000,0,0x83,0x13
2.036938000000000,0,0xFF,0x00
2.036956208333333,0,0xFF,0xA8
2.036976791666667,0,0x07,0x12
2.036994791666667,0,0x00,0x10
2.037012875000000,0,0x0A,0x12
2.037842541666667,0,0x07,0x01
2.037860583333333,0,0x00,0x01
2.037878666666667,0,0x0F,0x00
2.037899250000000,0,0x36,0x01
2.037917291666667,0,0x80,0x00
2.037935333333333,0,0x00,0x01
2.037955583333333,0,0x87,0x01
2.037973625000000,0,0xFF,0x00
2.037991791666667,0,0xFF,0x0A
2.038012666666666,0,0x87,0x01
2.038030708333333,0,0x00,0x01
2.038048791666667,0,0x8F,0x01
2.038846333333333,0,0xB0,0x12
2.038864333333333,0,0xFF,0x10
2.038882541666667,0,0xFF,0x14
2.040833750000000,0,0xF0,0x12
2.040851750000000,0,0x7F,0x12
2.040869958333333,0,0xFF,0x14
2.042821083333333,0,0xF0,0x02
2.042839083333333,0,0x7F,0x1A
2.042857291666667,0,0xFF,0x1E
2.044808583333333,0,0xF0,0x02
2.044826583333333,0,0x7F,0x12
2.044844791666667,0,0xFF,0x14
2.046795916666666,0,0x90,0x12
2.046813958333333,0,0xFF,0x12
2.046832166666666,0,0xFF,0x14
2.048783333333333,0,0xB0,0x12
2.048801375000000,0,0xFF,0x12
2.048819541666667,0,0xFF,0x14
2.050770583333333,0,0x98,0x1A
2.050788625000000,0,0xFF,0x12
2.050806833333333,0,0xFF,0x00
2.052757708333333,0,0x98,0x10
2.052775750000000,0,0xFF,0x13
2.052793958333333,0,0xFF,0x14
2.054745041666667,0,0xF0,0x13
2.054763041666666,0,0x7F,0x1A
2.054781250000000,0,0xFF,0x1E
2.056732291666667,0,0x90,0x12
2.056750333333333,0,0xFF,0x12
2.056768541666667,0,0xFF,0x14
2.058719583333333,0,0x98,0x10
2.058737625000000,0,0xFF,0x02
2.058755833333333,0,0xFF,0x10
2.060707041666667,0,0xB0,0x12
2.060725083333333,0,0xFF,0x13
2.060743291666667,0,0xFF,0x14
2.062694375000000,0,0xB0,0x12
2.062712416666667,0,0xFF,0x12
2.062730583333333,0,0xFF,0x14
2.064681708333334,0,0x98,0x10
2.064699750000000,0,0xFF,0x12
2.064717958333333,0,0xFF,0x14
2.066669000000000,0,0xB0,0x12
2.066687000000000,0,0xFF,0x10
2.066705208333333,0,0xFF,0x14
2.068656208333334,0,0xF0,0x13
2.068674208333333,0,0x7F,0x18
2.068692416666666,0,0xFF,0x16
2.068717208333333,0,0x87,0x12
2.068735250000000,0,0xFF,0x00
2.068753458333333,0,0xFF,0xCA
2.068774000000000,0,0x07,0x12
2.068792041666667,0,0x00,0x13
2.068810083333333,0,0x1A,0x1A
2.069639708333333,0,0x07,0x01
2.069657750000000,0,0x00,0x01
2.069675791666667,0,0x32,0x81
2.069696416666666,0,0x34,0x01
2.069714416666667,0,0x00,0x81
2.069732500000000,0,0x80,0x01
2.069752750000000,0,0xC3,0x01
2.069770750000000,0,0xFF,0x00
2.069788958333334,0,0xFF,0x1A
2.069809833333333,0,0x07,0x01
2.069827875000000,0,0x00,0x01
2.069845916666667,0,0x33,0x81
2.070643416666667,0,0x10,0x12
2.070661458333333,0,0xFF,0x12
2.070679666666666,0,0xFF,0x00
2.072630625000000,0,0xB0,0x12
2.072648666666667,0,0xFF,0x12
2.072666875000000,0,0xFF,0x04
2.074617833333333,0,0xB0,0x12
2.074635833333333,0,0xFF,0x12
2.074654041666667,0,0xFF,0x04
2.076604958333333,0,0xB0,0x12
2.076623000000000,0,0xFF,0x13
2.076641208333333,0,0xFF,0x04
2.078592250000000,0,0xB0,0x13
2.078610250000000,0,0x7F,0x18
2.078628458333333,0,0xFF,0x06
2.080579458333333,0,0xF0,0x02
2.080597458333334,0,0x7F,0x12
2.080615666666667,0,0xFF,0x04
2.082566625000000,0,0xF0,0x12
2.082584625000000,0,0x7F,0x1A
2.082602833333334,0,0xFF,0x04
2.084553750000000,0,0xB0,0x12
2.084571791666667,0,0xFF,0x13
2.084590000000000,0,0xFF,0x04
2.086541041666667,0,0xF0,0x02
2.086559041666667,0,0x7F,0x12
2.086577250000000,0,0xFF,0x04
2.088528166666667,0,0xB0,0x12
2.088546166666667,0,0xFF,0x12
2.088564375000000,0,0xFF,0x04
2.090515458333333,0,0xB0,0x13
2.090533458333333,0,0xFF,0x1A
2.090551666666667,0,0xFF,0x06
2.092502750000000,0,0x98,0x18
2.092520791666667,0,0xFF,0x02
2.092539000000000,0,0xFF,0x00
2.094489958333333,0,0xB0,0x12
2.094508000000000,0,0xFF,0x12
2.094526208333333,0,0xFF,0x04
2.096477250000000,0,0xF0,0x02
2.096495250000000,0,0x7F,0x12
2.096513458333333,0,0xFF,0x04
2.098464625000000,0,0xB0,0x12
2.098482666666666,0,0xFF,0x13
2.098500875000000,0,0xFF,0x04
2.100451916666667,0,0x90,0x12
2.100469958333333,0,0xFF,0x12
2.100488166666667,0,0xFF,0x04
2.100512958333333,0,0x87,0x18
2.100531000000000,0,0xFF,0x00
2.100549208333333,0,0xFF,0xB2
2.100569750000000,0,0x07,0x10
2.100587791666667,0,0x00,0x02
2.100605875000000,0,0x10,0x12
2.101435500000000,0,0x07,0x01
2.101453541666667,0,0x00,0x01
2.101471583333333,0,0x1E,0x01
2.101492208333333,0,0x30,0x00
2.101510208333333,0,0x00,0x01
2.101528291666667,0,0xC0,0x01
2.101548541666667,0,0x83,0x00
2.101566541666667,0,0xFF,0x00
2.101584750000000,0,0xFF,0x1C
2.101605625000000,0,0x07,0x01
2.101623666666667,0,0x00,0x01
2.101641708333333,0,0x1C,0x01
2.102439250000000,0,0xB0,0x12
2.102457291666667,0,0xFF,0x12
2.102475458333333,0,0xFF,0x08
2.104426583333333,0,0x90,0x12
2.104444625000000,0,0xFF,0x12
2.104462833333333,0,0xFF,0x08
2.106413916666667,0,0xB0,0x13
2.106431916666667,0,0xFF,0x10
2.106450125000000,0,0xFF,0x08
2.108401125000000,0,0xB0,0x12
2.108419166666667,0,0xFF,0x12
2.108437375000000,0,0xFF,0x08
2.110388416666667,0,0x98,0x10
2.110406458333333,0,0xFF,0x02
2.110424666666667,0,0xFF,0x08
2.112375625000000,0,0xB0,0x12
2.112393625000000,0,0xFF,0x12
2.112411833333333,0,0xFF,0x08
2.114362791666667,0,0xB0,0x13
2.114380791666667,0,0xFF,0x10
2.114399000000000,0,0xFF,0x08
2.116349750000000,0,0xB0,0x12
2.116367791666667,0,0xFF,0x12
2.116385958333333,0,0xFF,0x08
2.118337000000000,0,0xB0,0x13
2.118355000000000,0,0x7F,0x18
2.118373208333333,0,0xFF,0x08
2.120324416666667,0,0xB0,0x12
2.120342458333333,0,0xFF,0x12
2.120360666666667,0,0xFF,0x08
2.122311750000000,0,0xF0,0x02
2.122329750000000,0,0x7F,0x12
2.122347958333333,0,0xFF,0x00
2.124299041666667,0,0xB0,0x12
2.124317083333333,0,0xFF,0x13
2.124335291666667,0,0xFF,0x08
2.126286375000000,0,0xF0,0x02
2.126304375000000,0,0x7F,0x12
2.126322583333333,0,0xFF,0x08
2.128273625000000,0,0x98,0x1A
2.128291666666667,0,0xFF,0x12
2.128309875000000,0,0xFF,0x08
2.130260833333333,0,0xF0,0x12
2.130278833333333,0,0x7F,0x12
2.130297041666667,0,0xFF,0x00
2.132248000000000,0,0xB0,0x12
2.132266041666667,0,0xFF,0x12
2.132284250000000,0,0xFF,0x08
2.132309041666667,0,0xC7,0x02
2.132327041666667,0,0xFF,0x00
2.132345250000000,0,0xFF,0x9C
2.132365833333334,0,0x03,0x13
2.132383833333333,0,0x80,0x18
2.132401916666667,0,0x3C,0x12
2.133231500000000,0,0x07,0x01
2.133249500000000,0,0x80,0x81
2.133267583333333,0,0x1E,0x01
2.133288208333334,0,0x34,0x01
2.133306208333333,0,0x80,0x01
2.133324291666667,0,0xC0,0x01
2.133344541666667,0,0x87,0x01
2.133362541666667,0,0xFF,0x00
2.133380750000000,0,0xFF,0x3C
2.133401625000000,0,0x03,0x01
2.133419625000000,0,0x80,0x81
2.133437708333333,0,0xBE,0x01
2.134235208333333,0,0x30,0x92
2.134253250000000,0,0xFF,0x12
2.134271458333334,0,0xFF,0x18
2.136222375000000,0,0x98,0x10
2.136240416666667,0,0xFF,0x02
2.136258625000000,0,0xFF,0x18
2.138209625000000,0,0xB0,0x12
2.138227625000000,0,0xFF,0x12
2.138245833333333,0,0xFF,0x18
2.140196750000000,0,0xB0,0x12
2.140214791666667,0,0xFF,0x12
2.140232958333333,0,0xFF,0x18
2.142184000000000,0,0x98,0x1A
2.142202041666667,0,0xFF,0x12
2.142220250000000,0,0xFF,0x08
2.144171250000000,0,0xB0,0x12
2.144189250000000,0,0xFF,0x12
2.144207458333333,0,0xFF,0x18
2.146158416666667,0,0xB0,0x12
2.146176458333333,0,0xFF,0x12
2.146194666666667,0,0xFF,0x18
2.148145708333333,0,0xB0,0x12
2.148163708333333,0,0xFF,0x12
2.148181916666667,0,0xFF,0x18
2.150132875000000,0,0x90,0x12
2.150150916666667,0,0xFF,0x13
2.150169125000000,0,0xFF,0x18
2.152120000000000,0,0xB0,0x12
2.152138041666666,0,0xFF,0x12
2.152156208333333,0,0xFF,0x18
2.154107208333333,0,0xF0,0x13
2.154125208333333,0,0x7F,0x18
2.154143416666667,0,0xFF,0x18
2.156094291666667,0,0xB0,0x12
2.156112333333333,0,0xFF,0x12
2.156130500000000,0,0xFF,0x18
2.158081333333334,0,0x98,0x18
2.158099375000000,0,0xFF,0x02
2.158117583333333,0,0xFF,0x18
2.160068416666667,0,0xB0,0x12
2.160086458333333,0,0xFF,0x12
2.160104625000000,0,0xFF,0x18
2.162055416666667,0,0xF0,0x02
2.162073416666667,0,0x7F,0x1A
2.162091625000000,0,0xFF,0x18
2.164042541666667,0,0xB0,0x12
2.164060583333333,0,0xFF,0x13
2.164078791666667,0,0xFF,0x18
2.164103583333334,0,0xC3,0x12
2.164121583333333,0,0xFF,0x00
2.164139791666666,0,0xFF,0xBE
2.164160375000000,0,0x07,0x12
2.164178375000000,0,0x00,0x12
2.164196458333334,0,0x0F,0x13
2.165026041666667,0,0x07,0x01
2.165044041666667,0,0x00,0x01
2.165062125000000,0,0x0E,0x01
2.165082708333333,0,0x1C,0x01
2.165100750000000,0,0xC0,0x01
2.165118833333334,0,0x80,0x00
2.165139041666666,0,0x07,0x81
2.165157083333333,0,0xFF,0x00
2.165175291666666,0,0xFF,0x1E
2.165196166666667,0,0x07,0x01
2.165214208333333,0,0x00,0x01
2.165232250000000,0,0x1E,0x01
2.166029708333333,0,0x30,0x92
2.166047750000000,0,0xFF,0x12
2.166065958333333,0,0xFF,0x1C
2.168016833333333,0,0xB0,0x12
2.168034875000000,0,0xFF,0x12
2.168053041666667,0,0xFF,0x1C
2.170003958333333,0,0xF0,0x12
2.170021958333333,0,0x7F,0x12
2.170040166666667,0,0xFF,0x1C
2.171991125000000,0,0xB0,0x12
2.172009125000000,0,0xFF,0x10
2.172027333333333,0,0xFF,0x1C
2.173978208333333,0,0xB0,0x12
2.173996250000000,0,0xFF,0x12
2.174014458333333,0,0xFF,0x1C
2.175965500000000,0,0x90,0x12
2.175983541666667,0,0xFF,0x13
2.176001750000000,0,0xFF,0x1C
2.177952708333333,0,0xF0,0x12
2.177970708333334,0,0x7F,0x12
2.177988916666667,0,0xFF,0x1C
2.179939875000000,0,0x98,0x18
2.179957916666666,0,0xFF,0x12
2.179976125000000,0,0xFF,0x0C
2.181927041666667,0,0xF0,0x12
2.181945041666667,0,0x7F,0x12
2.181963250000000,0,0xFF,0x1C
2.183914333333334,0,0xF0,0x12
2.183932375000000,0,0xFF,0x13
2.183950583333333,0,0xFF,0x1C
2.185901708333333,0,0xB0,0x12
2.185919750000000,0,0xFF,0x12
2.185937958333333,0,0xFF,0x1C
2.187889041666667,0,0xB0,0x12
2.187907041666667,0,0xFF,0x10
2.187925250000000,0,0xFF,0x1C
2.189876375000000,0,0x98,0x1A
2.189894416666667,0,0xFF,0x12
2.189912625000000,0,0xFF,0x0C
2.191863750000000,0,0x90,0x12
2.191881791666667,0,0xFF,0x12
2.191900000000000,0,0xFF,0x1C
2.193851041666667,0,0x98,0x10
2.193869083333333,0,0xFF,0x02
2.193887291666667,0,0xFF,0x1C
2.195838291666667,0,0xF0,0x13
2.195856291666667,0,0x7F,0x18
2.195874500000000,0,0xFF,0x1E
2.195899291666667,0,0x87,0x12
2.195917333333333,0,0xFF,0x00
2.195935541666667,0,0xFF,0x8E
2.195956083333333,0,0x07,0x12
2.195974125000000,0,0x00,0x13
2.195992166666667,0,0x66,0x1A
2.196821791666667,0,0x07,0x01
2.196839833333333,0,0x00,0x00
2.196857875000000,0,0x66,0x01
2.196878500000000,0,0x30,0x00
2.196896500000000,0,0x00,0x01
2.196914583333333,0,0xC0,0x01
2.196934833333333,0,0x83,0x00
2.196952833333333,0,0xFF,0x00
2.196971041666667,0,0xFF,0x46
2.196991916666667,0,0x07,0x01
2.197009958333333,0,0x00,0x00
2.197028000000000,0,0x66,0x01
2.197825541666667,0,0x18,0x1A
2.197843583333333,0,0xFF,0x12
2.197861791666667,0,0xFF,0x0C
2.199812750000000,0,0xF0,0x12
2.199830750000000,0,0x7F,0x12
2.199848958333333,0,0xFF,0x04
2.201800083333334,0,0xF0,0x02
2.201818125000000,0,0xFF,0x12
2.201836333333334,0,0xFF,0x0C
2.203787375000000,0,0xB0,0x13
2.203805375000000,0,0xFF,0x10
2.203823583333334,0,0xFF,0x0C
2.205774583333334,0,0xB0,0x12
2.205792625000000,0,0xFF,0x12
2.205810791666666,0,0xFF,0x0C
2.207761833333334,0,0xB0,0x12
2.207779833333333,0,0xFF,0x12
2.207798041666666,0,0xFF,0x0C
2.209749208333333,0,0xB0,0x12
2.209767250000000,0,0xFF,0x12
2.209785458333333,0,0xFF,0x0C
2.211736375000000,0,0x98,0x10
2.211754416666667,0,0xFF,0x02
2.211772625000000,0,0xFF,0x0C
2.213723625000000,0,0xF0,0x02
2.213741625000000,0,0x7F,0x12
2.213759833333333,0,0xFF,0x0C
2.215710791666667,0,0xF0,0x02
2.215728791666667,0,0x7F,0x12
2.215747000000000,0,0xFF,0x04
2.217698000000000,0,0xF0,0x12
2.217716000000000,0,0x7F,0x12
2.217734208333333,0,0xFF,0x0C
2.219685208333333,0,0xF0,0x12
2.219703208333333,0,0x7F,0x12
2.219721416666667,0,0xFF,0x0C
2.221672500000000,0,0xB0,0x12
2.221690541666667,0,0xFF,0x13
2.221708750000000,0,0xFF,0x0C
2.223659791666666,0,0x98,0x1A
2.223677833333333,0,0xFF,0x12
2.223696041666666,0,0xFF,0x0C
2.225647000000000,0,0xB0,0x12
2.225665041666667,0,0xFF,0x12
2.225683250000000,0,0xFF,0x0C
2.227634208333333,0,0xB0,0x12
2.227652250000000,0,0xFF,0x12
2.227670458333333,0,0xFF,0x0C
2.227695250000000,0,0x87,0x18
2.227713291666667,0,0xFF,0x00
2.227731500000000,0,0xFF,0xC2
2.227752041666667,0,0x07,0x12
2.227770083333333,0,0x00,0x12
2.227788125000000,0,0x00,0x12
2.228617750000000,0,0x07,0x01
2.228635791666667,0,0x00,0x01
2.228653875000000,0,0x00,0x01
2.228674458333333,0,0x36,0x01
2.228692500000000,0,0x80,0x00
2.228710541666667,0,0x00,0x01
2.228730791666667,0,0x87,0x01
2.228748833333333,0,0xFF,0x00
2.228767041666667,0,0xFF,0x00
2.228787916666667,0,0x07,0x01
2.228805916666666,0,0x00,0x01
2.228824000000000,0,0xC0,0x01
2.229621541666666,0,0xB0,0x13
2.229639541666667,0,0xFF,0x10
2.229657750000000,0,0xFF,0x00
2.231608875000000,0,0xB0,0x12
2.231626916666666,0,0xFF,0x13
2.231645125000000,0,0xFF,0x00
2.233596166666667,0,0xB0,0x12
2.233614208333333,0,0xFF,0x13
2.233632416666667,0,0xFF,0x00
2.235583500000000,0,0xF0,0x02
2.235601500000000,0,0x7F,0x12
2.235619708333333,0,0xFF,0x00
2.237570708333333,0,0x98,0x1A
2.237588750000000,0,0xFF,0x12
2.237606958333333,0,0xFF,0x00
2.239558083333333,0,0xF0,0x02
2.239576083333333,0,0x7F,0x12
2.239594291666667,0,0xFF,0x00
2.241545333333333,0,0xB0,0x12
2.241563375000000,0,0xFF,0x13
2.241581583333333,0,0xFF,0x00
2.243532583333333,0,0xB0,0x12
2.243550625000000,0,0xFF,0x13
2.243568833333333,0,0xFF,0x00
2.245519875000000,0,0xF0,0x02
2.245537875000000,0,0x7F,0x12
2.245556083333333,0,0xFF,0x00
2.247507250000000,0,0xB0,0x12
2.247525250000000,0,0xFF,0x10
2.247543458333333,0,0xFF,0x00
2.249494541666667,0,0xF0,0x02
2.249512541666667,0,0x7F,0x12
2.249530750000000,0,0xFF,0x00
2.251481750000000,0,0xF0,0x02
2.251499750000000,0,0x7F,0x1A
2.251517958333333,0,0xFF,0x00
2.253469000000000,0,0xB0,0x13
2.253487000000000,0,0xFF,0x10
2.253505208333333,0,0xFF,0x00
2.255456250000000,0,0x90,0x12
2.255474291666667,0,0xFF,0x12
2.255492500000000,0,0xFF,0x00
2.257443583333334,0,0xF0,0x12
2.257461583333333,0,0x7F,0x12
2.257479791666666,0,0xFF,0x00
2.259430833333333,0,0xB0,0x12
2.259448875000000,0,0xFF,0x12
2.259467083333333,0,0xFF,0x00
2.259491875000000,0,0x87,0x10
2.259509916666667,0,0xFF,0x00
2.259528125000000,0,0xFF,0x80
2.259548666666667,0,0x07,0x12
2.259566708333333,0,0x00,0x13
2.259584750000000,0,0x08,0x12
2.260414416666667,0,0x07,0x01
2.260432458333333,0,0x00,0x01
2.260450541666667,0,0x3C,0x01
2.260471125000000,0,0x1E,0x01
2.260489166666667,0,0xC0,0x01
2.260507208333333,0,0x00,0x81
2.260527458333333,0,0x07,0x01
2.260545500000000,0,0xFF,0x00
2.260563708333333,0,0xFF,0x2C
2.260584583333333,0,0x03,0x00
2.260602583333333,0,0x80,0x01
2.260620666666667,0,0xA8,0x01
2.261418208333333,0,0xF0,0x12
2.261436208333333,0,0x7F,0x1A
2.261454416666667,0,0xFF,0x18
2.263405500000000,0,0x98,0x1A
2.263423541666667,0,0xFF,0x12
2.263441750000000,0,0xFF,0x10
2.265392708333333,0,0xF0,0x02
2.265410708333333,0,0x7F,0x12
2.265428916666667,0,0xFF,0x10
2.267380000000000,0,0xF0,0x02
2.267398000000000,0,0x7F,0x12
2.267416208333333,0,0xFF,0x18
2.269367125000000,0,0x98,0x10
2.269385166666666,0,0xFF,0x13
2.269403375000000,0,0xFF,0x10
2.271354291666666,0,0x98,0x1A
2.271372333333333,0,0xFF,0x12
2.271390541666667,0,0xFF,0x00
2.273341500000000,0,0xB0,0x13
2.273359500000000,0,0x7F,0x18
2.273377708333333,0,0xFF,0x10
2.275328666666667,0,0xF0,0x13
2.275346666666667,0,0x7F,0x18
2.275364875000000,0,0xFF,0x10
2.277315833333333,0,0xB0,0x12
2.277333875000000,0,0xFF,0x12
2.277352041666667,0,0xFF,0x10
2.279302958333334,0,0xB0,0x12
2.279321000000000,0,0xFF,0x13
2.279339208333333,0,0xFF,0x10
2.281289958333333,0,0xB0,0x12
2.281308000000000,0,0xFF,0x12
2.281326208333333,0,0xFF,0x10
2.283277041666667,0,0xF0,0x02
2.283295041666667,0,0x7F,0x12
2.283313250000000,0,0xFF,0x10
2.285264166666667,0,0x98,0x10
2.285282208333333,0,0xFF,0x13
2.285300416666667,0,0xFF,0x10
2.287251375000000,0,0xB0,0x12
2.287269416666667,0,0xFF,0x12
2.287287583333333,0,0xFF,0x10
2.289238541666667,0,0xB0,0x12
2.289256541666667,0,0xFF,0x12
2.289274750000000,0,0xFF,0x10
2.291225666666667,0,0x98,0x1A
2.291243708333333,0,0xFF,0x12
2.291261916666667,0,0xFF,0x00
2.291286708333333,0,0x87,0x12
2.291304750000000,0,0xFF,0x00
2.291322916666667,0,0xFF,0x28
2.291343500000000,0,0x03,0x12
2.291361500000000,0,0x80,0x1A
2.291379583333333,0,0x0A,0x12
2.292209208333333,0,0x07,0x01
2.292227250000000,0,0x00,0x01
2.292245291666667,0,0x0B,0x81
2.292265916666667,0,0x34,0x01
2.292283916666667,0,0x00,0x81
2.292302000000000,0,0x80,0x01
2.292322250000000,0,0xC7,0x01
2.292340250000000,0,0xFF,0x80
2.292358458333333,0,0xFF,0x0A
2.292379333333333,0,0x87,0x01
2.292397375000000,0,0x00,0x01
2.292415458333333,0,0xCF,0x00
2.293212916666667,0,0xB0,0x12
2.293230958333333,0,0xFF,0x12
2.293249125000000,0,0xFF,0x14
2.295200208333333,0,0xB0,0x13
2.295218208333333,0,0xFF,0x10
2.295236416666667,0,0xFF,0x14
2.297187583333333,0,0xB0,0x12
2.297205583333333,0,0xFF,0x10
2.297223791666667,0,0xFF,0x14
2.299174833333333,0,0xB0,0x12
2.299192875000000,0,0xFF,0x12
2.299211083333333,0,0xFF,0x14
2.301162083333333,0,0x90,0x12
2.301180125000000,0,0xFF,0x12
2.301198333333333,0,0xFF,0x00
2.303149375000000,0,0xB0,0x12
2.303167375000000,0,0xFF,0x10
2.303185583333333,0,0xFF,0x16
2.305136625000000,0,0xB0,0x12
2.305154666666667,0,0xFF,0x13
2.305172875000000,0,0xFF,0x14
2.307123875000000,0,0xB0,0x12
2.307141916666667,0,0xFF,0x12
2.307160125000000,0,0xFF,0x14
2.309111083333333,0,0xB0,0x12
2.309129125000000,0,0xFF,0x12
2.309147291666667,0,0xFF,0x14
2.311098375000000,0,0xB0,0x13
2.311116375000000,0,0x7F,0x1A
2.311134583333333,0,0xFF,0x16
2.313085625000000,0,0xB0,0x12
2.313103666666667,0,0xFF,0x13
2.313121875000000,0,0xFF,0x14
2.315072833333333,0,0xB0,0x13
2.315090833333334,0,0xFF,0x10
2.315109041666667,0,0xFF,0x14
2.317060041666667,0,0xB0,0x12
2.317078041666667,0,0xFF,0x12
2.317096250000000,0,0xFF,0x14
2.319047208333334,0,0xB0,0x12
2.319065250000000,0,0xFF,0x12
2.319083458333334,0,0xFF,0x04
2.321034416666667,0,0xF0,0x02
2.321052416666667,0,0x7F,0x12
2.321070625000000,0,0xFF,0x1C
2.323021625000000,0,0xB0,0x12
2.323039666666667,0,0xFF,0x13
2.323057875000000,0,0xFF,0x14
2.323082666666667,0,0xC3,0x02
2.323100666666666,0,0xFF,0x00
2.323118875000000,0,0xFF,0x8A
2.323139458333333,0,0x03,0x13
2.323157458333333,0,0x80,0x12
2.323175541666667,0,0x30,0x12
2.324005166666667,0,0x07,0x01
2.324023166666667,0,0x00,0x01
2.324041250000000,0,0x33,0x00
2.324061833333333,0,0x36,0x01
2.324079875000000,0,0x80,0x00
2.324097916666667,0,0x00,0x01
2.324118166666667,0,0x87,0x01
2.324136208333333,0,0xFF,0x00
2.324154416666667,0,0xFF,0x32
2.324175250000000,0,0x87,0x01
2.324193291666667,0,0x00,0x01
2.324211375000000,0,0xF2,0x01
2.325008875000000,0,0x98,0x10
2.325026916666667,0,0xFF,0x02
2.325045125000000,0,0xFF,0x04
2.326996083333333,0,0xF0,0x12
2.327014083333333,0,0x7F,0x12
2.327032291666667,0,0xFF,0x04
2.328983291666667,0,0xB0,0x12
2.329001333333333,0,0xFF,0x12
2.329019541666667,0,0xFF,0x04
2.330970541666667,0,0xF0,0x13
2.330988541666667,0,0x7F,0x1A
2.331006750000000,0,0xFF,0x06
2.332958041666667,0,0xF0,0x02
2.332976041666667,0,0x7F,0x1A
2.332994250000000,0,0xFF,0x04
2.334945375000000,0,0xB0,0x12
2.334963416666667,0,0xFF,0x12
2.334981625000000,0,0xFF,0x04
2.336932625000000,0,0xF0,0x02
2.336950625000000,0,0x7F,0x1A
2.336968833333333,0,0xFF,0x06
2.338919875000000,0,0xB0,0x13
2.338937875000000,0,0xFF,0x10
2.338956083333333,0,0xFF,0x04
2.340907208333333,0,0x98,0x18
2.340925250000000,0,0xFF,0x02
2.340943458333333,0,0xFF,0x00
2.342894500000000,0,0x98,0x1A
2.342912541666667,0,0xFF,0x12
2.342930750000000,0,0xFF,0x04
2.344881833333333,0,0xB0,0x12
2.344899833333333,0,0xFF,0x12
2.344918041666667,0,0xFF,0x04
2.346869208333333,0,0x98,0x10
2.346887250000000,0,0xFF,0x02
2.346905458333334,0,0xFF,0x00
2.348856541666667,0,0xF0,0x02
2.348874541666667,0,0x7F,0x12
2.348892750000000,0,0xFF,0x04
2.350843833333333,0,0xB0,0x12
2.350861875000000,0,0xFF,0x13
2.350880083333333,0,0xFF,0x04
2.352831166666667,0,0x98,0x12
2.352849208333333,0,0xFF,0x02
2.352867416666667,0,0xFF,0x00
2.354818541666666,0,0x98,0x1A
2.354836583333333,0,0xFF,0x12
2.354854791666666,0,0xFF,0x04
2.354879583333333,0,0x87,0x1A
2.354897625000000,0,0xFF,0x00
2.354915833333334,0,0xFF,0xF2
2.354936375000000,0,0x07,0x10
2.354954416666667,0,0x00,0x02
2.354972500000000,0,0x14,0x12
2.355802208333333,0,0x03,0x01
2.355820208333333,0,0x80,0x81
2.355838291666667,0,0x1E,0x01
2.355858916666667,0,0x34,0x01
2.355876916666667,0,0x80,0x01
2.355895000000000,0,0xC0,0x01
2.355915250000000,0,0x83,0x00
2.355933250000000,0,0xFF,0x00
2.355951458333333,0,0xFF,0x16
2.355972333333333,0,0x07,0x01
2.355990375000000,0,0x00,0x00
2.356008416666667,0,0x14,0x81
2.356806000000000,0,0xF0,0x02
2.356824000000000,0,0x7F,0x12
2.356842208333333,0,0xFF,0x08
2.358793375000000,0,0xB0,0x12
2.358811416666667,0,0xFF,0x13
2.358829625000000,0,0xFF,0x08
2.360780750000000,0,0xF0,0x12
2.360798750000000,0,0x7F,0x1A
2.360816958333333,0,0xFF,0x00
2.362768083333334,0,0xB0,0x12
2.362786125000000,0,0xFF,0x12
2.362804291666667,0,0xFF,0x08
2.364755250000000,0,0xF0,0x12
2.364773250000000,0,0x7F,0x12
2.364791458333333,0,0xFF,0x08
2.366742583333334,0,0xB0,0x12
2.366760583333333,0,0xFF,0x10
2.366778791666666,0,0xFF,0x08
2.368729916666667,0,0xF0,0x12
2.368747958333334,0,0xFF,0x12
2.368766125000000,0,0xFF,0x08
2.370717166666667,0,0xB0,0x12
2.370735208333334,0,0xFF,0x13
2.370753416666667,0,0xFF,0x08
2.372704458333333,0,0xB0,0x12
2.372722500000000,0,0xFF,0x12
2.372740666666667,0,0xFF,0x08
2.374691666666667,0,0xB0,0x13
2.374709666666666,0,0x7F,0x10
2.374727875000000,0,0xFF,0x08
2.376678875000000,0,0xB0,0x12
2.376696916666666,0,0xFF,0x12
2.376715125000000,0,0xFF,0x08
2.378666083333334,0,0xB0,0x12
2.378684125000000,0,0xFF,0x12
2.378702333333333,0,0xFF,0x08
2.380653291666667,0,0xB0,0x13
2.380671291666667,0,0x7F,0x18
2.380689500000000,0,0xFF,0x08
2.382640416666667,0,0xF0,0x13
2.382658416666667,0,0xFF,0x10
2.382676625000000,0,0xFF,0x08
2.384627500000000,0,0xB0,0x12
2.384645541666667,0,0xFF,0x13
2.384663750000000,0,0xFF,0x08
2.386614666666667,0,0xB0,0x12
2.386632666666667,0,0xFF,0x12
2.386650875000000,0,0xFF,0x08
2.386675666666667,0,0x87,0x1A
2.386693708333333,0,0xFF,0x00
2.386711916666667,0,0xFF,0x80
2.386732458333333,0,0x07,0x12
2.386750500000000,0,0x00,0x13
2.386768541666667,0,0x1E,0x18
2.387598125000000,0,0x07,0x01
2.387616166666667,0,0x00,0x01
2.387634250000000,0,0x3C,0x00
2.387654833333333,0,0x34,0x01
2.387672875000000,0,0x80,0x01
2.387690916666667,0,0x80,0x01
2.387711166666667,0,0xC7,0x01
2.387729166666666,0,0xFF,0x80
2.387747375000000,0,0xFF,0x1C
2.387768250000000,0,0x07,0x01
2.387786291666667,0,0x00,0x00
2.387804333333333,0,0x1C,0x01
2.388601833333333,0,0xB0,0x12
2.388619875000000,0,0xFF,0x12
2.388638083333333,0,0xFF,0x18
2.390589000000000,0,0xB0,0x12
2.390607041666667,0,0xFF,0x13
2.390625250000000,0,0xFF,0x18
2.392576166666667,0,0x98,0x10
2.392594208333333,0,0xFF,0x02
2.392612416666667,0,0xFF,0x18
2.394563291666667,0,0xB0,0x12
2.394581333333333,0,0xFF,0x13
2.394599541666667,0,0xFF,0x18
2.396550375000000,0,0xB0,0x12
2.396568375000000,0,0xFF,0x10
2.396586583333333,0,0xFF,0x18
2.398537416666667,0,0xF0,0x02
2.398555416666666,0,0x7F,0x18
2.398573625000000,0,0xFF,0x18
2.400524541666667,0,0xF0,0x12
2.400542583333333,0,0xFF,0x12
2.400560750000000,0,0xFF,0x18
2.402511708333333,0,0x98,0x18
2.402529750000000,0,0xFF,0x02
2.402547958333333,0,0xFF,0x18
2.404498916666667,0,0xF0,0x13
2.404516916666667,0,0x7F,0x18
2.404535125000000,0,0xFF,0x18
2.406486208333333,0,0x98,0x1A
2.406504250000000,0,0xFF,0x12
2.406522458333333,0,0xFF,0x0C
2.408473416666667,0,0xF0,0x12
2.408491416666667,0,0x7F,0x12
2.408509625000000,0,0xFF,0x18
2.410460583333333,0,0xB0,0x12
2.410478625000000,0,0xFF,0x12
2.410496791666667,0,0xFF,0x18
2.412447750000000,0,0xB0,0x12
2.412465791666667,0,0xFF,0x13
2.412484000000000,0,0xFF,0x18
2.414434875000000,0,0xB0,0x12
2.414452916666667,0,0xFF,0x12
2.414471083333333,0,0xFF,0x18
2.416422041666667,0,0x98,0x18
2.416440083333333,0,0xFF,0x02
2.416458291666667,0,0xFF,0x1C
2.418409208333333,0,0xB0,0x12
2.418427208333333,0,0xFF,0x12
2.418445416666667,0,0xFF,0x18
2.418470208333333,0,0x87,0x18
2.418488250000000,0,0xFF,0x00
2.418506458333333,0,0xFF,0xBC
2.418527000000000,0,0x07,0x12
2.418545041666667,0,0x00,0x12
2.418563083333333,0,0x1E,0x18
2.419392750000000,0,0x03,0x01
2.419410750000000,0,0x80,0x81
2.419428833333333,0,0x1E,0x01
2.419449458333333,0,0x30,0x00
2.419467458333334,0,0x00,0x01
2.419485541666667,0,0x80,0x01
2.419505791666666,0,0xC3,0x01
2.419523791666667,0,0xFF,0x00
2.419542000000000,0,0xFF,0x1E
2.419562875000000,0,0x07,0x01
2.419580916666667,0,0x00,0x01
2.419598958333333,0,0x1E,0x81
2.420396500000000,0,0xB0,0x12
2.420414541666667,0,0xFF,0x12
2.420432708333333,0,0xFF,0x1C
2.422383916666667,0,0xF0,0x02
2.422401916666667,0,0x7F,0x12
2.422420125000000,0,0xFF,0x1C
2.424371250000000,0,0xB0,0x12
2.424389250000000,0,0xFF,0x18
2.424407458333333,0,0xFF,0x1E
2.426358458333334,0,0xB0,0x12
2.426376500000000,0,0xFF,0x12
2.426394666666666,0,0xFF,0x1C
2.428345625000000,0,0xF0,0x02
2.428363625000000,0,0x7F,0x12
2.428381833333333,0,0xFF,0x1C
2.430332708333333,0,0x98,0x10
2.430350750000000,0,0xFF,0x02
2.430368958333333,0,0xFF,0x1C
2.432319958333333,0,0x98,0x1A
2.432338000000000,0,0xFF,0x02
2.432356208333333,0,0xFF,0x0C
2.434307166666667,0,0x98,0x10
2.434325208333334,0,0xFF,0x02
2.434343416666667,0,0xFF,0x1C
2.436294375000000,0,0x98,0x1A
2.436312416666667,0,0xFF,0x12
2.436330625000000,0,0xFF,0x1C
2.438281500000000,0,0xB0,0x12
2.438299500000000,0,0xFF,0x12
2.438317708333333,0,0xFF,0x1C
2.440268583333333,0,0x98,0x1A
2.440286625000000,0,0xFF,0x12
2.440304833333333,0,0xFF,0x1C
2.442255791666667,0,0xB0,0x12
2.442273833333333,0,0xFF,0x12
2.442292000000000,0,0xFF,0x1C
2.444242916666667,0,0x98,0x10
2.444260958333333,0,0xFF,0x02
2.444279166666667,0,0xFF,0x1C
2.446230083333333,0,0x98,0x10
2.446248125000000,0,0xFF,0x02
2.446266333333333,0,0xFF,0x0C
2.448217375000000,0,0xB0,0x12
2.448235416666667,0,0xFF,0x12
2.448253583333333,0,0xFF,0x1C
2.450204458333333,0,0xB0,0x12
2.450222500000000,0,0xFF,0x12
2.450240708333333,0,0xFF,0x1C
2.450265500000000,0,0x87,0x12
2.450283541666667,0,0xFF,0x00
2.450301750000000,0,0xFF,0x9E
2.450322291666667,0,0x03,0x02
2.450340291666667,0,0x80,0x12
2.450358375000000,0,0x46,0x12
2.451188000000000,0,0x07,0x01
2.451206000000000,0,0x00,0x01
2.451224083333333,0,0x02,0x01
2.451244666666667,0,0x1E,0x01
2.451262708333333,0,0xC0,0x00
2.451280750000000,0,0x00,0x01
2.451301000000000,0,0x87,0x01
2.451319041666667,0,0xFF,0x00
2.451337250000000,0,0xFF,0x46
2.451358083333333,0,0x87,0x01
2.451376125000000,0,0x00,0x01
2.451394208333333,0,0xC3,0x01
2.452191666666667,0,0xF0,0x02
2.452209666666667,0,0x7F,0x12
2.452227875000000,0,0xFF,0x06
2.454179041666666,0,0xF0,0x02
2.454197041666667,0,0x7F,0x12
2.454215250000000,0,0xFF,0x0C
2.456166333333333,0,0xB0,0x12
2.456184375000000,0,0xFF,0x12
2.456202541666667,0,0xFF,0x0C
2.458153541666667,0,0xB0,0x12
2.458171583333333,0,0xFF,0x13
2.458189791666667,0,0xFF,0x0C
2.460140750000000,0,0xB0,0x12
2.460158791666667,0,0xFF,0x12
2.460177000000000,0,0xFF,0x0C
2.462127958333333,0,0x98,0x1A
2.462146000000000,0,0xFF,0x12
2.462164208333333,0,0xFF,0x0C
2.464115166666667,0,0xB0,0x12
2.464133166666667,0,0xFF,0x12
2.464151375000000,0,0xFF,0x0C
2.466102166666666,0,0x98,0x1A
2.466120208333333,0,0xFF,0x02
2.466138416666667,0,0xFF,0x0C
2.468089208333333,0,0xB0,0x12
2.468107250000000,0,0xFF,0x13
2.468125458333333,0,0xFF,0x0C
2.470076375000000,0,0x98,0x1A
2.470094416666667,0,0xFF,0x12
2.470112625000000,0,0xFF,0x0C
2.472063500000000,0,0xB0,0x12
2.472081500000000,0,0xFF,0x12
2.472099708333333,0,0xFF,0x0C
2.474050541666667,0,0xB0,0x12
2.474068583333333,0,0xFF,0x12
2.474086750000000,0,0xFF,0x0C
2.476037583333333,0,0xB0,0x12
2.476055625000000,0,0xFF,0x12
2.476073833333333,0,0xFF,0x0C
2.478024791666666,0,0x98,0x1A
2.478042833333333,0,0xFF,0x02
2.478061041666667,0,0xFF,0x0C
2.480011875000000,0,0x98,0x10
2.480029916666667,0,0xFF,0x02
2.480048125000000,0,0xFF,0x0C
2.481998958333334,0,0xB0,0x12
2.482017000000000,0,0xFF,0x12
2.482035208333333,0,0xFF,0x0C
2.482060000000000,0,0x87,0x12
2.482078041666667,0,0xFF,0x00
2.482096208333334,0,0xFF,0x46
2.482116791666667,0,0x03,0x13
2.482134791666667,0,0x80,0x18
2.482152875000000,0,0x00,0x12
2.482982416666667,0,0x07,0x01
2.483000458333333,0,0x00,0x01
2.483018500000000,0,0x00,0x01
2.483039083333333,0,0x34,0x81
2.483057125000000,0,0xC0,0x01
2.483075166666667,0,0x00,0x81
2.483095416666667,0,0x87,0x01
2.483113458333333,0,0xFF,0x00
2.483131666666667,0,0xFF,0x00
2.483152500000000,0,0x87,0x01
2.483170541666667,0,0x00,0x01
2.483188625000000,0,0x80,0x01
2.483986041666667,0,0x30,0x92
2.484004083333333,0,0xFF,0x12
2.484022291666667,0,0xFF,0x00
2.485973291666667,0,0x98,0x1A
2.485991333333333,0,0xFF,0x12
2.486009541666667,0,0xFF,0x00
2.487960541666667,0,0xB0,0x12
2.487978583333333,0,0xFF,0x12
2.487996750000000,0,0xFF,0x00
2.489947750000000,0,0xB0,0x12
2.489965791666667,0,0xFF,0x12
2.489984000000000,0,0xFF,0x00
2.491934958333333,0,0x90,0x12
2.491953000000000,0,0xFF,0x12
2.491971208333333,0,0xFF,0x00
2.493922083333334,0,0x98,0x1A
2.493940125000000,0,0xFF,0x12
2.493958333333333,0,0xFF,0x00
2.495909250000000,0,0xB0,0x12
2.495927291666667,0,0xFF,0x12
2.495945458333333,0,0xFF,0x00
2.497896416666667,0,0xB0,0x12
2.497914458333333,0,0xFF,0x13
2.497932666666667,0,0xFF,0x00
2.499883625000000,0,0xB0,0x12
2.499901666666667,0,0xFF,0x12
2.499919833333333,0,0xFF,0x00
2.501870791666667,0,0xB0,0x12
2.501888833333333,0,0xFF,0x13
2.501907041666667,0,0xFF,0x00
2.503857958333333,0,0xF0,0x02
2.503875958333333,0,0x7F,0x12
2.503894166666667,0,0xFF,0x00
2.505844916666667,0,0xB0,0x12
2.505862958333333,0,0xFF,0x12
2.505881125000000,0,0xFF,0x00
2.507831708333333,0,0xB0,0x12
2.507849750000000,0,0xFF,0x12
2.507867958333333,0,0xFF,0x00
2.509818750000000,0,0xB0,0x12
2.509836791666667,0,0xFF,0x12
2.509855000000000,0,0xFF,0x00
2.511805833333333,0,0x98,0x12
2.511823875000000,0,0xFF,0x12
2.511842083333333,0,0xFF,0x00
2.513792958333333,0,0x90,0x12
2.513811000000000,0,0xFF,0x12
2.513829208333333,0,0xFF,0x00
2.513854000000000,0,0x87,0x12
2.513872041666667,0,0xFF,0x00
2.513890208333333,0,0xFF,0x00
2.513910791666667,0,0x03,0x12
2.513928791666667,0,0x80,0x1A
2.513946875000000,0,0x28,0x12
2.514776458333333,0,0x07,0x01
2.514794458333333,0,0x80,0x81
2.514812541666667,0,0x20,0x01
2.514833166666667,0,0x34,0x01
2.514851166666667,0,0x80,0x01
2.514869250000000,0,0xC0,0x01
2.514889500000000,0,0x87,0x01
2.514907500000000,0,0xFF,0x00
2.514925708333333,0,0xFF,0x28
2.514946583333333,0,0x03,0x01
2.514964583333333,0,0x80,0x81
2.514982666666667,0,0xA8,0x01
2.515780166666667,0,0xF0,0x02
2.515798166666666,0,0x7F,0x1A
2.515816375000000,0,0xFF,0x10
2.517767375000000,0,0x98,0x12
2.517785416666667,0,0xFF,0x12
2.517803625000000,0,0xFF,0x10
2.519754583333333,0,0x98,0x10
2.519772625000000,0,0xFF,0x12
2.519790833333333,0,0xFF,0x10
2.521741708333333,0,0xF0,0x12
2.521759708333333,0,0x7F,0x1A
2.521777916666667,0,0xFF,0x10
2.523728833333333,0,0x98,0x18
2.523746875000000,0,0xFF,0x02
2.523765083333333,0,0xFF,0x00
2.525715833333333,0,0xB0,0x12
2.525733875000000,0,0xFF,0x12
2.525752041666667,0,0xFF,0x10
2.527702791666667,0,0xF0,0x12
2.527720791666667,0,0x7F,0x18
2.527739000000000,0,0xFF,0x10
2.529689833333333,0,0xB0,0x12
2.529707833333333,0,0xFF,0x12
2.529726041666667,0,0xFF,0x10
2.531676708333333,0,0xF0,0x12
2.531694708333333,0,0x7F,0x1A
2.531712916666667,0,0xFF,0x10
2.533663750000000,0,0x98,0x1A
2.533681791666667,0,0xFF,0x12
2.533700000000000,0,0xFF,0x00
2.535650750000000,0,0xB0,0x12
2.535668750000000,0,0x7F,0x12
2.535686958333333,0,0xFF,0x18
2.537637791666667,0,0xF0,0x02
2.537655791666667,0,0x7F,0x12
2.537674000000000,0,0xFF,0x18
2.539624875000000,0,0xB0,0x12
2.539642916666667,0,0xFF,0x12
2.539661083333333,0,0xFF,0x18
2.541611916666667,0,0xB0,0x12
2.541629958333333,0,0xFF,0x12
2.541648166666667,0,0xFF,0x00
2.543599000000000,0,0xF0,0x13
2.543617000000000,0,0x7F,0x10
2.543635208333333,0,0xFF,0x10
2.545585916666667,0,0xB0,0x12
2.545603958333333,0,0xFF,0x12
2.545622166666667,0,0xFF,0x10
2.545646958333333,0,0x87,0x12
2.545665000000000,0,0xFF,0x00
2.545683166666667,0,0xFF,0x28
2.545703750000000,0,0x03,0x02
2.545721750000000,0,0x80,0x1A
2.545739833333333,0,0x0A,0x12
2.546569416666667,0,0x07,0x01
2.546587416666667,0,0x00,0x01
2.546605500000000,0,0x0E,0x01
2.546626083333333,0,0x1E,0x01
2.546644125000000,0,0xC0,0x01
2.546662166666667,0,0x00,0x81
2.546682416666667,0,0x07,0x01
2.546700458333333,0,0xFF,0x00
2.546718666666667,0,0xFF,0x0A
2.546739541666667,0,0x07,0x01
2.546757541666667,0,0x00,0x01
2.546775625000000,0,0xCF,0x00
2.547573041666667,0,0xB0,0x12
2.547591083333333,0,0xFF,0x12
2.547609250000000,0,0xFF,0x14
2.549560125000000,0,0xF0,0x02
2.549578125000000,0,0x7F,0x12
2.549596333333333,0,0xFF,0x16
2.551547125000000,0,0x98,0x10
2.551565166666667,0,0xFF,0x02
2.551583375000000,0,0xFF,0x14
2.553534041666667,0,0xB0,0x12
2.553552083333333,0,0xFF,0x13
2.553570291666666,0,0xFF,0x14
2.555521208333333,0,0x98,0x10
2.555539250000000,0,0xFF,0x12
2.555557458333333,0,0xFF,0x14
2.557508333333333,0,0x98,0x10
2.557526375000000,0,0xFF,0x02
2.557544583333333,0,0xFF,0x14
2.559495416666667,0,0xF0,0x02
2.559513416666667,0,0x7F,0x12
2.559531625000000,0,0xFF,0x1C
2.561482416666667,0,0xF0,0x02
2.561500416666667,0,0x7F,0x1A
2.561518625000000,0,0xFF,0x14
2.563469458333334,0,0x90,0x12
2.563487500000000,0,0xFF,0x13
2.563505708333333,0,0xFF,0x14
2.565456625000000,0,0x98,0x1A
2.565474666666667,0,0xFF,0x12
2.565492875000000,0,0xFF,0x10
2.567443791666667,0,0xB0,0x12
2.567461833333333,0,0xFF,0x12
2.567480041666667,0,0xFF,0x14
2.569430875000000,0,0x98,0x1A
2.569448916666667,0,0xFF,0x02
2.569467125000000,0,0xFF,0x14
2.571417958333333,0,0x98,0x12
2.571436000000000,0,0xFF,0x13
2.571454208333333,0,0xFF,0x14
2.573405041666667,0,0x98,0x10
2.573423083333333,0,0xFF,0x02
2.573441291666667,0,0xFF,0x14
2.575392208333333,0,0xB0,0x12
2.575410250000000,0,0xFF,0x13
2.575428458333333,0,0xFF,0x14
2.577379416666667,0,0x98,0x1A
2.577397458333333,0,0xFF,0x12
2.577415666666667,0,0xFF,0x04
2.577440458333333,0,0x87,0x12
2.577458500000000,0,0xFF,0x00
2.577476708333333,0,0xFF,0x8A
2.577497250000000,0,0x03,0x02
2.577515250000000,0,0x80,0x12
2.577533333333333,0,0x32,0x12
2.578362916666667,0,0x07,0x01
2.578380958333333,0,0x00,0x01
2.578399000000000,0,0x18,0x01
2.578419625000000,0,0x34,0x01
2.578437625000000,0,0x80,0x01
2.578455708333333,0,0xC0,0x01
2.578475958333333,0,0x87,0x01
2.578493958333334,0,0xFF,0x00
2.578512166666667,0,0xFF,0x32
2.578533041666667,0,0x07,0x01
2.578551083333333,0,0x00,0x01
2.578569125000000,0,0x98,0x01
2.579366500000000,0,0x30,0x92
2.579384541666667,0,0xFF,0x12
2.579402750000000,0,0xFF,0x00
2.581353416666667,0,0xB0,0x12
2.581371458333333,0,0xFF,0x12
2.581389625000000,0,0xFF,0x04
2.583340541666667,0,0x98,0x10
2.583358583333333,0,0xFF,0x02
2.583376791666667,0,0xFF,0x04
2.585327583333333,0,0xB0,0x12
2.585345583333333,0,0xFF,0x12
2.585363791666667,0,0xFF,0x00
2.587314541666667,0,0xB0,0x12
2.587332541666667,0,0x7F,0x12
2.587350750000000,0,0xFF,0x04
2.589301500000000,0,0xB0,0x12
2.589319541666667,0,0xFF,0x12
2.589337708333333,0,0xFF,0x06
2.591288458333334,0,0xF0,0x12
2.591306458333333,0,0x7F,0x12
2.591324666666666,0,0xFF,0x04
2.593275583333333,0,0x98,0x12
2.593293625000000,0,0xFF,0x13
2.593311833333333,0,0xFF,0x04
2.595262666666667,0,0xB0,0x12
2.595280666666667,0,0xFF,0x12
2.595298875000000,0,0xFF,0x04
2.597249666666666,0,0x98,0x18
2.597267708333333,0,0xFF,0x02
2.597285916666667,0,0xFF,0x04
2.599236750000000,0,0xB0,0x13
2.599254750000000,0,0xFF,0x12
2.599272958333333,0,0xFF,0x04
2.601223791666667,0,0xB0,0x12
2.601241833333333,0,0xFF,0x12
2.601260041666666,0,0xFF,0x04
2.603210916666667,0,0xB0,0x12
2.603228958333333,0,0xFF,0x12
2.603247166666667,0,0xFF,0x04
2.605198000000000,0,0xB0,0x12
2.605216041666667,0,0xFF,0x12
2.605234208333334,0,0xFF,0x04
2.607184916666667,0,0x98,0x10
2.607202958333333,0,0xFF,0x02
2.607221166666667,0,0xFF,0x04
2.609171916666666,0,0xB0,0x12
2.609189958333333,0,0xFF,0x12
2.609208125000000,0,0xFF,0x04
2.609232958333333,0,0x87,0x12
2.609250958333333,0,0xFF,0x00
2.609269166666667,0,0xFF,0xF2
2.609289708333333,0,0x07,0x10
2.609307750000000,0,0x00,0x13
2.609325791666667,0,0x1E,0x18
2.610155291666667,0,0x07,0x01
2.610173333333333,0,0x00,0x01
2.610191375000000,0,0x14,0x81
2.610212000000000,0,0x34,0x01
2.610230000000000,0,0x00,0x81
2.610248083333333,0,0x80,0x01
2.610268333333333,0,0xC3,0x00
2.610286333333333,0,0xFF,0x00
2.610304541666667,0,0xFF,0x14
2.610325416666667,0,0x07,0x01
2.610343458333333,0,0x00,0x01
2.610361500000000,0,0x9E,0x01
2.611158916666667,0,0x18,0x10
2.611176958333334,0,0xFF,0x13
2.611195166666667,0,0xFF,0x08
2.613145916666667,0,0xB0,0x12
2.613163916666667,0,0xFF,0x12
2.613182125000000,0,0xFF,0x08
2.615132750000000,0,0xB0,0x12
2.615150750000000,0,0x7F,0x12
2.615168958333333,0,0xFF,0x00
2.617119750000000,0,0xF0,0x02
2.617137750000000,0,0x7F,0x18
2.617155958333333,0,0xFF,0x08
2.619106791666667,0,0xB0,0x12
2.619124833333333,0,0xFF,0x12
2.619143000000000,0,0xFF,0x00
2.621093875000000,0,0xF0,0x02
2.621111875000000,0,0x7F,0x1A
2.621130083333334,0,0xFF,0x00
2.623080916666667,0,0xF0,0x13
2.623098916666667,0,0xFF,0x10
2.623117125000000,0,0xFF,0x08
2.625068000000000,0,0xB0,0x12
2.625086041666667,0,0xFF,0x12
2.625104250000000,0,0xFF,0x08
2.627055041666666,0,0xB0,0x12
2.627073041666667,0,0xFF,0x10
2.627091250000000,0,0xFF,0x08
2.629041916666667,0,0xB0,0x12
2.629059958333333,0,0xFF,0x12
2.629078125000000,0,0xFF,0x00
2.631028875000000,0,0xF0,0x13
2.631046875000000,0,0xFF,0x10
2.631065083333334,0,0xFF,0x08
2.633015875000000,0,0xB0,0x12
2.633033916666667,0,0xFF,0x12
2.633052083333333,0,0xFF,0x08
2.635002791666667,0,0xF0,0x02
2.635020791666667,0,0x7F,0x18
2.635039000000000,0,0xFF,0x08
2.636989625000000,0,0xB0,0x12
2.637007666666667,0,0xFF,0x12
2.637025875000000,0,0xFF,0x0C
2.638976666666667,0,0xB0,0x12
2.638994708333333,0,0xFF,0x12
2.639012875000000,0,0xFF,0x08
2.640963750000000,0,0xF0,0x02
2.640981750000000,0,0x7F,0x12
2.640999958333333,0,0xFF,0x00
2.641024750000000,0,0x87,0x12
2.641042791666667,0,0xFF,0x00
2.641061000000000,0,0xFF,0xC0
2.641081541666667,0,0x07,0x12
2.641099583333333,0,0x00,0x12
2.641117625000000,0,0x1E,0x10
2.641947166666667,0,0x07,0x01
2.641965208333333,0,0x00,0x01
2.641983250000000,0,0x1E,0x01
2.642003875000000,0,0x30,0x00
2.642021875000000,0,0x80,0x01
2.642039958333333,0,0xC0,0x01
2.642060208333334,0,0x87,0x01
2.642078208333333,0,0xFF,0x00
2.642096416666667,0,0xFF,0x3C
2.642117291666667,0,0x07,0x01
2.642135291666666,0,0x80,0x01
2.642153375000000,0,0xBC,0x01
2.642950791666667,0,0x18,0x1A
2.642968833333333,0,0xFF,0x12
2.642987041666667,0,0xFF,0x0C
2.644937875000000,0,0xF0,0x13
2.644955875000000,0,0xFF,0x10
2.644974083333334,0,0xFF,0x18
2.646924625000000,0,0x98,0x18
2.646942666666667,0,0xFF,0x13
2.646960875000000,0,0xFF,0x18
2.648911250000000,0,0xB0,0x12
2.648929291666667,0,0xFF,0x12
2.648947458333333,0,0xFF,0x18
2.650897875000000,0,0xF0,0x03
2.650915875000000,0,0xFF,0x12
2.650934083333333,0,0xFF,0x18
2.652884625000000,0,0x98,0x18
2.652902666666667,0,0xFF,0x13
2.652920875000000,0,0xFF,0x18
2.654871583333333,0,0xB0,0x12
2.654889583333333,0,0xFF,0x12
2.654907791666667,0,0xFF,0x18
2.656858500000000,0,0xB0,0x12
2.656876500000000,0,0xFF,0x12
2.656894708333333,0,0xFF,0x0C
2.658845333333333,0,0xF0,0x02
2.658863333333333,0,0x7F,0x1A
2.658881541666667,0,0xFF,0x18
2.660832208333333,0,0xB0,0x12
2.660850208333333,0,0xFF,0x12
2.660868416666667,0,0xFF,0x18
2.662819083333333,0,0xF0,0x12
2.662837083333333,0,0x7F,0x10
2.662855291666667,0,0xFF,0x18
2.664806041666667,0,0x98,0x10
2.664824083333333,0,0xFF,0x13
2.664842291666667,0,0xFF,0x18
2.666793000000000,0,0xB0,0x12
2.666811000000000,0,0xFF,0x12
2.666829208333333,0,0xFF,0x08
2.668779875000000,0,0xB0,0x12
2.668797916666667,0,0xFF,0x12
2.668816083333333,0,0xFF,0x18
2.670766833333333,0,0x98,0x1A
2.670784875000000,0,0xFF,0x02
2.670803083333333,0,0xFF,0x18
2.672753666666666,0,0x90,0x12
2.672771708333333,0,0xFF,0x12
2.672789875000000,0,0xFF,0x18
2.672814708333333,0,0x87,0x12
2.672832708333333,0,0xFF,0x00
2.672850916666667,0,0xFF,0xBC
2.672871458333333,0,0x07,0x12
2.672889500000000,0,0x00,0x12
2.672907541666667,0,0x1E,0x12
2.673737083333333,0,0x07,0x01
2.673755083333333,0,0x00,0x01
2.673773166666667,0,0x0F,0x00
2.673793750000000,0,0x3E,0x01
2.673811791666667,0,0x80,0x00
2.673829833333333,0,0x00,0x01
2.673850083333333,0,0x87,0x01
2.673868125000000,0,0xFF,0x00
2.673886291666667,0,0xFF,0x1E
2.673907166666667,0,0x87,0x01
2.673925208333333,0,0x00,0x01
2.673943291666667,0,0x9F,0x01
2.674740708333333,0,0xB0,0x12
2.674758708333334,0,0xFF,0x12
2.674776916666667,0,0xFF,0x1C
2.676727666666667,0,0xB0,0x12
2.676745708333333,0,0xFF,0x12
2.676763916666667,0,0xFF,0x1C
2.678714666666667,0,0xF0,0x02
2.678732666666667,0,0x7F,0x12
2.678750875000000,0,0xFF,0x1E
2.680701583333333,0,0xF0,0x02
2.680719583333333,0,0x7F,0x18
2.680737791666667,0,0xFF,0x1C
2.682688458333333,0,0xB0,0x12
2.682706500000000,0,0xFF,0x12
2.682724666666667,0,0xFF,0x1C
2.684675500000000,0,0xB0,0x12
2.684693500000000,0,0xFF,0x12
2.684711708333333,0,0xFF,0x1C
2.686662583333333,0,0x98,0x18
2.686680625000000,0,0xFF,0x02
2.686698833333333,0,0xFF,0x0C
2.688649666666667,0,0x98,0x1A
2.688667708333333,0,0xFF,0x12
2.688685916666667,0,0xFF,0x0C
2.690637041666667,0,0xF0,0x13
2.690655041666667,0,0x7F,0x1A
2.690673250000000,0,0xFF,0x1C
2.692623875000000,0,0xF0,0x12
2.692641875000000,0,0x7F,0x12
2.692660083333333,0,0xFF,0x1C
2.694610875000000,0,0x98,0x1A
2.694628916666667,0,0xFF,0x12
2.694647125000000,0,0xFF,0x0C
2.696597791666667,0,0x90,0x12
2.696615833333333,0,0xFF,0x13
2.696634041666667,0,0xFF,0x1C
2.698584708333333,0,0xB0,0x12
2.698602750000000,0,0xFF,0x12
2.698620958333333,0,0xFF,0x0C
2.700571666666667,0,0xB0,0x12
2.700589708333333,0,0xFF,0x12
2.700607875000000,0,0xFF,0x1C
2.702558625000000,0,0x90,0x12
2.702576666666667,0,0xFF,0x12
2.702594875000000,0,0xFF,0x1C
2.704545666666667,0,0xB0,0x12
2.704563666666667,0,0xFF,0x12
2.704581875000000,0,0xFF,0x1C
2.704606666666667,0,0x87,0x10
2.704624708333333,0,0xFF,0x00
2.704642916666667,0,0xFF,0x9F
2.704663458333334,0,0x07,0x12
2.704681500000000,0,0x00,0x12
2.704699541666667,0,0x66,0x10
2.705529166666667,0,0x07,0x01
2.705547208333333,0,0x00,0x01
2.705565291666667,0,0x03,0x00
2.705585875000000,0,0x1E,0x01
2.705603916666667,0,0xC0,0x01
2.705621958333333,0,0x00,0x81
2.705642208333333,0,0x87,0x01
2.705660250000000,0,0xFF,0x00
2.705678458333333,0,0xFF,0x47
2.705699333333333,0,0x07,0x01
2.705717333333333,0,0x00,0x01
2.705735416666667,0,0xC2,0x01
2.706533041666667,0,0x18,0x18
2.706551083333333,0,0xFF,0x02
2.706569291666667,0,0xFF,0x0C
2.708519958333333,0,0x98,0x12
2.708538000000000,0,0xFF,0x13
2.708556208333333,0,0xFF,0x0C
2.710507041666667,0,0xF0,0x02
2.710525041666667,0,0x7F,0x1A
2.710543250000000,0,0xFF,0x0E
2.712494000000000,0,0x90,0x12
2.712512041666667,0,0xFF,0x12
2.712530250000000,0,0xFF,0x0C
2.714481125000000,0,0xB0,0x12
2.714499125000000,0,0xFF,0x12
2.714517333333333,0,0xFF,0x0C
2.716468125000000,0,0xB0,0x12
2.716486166666667,0,0xFF,0x12
2.716504375000000,0,0xFF,0x0C
2.718455416666667,0,0xF0,0x02
2.718473416666667,0,0x7F,0x12
2.718491625000000,0,0xFF,0x06
2.720442416666667,0,0xB0,0x12
2.720460458333333,0,0xFF,0x13
2.720478666666667,0,0xFF,0x0C
2.722429625000000,0,0xB0,0x12
2.722447625000000,0,0xFF,0x12
2.722465833333333,0,0xFF,0x0C
2.724416833333333,0,0xF0,0x02
2.724434833333333,0,0x7F,0x12
2.724453041666667,0,0xFF,0x04
2.726403958333333,0,0xB0,0x12
2.726422000000000,0,0xFF,0x12
2.726440208333333,0,0xFF,0x0C
2.728391083333333,0,0xF0,0x12
2.728409083333333,0,0x7F,0x12
2.728427291666667,0,0xFF,0x04
2.730378083333334,0,0xB0,0x12
2.730396125000000,0,0xFF,0x12
2.730414291666666,0,0xFF,0x04
2.732365125000000,0,0xF0,0x12
2.732383166666667,0,0xFF,0x12
2.732401333333333,0,0xFF,0x0C
2.734352166666667,0,0xB0,0x12
2.734370208333333,0,0xFF,0x12
2.734388375000000,0,0xFF,0x0C
2.736339250000000,0,0xF0,0x02
2.736357250000000,0,0x7F,0x1A
2.736375458333333,0,0xFF,0x0C
2.736400250000000,0,0x87,0x18
2.736418291666667,0,0xFF,0x00
2.736436500000000,0,0xFF,0xC6
2.736457041666667,0,0x07,0x02
2.736475041666667,0,0x80,0x1A
2.736493125000000,0,0x00,0x12
2.737322666666667,0,0x07,0x01
2.737340708333333,0,0x00,0x01
2.737358750000000,0,0x00,0x81
2.737379375000000,0,0x30,0x01
2.737397375000000,0,0x00,0x01
2.737415458333333,0,0x80,0x01
2.737435708333333,0,0x83,0x01
2.737453708333333,0,0xFF,0x00
2.737471916666667,0,0xFF,0x00
2.737492791666666,0,0x07,0x01
2.737510791666667,0,0x80,0x81
2.737528875000000,0,0x80,0x01
2.738326333333333,0,0xB0,0x12
2.738344375000000,0,0xFF,0x12
2.738362541666667,0,0xFF,0x00
2.740313458333334,0,0xF0,0x02
2.740331458333333,0,0x7F,0x12
2.740349666666666,0,0xFF,0x00
2.742300541666667,0,0xB0,0x12
2.742318583333333,0,0xFF,0x12
2.742336750000000,0,0xFF,0x00
2.744287583333333,0,0xF0,0x12
2.744305583333333,0,0x7F,0x12
2.744323791666667,0,0xFF,0x00
2.746274791666667,0,0xB0,0x12
2.746292833333333,0,0xFF,0x13
2.746311041666667,0,0xFF,0x00
2.748262083333334,0,0xB0,0x12
2.748280125000000,0,0xFF,0x13
2.748298333333334,0,0xFF,0x00
2.750249166666667,0,0xB0,0x12
2.750267208333333,0,0xFF,0x13
2.750285416666667,0,0xFF,0x00
2.752236291666667,0,0xB0,0x12
2.752254333333333,0,0xFF,0x12
2.752272500000000,0,0xFF,0x00
2.754223458333333,0,0xB0,0x12
2.754241458333333,0,0xFF,0x10
2.754259666666667,0,0xFF,0x00
2.756210583333333,0,0xB0,0x12
2.756228583333333,0,0xFF,0x12
2.756246791666667,0,0xFF,0x00
2.758197375000000,0,0x98,0x12
2.758215416666667,0,0xFF,0x12
2.758233625000000,0,0xFF,0x00
2.760184458333333,0,0xB0,0x12
2.760202500000000,0,0xFF,0x12
2.760220666666667,0,0xFF,0x00
2.762171541666667,0,0x98,0x1A
2.762189583333333,0,0xFF,0x12
2.762207791666667,0,0xFF,0x00
2.764158791666667,0,0xF0,0x13
2.764176791666667,0,0x7F,0x1A
2.764195000000000,0,0xFF,0x00
2.766145916666667,0,0xB0,0x12
2.766163958333333,0,0xFF,0x12
2.766182125000000,0,0xFF,0x00
2.768133166666667,0,0x98,0x10
2.768151208333333,0,0xFF,0x02
2.768169416666667,0,0xFF,0x00
2.768194208333334,0,0x87,0x12
2.768212250000000,0,0xFF,0x00
2.768230458333333,0,0xFF,0x80
2.768251000000000,0,0x07,0x12
2.768269000000000,0,0x80,0x12
2.768287083333334,0,0x00,0x12
2.769116750000000,0,0x07,0x01
2.769134791666667,0,0x00,0x00
2.769152833333334,0,0x00,0x01
2.769173458333333,0,0x30,0x00
2.769191458333333,0,0x00,0x01
2.769209541666667,0,0x80,0x01
2.769229791666667,0,0xC3,0x00
2.769247791666666,0,0xFF,0x00
2.769266000000000,0,0xFF,0x28
2.769286875000000,0,0x07,0x01
2.769304916666667,0,0x00,0x01
2.769322958333333,0,0x28,0x81
2.770120458333333,0,0xF0,0x02
2.770138458333333,0,0x7F,0x12
2.770156666666667,0,0xFF,0x10
2.772107541666667,0,0xB0,0x12
2.772125583333333,0,0xFF,0x12
2.772143791666667,0,0xFF,0x00
2.774094625000000,0,0x98,0x10
2.774112666666666,0,0xFF,0x12
2.774130875000000,0,0xFF,0x10
2.776081791666666,0,0x98,0x10
2.776099833333333,0,0xFF,0x12
2.776118041666667,0,0xFF,0x10
2.778069250000000,0,0xF0,0x13
2.778087250000000,0,0x7F,0x1A
2.778105458333334,0,0xFF,0x10
2.780056375000000,0,0x98,0x18
2.780074416666667,0,0xFF,0x02
2.780092625000000,0,0xFF,0x10
2.782043500000000,0,0xB0,0x12
2.782061500000000,0,0xFF,0x12
2.782079708333333,0,0xFF,0x10
2.784030708333333,0,0xB0,0x12
2.784048750000000,0,0xFF,0x12
2.784066958333333,0,0xFF,0x10
2.786017958333333,0,0xB0,0x12
2.786036000000000,0,0xFF,0x12
2.786054208333333,0,0xFF,0x10
2.788005041666667,0,0x90,0x12
2.788023083333333,0,0xFF,0x12
2.788041291666667,0,0xFF,0x10
2.789992083333333,0,0xB0,0x12
2.790010125000000,0,0xFF,0x12
2.790028333333333,0,0xFF,0x10
2.791979125000000,0,0xB0,0x12
2.791997166666667,0,0xFF,0x12
2.792015375000000,0,0xFF,0x00
2.793966291666667,0,0x98,0x10
2.793984333333333,0,0xFF,0x02
2.794002541666667,0,0xFF,0x10
2.795953375000000,0,0xF0,0x13
2.795971375000000,0,0x7F,0x18
2.795989583333333,0,0xFF,0x10
2.797940125000000,0,0xF0,0x02
2.797958125000000,0,0x7F,0x18
2.797976333333333,0,0xFF,0x10
2.799927083333333,0,0xB0,0x12
2.799945125000000,0,0xFF,0x12
2.799963291666667,0,0xFF,0x10
2.799988125000000,0,0x83,0x13
2.800006125000000,0,0xFF,0x00
2.800024333333333,0,0xFF,0xA8
2.800044875000000,0,0x87,0x1A
2.800062916666667,0,0x00,0x02
2.800080958333333,0,0x0A,0x12
2.800910500000000,0,0x07,0x01
2.800928541666666,0,0x00,0x01
2.800946583333333,0,0x00,0x01
2.800967208333333,0,0x34,0x01
2.800985208333334,0,0x80,0x01
2.801003291666667,0,0xC0,0x00
2.801023500000000,0,0x07,0x01
2.801041541666667,0,0xFF,0x00
2.801059750000000,0,0xFF,0x0B
2.801080625000000,0,0x07,0x01
2.801098625000000,0,0x00,0x01
2.801116708333333,0,0xCF,0x00
2.801914125000000,0,0x30,0x92
2.801932166666667,0,0xFF,0x12
2.801950375000000,0,0xFF,0x14
2.803901250000000,0,0x90,0x12
2.803919291666667,0,0xFF,0x12
2.803937500000000,0,0xFF,0x00
2.805888500000000,0,0x98,0x10
2.805906541666667,0,0xFF,0x02
2.805924750000000,0,0xFF,0x10
2.807875708333333,0,0xB0,0x12
2.807893708333333,0,0xFF,0x12
2.807911916666667,0,0xFF,0x14
2.809862791666667,0,0xF0,0x13
2.809880791666667,0,0x7F,0x1A
2.809899000000000,0,0xFF,0x16
2.811849958333333,0,0xB0,0x12
2.811868000000000,0,0xFF,0x12
2.811886166666667,0,0xFF,0x14
2.813837166666667,0,0x98,0x1A
2.813855208333333,0,0xFF,0x12
2.813873416666667,0,0xFF,0x00
2.815824500000000,0,0x90,0x12
2.815842541666667,0,0xFF,0x13
2.815860750000000,0,0xFF,0x14
2.817812041666667,0,0xF0,0x12
2.817830041666667,0,0x7F,0x1A
2.817848250000000,0,0xFF,0x16
2.819799166666667,0,0x98,0x1A
2.819817208333333,0,0xFF,0x12
2.819835416666667,0,0xFF,0x04
2.821786291666667,0,0xF0,0x02
2.821804291666667,0,0x7F,0x1A
2.821822500000000,0,0xFF,0x16
2.823773458333333,0,0xB0,0x13
2.823791458333333,0,0xFF,0x10
2.823809666666667,0,0xFF,0x14
2.825760666666667,0,0xB0,0x13
2.825778666666667,0,0x7F,0x10
2.825796875000000,0,0xFF,0x16
2.827747791666666,0,0xF0,0x02
2.827765791666667,0,0x7F,0x1A
2.827784000000000,0,0xFF,0x1E
2.829734875000000,0,0xB0,0x12
2.829752875000000,0,0xFF,0x10
2.829771083333333,0,0xFF,0x14
2.831721958333334,0,0xB0,0x12
2.831740000000000,0,0xFF,0x12
2.831758208333333,0,0xFF,0x14
2.831783000000000,0,0x87,0x12
2.831801041666667,0,0xFF,0x00
2.831819250000000,0,0xFF,0x8A
2.831839791666667,0,0x07,0x02
2.831857791666667,0,0x80,0x12
2.831875875000000,0,0x30,0x12
2.832705500000000,0,0x07,0x01
2.832723541666667,0,0x00,0x01
2.832741625000000,0,0x33,0x00
2.832762208333333,0,0x36,0x01
2.832780250000000,0,0x80,0x01
2.832798291666667,0,0x00,0x01
2.832818541666667,0,0x87,0x01
2.832836583333334,0,0xFF,0x00
2.832854750000000,0,0xFF,0x32
2.832875625000000,0,0x87,0x01
2.832893666666667,0,0x00,0x01
2.832911750000000,0,0xB3,0x00
2.833709291666667,0,0xF0,0x02
2.833727291666666,0,0x7F,0x1A
2.833745500000000,0,0xFF,0x04
2.835696541666667,0,0xB0,0x12
2.835714541666666,0,0x7F,0x12
2.835732750000000,0,0xFF,0x04
2.837683375000000,0,0xB0,0x12
2.837701375000000,0,0x7F,0x12
2.837719583333334,0,0xFF,0x04
2.839670458333333,0,0xB0,0x12
2.839688500000000,0,0xFF,0x12
2.839706708333333,0,0xFF,0x04
2.841657708333333,0,0xB0,0x12
2.841675708333333,0,0xFF,0x12
2.841693916666667,0,0xFF,0x04
2.843644833333333,0,0xB0,0x12
2.843662875000000,0,0xFF,0x12
2.843681041666667,0,0xFF,0x04
2.845631916666667,0,0xB0,0x12
2.845649958333333,0,0xFF,0x12
2.845668166666667,0,0xFF,0x04
2.847619041666666,0,0xB0,0x12
2.847637083333333,0,0xFF,0x12
2.847655291666667,0,0xFF,0x04
2.849606041666667,0,0xB0,0x12
2.849624083333334,0,0xFF,0x12
2.849642250000000,0,0xFF,0x06
2.851593083333333,0,0xB0,0x12
2.851611083333333,0,0xFF,0x12
2.851629291666667,0,0xFF,0x00
2.853580083333333,0,0x98,0x12
2.853598125000000,0,0xFF,0x13
2.853616333333334,0,0xFF,0x04
2.855567083333333,0,0x98,0x1A
2.855585125000000,0,0xFF,0x12
2.855603333333333,0,0xFF,0x00
2.857554250000000,0,0xF0,0x02
2.857572250000000,0,0x7F,0x1A
2.857590458333333,0,0xFF,0x04
2.859541041666667,0,0xF0,0x02
2.859559041666667,0,0x7F,0x1A
2.859577250000000,0,0xFF,0x06
2.861528166666667,0,0x98,0x1A
2.861546208333333,0,0xFF,0x12
2.861564416666666,0,0xFF,0x00
2.863515041666667,0,0xB0,0x12
2.863533041666666,0,0xFF,0x12
2.863551250000000,0,0xFF,0x04
2.863576041666667,0,0x87,0x12
2.863594041666667,0,0xFF,0x00
2.863612250000000,0,0xFF,0x98
2.863632833333333,0,0x07,0x12
2.863650833333333,0,0x00,0x12
2.863668916666667,0,0x14,0x12
2.864498333333333,0,0x07,0x01
2.864516375000000,0,0x00,0x00
2.864534416666667,0,0x1C,0x01
2.864555041666667,0,0x30,0x01
2.864573041666667,0,0x80,0x01
2.864591125000000,0,0xC0,0x00
2.864611333333333,0,0x07,0x01
2.864629375000000,0,0xFF,0x00
2.864647583333333,0,0xFF,0x14
2.864668458333334,0,0x07,0x01
2.864686458333333,0,0x00,0x01
2.864704541666667,0,0xC0,0x00
2.865501916666667,0,0xB0,0x12
2.865519916666667,0,0xFF,0x12
2.865538125000000,0,0xFF,0x08
2.867488833333333,0,0xB0,0x12
2.867506875000000,0,0xFF,0x12
2.867525083333333,0,0xFF,0x0C
2.869475958333333,0,0xB0,0x12
2.869493958333333,0,0xFF,0x12
2.869512166666667,0,0xFF,0x08
2.871463125000000,0,0x98,0x18
2.871481166666667,0,0xFF,0x02
2.871499375000000,0,0xFF,0x0C
2.873450250000000,0,0xB0,0x12
2.873468250000000,0,0xFF,0x12
2.873486458333333,0,0xFF,0x08
2.875437250000000,0,0xF0,0x02
2.875455250000000,0,0x7F,0x1A
2.875473458333333,0,0xFF,0x08
2.877424041666667,0,0xB0,0x13
2.877442041666667,0,0xFF,0x10
2.877460250000000,0,0xFF,0x08
2.879411125000000,0,0xB0,0x12
2.879429125000000,0,0xFF,0x12
2.879447333333333,0,0xFF,0x08
2.881398291666667,0,0xB0,0x12
2.881416333333333,0,0xFF,0x12
2.881434500000000,0,0xFF,0x08
2.883385583333333,0,0x98,0x10
2.883403625000000,0,0xFF,0x02
2.883421833333333,0,0xFF,0x0C
2.885372750000000,0,0x98,0x1A
2.885390791666667,0,0xFF,0x02
2.885409000000000,0,0xFF,0x08
2.887359791666666,0,0xB0,0x12
2.887377833333333,0,0xFF,0x13
2.887396041666667,0,0xFF,0x08
2.889347000000000,0,0xF0,0x02
2.889365000000000,0,0x7F,0x1A
2.889383208333333,0,0xFF,0x08
2.891334166666667,0,0xB0,0x12
2.891352166666667,0,0xFF,0x10
2.891370375000000,0,0xFF,0x08
2.893321375000000,0,0xB0,0x12
2.893339416666667,0,0xFF,0x12
2.893357625000000,0,0xFF,0x08
2.895308583333333,0,0x98,0x1A
2.895326625000000,0,0xFF,0x02
2.895344833333333,0,0xFF,0x0C
2.895369625000000,0,0xC7,0x12
2.895387625000000,0,0xFF,0x00
2.895405833333333,0,0xFF,0x9C
2.895426416666667,0,0x07,0x12
2.895444416666667,0,0x00,0x12
2.895462500000000,0,0x3C,0x13
2.896292041666667,0,0x03,0x01
2.896310041666667,0,0x80,0x01
2.896328125000000,0,0x3C,0x01
2.896348708333333,0,0x1C,0x01
2.896366750000000,0,0xC0,0x01
2.896384833333333,0,0x80,0x01
2.896405041666667,0,0x87,0x01
2.896423083333334,0,0xFF,0x00
2.896441291666667,0,0xFF,0x3C
2.896462166666667,0,0x07,0x01
2.896480166666667,0,0x00,0x01
2.896498250000000,0,0xFC,0x01
2.897295708333333,0,0xF0,0x02
2.897313708333333,0,0x7F,0x1A
2.897331916666666,0,0xFF,0x18
2.899282875000000,0,0xB0,0x12
2.899300875000000,0,0xFF,0x12
2.899319083333333,0,0xFF,0x18
2.901269958333333,0,0xB0,0x13
2.901287958333334,0,0xFF,0x10
2.901306166666667,0,0xFF,0x18
2.903257125000000,0,0xB0,0x12
2.903275166666667,0,0xFF,0x12
2.903293375000000,0,0xFF,0x18
2.905244291666667,0,0xB0,0x12
2.905262333333333,0,0xFF,0x12
2.905280541666666,0,0xFF,0x18
2.907231416666667,0,0xB0,0x12
2.907249458333333,0,0xFF,0x12
2.907267666666667,0,0xFF,0x18
2.909218666666667,0,0xB0,0x12
2.909236666666667,0,0xFF,0x12
2.909254875000000,0,0xFF,0x18
2.911205875000000,0,0xB0,0x12
2.911223916666667,0,0xFF,0x13
2.911242125000000,0,0xFF,0x18
2.913193125000000,0,0xB0,0x12
2.913211166666667,0,0xFF,0x12
2.913229375000000,0,0xFF,0x18
2.915180541666667,0,0xF0,0x13
2.915198541666667,0,0x7F,0x1A
2.915216750000000,0,0xFF,0x18
2.917168125000000,0,0xF0,0x02
2.917186125000000,0,0x7F,0x12
2.917204333333333,0,0xFF,0x18
2.919155333333333,0,0x98,0x10
2.919173375000000,0,0xFF,0x02
2.919191583333333,0,0xFF,0x18
2.921142416666667,0,0x98,0x1A
2.921160458333333,0,0xFF,0x02
2.921178666666667,0,0xFF,0x0C
2.923129708333333,0,0xF0,0x12
2.923147708333333,0,0x7F,0x12
2.923165916666667,0,0xFF,0x18
2.925116875000000,0,0xB0,0x12
2.925134875000000,0,0x7F,0x12
2.925153083333333,0,0xFF,0x18
2.927104083333333,0,0xB0,0x12
2.927122125000000,0,0xFF,0x12
2.927140333333333,0,0xFF,0x18
2.927165125000000,0,0x87,0x10
2.927183166666667,0,0xFF,0x00
2.927201375000000,0,0xFF,0xBC
2.927221916666667,0,0x07,0x12
2.927239958333333,0,0x00,0x13
2.927258000000000,0,0x1E,0x1A
2.928087625000000,0,0x03,0x01
2.928105625000000,0,0x00,0x01
2.928123708333333,0,0x0E,0x01
2.928144291666666,0,0x1E,0x01
2.928162333333333,0,0xC0,0x01
2.928180375000000,0,0x00,0x01
2.928200625000000,0,0x87,0x01
2.928218666666667,0,0xFF,0x00
2.928236875000000,0,0xFF,0x1E
2.928257708333333,0,0x87,0x01
2.928275750000000,0,0x00,0x01
2.928293833333333,0,0x8F,0x00
2.929091333333333,0,0xF0,0x02
2.929109333333333,0,0x7F,0x12
2.929127541666666,0,0xFF,0x1C
2.931078541666666,0,0xB0,0x12
2.931096583333333,0,0xFF,0x13
2.931114791666667,0,0xFF,0x1C
2.933065750000000,0,0xB0,0x13
2.933083750000000,0,0x7F,0x18
2.933101958333333,0,0xFF,0x1E
2.935053166666667,0,0xB0,0x12
2.935071208333333,0,0xFF,0x13
2.935089416666667,0,0xFF,0x1C
2.937040250000000,0,0x90,0x12
2.937058291666667,0,0xFF,0x12
2.937076500000000,0,0xFF,0x1C
2.939027416666667,0,0xB0,0x12
2.939045458333333,0,0xFF,0x12
2.939063625000000,0,0xFF,0x1C
2.941014583333333,0,0xB0,0x12
2.941032583333334,0,0xFF,0x10
2.941050791666667,0,0xFF,0x1C
2.943001750000000,0,0x98,0x18
2.943019791666666,0,0xFF,0x02
2.943038000000000,0,0xFF,0x1C
2.944989000000000,0,0xB0,0x12
2.945007041666666,0,0xFF,0x13
2.945025250000000,0,0xFF,0x1C
2.946976291666667,0,0xF0,0x12
2.946994291666666,0,0x7F,0x12
2.947012500000000,0,0xFF,0x1C
2.948963541666667,0,0xB0,0x13
2.948981541666666,0,0x7F,0x1A
2.948999750000000,0,0xFF,0x1E
2.950950916666667,0,0xB0,0x12
2.950968958333333,0,0xFF,0x12
2.950987166666667,0,0xFF,0x1C
2.952938041666667,0,0xB0,0x12
2.952956083333333,0,0xFF,0x12
2.952974291666667,0,0xFF,0x0C
2.954925166666666,0,0xB0,0x12
2.954943208333333,0,0xFF,0x12
2.954961416666666,0,0xFF,0x1C
2.956912583333333,0,0xF0,0x02
2.956930583333333,0,0x7F,0x1A
2.956948791666667,0,0xFF,0x1E
2.958899666666666,0,0xF0,0x12
2.958917666666667,0,0x7F,0x12
2.958935875000000,0,0xFF,0x1C
2.958960708333333,0,0x87,0x12
2.958978708333333,0,0xFF,0x00
2.958996916666667,0,0xFF,0x9E
2.959017458333333,0,0x87,0x1A
2.959035500000000,0,0x00,0x12
2.959053583333333,0,0x43,0x12
2.959883208333333,0,0x03,0x00
2.959901208333333,0,0x00,0x01
2.959919291666667,0,0x06,0x01
2.959939875000000,0,0x1C,0x01
2.959957916666667,0,0xC0,0x01
2.959976000000000,0,0x80,0x00
2.959996208333334,0,0x07,0x01
2.960014250000000,0,0xFF,0x00
2.960032458333334,0,0xFF,0x02
2.960053333333333,0,0x03,0x00
2.960071333333333,0,0x80,0x01
2.960089416666666,0,0xC6,0x01
2.960886875000000,0,0x18,0x1A
2.960904916666667,0,0xFF,0x12
2.960923125000000,0,0xFF,0x0C
2.962874000000000,0,0xB0,0x12
2.962892041666667,0,0xFF,0x12
2.962910250000000,0,0xFF,0x0C
2.964861250000000,0,0xB0,0x13
2.964879250000000,0,0x7F,0x10
2.964897458333333,0,0xFF,0x0E
2.966848458333333,0,0xB0,0x12
2.966866500000000,0,0xFF,0x12
2.966884666666667,0,0xFF,0x0C
2.968835666666667,0,0x98,0x1A
2.968853708333334,0,0xFF,0x12
2.968871916666667,0,0xFF,0x0C
2.970822916666667,0,0xB0,0x12
2.970840958333334,0,0xFF,0x12
2.970859125000000,0,0xFF,0x04
2.972809958333333,0,0xB0,0x12
2.972828000000000,0,0xFF,0x12
2.972846166666667,0,0xFF,0x0C
2.974797083333333,0,0x98,0x10
2.974815125000000,0,0xFF,0x02
2.974833333333333,0,0xFF,0x0C
2.976784041666667,0,0x90,0x12
2.976802083333333,0,0xFF,0x13
2.976820291666667,0,0xFF,0x0C
2.978771333333333,0,0xB0,0x13
2.978789333333333,0,0xFF,0x10
2.978807541666667,0,0xFF,0x0E
2.980758625000000,0,0x98,0x10
2.980776666666667,0,0xFF,0x12
2.980794875000000,0,0xFF,0x0C
2.982745916666667,0,0xB0,0x12
2.982763958333333,0,0xFF,0x12
2.982782166666667,0,0xFF,0x0C
2.984733333333333,0,0xF0,0x02
2.984751333333334,0,0x7F,0x12
2.984769541666667,0,0xFF,0x0C
2.986720666666667,0,0xB0,0x12
2.986738708333333,0,0xFF,0x12
2.986756916666667,0,0xFF,0x0C
2.988707958333333,0,0x98,0x10
2.988726000000000,0,0xFF,0x02
2.988744208333333,0,0xFF,0x0C
2.990695166666667,0,0xF0,0x13
2.990713166666667,0,0x7F,0x18
2.990731375000000,0,0xFF,0x0C
2.990756166666667,0,0x87,0x12
2.990774208333333,0,0xFF,0x00
2.990792416666667,0,0xFF,0xC6
2.990812958333333,0,0x07,0x10
2.990831000000000,0,0x00,0x02
2.990849083333333,0,0x00,0x12
2.991678666666667,0,0x07,0x01
2.991696708333333,0,0x00,0x00
2.991714750000000,0,0x00,0x01
2.991735375000000,0,0x30,0x00
2.991753375000000,0,0x00,0x01
2.991771458333333,0,0xC0,0x01
2.991791708333333,0,0x87,0x01
2.991809708333333,0,0xFF,0x00
2.991827916666667,0,0xFF,0x00
2.991848791666667,0,0x03,0x00
2.991866791666667,0,0x00,0x01
2.991884875000000,0,0xC0,0x01
2.992682333333333,0,0xB0,0x12
2.992700333333334,0,0xFF,0x12
2.992718541666667,0,0xFF,0x00
2.994669291666667,0,0xF0,0x13
2.994687291666667,0,0x7F,0x18
2.994705500000000,0,0xFF,0x00
2.996656500000000,0,0xF0,0x02
2.996674500000000,0,0x7F,0x12
2.996692708333333,0,0xFF,0x00
2.998643541666667,0,0xB0,0x12
2.998661541666667,0,0xFF,0x12
2.998679750000000,0,0xFF,0x00
3.000630666666666,0,0xF0,0x13
3.000648666666667,0,0x7F,0x10
3.000666875000000,0,0xFF,0x00
3.002617750000000,0,0xB0,0x12
3.002635750000000,0,0xFF,0x12
3.002653958333333,0,0xFF,0x00
3.004604833333334,0,0xB0,0x12
3.004622875000000,0,0xFF,0x12
3.004641041666666,0,0xFF,0x00
3.006592000000000,0,0xF0,0x13
3.006610000000000,0,0x7F,0x1A
3.006628208333333,0,0xFF,0x00
3.008579208333333,0,0xB0,0x12
3.008597208333333,0,0xFF,0x12
3.008615416666667,0,0xFF,0x00
3.010566458333333,0,0xF0,0x12
3.010584458333333,0,0x7F,0x12
3.010602666666667,0,0xFF,0x00
3.012553625000000,0,0xB0,0x12
3.012571666666667,0,0xFF,0x12
3.012589875000000,0,0xFF,0x00
3.014540708333334,0,0xB0,0x12
3.014558750000000,0,0xFF,0x12
3.014576958333334,0,0xFF,0x00
3.016527583333333,0,0xF0,0x12
3.016545583333333,0,0x7F,0x12
3.016563791666667,0,0xFF,0x00
3.018514583333333,0,0xB0,0x12
3.018532625000000,0,0xFF,0x12
3.018550833333333,0,0xFF,0x00
3.020501666666667,0,0xF0,0x12
3.020519708333333,0,0xFF,0x12
3.020537875000000,0,0xFF,0x00
3.022488875000000,0,0xF0,0x12
3.022506916666666,0,0xFF,0x12
3.022525083333333,0,0xFF,0x00
3.022549916666667,0,0xC3,0x12
3.022567916666667,0,0xFF,0x00
3.022586125000000,0,0xFF,0x80
3.022606708333333,0,0x07,0x12
3.022624708333333,0,0x00,0x12
3.022642791666667,0,0x3C,0x02
3.023472333333333,0,0x07,0x01
3.023490375000000,0,0x00,0x01
3.023508458333333,0,0x3C,0x00
3.023529041666666,0,0x36,0x01
3.023547083333333,0,0x80,0x00
3.023565125000000,0,0x00,0x01
3.023585375000000,0,0x87,0x01
3.023603416666667,0,0xFF,0x00
3.023621625000000,0,0xFF,0x28
3.023642500000000,0,0x07,0x01
3.023660500000000,0,0x00,0x01
3.023678583333334,0,0xFC,0x01
3.024476000000000,0,0xB0,0x13
3.024494000000000,0,0xFF,0x12
3.024512208333333,0,0xFF,0x10
3.026463083333333,0,0xB0,0x12
3.026481125000000,0,0xFF,0x12
3.026499291666667,0,0xFF,0x10
3.028450291666667,0,0x98,0x10
3.028468333333334,0,0xFF,0x02
3.028486541666667,0,0xFF,0x10
3.030437500000000,0,0x98,0x1A
3.030455541666667,0,0xFF,0x12
3.030473750000000,0,0xFF,0x00
3.032424708333334,0,0xB0,0x12
3.032442750000000,0,0xFF,0x12
3.032460958333334,0,0xFF,0x00
3.034411916666667,0,0xB0,0x12
3.034429958333333,0,0xFF,0x12
3.034448166666667,0,0xFF,0x10
3.036399583333333,0,0xF0,0x12
3.036417583333333,0,0x7F,0x1A
3.036435791666667,0,0xFF,0x10
3.038386916666667,0,0xB0,0x12
3.038404958333333,0,0xFF,0x12
3.038423125000000,0,0xFF,0x10
3.040374208333333,0,0xF0,0x02
3.040392208333333,0,0x7F,0x12
3.040410416666667,0,0xFF,0x10
3.042361375000000,0,0xB0,0x12
3.042379416666666,0,0xFF,0x12
3.042397625000000,0,0xFF,0x10
3.044348583333333,0,0x98,0x10
3.044366625000000,0,0xFF,0x02
3.044384833333333,0,0xFF,0x10
3.046335833333333,0,0xF0,0x02
3.046353833333333,0,0x7F,0x12
3.046372041666667,0,0xFF,0x18
3.048322958333333,0,0xB0,0x12
3.048341000000000,0,0xFF,0x13
3.048359208333333,0,0xFF,0x10
3.050310208333333,0,0x98,0x1A
3.050328250000000,0,0xFF,0x12
3.050346458333333,0,0xFF,0x10
3.052297416666667,0,0xF0,0x02
3.052315416666667,0,0x7F,0x1A
3.052333625000000,0,0xFF,0x18
3.054284625000000,0,0xB0,0x12
3.054302625000000,0,0xFF,0x12
3.054320833333333,0,0xFF,0x10
3.054345625000000,0,0x87,0x1A
3.054363666666667,0,0xFF,0x00
3.054381875000000,0,0xFF,0xF8
3.054402416666667,0,0x07,0x10
3.054420458333333,0,0x00,0x02
3.054438541666667,0,0x0F,0x12
3.055268125000000,0,0x03,0x01
3.055286125000000,0,0x80,0x01
3.055304208333333,0,0x0A,0x01
3.055324791666667,0,0x14,0x01
3.055342833333333,0,0xC0,0x01
3.055360916666667,0,0x80,0x01
3.055381125000000,0,0x07,0x01
3.055399166666667,0,0xFF,0x00
3.055417375000000,0,0xFF,0x0E
3.055438250000000,0,0x03,0x00
3.055456250000000,0,0x00,0x01
3.055474333333333,0,0xCA,0x01
3.056271791666667,0,0xF0,0x12
3.056289791666666,0,0x7F,0x12
3.056308000000000,0,0xFF,0x14
3.058258958333333,0,0xB0,0x12
3.058276958333333,0,0xFF,0x10
3.058295166666666,0,0xFF,0x14
3.060246125000000,0,0xB0,0x12
3.060264125000000,0,0xFF,0x12
3.060282333333333,0,0xFF,0x14
3.062233333333333,0,0xB0,0x12
3.062251333333333,0,0xFF,0x12
3.062269541666667,0,0xFF,0x14
3.064220541666667,0,0x98,0x1A
3.064238583333333,0,0xFF,0x12
3.064256791666667,0,0xFF,0x04
3.066207916666666,0,0xB0,0x12
3.066225916666667,0,0xFF,0x10
3.066244125000000,0,0xFF,0x14
3.068195083333333,0,0xF0,0x13
3.068213083333333,0,0x7F,0x18
3.068231291666667,0,0xFF,0x14
3.070182291666667,0,0xB0,0x13
3.070200291666667,0,0xFF,0x10
3.070218500000000,0,0xFF,0x14
3.072169375000000,0,0x98,0x12
3.072187416666667,0,0xFF,0x13
3.072205625000000,0,0xFF,0x14
3.074156583333334,0,0x98,0x10
3.074174625000000,0,0xFF,0x02
3.074192833333333,0,0xFF,0x14
3.076143541666667,0,0xB0,0x12
3.076161583333333,0,0xFF,0x12
3.076179791666667,0,0xFF,0x14
3.078130666666667,0,0xF0,0x12
3.078148666666667,0,0x7F,0x12
3.078166875000000,0,0xFF,0x14
3.080117875000000,0,0xB0,0x12
3.080135875000000,0,0xFF,0x12
3.080154083333333,0,0xFF,0x14
3.082105083333333,0,0xB0,0x12
3.082123083333333,0,0xFF,0x12
3.082141291666667,0,0xFF,0x14
3.084092250000000,0,0xB0,0x13
3.084110250000000,0,0xFF,0x10
3.084128458333333,0,0xFF,0x14
3.086079291666667,0,0xF0,0x12
3.086097291666666,0,0x7F,0x12
3.086115500000000,0,0xFF,0x1C
3.086140291666667,0,0x87,0x12
3.086158333333333,0,0xFF,0x00
3.086176541666667,0,0xFF,0xCA
3.086197083333333,0,0x07,0x10
3.086215125000000,0,0x00,0x12
3.086233166666667,0,0x32,0x12
3.087062708333333,0,0x07,0x01
3.087080750000000,0,0x00,0x01
3.087098833333333,0,0x33,0x00
3.087119416666666,0,0x34,0x01
3.087137458333333,0,0x80,0x01
3.087155500000000,0,0x00,0x01
3.087175750000000,0,0xC7,0x01
3.087193750000000,0,0xFF,0x80
3.087211958333334,0,0xFF,0x1A
3.087232833333333,0,0x07,0x01
3.087250875000000,0,0x00,0x01
3.087268916666666,0,0x32,0x81
3.088066416666666,0,0xF0,0x13
3.088084416666667,0,0x7F,0x18
3.088102625000000,0,0xFF,0x04
3.090053583333333,0,0xB0,0x12
3.090071625000000,0,0xFF,0x13
3.090089833333333,0,0xFF,0x04
3.092040875000000,0,0xB0,0x12
3.092058916666667,0,0xFF,0x12
3.092077125000000,0,0xFF,0x04
3.094028125000000,0,0xB0,0x12
3.094046166666667,0,0xFF,0x13
3.094064375000000,0,0xFF,0x04
3.096015583333333,0,0xF0,0x02
3.096033583333333,0,0x7F,0x12
3.096051791666667,0,0xFF,0x04
3.098002833333333,0,0xB0,0x12
3.098020833333333,0,0xFF,0x12
3.098039041666667,0,0xFF,0x04
3.099989833333333,0,0xF0,0x13
3.100007833333333,0,0x7F,0x10
3.100026041666667,0,0xFF,0x04
3.101976875000000,0,0xB0,0x12
3.101994875000000,0,0xFF,0x12
3.102013083333333,0,0xFF,0x04
3.103963875000000,0,0x90,0x12
3.103981916666667,0,0xFF,0x13
3.104000125000000,0,0xFF,0x04
3.105950875000000,0,0xF0,0x12
3.105968875000000,0,0x7F,0x1A
3.105987083333333,0,0xFF,0x06
3.107937958333333,0,0xB0,0x12
3.107956000000000,0,0xFF,0x13
3.107974208333333,0,0xFF,0x04
3.109925166666667,0,0xF0,0x12
3.109943166666667,0,0x7F,0x12
3.109961375000000,0,0xFF,0x04
3.111912500000000,0,0xB0,0x12
3.111930500000000,0,0xFF,0x12
3.111948708333333,0,0xFF,0x04
3.113899875000000,0,0xF0,0x12
3.113917875000000,0,0x7F,0x12
3.113936083333333,0,0xFF,0x04
3.115887000000000,0,0x98,0x12
3.115905041666667,0,0xFF,0x13
3.115923250000000,0,0xFF,0x04
3.117874083333333,0,0xB0,0x13
3.117892083333333,0,0xFF,0x10
3.117910291666667,0,0xFF,0x04
3.117935083333333,0,0x87,0x10
3.117953125000000,0,0xFF,0x00
3.117971333333333,0,0xFF,0xB3
3.117991875000000,0,0x07,0x12
3.118009916666667,0,0x00,0x12
3.118027958333333,0,0x16,0x12
3.118857458333333,0,0x07,0x01
3.118875500000000,0,0x00,0x01
3.118893541666667,0,0x14,0x81
3.118914166666667,0,0x30,0x01
3.118932166666667,0,0x00,0x01
3.118950250000000,0,0x80,0x01
3.118970500000000,0,0xC3,0x00
3.118988500000000,0,0xFF,0x00
3.119006708333333,0,0xFF,0x16
3.119027583333333,0,0x07,0x01
3.119045625000000,0,0x00,0x00
3.119063666666666,0,0x14,0x81
3.119861166666666,0,0x30,0x92
3.119879208333333,0,0xFF,0x12
3.119897416666667,0,0xFF,0x08
3.121848541666667,0,0xF0,0x02
3.121866541666667,0,0x7F,0x12
3.121884750000000,0,0xFF,0x08
3.123835708333333,0,0xB0,0x12
3.123853750000000,0,0xFF,0x13
3.123871958333333,0,0xFF,0x08
3.125822875000000,0,0x90,0x12
3.125840916666667,0,0xFF,0x13
3.125859125000000,0,0xFF,0x08
3.127809958333333,0,0xB0,0x12
3.127828000000000,0,0xFF,0x12
3.127846208333333,0,0xFF,0x08
3.129796958333333,0,0xB0,0x12
3.129815000000000,0,0xFF,0x12
3.129833208333333,0,0xFF,0x08
3.131784125000000,0,0xF0,0x02
3.131802125000000,0,0x7F,0x12
3.131820333333333,0,0xFF,0x00
3.133771208333333,0,0xB0,0x12
3.133789250000000,0,0xFF,0x12
3.133807458333334,0,0xFF,0x0C
3.135758625000000,0,0x98,0x10
3.135776666666667,0,0xFF,0x12
3.135794875000000,0,0xFF,0x08
3.137745833333333,0,0x98,0x12
3.137763875000000,0,0xFF,0x12
3.137782083333333,0,0xFF,0x0C
3.139733125000000,0,0x98,0x1A
3.139751166666667,0,0xFF,0x12
3.139769375000000,0,0xFF,0x0C
3.141720375000000,0,0xF0,0x12
3.141738375000000,0,0x7F,0x1A
3.141756583333333,0,0xFF,0x08
3.143707458333334,0,0xF0,0x02
3.143725458333333,0,0x7F,0x12
3.143743666666666,0,0xFF,0x08
3.145694666666667,0,0xB0,0x12
3.145712708333333,0,0xFF,0x13
3.145730916666666,0,0xFF,0x08
3.147681875000000,0,0x98,0x10
3.147699916666667,0,0xFF,0x02
3.147718125000000,0,0xFF,0x08
3.149669083333333,0,0xB0,0x12
3.149687083333333,0,0xFF,0x12
3.149705291666667,0,0xFF,0x08
3.149730083333333,0,0x87,0x12
3.149748125000000,0,0xFF,0x00
3.149766333333333,0,0xFF,0x94
3.149786875000000,0,0x03,0x02
3.149804875000000,0,0x80,0x1A
3.149822958333333,0,0x3C,0x12
3.150652500000000,0,0x07,0x01
3.150670541666666,0,0x00,0x01
3.150688625000000,0,0x3C,0x01
3.150709208333333,0,0x1C,0x01
3.150727250000000,0,0xC0,0x01
3.150745333333334,0,0x80,0x01
3.150765541666666,0,0x07,0x01
3.150783583333333,0,0xFF,0x00
3.150801791666667,0,0xFF,0x3C
3.150822666666667,0,0x03,0x01
3.150840666666667,0,0x80,0x01
3.150858750000000,0,0xBC,0x01
3.151656250000000,0,0x18,0x1A
3.151674291666667,0,0xFF,0x12
3.151692500000000,0,0xFF,0x0C
3.153643500000000,0,0x98,0x10
3.153661541666667,0,0xFF,0x02
3.153679750000000,0,0xFF,0x1C
3.155630416666667,0,0xB0,0x12
3.155648458333333,0,0xFF,0x12
3.155666625000000,0,0xFF,0x18
3.157617375000000,0,0xB0,0x12
3.157635416666666,0,0xFF,0x12
3.157653583333333,0,0xFF,0x18
3.159604416666667,0,0xB0,0x13
3.159622416666667,0,0x7F,0x18
3.159640625000000,0,0xFF,0x18
3.161591500000000,0,0xB0,0x12
3.161609541666667,0,0xFF,0x12
3.161627750000000,0,0xFF,0x18
3.163578541666667,0,0xF0,0x13
3.163596541666667,0,0x7F,0x1A
3.163614750000000,0,0xFF,0x18
3.165565583333333,0,0xB0,0x12
3.165583583333333,0,0xFF,0x12
3.165601791666667,0,0xFF,0x18
3.167552708333333,0,0x98,0x1A
3.167570750000000,0,0xFF,0x12
3.167588958333333,0,0xFF,0x0C
3.169539875000000,0,0xF0,0x12
3.169557875000000,0,0x7F,0x12
3.169576083333333,0,0xFF,0x18
3.171526833333334,0,0xB0,0x12
3.171544875000000,0,0xFF,0x12
3.171563083333333,0,0xFF,0x0C
3.173513833333333,0,0xB0,0x12
3.173531833333334,0,0x7F,0x12
3.173550041666667,0,0xFF,0x18
3.175500833333333,0,0xF0,0x12
3.175518833333333,0,0x7F,0x12
3.175537041666667,0,0xFF,0x18
3.177487833333333,0,0x98,0x10
3.177505875000000,0,0xFF,0x02
3.177524083333333,0,0xFF,0x18
3.179474958333333,0,0xF0,0x02
3.179492958333333,0,0x7F,0x1A
3.179511166666667,0,0xFF,0x18
3.181462125000000,0,0xF0,0x12
3.181480166666667,0,0xFF,0x12
3.181498333333333,0,0xFF,0x18
3.181523166666667,0,0x83,0x12
3.181541166666667,0,0xFF,0x00
3.181559375000000,0,0xFF,0xBC
3.181579916666667,0,0x87,0x1A
3.181597958333333,0,0x00,0x12
3.181616041666667,0,0x1F,0x12
3.182445541666667,0,0x07,0x01
3.182463583333333,0,0x00,0x01
3.182481666666667,0,0x0F,0x00
3.182502250000000,0,0x36,0x01
3.182520291666667,0,0x80,0x00
3.182538333333333,0,0x00,0x01
3.182558583333333,0,0x87,0x01
3.182576625000000,0,0xFF,0x00
3.182594791666667,0,0xFF,0x1E
3.182615666666667,0,0x87,0x01
3.182633708333333,0,0x00,0x01
3.182651791666667,0,0x9F,0x01
3.183449208333333,0,0xF0,0x02
3.183467208333334,0,0x7F,0x1A
3.183485416666667,0,0xFF,0x1C
3.185436291666667,0,0xB0,0x12
3.185454333333333,0,0xFF,0x13
3.185472541666666,0,0xFF,0x1C
3.187423333333333,0,0xB0,0x12
3.187441333333333,0,0xFF,0x10
3.187459541666667,0,0xFF,0x1C
3.189410458333333,0,0xF0,0x02
3.189428458333333,0,0x7F,0x12
3.189446666666667,0,0xFF,0x1C
3.191397416666667,0,0x98,0x1A
3.191415458333333,0,0xFF,0x02
3.191433666666667,0,0xFF,0x1C
3.193384375000000,0,0xF0,0x13
3.193402375000000,0,0x7F,0x18
3.193420583333333,0,0xFF,0x1C
3.195371625000000,0,0xB0,0x12
3.195389625000000,0,0xFF,0x12
3.195407833333333,0,0xFF,0x1C
3.197358625000000,0,0x90,0x12
3.197376666666667,0,0xFF,0x12
3.197394875000000,0,0xFF,0x1C
3.199345666666667,0,0x98,0x18
3.199363708333333,0,0xFF,0x02
3.199381916666667,0,0xFF,0x1C
3.201332708333333,0,0xB0,0x12
3.201350708333333,0,0xFF,0x12
3.201368916666667,0,0xFF,0x1C
3.203319666666667,0,0xF0,0x13
3.203337666666667,0,0x7F,0x10
3.203355875000000,0,0xFF,0x1C
3.205306666666667,0,0x98,0x10
3.205324708333333,0,0xFF,0x02
3.205342916666666,0,0xFF,0x1C
3.207293750000000,0,0x98,0x1A
3.207311791666667,0,0xFF,0x02
3.207330000000000,0,0xFF,0x0C
3.209280958333333,0,0xB0,0x12
3.209299000000000,0,0xFF,0x12
3.209317208333333,0,0xFF,0x1C
3.211268000000000,0,0x98,0x1A
3.211286041666667,0,0xFF,0x02
3.211304250000000,0,0xFF,0x1C
3.213255125000000,0,0xB0,0x13
3.213273125000000,0,0x7F,0x18
3.213291333333333,0,0xFF,0x1C
3.213316125000000,0,0x87,0x1A
3.213334166666667,0,0xFF,0x00
3.213352375000000,0,0xFF,0xCE
3.213372916666667,0,0x07,0x12
3.213390958333334,0,0x00,0x13
3.213409000000000,0,0x66,0x1A
3.214238541666667,0,0x07,0x01
3.214256541666667,0,0x80,0x81
3.214274625000000,0,0x66,0x01
3.214295250000000,0,0x34,0x01
3.214313250000000,0,0x80,0x01
3.214331333333333,0,0xC0,0x01
3.214351541666667,0,0x07,0x81
3.214369583333333,0,0xFF,0x00
3.214387791666667,0,0xFF,0x06
3.214408666666666,0,0x03,0x01
3.214426666666667,0,0x80,0x01
3.214444750000000,0,0xC6,0x01
3.215242250000000,0,0xB0,0x12
3.215260250000000,0,0xFF,0x12
3.215278458333333,0,0xFF,0x0C
3.217229375000000,0,0xB0,0x12
3.217247416666666,0,0xFF,0x12
3.217265625000000,0,0xFF,0x0C
3.219216583333333,0,0xF0,0x12
3.219234583333333,0,0x7F,0x12
3.219252791666666,0,0xFF,0x04
3.221203750000000,0,0x90,0x12
3.221221791666667,0,0xFF,0x13
3.221240000000000,0,0xFF,0x0C
3.223190833333333,0,0xB0,0x13
3.223208833333334,0,0x7F,0x10
3.223227041666667,0,0xFF,0x0C
3.225177791666667,0,0x98,0x10
3.225195833333333,0,0xFF,0x02
3.225214041666667,0,0xFF,0x0C
3.227164875000000,0,0xF0,0x02
3.227182875000000,0,0x7F,0x12
3.227201083333334,0,0xFF,0x04
3.229151916666666,0,0x98,0x10
3.229169958333333,0,0xFF,0x02
3.229188166666667,0,0xFF,0x0C
3.231139125000000,0,0xF0,0x13
3.231157125000000,0,0x7F,0x18
3.231175333333333,0,0xFF,0x0C
3.233126333333333,0,0x98,0x10
3.233144375000000,0,0xFF,0x12
3.233162583333333,0,0xFF,0x0C
3.235113416666667,0,0xB0,0x13
3.235131416666666,0,0xFF,0x10
3.235149625000000,0,0xFF,0x0C
3.237100458333333,0,0x90,0x12
3.237118500000000,0,0xFF,0x13
3.237136708333333,0,0xFF,0x0C
3.239087666666667,0,0x98,0x12
3.239105708333333,0,0xFF,0x13
3.239123916666667,0,0xFF,0x0C
3.241074958333333,0,0xF0,0x13
3.241092958333333,0,0x7F,0x18
3.241111166666667,0,0xFF,0x0C
3.243062166666667,0,0xB0,0x12
3.243080208333333,0,0xFF,0x13
3.243098416666667,0,0xFF,0x0C
3.245049416666667,0,0xB0,0x12
3.245067458333333,0,0xFF,0x12
3.245085666666667,0,0xFF,0x0C
3.245110458333333,0,0x87,0x10
3.245128500000000,0,0xFF,0x00
3.245146708333333,0,0xFF,0xC2
3.245167250000000,0,0x07,0x12
3.245185291666667,0,0x00,0x12
3.245203333333333,0,0x00,0x10
3.246032916666667,0,0x03,0x00
3.246050916666666,0,0x00,0x01
3.246069000000000,0,0x00,0x01
3.246089583333333,0,0x1E,0x01
3.246107625000000,0,0xC0,0x01
3.246125666666666,0,0x00,0x81
3.246145916666667,0,0x87,0x01
3.246163958333333,0,0xFF,0x00
3.246182125000000,0,0xFF,0x00
3.246203000000000,0,0x87,0x01
3.246221041666667,0,0x00,0x01
3.246239083333333,0,0x00,0x81
3.247036541666667,0,0xF0,0x02
3.247054541666667,0,0x7F,0x1A
3.247072750000000,0,0xFF,0x00
3.249023750000000,0,0xB0,0x12
3.249041750000000,0,0xFF,0x12
3.249059958333333,0,0xFF,0x00
3.251010833333333,0,0x98,0x10
3.251028875000000,0,0xFF,0x12
3.251047083333333,0,0xFF,0x00
3.252998166666667,0,0x98,0x1A
3.253016208333333,0,0xFF,0x12
3.253034416666666,0,0xFF,0x00
3.254985833333333,0,0xB0,0x12
3.255003875000000,0,0xFF,0x12
3.255022041666667,0,0xFF,0x00
3.256973041666666,0,0xB0,0x12
3.256991083333333,0,0xFF,0x12
3.257009291666667,0,0xFF,0x00
3.258960125000000,0,0xB0,0x12
3.258978166666667,0,0xFF,0x12
3.258996375000000,0,0xFF,0x00
3.260947250000000,0,0x98,0x10
3.260965291666666,0,0xFF,0x12
3.260983500000000,0,0xFF,0x00
3.262934333333333,0,0xB0,0x12
3.262952375000000,0,0xFF,0x13
3.262970583333333,0,0xFF,0x00
3.264921375000000,0,0x98,0x18
3.264939416666667,0,0xFF,0x02
3.264957625000000,0,0xFF,0x00
3.266908375000000,0,0xB0,0x12
3.266926375000000,0,0x7F,0x12
3.266944583333333,0,0xFF,0x00
3.268895375000000,0,0xB0,0x12
3.268913416666666,0,0xFF,0x12
3.268931583333333,0,0xFF,0x00
3.270882416666667,0,0xB0,0x12
3.270900458333333,0,0xFF,0x12
3.270918666666667,0,0xFF,0x00
3.272869541666667,0,0xF0,0x02
3.272887541666667,0,0x7F,0x12
3.272905750000000,0,0xFF,0x00
3.274856250000000,0,0xB0,0x12
3.274874291666667,0,0xFF,0x12
3.274892500000000,0,0xFF,0x00
3.276843208333333,0,0x98,0x1A
3.276861250000000,0,0xFF,0x02
3.276879458333333,0,0xFF,0x00
3.276904250000000,0,0xC3,0x02
3.276922250000000,0,0xFF,0x00
3.276940458333333,0,0xFF,0x80
3.276961000000000,0,0x87,0x12
3.276979041666667,0,0x00,0x12
3.276997125000000,0,0x28,0x12
3.277826625000000,0,0x07,0x01
3.277844666666667,0,0x00,0x01
3.277862708333333,0,0x00,0x01
3.277883333333333,0,0x34,0x01
3.277901333333333,0,0x80,0x01
3.277919416666667,0,0xC0,0x00
3.277939625000000,0,0x07,0x81
3.277957666666667,0,0xFF,0x00
3.277975875000000,0,0xFF,0x38
3.277996750000000,0,0x03,0x01
3.278014750000000,0,0x80,0x01
3.278032833333334,0,0xA8,0x01
3.278830208333333,0,0x30,0x92
3.278848250000000,0,0xFF,0x12
3.278866458333333,0,0xFF,0x00
3.280817333333333,0,0xB0,0x12
3.280835375000000,0,0xFF,0x12
3.280853541666667,0,0xFF,0x10
3.282804500000000,0,0xB0,0x12
3.282822541666667,0,0xFF,0x12
3.282840708333334,0,0xFF,0x10
3.284791541666667,0,0x98,0x1A
3.284809583333333,0,0xFF,0x12
3.284827791666667,0,0xFF,0x10
3.286778625000000,0,0x98,0x1A
3.286796666666667,0,0xFF,0x02
3.286814875000000,0,0xFF,0x10
3.288765666666666,0,0xB0,0x12
3.288783708333333,0,0xFF,0x13
3.288801916666667,0,0xFF,0x10
3.290752750000000,0,0xB0,0x12
3.290770791666667,0,0xFF,0x13
3.290789000000000,0,0xFF,0x10
3.292739833333334,0,0xF0,0x12
3.292757833333333,0,0x7F,0x12
3.292776041666666,0,0xFF,0x18
3.294727166666667,0,0x98,0x18
3.294745208333334,0,0xFF,0x02
3.294763416666667,0,0xFF,0x10
3.296714166666667,0,0x98,0x12
3.296732208333333,0,0xFF,0x13
3.296750416666667,0,0xFF,0x10
3.298701291666667,0,0xB0,0x12
3.298719333333333,0,0xFF,0x12
3.298737500000000,0,0xFF,0x10
3.300688458333333,0,0x98,0x10
3.300706500000000,0,0xFF,0x02
3.300724708333334,0,0xFF,0x10
3.302675500000000,0,0xB0,0x12
3.302693541666667,0,0xFF,0x12
3.302711708333333,0,0xFF,0x10
3.304662500000000,0,0xB0,0x12
3.304680541666666,0,0xFF,0x12
3.304698750000000,0,0xFF,0x10
3.306649541666667,0,0xF0,0x12
3.306667541666667,0,0x7F,0x12
3.306685750000000,0,0xFF,0x18
3.308636541666667,0,0xF0,0x13
3.308654541666667,0,0x7F,0x18
3.308672750000000,0,0xFF,0x10
3.308697541666667,0,0x87,0x1A
3.308715583333333,0,0xFF,0x00
3.308733791666667,0,0xFF,0xA8
3.308754333333333,0,0x07,0x12
3.308772375000000,0,0x00,0x12
3.308790416666667,0,0x00,0x12
3.309619958333333,0,0x07,0x01
3.309638000000000,0,0x00,0x00
3.309656041666666,0,0x0A,0x81
3.309676666666667,0,0x30,0x01
3.309694666666667,0,0x00,0x81
3.309712750000000,0,0x80,0x01
3.309733000000000,0,0xC3,0x01
3.309751000000000,0,0xFF,0x80
3.309769208333333,0,0xFF,0x02
3.309790083333333,0,0x07,0x01
3.309808125000000,0,0x00,0x01
3.309826166666667,0,0x0A,0x81
3.310623625000000,0,0xB0,0x13
3.310641625000000,0,0xFF,0x10
3.310659833333333,0,0xFF,0x14
3.312610666666667,0,0xB0,0x12
3.312628708333333,0,0xFF,0x12
3.312646916666667,0,0xFF,0x14
3.314597500000000,0,0xF0,0x02
3.314615500000000,0,0x7F,0x12
3.314633708333333,0,0xFF,0x1E
3.316584500000000,0,0x98,0x1A
3.316602541666667,0,0xFF,0x02
3.316620750000000,0,0xFF,0x14
3.318571708333333,0,0x98,0x10
3.318589750000000,0,0xFF,0x02
3.318607958333333,0,0xFF,0x00
3.320558875000000,0,0x98,0x10
3.320576916666667,0,0xFF,0x02
3.320595125000000,0,0xFF,0x14
3.322546041666667,0,0xB0,0x12
3.322564083333333,0,0xFF,0x12
3.322582250000000,0,0xFF,0x14
3.324533166666667,0,0x90,0x12
3.324551208333333,0,0xFF,0x12
3.324569416666667,0,0xFF,0x14
3.326520333333333,0,0xF0,0x12
3.326538333333333,0,0x7F,0x12
3.326556541666667,0,0xFF,0x14
3.328507625000000,0,0xB0,0x12
3.328525666666667,0,0xFF,0x13
3.328543875000000,0,0xFF,0x14
3.330494791666667,0,0x98,0x18
3.330512833333333,0,0xFF,0x02
3.330531041666667,0,0xFF,0x10
3.332482083333333,0,0xB0,0x12
3.332500125000000,0,0xFF,0x12
3.332518333333333,0,0xFF,0x14
3.334469708333333,0,0xF0,0x12
3.334487708333334,0,0x7F,0x12
3.334505916666667,0,0xFF,0x14
3.336456916666667,0,0xF0,0x12
3.336474916666667,0,0x7F,0x12
3.336493125000000,0,0xFF,0x14
3.338444083333334,0,0xF0,0x02
3.338462083333333,0,0x7F,0x12
3.338480291666666,0,0xFF,0x1C
3.340431166666667,0,0xB0,0x12
3.340449208333333,0,0xFF,0x13
3.340467416666667,0,0xFF,0x14
3.340492208333333,0,0x83,0x13
3.340510208333333,0,0xFF,0x00
3.340528416666666,0,0xFF,0x8A
3.340548958333333,0,0x87,0x18
3.340567000000000,0,0x00,0x02
3.340585041666666,0,0x32,0x12
3.341414583333334,0,0x07,0x01
3.341432625000000,0,0x00,0x00
3.341450666666667,0,0x1A,0x01
3.341471291666667,0,0x30,0x00
3.341489291666667,0,0x00,0x01
3.341507375000000,0,0xC0,0x01
3.341527625000000,0,0x83,0x00
3.341545625000000,0,0xFF,0x00
3.341563833333333,0,0xFF,0x32
3.341584708333333,0,0x07,0x01
3.341602750000000,0,0x00,0x01
3.341620791666667,0,0x18,0x01
3.342418250000000,0,0xB0,0x12
3.342436250000000,0,0xFF,0x12
3.342454458333334,0,0xFF,0x04
3.344405333333333,0,0xB0,0x12
3.344423333333333,0,0xFF,0x12
3.344441541666667,0,0xFF,0x04
3.346392416666667,0,0xF0,0x12
3.346410458333333,0,0xFF,0x12
3.346428625000000,0,0xFF,0x04
3.348379500000000,0,0xB0,0x12
3.348397541666666,0,0xFF,0x13
3.348415750000000,0,0xFF,0x04
3.350366666666666,0,0x98,0x1A
3.350384708333333,0,0xFF,0x02
3.350402916666666,0,0xFF,0x00
3.352353750000000,0,0xB0,0x12
3.352371791666667,0,0xFF,0x12
3.352389958333333,0,0xFF,0x04
3.354340458333333,0,0xB0,0x12
3.354358500000000,0,0xFF,0x12
3.354376708333333,0,0xFF,0x04
3.356327583333333,0,0xF0,0x12
3.356345583333333,0,0x7F,0x12
3.356363791666667,0,0xFF,0x04
3.358314625000000,0,0x98,0x1A
3.358332666666667,0,0xFF,0x12
3.358350875000000,0,0xFF,0x00
3.360301916666667,0,0xB0,0x12
3.360319916666667,0,0xFF,0x12
3.360338125000000,0,0xFF,0x04
3.362289083333333,0,0xF0,0x02
3.362307083333334,0,0x7F,0x1A
3.362325291666667,0,0xFF,0x06
3.364276250000000,0,0xF0,0x12
3.364294250000000,0,0x7F,0x12
3.364312458333333,0,0xFF,0x04
3.366263291666667,0,0x98,0x18
3.366281333333333,0,0xFF,0x02
3.366299541666667,0,0xFF,0x00
3.368250375000000,0,0x90,0x12
3.368268416666667,0,0xFF,0x13
3.368286625000000,0,0xFF,0x04
3.370237500000000,0,0x98,0x10
3.370255541666667,0,0xFF,0x02
3.370273750000000,0,0xFF,0x00
3.372224666666667,0,0xB0,0x12
3.372242666666667,0,0xFF,0x10
3.372260875000000,0,0xFF,0x04
3.372285666666667,0,0x87,0x10
3.372303708333333,0,0xFF,0x00
3.372321916666666,0,0xFF,0xB3
3.372342458333333,0,0x07,0x12
3.372360500000000,0,0x00,0x12
3.372378541666667,0,0x1E,0x10
3.373208166666667,0,0x07,0x01
3.373226166666667,0,0x00,0x01
3.373244250000000,0,0x00,0x00
3.373264833333333,0,0x36,0x01
3.373282875000000,0,0x80,0x01
3.373300916666667,0,0x00,0x01
3.373321166666666,0,0xC7,0x01
3.373339166666667,0,0xFF,0x80
3.373357375000000,0,0xFF,0x1C
3.373378250000000,0,0x07,0x01
3.373396291666667,0,0x00,0x01
3.373414333333333,0,0x14,0x81
3.374211750000000,0,0x30,0x92
3.374229791666667,0,0xFF,0x12
3.374248000000000,0,0xFF,0x0C
3.376198750000000,0,0xB0,0x12
3.376216791666667,0,0xFF,0x12
3.376235000000000,0,0xFF,0x0C
3.378185833333333,0,0x98,0x1A
3.378203875000000,0,0xFF,0x12
3.378222083333333,0,0xFF,0x0C
3.380172833333333,0,0x90,0x12
3.380190875000000,0,0xFF,0x02
3.380209083333333,0,0xFF,0x08
3.382159833333333,0,0xB0,0x12
3.382177875000000,0,0xFF,0x12
3.382196083333334,0,0xFF,0x0C
3.384146916666666,0,0xB0,0x12
3.384164958333333,0,0xFF,0x12
3.384183125000000,0,0xFF,0x08
3.386134041666667,0,0xB0,0x12
3.386152083333333,0,0xFF,0x12
3.386170250000000,0,0xFF,0x08
3.388121208333333,0,0x98,0x10
3.388139250000000,0,0xFF,0x02
3.388157458333333,0,0xFF,0x0C
3.390108333333334,0,0x98,0x10
3.390126375000000,0,0xFF,0x02
3.390144583333333,0,0xFF,0x08
3.392095458333333,0,0x90,0x12
3.392113500000000,0,0xFF,0x13
3.392131708333333,0,0xFF,0x08
3.394082833333333,0,0xB0,0x12
3.394100875000000,0,0xFF,0x13
3.394119083333333,0,0xFF,0x08
3.396070000000000,0,0x98,0x1A
3.396088041666667,0,0xFF,0x12
3.396106250000000,0,0xFF,0x0C
3.398057166666667,0,0xB0,0x12
3.398075166666667,0,0xFF,0x12
3.398093375000000,0,0xFF,0x08
3.400044208333334,0,0x98,0x1A
3.400062250000000,0,0xFF,0x12
3.400080458333333,0,0xFF,0x0C
3.402031333333333,0,0xF0,0x12
3.402049375000000,0,0xFF,0x12
3.402067541666667,0,0xFF,0x08
3.404018583333333,0,0xF0,0x02
3.404036583333333,0,0x7F,0x1A
3.404054791666667,0,0xFF,0x00
3.404079583333333,0,0x87,0x12
3.404097625000000,0,0xFF,0x00
3.404115833333333,0,0xFF,0x94
3.404136375000000,0,0x87,0x1A
3.404154416666667,0,0x00,0x02
3.404172500000000,0,0x3C,0x12
3.405002125000000,0,0x07,0x01
3.405020166666667,0,0x00,0x01
3.405038208333333,0,0x1E,0x01
3.405058833333333,0,0x30,0x00
3.405076833333333,0,0x00,0x01
3.405094916666667,0,0x80,0x01
3.405115166666667,0,0xC3,0x01
3.405133166666667,0,0xFF,0x00
3.405151375000000,0,0xFF,0x1C
3.405172250000000,0,0x07,0x01
3.405190291666667,0,0x00,0x01
3.405208333333333,0,0x3C,0x81
3.406005833333333,0,0xB0,0x12
3.406023875000000,0,0xFF,0x12
3.406042083333333,0,0xFF,0x18
3.407993000000000,0,0xF0,0x02
3.408011000000000,0,0x7F,0x12
3.408029208333333,0,0xFF,0x18
3.409980166666667,0,0xF0,0x02
3.409998166666667,0,0x7F,0x12
3.410016375000000,0,0xFF,0x18
3.411967291666667,0,0x98,0x10
3.411985333333333,0,0xFF,0x02
3.412003541666667,0,0xFF,0x18
3.413954208333333,0,0xB0,0x12
3.413972208333333,0,0xFF,0x12
3.413990416666667,0,0xFF,0x18
3.415941375000000,0,0xB0,0x12
3.415959375000000,0,0x7F,0x12
3.415977583333333,0,0xFF,0x18
3.417928666666667,0,0x90,0x12
3.417946708333333,0,0xFF,0x13
3.417964916666667,0,0xFF,0x18
3.419916000000000,0,0xB0,0x12
3.419934041666667,0,0xFF,0x12
3.419952208333333,0,0xFF,0x18
3.421903083333333,0,0xB0,0x13
3.421921083333333,0,0xFF,0x12
3.421939291666667,0,0xFF,0x18
3.423890125000000,0,0xB0,0x12
3.423908166666667,0,0xFF,0x12
3.423926333333333,0,0xFF,0x18
3.425877166666667,0,0x98,0x18
3.425895208333333,0,0xFF,0x02
3.425913416666666,0,0xFF,0x18
3.427864291666667,0,0xB0,0x13
3.427882291666667,0,0xFF,0x10
3.427900500000000,0,0xFF,0x18
3.429851291666667,0,0xB0,0x12
3.429869291666667,0,0xFF,0x12
3.429887500000000,0,0xFF,0x0C
3.431838291666667,0,0xF0,0x02
3.431856291666667,0,0x7F,0x12
3.431874500000000,0,0xFF,0x18
3.433825666666667,0,0x98,0x18
3.433843708333333,0,0xFF,0x02
3.433861916666667,0,0xFF,0x18
3.435812833333333,0,0xF0,0x02
3.435830833333333,0,0x7F,0x12
3.435849041666667,0,0xFF,0x18
3.435873875000000,0,0x87,0x12
3.435891875000000,0,0xFF,0x00
3.435910083333333,0,0xFF,0xBC
3.435930625000000,0,0x87,0x12
3.435948666666667,0,0x00,0x12
3.435966750000000,0,0x0F,0x13
3.436796333333333,0,0x07,0x01
3.436814375000000,0,0x00,0x00
3.436832416666667,0,0x1E,0x01
3.436853041666667,0,0x30,0x00
3.436871041666667,0,0x00,0x01
3.436889125000000,0,0xC0,0x01
3.436909375000000,0,0x87,0x01
3.436927375000000,0,0xFF,0x00
3.436945583333333,0,0xFF,0x1E
3.436966458333333,0,0x07,0x01
3.436984500000000,0,0x00,0x01
3.437002541666667,0,0x9E,0x01
3.437800041666667,0,0xF0,0x12
3.437818041666667,0,0x7F,0x1A
3.437836250000000,0,0xFF,0x1E
3.439787291666667,0,0xB0,0x12
3.439805291666667,0,0xFF,0x12
3.439823500000000,0,0xFF,0x1C
3.441774416666667,0,0xB0,0x13
3.441792416666666,0,0xFF,0x12
3.441810625000000,0,0xFF,0x1C
3.443761583333333,0,0xB0,0x12
3.443779625000000,0,0xFF,0x13
3.443797833333333,0,0xFF,0x1C
3.445748750000000,0,0xF0,0x12
3.445766791666667,0,0xFF,0x12
3.445784958333333,0,0xFF,0x1C
3.447735916666667,0,0xF0,0x13
3.447753916666667,0,0x7F,0x10
3.447772125000000,0,0xFF,0x1C
3.449723041666667,0,0x98,0x10
3.449741083333334,0,0xFF,0x12
3.449759291666667,0,0xFF,0x1C
3.451710166666667,0,0x90,0x12
3.451728208333333,0,0xFF,0x12
3.451746416666666,0,0xFF,0x0C
3.453696958333333,0,0x98,0x18
3.453715000000000,0,0xFF,0x02
3.453733208333333,0,0xFF,0x1C
3.455684041666667,0,0xB0,0x12
3.455702041666667,0,0xFF,0x12
3.455720250000000,0,0xFF,0x0C
3.457671041666667,0,0xB0,0x12
3.457689041666667,0,0xFF,0x12
3.457707250000000,0,0xFF,0x1C
3.459658041666667,0,0xB0,0x13
3.459676041666667,0,0xFF,0x10
3.459694250000000,0,0xFF,0x1C
3.461645083333333,0,0x98,0x18
3.461663125000000,0,0xFF,0x02
3.461681333333333,0,0xFF,0x1C
3.463632291666667,0,0x90,0x12
3.463650333333333,0,0xFF,0x02
3.463668541666667,0,0xFF,0x1C
3.465619541666667,0,0xF0,0x12
3.465637583333333,0,0xFF,0x12
3.465655750000000,0,0xFF,0x1C
3.467606666666667,0,0xB0,0x12
3.467624708333333,0,0xFF,0x12
3.467642875000000,0,0xFF,0x1C
3.467667708333333,0,0x87,0x12
3.467685708333333,0,0xFF,0x00
3.467703916666667,0,0xFF,0x9E
3.467724458333334,0,0x87,0x1A
3.467742500000000,0,0x00,0x02
3.467760541666667,0,0x46,0x12
3.468590166666667,0,0x03,0x00
3.468608166666667,0,0x00,0x01
3.468626250000000,0,0x06,0x01
3.468646833333333,0,0x34,0x01
3.468664875000000,0,0x80,0x01
3.468682958333333,0,0xC0,0x00
3.468703166666667,0,0x07,0x81
3.468721208333333,0,0xFF,0x00
3.468739416666667,0,0xFF,0x46
3.468760291666667,0,0x07,0x01
3.468778333333333,0,0x00,0x01
3.468796375000000,0,0x66,0x01
3.469593916666667,0,0xB0,0x12
3.469611916666667,0,0xFF,0x12
3.469630125000000,0,0xFF,0x0C
3.471580958333333,0,0x98,0x10
3.471599000000000,0,0xFF,0x02
3.471617208333333,0,0xFF,0x0C
3.473568333333333,0,0xB0,0x12
3.473586375000000,0,0xFF,0x12
3.473604583333334,0,0xFF,0x0C
3.475555625000000,0,0xB0,0x12
3.475573666666667,0,0xFF,0x12
3.475591833333334,0,0xFF,0x0C
3.477542875000000,0,0xB0,0x12
3.477560916666667,0,0xFF,0x12
3.477579125000000,0,0xFF,0x0C
3.479530166666667,0,0xB0,0x13
3.479548166666667,0,0x7F,0x10
3.479566375000000,0,0xFF,0x0E
3.481517333333333,0,0x98,0x18
3.481535375000000,0,0xFF,0x02
3.481553583333334,0,0xFF,0x0C
3.483504666666667,0,0x98,0x10
3.483522708333334,0,0xFF,0x12
3.483540916666667,0,0xFF,0x0C
3.485492000000000,0,0xB0,0x13
3.485510000000000,0,0x7F,0x10
3.485528208333333,0,0xFF,0x0C
3.487479250000000,0,0xB0,0x12
3.487497250000000,0,0xFF,0x10
3.487515458333333,0,0xFF,0x0C
3.489466541666667,0,0x98,0x1A
3.489484583333333,0,0xFF,0x12
3.489502791666667,0,0xFF,0x0C
3.491453833333333,0,0xF0,0x02
3.491471833333333,0,0x7F,0x1A
3.491490041666667,0,0xFF,0x0E
3.493440666666667,0,0x98,0x10
3.493458708333333,0,0xFF,0x12
3.493476916666667,0,0xFF,0x0C
3.495427791666667,0,0x98,0x1A
3.495445833333333,0,0xFF,0x02
3.495464041666667,0,0xFF,0x0C
3.497414958333333,0,0x98,0x10
3.497433000000000,0,0xFF,0x12
3.497451208333333,0,0xFF,0x0C
3.499402166666667,0,0xB0,0x13
3.499420166666667,0,0x7F,0x10
3.499438375000000,0,0xFF,0x0E
3.499463166666667,0,0x87,0x12
3.499481208333334,0,0xFF,0x00
3.499499416666667,0,0xFF,0xC2
3.499519958333333,0,0x07,0x12
3.499538000000000,0,0x00,0x13
3.499556041666667,0,0x00,0x12
3.500385625000000,0,0x07,0x01
3.500403666666667,0,0x00,0x01
3.500421750000000,0,0x00,0x01
3.500442333333333,0,0x1E,0x01
3.500460375000000,0,0xC0,0x01
3.500478416666667,0,0x00,0x81
3.500498666666667,0,0x87,0x01
3.500516708333334,0,0xFF,0x00
3.500534916666667,0,0xFF,0x00
3.500555791666667,0,0x07,0x01
3.500573791666667,0,0x00,0x01
3.500591875000000,0,0xC0,0x01
3.501389375000000,0,0x30,0x92
3.501407416666667,0,0xFF,0x12
3.501425625000000,0,0xFF,0x00
3.503376708333333,0,0xF0,0x12
3.503394750000000,0,0xFF,0x12
3.503412958333334,0,0xFF,0x00
3.505363916666667,0,0xF0,0x02
3.505381916666667,0,0x7F,0x12
3.505400125000000,0,0xFF,0x00
3.507351291666667,0,0x98,0x10
3.507369333333333,0,0xFF,0x02
3.507387541666667,0,0xFF,0x00
3.509338458333333,0,0xB0,0x12
3.509356500000000,0,0xFF,0x12
3.509374708333334,0,0xFF,0x00
3.511325625000000,0,0xB0,0x12
3.511343666666667,0,0xFF,0x12
3.511361875000000,0,0xFF,0x00
3.513313125000000,0,0x98,0x1A
3.513331166666667,0,0xFF,0x12
3.513349375000000,0,0xFF,0x00
3.515300458333333,0,0xB0,0x12
3.515318458333333,0,0xFF,0x12
3.515336666666667,0,0xFF,0x00
3.517287750000000,0,0xB0,0x12
3.517305750000000,0,0xFF,0x12
3.517323958333333,0,0xFF,0x00
3.519274833333333,0,0xB0,0x12
3.519292875000000,0,0xFF,0x12
3.519311041666667,0,0xFF,0x00
3.521262083333333,0,0x98,0x10
3.521280125000000,0,0xFF,0x12
3.521298333333333,0,0xFF,0x00
3.523249333333333,0,0xB0,0x12
3.523267333333334,0,0xFF,0x12
3.523285541666667,0,0xFF,0x00
3.525236583333333,0,0x98,0x1A
3.525254625000000,0,0xFF,0x12
3.525272833333333,0,0xFF,0x00
3.527223875000000,0,0xB0,0x12
3.527241875000000,0,0xFF,0x12
3.527260083333333,0,0xFF,0x00
3.529210958333334,0,0xF0,0x12
3.529228958333333,0,0x7F,0x12
3.529247166666666,0,0xFF,0x00
3.531207458333333,0,0x90,0x12
3.531225500000000,0,0xFF,0x12
3.531243708333333,0,0xFF,0x00
3.531268500000000,0,0xC7,0x12
3.531286541666667,0,0xFF,0x00
3.531304708333333,0,0xFF,0x00
3.531325291666667,0,0x03,0x02
3.531343291666666,0,0x80,0x12
3.531361375000000,0,0x20,0x12
3.532181750000000,0,0x07,0x01
3.532199750000000,0,0x00,0x01
3.532217833333333,0,0x3C,0x01
3.532238416666666,0,0x1E,0x01
3.532256458333333,0,0xC0,0x00
3.532274500000000,0,0x00,0x01
3.532294750000000,0,0x87,0x01
3.532312791666667,0,0xFF,0x00
3.532330958333334,0,0xFF,0x28
3.532351833333333,0,0x87,0x01
3.532369875000000,0,0x00,0x01
3.532387958333334,0,0xA8,0x01
3.533204541666667,0,0xB0,0x12
3.533222583333333,0,0xFF,0x13
3.533240791666667,0,0xFF,0x10
3.535198416666667,0,0x90,0x12
3.535216458333333,0,0xFF,0x12
3.535234666666667,0,0xFF,0x10
3.537189333333334,0,0xB0,0x12
3.537207333333333,0,0xFF,0x12
3.537225541666666,0,0xFF,0x10
3.539178500000000,0,0xF0,0x02
3.539196500000000,0,0x7F,0x18
3.539214708333333,0,0xFF,0x10
3.541172250000000,0,0xB0,0x12
3.541190291666667,0,0xFF,0x02
3.541208500000000,0,0xFF,0x10
3.543162916666667,0,0xB0,0x12
3.543180916666667,0,0xFF,0x12
3.543199125000000,0,0xFF,0x10
3.545159625000000,0,0x98,0x1A
3.545177666666667,0,0xFF,0x02
3.545195875000000,0,0xFF,0x10
3.547151458333333,0,0xB0,0x13
3.547169458333333,0,0x7F,0x1A
3.547187666666667,0,0xFF,0x18
3.549146458333333,0,0xF0,0x02
3.549164458333333,0,0x7F,0x12
3.549182666666667,0,0xFF,0x10
3.551133208333333,0,0xB0,0x12
3.551151208333333,0,0xFF,0x10
3.551169416666667,0,0xFF,0x10
3.553123625000000,0,0xF0,0x02
3.553141625000000,0,0x7F,0x1A
3.553159833333333,0,0xFF,0x10
3.555111166666667,0,0xB0,0x12
3.555129166666667,0,0xFF,0x12
3.555147375000000,0,0xFF,0x10
3.557105375000000,0,0xB0,0x13
3.557123375000000,0,0xFF,0x10
3.557141583333333,0,0xFF,0x10
3.559102125000000,0,0x98,0x1A
3.559120166666667,0,0xFF,0x12
3.559138375000000,0,0xFF,0x00
3.561096208333333,0,0xB0,0x12
3.561114250000000,0,0xFF,0x12
3.561132458333333,0,0xFF,0x10
3.563083333333333,0,0xF0,0x12
3.563101333333333,0,0x7F,0x12
3.563119541666667,0,0xFF,0x10
3.563144375000000,0,0x83,0x12
3.563162375000000,0,0xFF,0x00
3.563180583333333,0,0xFF,0xA8
3.563201125000000,0,0x87,0x1A
3.563219166666667,0,0x00,0x02
3.563237250000000,0,0x0B,0x12
3.563974666666667,0,0x03,0x01
3.563992666666667,0,0x80,0x01
3.564010750000000,0,0x0A,0x01
3.564031333333333,0,0x1E,0x01
3.564049375000000,0,0xC0,0x01
3.564067416666667,0,0x00,0x81
3.564087666666667,0,0x87,0x01
3.564105708333333,0,0xFF,0x00
3.564123916666667,0,0xFF,0x0A
3.564144750000000,0,0x87,0x01
3.564162791666666,0,0x00,0x01
3.564180875000000,0,0x8F,0x00
3.565561208333333,0,0x98,0x12
3.565579250000000,0,0xFF,0x13
3.565597458333333,0,0xFF,0x14
3.567552291666667,0,0x98,0x1A
3.567570333333333,0,0xFF,0x12
3.567588541666667,0,0xFF,0x04
3.569546541666667,0,0xB0,0x12
3.569564583333333,0,0xFF,0x13
3.569582791666666,0,0xFF,0x14
3.571533958333333,0,0xF0,0x02
3.571551958333333,0,0x7F,0x12
3.571570166666667,0,0xFF,0x14
3.573523750000000,0,0xB0,0x12
3.573541791666667,0,0xFF,0x12
3.573560000000000,0,0xFF,0x14
3.575510291666667,0,0xB0,0x12
3.575528333333333,0,0xFF,0x13
3.575546541666667,0,0xFF,0x14
3.577498250000000,0,0xB0,0x12
3.577516291666667,0,0xFF,0x12
3.577534500000000,0,0xFF,0x14
3.579486875000000,0,0x98,0x18
3.579504916666667,0,0xFF,0x02
3.579523125000000,0,0xFF,0x10
3.581474875000000,0,0xF0,0x12
3.581492916666666,0,0xFF,0x12
3.581511083333333,0,0xFF,0x14
3.583465000000000,0,0xB0,0x12
3.583483041666667,0,0xFF,0x13
3.583501250000000,0,0xFF,0x14
3.585461041666667,0,0xB0,0x12
3.585479083333333,0,0xFF,0x10
3.585497291666667,0,0xFF,0x14
3.587452375000000,0,0xB0,0x12
3.587470375000000,0,0xFF,0x10
3.587488583333333,0,0xFF,0x14
3.589441875000000,0,0xB0,0x12
3.589459916666667,0,0xFF,0x13
3.589478125000000,0,0xFF,0x14
3.591441750000000,0,0x98,0x10
3.591459791666667,0,0xFF,0x02
3.591478000000000,0,0xFF,0x14
3.593432458333333,0,0xF0,0x12
3.593450458333333,0,0x7F,0x12
3.593468666666667,0,0xFF,0x14
3.595420791666667,0,0xB0,0x13
3.595438791666667,0,0x7F,0x1A
3.595457000000000,0,0xFF,0x16
3.595481791666667,0,0x87,0x12
3.595499833333333,0,0xFF,0x00
3.595518041666667,0,0xFF,0xCA
3.595538583333334,0,0x07,0x12
3.595556625000000,0,0x00,0x13
3.595574666666667,0,0x1A,0x1A
3.595769291666667,0,0x07,0x01
3.595787291666667,0,0x00,0x01
3.595805375000000,0,0x32,0x01
3.595825958333333,0,0x1C,0x01
3.595844000000000,0,0x80,0x01
3.595862083333333,0,0x80,0x00
3.595882291666667,0,0x07,0x81
3.595900333333333,0,0xFF,0x00
3.595918541666667,0,0xFF,0x32
3.595939416666666,0,0x07,0x01
3.595957458333333,0,0x00,0x01
3.595975500000000,0,0x32,0x81
3.597416208333333,0,0xB0,0x12
3.597434250000000,0,0xFF,0x13
3.597452458333333,0,0xFF,0x04
3.599407958333333,0,0xF0,0x12
3.599425958333333,0,0x7F,0x12
3.599444166666667,0,0xFF,0x04
3.601397083333334,0,0xB0,0x12
3.601415125000000,0,0xFF,0x12
3.601433291666666,0,0xFF,0x04
3.603389583333333,0,0xB0,0x12
3.603407583333333,0,0xFF,0x12
3.603425791666667,0,0xFF,0x04
3.605380291666667,0,0x98,0x1A
3.605398333333333,0,0xFF,0x12
3.605416541666667,0,0xFF,0x00
3.607368166666667,0,0xB0,0x12
3.607386166666667,0,0xFF,0x10
3.607404375000000,0,0xFF,0x04
3.609364333333333,0,0xF0,0x13
3.609382333333333,0,0x7F,0x10
3.609400541666667,0,0xFF,0x04
3.611354458333333,0,0xB0,0x12
3.611372500000000,0,0xFF,0x12
3.611390666666667,0,0xFF,0x04
3.613346125000000,0,0xF0,0x12
3.613364125000000,0,0x7F,0x12
3.613382333333333,0,0xFF,0x04
3.615341166666667,0,0xB0,0x12
3.615359166666666,0,0xFF,0x10
3.615377375000000,0,0xFF,0x04
3.617328750000000,0,0xB0,0x12
3.617346791666667,0,0xFF,0x12
3.617365000000000,0,0xFF,0x04
3.619318791666667,0,0xB0,0x13
3.619336791666667,0,0x7F,0x18
3.619355000000000,0,0xFF,0x04
3.621305666666667,0,0xB0,0x12
3.621323666666667,0,0xFF,0x12
3.621341875000000,0,0xFF,0x04
3.623300125000000,0,0xB0,0x13
3.623318125000000,0,0xFF,0x12
3.623336333333333,0,0xFF,0x04
3.625294541666667,0,0xB0,0x12
3.625312583333333,0,0xFF,0x13
3.625330791666667,0,0xFF,0x04
3.627285333333333,0,0xB0,0x12
3.627303375000000,0,0xFF,0x13
3.627321583333333,0,0xFF,0x04
3.627346375000000,0,0xC3,0x13
3.627364375000000,0,0xFF,0x00
3.627382583333334,0,0xFF,0xB2
3.627403125000000,0,0x87,0x12
3.627421166666667,0,0x00,0x12
3.627439250000000,0,0x00,0x12
3.627561708333333,0,0x07,0x01
3.627579750000000,0,0x00,0x00
3.627597791666667,0,0x1C,0x01
3.627618416666667,0,0x30,0x00
3.627636416666667,0,0x80,0x01
3.627654500000000,0,0xC0,0x01
3.627674750000000,0,0x87,0x01
3.627692750000000,0,0xFF,0x00
3.627710958333333,0,0xFF,0x14
3.627731833333333,0,0x03,0x01
3.627749833333333,0,0x80,0x01
3.627767916666667,0,0x96,0x01
3.629284750000000,0,0xB0,0x13
3.629302750000000,0,0x7F,0x10
3.629320958333333,0,0xFF,0x08
3.631273375000000,0,0xB0,0x13
3.631291375000000,0,0xFF,0x10
3.631309583333334,0,0xFF,0x08
3.633268833333333,0,0xF0,0x02
3.633286833333333,0,0x7F,0x12
3.633305041666667,0,0xFF,0x00
3.635261000000000,0,0xF0,0x02
3.635279000000000,0,0x7F,0x1A
3.635297208333333,0,0xFF,0x08
3.637254541666667,0,0xF0,0x13
3.637272541666666,0,0x7F,0x10
3.637290750000000,0,0xFF,0x08
3.639246625000000,0,0xF0,0x02
3.639264625000000,0,0x7F,0x12
3.639282833333333,0,0xFF,0x00
3.641241208333333,0,0x98,0x1A
3.641259250000000,0,0xFF,0x12
3.641277458333333,0,0xFF,0x0C
3.643228208333333,0,0xF0,0x12
3.643246208333333,0,0x7F,0x1A
3.643264416666667,0,0xFF,0x00
3.645216000000000,0,0x98,0x10
3.645234041666667,0,0xFF,0x13
3.645252250000000,0,0xFF,0x08
3.647204708333333,0,0x90,0x12
3.647222750000000,0,0xFF,0x12
3.647240958333333,0,0xFF,0x08
3.649192375000000,0,0xB0,0x13
3.649210375000000,0,0xFF,0x10
3.649228583333334,0,0xFF,0x08
3.651184125000000,0,0xF0,0x02
3.651202125000000,0,0x7F,0x12
3.651220333333333,0,0xFF,0x08
3.653177916666666,0,0xB0,0x13
3.653195916666667,0,0xFF,0x10
3.653214125000000,0,0xFF,0x08
3.655165625000000,0,0xB0,0x12
3.655183666666667,0,0xFF,0x13
3.655201875000000,0,0xFF,0x08
3.657164750000000,0,0x90,0x12
3.657182791666667,0,0xFF,0x13
3.657201000000000,0,0xFF,0x08
3.659158916666667,0,0x98,0x1A
3.659176958333333,0,0xFF,0x02
3.659195166666667,0,0xFF,0x0C
3.659219958333333,0,0xC7,0x12
3.659237958333333,0,0xFF,0x00
3.659256166666667,0,0xFF,0x9C
3.659276750000000,0,0x03,0x12
3.659294750000000,0,0x00,0x10
3.659312833333333,0,0x3C,0x02
3.659354708333333,0,0x03,0x01
3.659372708333333,0,0x80,0x01
3.659390791666667,0,0x3C,0x01
3.659411375000000,0,0x14,0x01
3.659429416666667,0,0x80,0x01
3.659447500000000,0,0x80,0x01
3.659467708333333,0,0x07,0x01
3.659485750000000,0,0xFF,0x00
3.659503958333334,0,0xFF,0x3C
3.659524833333333,0,0x03,0x00
3.659542833333334,0,0x00,0x01
3.659560916666666,0,0xFC,0x01
3.661146750000000,0,0xF0,0x02
3.661164750000000,0,0x7F,0x1A
3.661182958333333,0,0xFF,0x18
3.663136458333333,0,0xF0,0x13
3.663154458333334,0,0x7F,0x1A
3.663172666666667,0,0xFF,0x18
3.665130791666667,0,0xF0,0x02
3.665148791666667,0,0x7F,0x12
3.665167000000000,0,0xFF,0x18
3.667124500000000,0,0xF0,0x12
3.667142500000000,0,0x7F,0x1A
3.667160708333333,0,0xFF,0x18
3.669121333333333,0,0x98,0x10
3.669139375000000,0,0xFF,0x02
3.669157583333333,0,0xFF,0x18
3.671118625000000,0,0xF0,0x02
3.671136625000000,0,0x7F,0x12
3.671154833333333,0,0xFF,0x18
3.673112125000000,0,0x98,0x10
3.673130166666667,0,0xFF,0x02
3.673148375000000,0,0xFF,0x18
3.675105791666667,0,0xB0,0x12
3.675123791666667,0,0xFF,0x12
3.675142000000000,0,0xFF,0x18
3.677096166666667,0,0x98,0x1A
3.677114208333333,0,0xFF,0x12
3.677132416666667,0,0xFF,0x0C
3.679085916666667,0,0xB0,0x13
3.679103916666667,0,0x7F,0x10
3.679122125000000,0,0xFF,0x18
3.681073125000000,0,0x98,0x1A
3.681091166666667,0,0xFF,0x12
3.681109375000000,0,0xFF,0x0C
3.683065875000000,0,0xF0,0x12
3.683083875000000,0,0x7F,0x12
3.683102083333333,0,0xFF,0x18
3.685061291666667,0,0xB0,0x12
3.685079333333333,0,0xFF,0x12
3.685097541666666,0,0xFF,0x08
3.687056791666667,0,0xB0,0x12
3.687074791666667,0,0x7F,0x12
3.687093000000000,0,0xFF,0x18
3.689043583333333,0,0xB0,0x12
3.689061625000000,0,0xFF,0x13
3.689079833333333,0,0xFF,0x18
3.691034833333333,0,0xB0,0x12
3.691052875000000,0,0xFF,0x12
3.691071083333333,0,0xFF,0x18
3.691095875000000,0,0xC3,0x02
3.691113875000000,0,0xFF,0x00
3.691132083333333,0,0xFF,0x9C
3.691152875000000,0,0x07,0x12
3.691170916666667,0,0x00,0x13
3.691188958333333,0,0x1E,0x1A
3.692140708333334,0,0x07,0x01
3.692158750000000,0,0x00,0x01
3.692176833333333,0,0x0E,0x01
3.692197416666667,0,0x3E,0x01
3.692215458333334,0,0xC0,0x00
3.692233500000000,0,0x00,0x01
3.692253750000000,0,0x87,0x01
3.692271791666667,0,0xFF,0x00
3.692290000000000,0,0xFF,0x1E
3.692310833333333,0,0x87,0x01
3.692328875000000,0,0x00,0x01
3.692346958333333,0,0xCF,0x00
3.693737791666666,0,0xF0,0x13
3.693755791666667,0,0xFF,0x10
3.693774000000000,0,0xFF,0x1C
3.695727416666667,0,0xB0,0x12
3.695745458333333,0,0xFF,0x13
3.695763666666667,0,0xFF,0x1C
3.697723416666667,0,0xB0,0x12
3.697741458333333,0,0xFF,0x12
3.697759625000000,0,0xFF,0x1C
3.699720750000000,0,0xB0,0x12
3.699738750000000,0,0xFF,0x12
3.699756958333333,0,0xFF,0x1C
3.701709458333333,0,0x98,0x1A
3.701727500000000,0,0xFF,0x12
3.701745708333333,0,0xFF,0x0C
3.703697083333333,0,0x98,0x1A
3.703715125000000,0,0xFF,0x02
3.703733333333334,0,0xFF,0x0C
3.705692916666667,0,0xB0,0x12
3.705710958333333,0,0xFF,0x13
3.705729166666667,0,0xFF,0x1C
3.707691833333334,0,0xF0,0x02
3.707709833333333,0,0x7F,0x12
3.707728041666666,0,0xFF,0x1C
3.709685375000000,0,0xB0,0x12
3.709703375000000,0,0xFF,0x12
3.709721583333333,0,0xFF,0x1C
3.711684333333333,0,0xF0,0x02
3.711702333333333,0,0x7F,0x12
3.711720541666667,0,0xFF,0x1C
3.713671875000000,0,0xF0,0x02
3.713689875000000,0,0x7F,0x12
3.713708125000000,0,0xFF,0x1C
3.715666208333333,0,0x98,0x18
3.715684250000000,0,0xFF,0x12
3.715702458333333,0,0xFF,0x0C
3.717658291666667,0,0xB0,0x12
3.717676291666667,0,0xFF,0x10
3.717694500000000,0,0xFF,0x1C
3.719646208333333,0,0xF0,0x02
3.719664208333334,0,0x7F,0x12
3.719682416666667,0,0xFF,0x1E
3.721640875000000,0,0xB0,0x12
3.721658875000000,0,0xFF,0x10
3.721677083333333,0,0xFF,0x1E
3.723629708333333,0,0xB0,0x12
3.723647750000000,0,0xFF,0x13
3.723665958333333,0,0xFF,0x1C
3.723690750000000,0,0xC7,0x12
3.723708750000000,0,0xFF,0x00
3.723726958333333,0,0xFF,0x1E
3.723747541666667,0,0x03,0x12
3.723765541666667,0,0x80,0x12
3.723783625000000,0,0x66,0x10
3.723935791666667,0,0x03,0x00
3.723953791666667,0,0x00,0x01
3.723971875000000,0,0x46,0x01
3.723992458333333,0,0x1C,0x01
3.724010500000000,0,0xC0,0x01
3.724028583333333,0,0x80,0x01
3.724048791666667,0,0x07,0x01
3.724066833333334,0,0xFF,0x00
3.724085041666667,0,0xFF,0x42
3.724105916666667,0,0x03,0x00
3.724123916666667,0,0x00,0x01
3.724142000000000,0,0xC6,0x01
3.725621583333333,0,0x18,0x10
3.725639625000000,0,0xFF,0x02
3.725657833333333,0,0xFF,0x0C
3.727611875000000,0,0xB0,0x12
3.727629875000000,0,0xFF,0x12
3.727648083333333,0,0xFF,0x0C
3.729610291666666,0,0xB0,0x12
3.729628291666667,0,0xFF,0x12
3.729646500000000,0,0xFF,0x0C
3.731602416666667,0,0x98,0x10
3.731620458333333,0,0xFF,0x13
3.731638666666667,0,0xFF,0x0C
3.733590833333333,0,0xB0,0x12
3.733608875000000,0,0xFF,0x12
3.733627041666667,0,0xFF,0x0C
3.735584041666667,0,0xF0,0x13
3.735602041666667,0,0x7F,0x1A
3.735620250000000,0,0xFF,0x0E
3.737576208333333,0,0x98,0x18
3.737594250000000,0,0xFF,0x02
3.737612458333333,0,0xFF,0x0C
3.739565916666667,0,0xB0,0x12
3.739583958333333,0,0xFF,0x13
3.739602166666667,0,0xFF,0x0C
3.741557666666667,0,0xB0,0x12
3.741575708333333,0,0xFF,0x12
3.741593916666667,0,0xFF,0x0C
3.743546333333333,0,0xF0,0x12
3.743564375000000,0,0xFF,0x12
3.743582541666667,0,0xFF,0x0C
3.745541500000000,0,0x98,0x1A
3.745559541666667,0,0xFF,0x12
3.745577750000000,0,0xFF,0x0C
3.747529375000000,0,0xB0,0x12
3.747547416666666,0,0xFF,0x12
3.747565625000000,0,0xFF,0x0C
3.749523541666667,0,0xB0,0x12
3.749541583333333,0,0xFF,0x12
3.749559791666667,0,0xFF,0x0C
3.751514416666667,0,0xF0,0x12
3.751532416666667,0,0x7F,0x1A
3.751550625000000,0,0xFF,0x06
3.753502083333333,0,0xF0,0x02
3.753520083333334,0,0x7F,0x12
3.753538291666667,0,0xFF,0x0C
3.755493083333334,0,0x98,0x1A
3.755511125000000,0,0xFF,0x12
3.755529333333333,0,0xFF,0x0C
3.755554125000000,0,0x87,0x12
3.755572166666667,0,0xFF,0x00
3.755590375000000,0,0xFF,0xC7
3.755610916666666,0,0x07,0x12
3.755628958333333,0,0x00,0x12
3.755647000000000,0,0x00,0x10
3.755730291666667,0,0x07,0x01
3.755748291666666,0,0x80,0x81
3.755766375000000,0,0x00,0x01
3.755787000000000,0,0x30,0x00
3.755805000000000,0,0x00,0x01
3.755823083333333,0,0xC0,0x01
3.755843333333333,0,0xC3,0x01
3.755861333333333,0,0xFF,0x00
3.755879541666667,0,0xFF,0x00
3.755900416666667,0,0x07,0x01
3.755918458333333,0,0x00,0x01
3.755936500000000,0,0x00,0x81
3.757483250000000,0,0xB0,0x12
3.757501291666667,0,0xFF,0x12
3.757519500000000,0,0xFF,0x00
3.759470416666667,0,0x90,0x12
3.759488458333333,0,0xFF,0x12
3.759506666666667,0,0xFF,0x00
3.761465250000000,0,0xB0,0x12
3.761483291666667,0,0xFF,0x12
3.761501500000000,0,0xFF,0x00
3.763454916666667,0,0xB0,0x12
3.763472916666667,0,0xFF,0x12
3.763491125000000,0,0xFF,0x00
3.765452250000000,0,0xF0,0x13
3.765470250000000,0,0x7F,0x18
3.765488458333333,0,0xFF,0x00
3.767442375000000,0,0xB0,0x13
3.767460375000000,0,0xFF,0x10
3.767478583333333,0,0xFF,0x00
3.769430541666666,0,0xF0,0x02
3.769448541666667,0,0x7F,0x12
3.769466750000000,0,0xFF,0x00
3.771424333333333,0,0xB0,0x12
3.771442333333333,0,0xFF,0x12
3.771460541666667,0,0xFF,0x00
3.773420458333333,0,0x98,0x1A
3.773438500000000,0,0xFF,0x12
3.773456708333333,0,0xFF,0x00
3.775417000000000,0,0xB0,0x12
3.775435000000000,0,0xFF,0x12
3.775453208333333,0,0xFF,0x00
3.777409416666667,0,0x98,0x12
3.777427458333333,0,0xFF,0x13
3.777445666666666,0,0xFF,0x00
3.779400958333333,0,0xF0,0x02
3.779418958333333,0,0x7F,0x1A
3.779437166666667,0,0xFF,0x00
3.781394791666667,0,0x98,0x1A
3.781412833333333,0,0xFF,0x12
3.781431041666667,0,0xFF,0x00
3.783390416666667,0,0x98,0x18
3.783408458333333,0,0xFF,0x02
3.783426666666667,0,0xFF,0x00
3.785378625000000,0,0xB0,0x12
3.785396625000000,0,0xFF,0x12
3.785414833333333,0,0xFF,0x00
3.787368875000000,0,0x98,0x10
3.787386916666667,0,0xFF,0x02
3.787405125000000,0,0xFF,0x00
3.787429916666667,0,0x87,0x12
3.787447958333333,0,0xFF,0x00
3.787466166666666,0,0xFF,0x80
3.787486708333333,0,0x07,0x12
3.787504750000000,0,0x00,0x12
3.787523083333333,0,0x28,0x12
3.788517375000000,0,0x07,0x01
3.788535416666666,0,0x00,0x01
3.788553458333333,0,0x28,0x81
3.788574083333333,0,0x30,0x01
3.788592083333334,0,0x00,0x01
3.788610166666667,0,0x80,0x01
3.788630416666666,0,0xC3,0x01
3.788648416666667,0,0xFF,0x00
3.788666625000000,0,0xFF,0x00
3.788687500000000,0,0x07,0x01
3.788705541666667,0,0x00,0x01
3.788723583333333,0,0x28,0x81
3.790101041666667,0,0x30,0x92
3.790119083333333,0,0xFF,0x12
3.790137291666666,0,0xFF,0x10
3.792099333333333,0,0x98,0x10
3.792117375000000,0,0xFF,0x02
3.792135583333333,0,0xFF,0x10
3.794089916666667,0,0x98,0x10
3.794107958333333,0,0xFF,0x02
3.794126166666667,0,0xFF,0x10
3.796079500000000,0,0x90,0x12
3.796097541666667,0,0xFF,0x12
3.796115750000000,0,0xFF,0x00
3.798074875000000,0,0xB0,0x12
3.798092916666667,0,0xFF,0x12
3.798111083333333,0,0xFF,0x10
3.800074458333333,0,0xB0,0x12
3.800092500000000,0,0xFF,0x12
3.800110666666667,0,0xFF,0x10
3.802062166666667,0,0xB0,0x12
3.802080208333333,0,0xFF,0x13
3.802098416666666,0,0xFF,0x10
3.804061083333333,0,0x98,0x10
3.804079125000000,0,0xFF,0x02
3.804097333333333,0,0xFF,0x00
3.806047791666667,0,0xF0,0x13
3.806065791666667,0,0x7F,0x1A
3.806084000000000,0,0xFF,0x18
3.808035416666667,0,0xB0,0x12
3.808053416666667,0,0xFF,0x12
3.808071625000000,0,0xFF,0x10
3.810033916666667,0,0x90,0x12
3.810051958333333,0,0xFF,0x12
3.810070166666667,0,0xFF,0x00
3.812021416666667,0,0x98,0x10
3.812039458333333,0,0xFF,0x02
3.812057666666667,0,0xFF,0x10
3.814015708333333,0,0xF0,0x02
3.814033708333334,0,0x7F,0x12
3.814051916666667,0,0xFF,0x18
3.816007875000000,0,0x98,0x1A
3.816025916666667,0,0xFF,0x12
3.816044125000000,0,0xFF,0x00
3.818000041666667,0,0xB0,0x12
3.818018041666666,0,0xFF,0x12
3.818036250000000,0,0xFF,0x10
3.819988041666667,0,0x98,0x1A
3.820006083333333,0,0xFF,0x02
3.820024291666666,0,0xFF,0x10
3.820049083333333,0,0xC7,0x02
3.820067083333333,0,0xFF,0x00
3.820085291666667,0,0xFF,0x88
3.820105875000000,0,0x03,0x13
3.820123875000000,0,0x80,0x18
3.820141958333333,0,0x0A,0x12
3.820310958333333,0,0x03,0x00
3.820328958333334,0,0x80,0x01
3.820347041666666,0,0x0A,0x01
3.820367625000000,0,0x34,0x01
3.820385666666667,0,0x80,0x01
3.820403750000000,0,0xC0,0x01
3.820423958333333,0,0x07,0x81
3.820442000000000,0,0xFF,0x00
3.820460208333333,0,0xFF,0x0A
3.820481083333333,0,0x07,0x01
3.820499083333333,0,0x80,0x81
3.820517166666667,0,0x80,0x01
3.821981125000000,0,0xF0,0x13
3.821999125000000,0,0x7F,0x18
3.822017333333333,0,0xFF,0x16
3.823971833333333,0,0x98,0x18
3.823989875000000,0,0xFF,0x02
3.824008083333333,0,0xFF,0x10
3.825966541666667,0,0xF0,0x02
3.825984541666667,0,0x7F,0x12
3.826002750000000,0,0xFF,0x14
3.827956791666667,0,0xB0,0x12
3.827974791666667,0,0xFF,0x12
3.827993000000000,0,0xFF,0x14
3.829953666666666,0,0xB0,0x12
3.829971666666667,0,0x7F,0x12
3.829989875000000,0,0xFF,0x1E
3.831943875000000,0,0xB0,0x12
3.831961916666667,0,0xFF,0x13
3.831980125000000,0,0xFF,0x14
3.833938125000000,0,0x98,0x18
3.833956166666667,0,0xFF,0x02
3.833974375000000,0,0xFF,0x14
3.835938166666667,0,0xB0,0x12
3.835956166666667,0,0xFF,0x10
3.835974375000000,0,0xFF,0x14
3.837932291666667,0,0xB0,0x13
3.837950291666667,0,0xFF,0x18
3.837968500000000,0,0xFF,0x16
3.839920708333334,0,0xB0,0x13
3.839938708333333,0,0xFF,0x10
3.839956916666666,0,0xFF,0x14
3.841914458333333,0,0xB0,0x12
3.841932500000000,0,0xFF,0x13
3.841950708333334,0,0xFF,0x14
3.843906791666666,0,0xB0,0x12
3.843924833333333,0,0xFF,0x13
3.843943041666666,0,0xFF,0x14
3.845906875000000,0,0x90,0x12
3.845924916666667,0,0xFF,0x12
3.845943125000000,0,0xFF,0x14
3.847898375000000,0,0x98,0x10
3.847916416666667,0,0xFF,0x02
3.847934625000000,0,0xFF,0x10
3.849885416666667,0,0x98,0x10
3.849903458333333,0,0xFF,0x02
3.849921666666666,0,0xFF,0x14
3.851876541666666,0,0xB0,0x13
3.851894541666667,0,0x7F,0x18
3.851912750000000,0,0xFF,0x16
3.851937541666667,0,0x87,0x12
3.851955583333333,0,0xFF,0x00
3.851973791666667,0,0xFF,0x8A
3.851994333333333,0,0x87,0x12
3.852012375000000,0,0x00,0x12
3.852030458333333,0,0x33,0x12
3.852105083333333,0,0x07,0x01
3.852123125000000,0,0x00,0x01
3.852141208333333,0,0x32,0x01
3.852161791666667,0,0x1E,0x01
3.852179833333333,0,0xC0,0x01
3.852197875000000,0,0x00,0x81
3.852218125000000,0,0x87,0x01
3.852236166666667,0,0xFF,0x00
3.852254375000000,0,0xFF,0x33
3.852275250000000,0,0x03,0x00
3.852293250000000,0,0x00,0x01
3.852311333333333,0,0xF2,0x01
3.853863708333333,0,0xF0,0x12
3.853881708333333,0,0x7F,0x12
3.853899916666667,0,0xFF,0x04
3.855856375000000,0,0xB0,0x12
3.855874416666667,0,0xFF,0x12
3.855892583333334,0,0xFF,0x04
3.857845458333333,0,0xF0,0x13
3.857863458333334,0,0x7F,0x1A
3.857881666666667,0,0xFF,0x06
3.859840291666667,0,0xB0,0x13
3.859858291666667,0,0x7F,0x1A
3.859876500000000,0,0xFF,0x06
3.861830791666667,0,0xB0,0x12
3.861848833333333,0,0xFF,0x12
3.861867000000000,0,0xFF,0x04
3.863825916666667,0,0x98,0x10
3.863843958333333,0,0xFF,0x02
3.863862166666667,0,0xFF,0x00
3.865824916666666,0,0xB0,0x12
3.865842916666667,0,0xFF,0x12
3.865861125000000,0,0xFF,0x04
3.867817625000000,0,0x98,0x1A
3.867835666666667,0,0xFF,0x12
3.867853875000000,0,0xFF,0x00
3.869811166666667,0,0xF0,0x12
3.869829166666667,0,0x7F,0x12
3.869847375000000,0,0xFF,0x04
3.871811000000000,0,0x98,0x10
3.871829041666667,0,0xFF,0x02
3.871847250000000,0,0xFF,0x04
3.873797875000000,0,0xB0,0x12
3.873815916666667,0,0xFF,0x12
3.873834083333333,0,0xFF,0x04
3.875787250000000,0,0x98,0x10
3.875805291666667,0,0xFF,0x02
3.875823500000000,0,0xFF,0x04
3.877780416666667,0,0xF0,0x13
3.877798416666667,0,0x7F,0x1A
3.877816625000000,0,0xFF,0x06
3.879767666666667,0,0xB0,0x12
3.879785666666667,0,0xFF,0x12
3.879803875000000,0,0xFF,0x04
3.881762833333333,0,0xB0,0x12
3.881780833333333,0,0xFF,0x10
3.881799041666667,0,0xFF,0x04
3.883754458333333,0,0xF0,0x13
3.883772458333334,0,0x7F,0x18
3.883790666666667,0,0xFF,0x06
3.883815458333333,0,0x87,0x12
3.883833500000000,0,0xFF,0x00
3.883851708333333,0,0xFF,0xF2
3.883872250000000,0,0x07,0x12
3.883890291666667,0,0x00,0x02
3.883908583333334,0,0x14,0x12
3.884893375000000,0,0x03,0x00
3.884911375000000,0,0x00,0x01
3.884929458333333,0,0x14,0x01
3.884950041666666,0,0x14,0x01
3.884968083333333,0,0x80,0x01
3.884986166666667,0,0x80,0x00
3.885006375000000,0,0x07,0x81
3.885024416666667,0,0xFF,0x00
3.885042625000000,0,0xFF,0x14
3.885063500000000,0,0x03,0x01
3.885081500000000,0,0x80,0x81
3.885099583333333,0,0x94,0x01
3.886476250000000,0,0xF0,0x02
3.886494250000000,0,0x7F,0x12
3.886512458333333,0,0xFF,0x08
3.888475958333333,0,0xF0,0x13
3.888493958333333,0,0xFF,0x10
3.888512166666667,0,0xFF,0x08
3.890464500000000,0,0xF0,0x12
3.890482541666667,0,0xFF,0x12
3.890500708333333,0,0xFF,0x08
3.892453208333333,0,0x98,0x1A
3.892471250000000,0,0xFF,0x12
3.892489458333333,0,0xFF,0x08
3.894442625000000,0,0xB0,0x12
3.894460666666667,0,0xFF,0x12
3.894478875000000,0,0xFF,0x08
3.896432208333333,0,0xF0,0x02
3.896450208333333,0,0x7F,0x1A
3.896468416666667,0,0xFF,0x08
3.898423583333333,0,0xB0,0x12
3.898441625000000,0,0xFF,0x13
3.898459833333333,0,0xFF,0x08
3.900410916666667,0,0xB0,0x12
3.900428958333333,0,0xFF,0x12
3.900447166666666,0,0xFF,0x08
3.902397375000000,0,0xF0,0x02
3.902415375000000,0,0x7F,0x1A
3.902433583333333,0,0xFF,0x08
3.904388791666667,0,0xB0,0x12
3.904406833333333,0,0xFF,0x12
3.904425041666667,0,0xFF,0x08
3.906383500000000,0,0xF0,0x12
3.906401500000000,0,0x7F,0x1A
3.906419708333333,0,0xFF,0x08
3.908372083333334,0,0x90,0x12
3.908390125000000,0,0xFF,0x12
3.908408333333333,0,0xFF,0x08
3.910367041666666,0,0x98,0x18
3.910385083333333,0,0xFF,0x02
3.910403291666666,0,0xFF,0x08
3.912358041666667,0,0x98,0x1A
3.912376083333333,0,0xFF,0x12
3.912394291666667,0,0xFF,0x0C
3.914354916666666,0,0x98,0x12
3.914372958333333,0,0xFF,0x13
3.914391166666667,0,0xFF,0x08
3.916344958333333,0,0xF0,0x13
3.916362958333333,0,0x7F,0x1A
3.916381166666667,0,0xFF,0x08
3.916405958333333,0,0x87,0x12
3.916424000000000,0,0xFF,0x00
3.916442208333333,0,0xFF,0xC4
3.916462750000000,0,0x07,0x12
3.916480791666667,0,0x00,0x12
3.916498833333333,0,0x3C,0x12
3.916686791666667,0,0x03,0x01
3.916704791666667,0,0x80,0x81
3.916722875000000,0,0x1E,0x01
3.916743500000000,0,0x30,0x00
3.916761500000000,0,0x00,0x01
3.916779583333333,0,0x80,0x01
3.916799833333333,0,0xC3,0x01
3.916817833333333,0,0xFF,0x80
3.916836041666667,0,0xFF,0x1C
3.916856916666667,0,0x07,0x01
3.916874958333334,0,0x00,0x01
3.916893041666667,0,0xBC,0x01
3.918333208333333,0,0xB0,0x12
3.918351208333333,0,0xFF,0x12
3.918369416666667,0,0xFF,0x18
3.920320916666667,0,0x98,0x10
3.920338958333333,0,0xFF,0x02
3.920357166666667,0,0xFF,0x18
3.922310625000000,0,0xF0,0x02
3.922328625000000,0,0x7F,0x12
3.922346833333333,0,0xFF,0x18
3.924309916666667,0,0xF0,0x02
3.924327916666666,0,0x7F,0x12
3.924346125000000,0,0xFF,0x18
3.926309291666667,0,0xB0,0x12
3.926327333333334,0,0xFF,0x12
3.926345541666667,0,0xFF,0x18
3.928299375000000,0,0xF0,0x02
3.928317375000000,0,0x7F,0x12
3.928335583333333,0,0xFF,0x18
3.930297625000000,0,0x98,0x10
3.930315666666667,0,0xFF,0x02
3.930333875000000,0,0xFF,0x08
3.932289083333333,0,0xB0,0x12
3.932307125000000,0,0xFF,0x13
3.932325333333333,0,0xFF,0x18
3.934287416666667,0,0x98,0x12
3.934305458333333,0,0xFF,0x12
3.934323666666667,0,0xFF,0x18
3.936276083333333,0,0xF0,0x12
3.936294125000000,0,0xFF,0x13
3.936312333333333,0,0xFF,0x18
3.938275208333333,0,0xB0,0x12
3.938293208333334,0,0xFF,0x12
3.938311416666667,0,0xFF,0x18
3.940266333333333,0,0xB0,0x12
3.940284375000000,0,0xFF,0x10
3.940302583333333,0,0xFF,0x18
3.942256041666667,0,0xB0,0x12
3.942274083333333,0,0xFF,0x13
3.942292291666667,0,0xFF,0x18
3.944256500000000,0,0xF0,0x02
3.944274500000000,0,0x7F,0x12
3.944292708333333,0,0xFF,0x18
3.946246416666667,0,0x90,0x12
3.946264458333333,0,0xFF,0x12
3.946282666666667,0,0xFF,0x0C
3.948238791666667,0,0xF0,0x13
3.948256791666667,0,0x7F,0x1A
3.948275000000000,0,0xFF,0x18
3.948299833333333,0,0x87,0x12
3.948317833333333,0,0xFF,0x00
3.948336041666667,0,0xFF,0xBC
3.948356583333333,0,0x87,0x12
3.948374625000000,0,0x00,0x12
3.948392708333333,0,0x0E,0x02
3.948483625000000,0,0x07,0x01
3.948501666666667,0,0x00,0x00
3.948519708333333,0,0x1E,0x01
3.948540333333333,0,0x30,0x01
3.948558333333333,0,0x00,0x81
3.948576416666667,0,0x80,0x01
3.948596666666667,0,0xC7,0x01
3.948614708333333,0,0xFF,0x00
3.948632916666666,0,0xFF,0x1E
3.948653791666667,0,0x07,0x01
3.948671791666666,0,0x00,0x01
3.948689875000000,0,0xDE,0x01
3.950234208333333,0,0x30,0x92
3.950252250000000,0,0xFF,0x12
3.950270458333333,0,0xFF,0x1C
3.952227166666667,0,0xB0,0x12
3.952245166666667,0,0xFF,0x10
3.952263375000000,0,0xFF,0x1C
3.954222125000000,0,0x90,0x12
3.954240166666667,0,0xFF,0x13
3.954258375000000,0,0xFF,0x1C
3.956209791666667,0,0xF0,0x12
3.956227791666667,0,0x7F,0x1A
3.956246000000000,0,0xFF,0x1E
3.958197416666667,0,0xB0,0x12
3.958215458333334,0,0xFF,0x12
3.958233666666667,0,0xFF,0x0C
3.960189500000000,0,0xB0,0x12
3.960207500000000,0,0xFF,0x12
3.960225708333333,0,0xFF,0x1C
3.962179125000000,0,0xB0,0x12
3.962197166666667,0,0xFF,0x13
3.962215375000000,0,0xFF,0x1C
3.964169458333333,0,0x98,0x1A
3.964187500000000,0,0xFF,0x12
3.964205708333334,0,0xFF,0x0C
3.966161166666667,0,0x90,0x12
3.966179208333333,0,0xFF,0x13
3.966197416666667,0,0xFF,0x1C
3.968152291666667,0,0x98,0x1A
3.968170333333333,0,0xFF,0x12
3.968188541666667,0,0xFF,0x0C
3.970144041666666,0,0x98,0x1A
3.970162083333333,0,0xFF,0x12
3.970180291666667,0,0xFF,0x0C
3.972133125000000,0,0xB0,0x12
3.972151166666666,0,0xFF,0x12
3.972169375000000,0,0xFF,0x1C
3.974119875000000,0,0xB0,0x13
3.974137875000000,0,0xFF,0x10
3.974156083333333,0,0xFF,0x1C
3.976109125000000,0,0xB0,0x12
3.976127125000000,0,0xFF,0x10
3.976145333333333,0,0xFF,0x1C
3.978100166666667,0,0x98,0x10
3.978118208333334,0,0xFF,0x12
3.978136416666667,0,0xFF,0x1C
3.980094000000000,0,0xB0,0x13
3.980112000000000,0,0x7F,0x10
3.980130208333333,0,0xFF,0x1C
3.980155000000000,0,0x87,0x18
3.980173041666667,0,0xFF,0x00
3.980191250000000,0,0xFF,0x8E
3.980211791666667,0,0x07,0x12
3.980229833333333,0,0x00,0x12
3.980247875000000,0,0x66,0x10
3.980277375000000,0,0x07,0x01
3.980295416666667,0,0x00,0x01
3.980313458333333,0,0x66,0x01
3.980334083333333,0,0x30,0x00
3.980352083333333,0,0x00,0x01
3.980370166666667,0,0xC0,0x01
3.980390416666667,0,0x87,0x01
3.980408416666667,0,0xFF,0x00
3.980426625000000,0,0xFF,0x46
3.980447500000000,0,0x07,0x01
3.980465541666667,0,0x00,0x01
3.980483583333333,0,0x66,0x01
3.982090250000000,0,0xF0,0x02
3.982108250000000,0,0x7F,0x12
3.982126458333333,0,0xFF,0x04
3.984081166666666,0,0x98,0x1A
3.984099208333333,0,0xFF,0x12
3.984117416666667,0,0xFF,0x0C
3.986068791666667,0,0x98,0x18
3.986086833333333,0,0xFF,0x02
3.986105041666667,0,0xFF,0x0C
3.988068083333333,0,0x98,0x18
3.988086125000000,0,0xFF,0x02
3.988104333333333,0,0xFF,0x0C
3.990060083333333,0,0xF0,0x02
3.990078083333333,0,0x7F,0x1A
3.990096291666667,0,0xFF,0x0E
3.992048083333333,0,0xF0,0x12
3.992066083333333,0,0x7F,0x12
3.992084291666667,0,0xFF,0x06
3.994035708333334,0,0xB0,0x12
3.994053708333333,0,0xFF,0x12
3.994071916666666,0,0xFF,0x0C
3.996022958333334,0,0xB0,0x12
3.996040958333333,0,0xFF,0x10
3.996059166666666,0,0xFF,0x0C
3.998010875000000,0,0x90,0x12
3.998028916666667,0,0xFF,0x13
3.998047125000000,0,0xFF,0x0C
3.999997916666667,0,0xB0,0x12
4.000015916666666,0,0xFF,0x12
4.000034125000000,0,0xFF,0x0C
4.001986291666666,0,0xF0,0x12
4.002004291666666,0,0x7F,0x12
4.002022500000000,0,0xFF,0x0C
4.003975833333334,0,0xF0,0x12
4.003993833333333,0,0x7F,0x12
4.004012041666667,0,0xFF,0x0C
4.005970708333333,0,0xF0,0x12
4.005988708333334,0,0x7F,0x12
4.006006916666666,0,0xFF,0x04
4.007962625000000,0,0xB0,0x12
4.007980666666667,0,0xFF,0x12
4.007998875000000,0,0xFF,0x0C
4.009958791666667,0,0xB0,0x12
4.009976791666666,0,0xFF,0x12
4.009995000000000,0,0xFF,0x0C
4.011950958333333,0,0x98,0x10
4.011969000000000,0,0xFF,0x02
4.011987208333333,0,0xFF,0x0C
4.012012000000000,0,0xC7,0x12
4.012030041666667,0,0xFF,0x00
4.012048208333334,0,0xFF,0x46
4.012070916666667,0,0x03,0x13
4.012088916666666,0,0x80,0x18
4.012107000000000,0,0x00,0x12
4.013063625000000,0,0x03,0x01
4.013081625000000,0,0x00,0x01
4.013099708333334,0,0x00,0x01
4.013120291666667,0,0x1E,0x01
4.013138333333333,0,0xC0,0x01
4.013156375000000,0,0x00,0x81
4.013176625000000,0,0x87,0x01
4.013194666666666,0,0xFF,0x00
4.013212875000000,0,0xFF,0x00
4.013233750000000,0,0x07,0x01
4.013251750000000,0,0x00,0x01
4.013269833333333,0,0xC0,0x01
4.014662875000000,0,0xB0,0x12
4.014680875000000,0,0xFF,0x10
4.014699083333333,0,0xFF,0x00
4.016656958333333,0,0xB0,0x12
4.016675000000000,0,0xFF,0x12
4.016693208333334,0,0xFF,0x00
4.018651625000000,0,0x90,0x12
4.018669666666667,0,0xFF,0x13
4.018687875000000,0,0xFF,0x00
4.020639833333333,0,0x98,0x18
4.020657875000000,0,0xFF,0x02
4.020676083333333,0,0xFF,0x00
4.022635333333334,0,0xB0,0x12
4.022653375000000,0,0xFF,0x12
4.022671541666667,0,0xFF,0x00
4.024633291666667,0,0x98,0x10
4.024651333333333,0,0xFF,0x02
4.024669541666666,0,0xFF,0x00
4.026631958333334,0,0x98,0x10
4.026650000000000,0,0xFF,0x02
4.026668208333334,0,0xFF,0x00
4.028619458333333,0,0xB0,0x12
4.028637458333334,0,0xFF,0x12
4.028655666666666,0,0xFF,0x00
4.030606875000000,0,0x98,0x12
4.030624916666667,0,0xFF,0x13
4.030643125000000,0,0xFF,0x00
4.032600041666667,0,0xF0,0x02
4.032618041666667,0,0x7F,0x12
4.032636250000000,0,0xFF,0x00
4.034598875000000,0,0x98,0x10
4.034616916666667,0,0xFF,0x02
4.034635125000000,0,0xFF,0x00
4.036586166666667,0,0xB0,0x12
4.036604166666667,0,0xFF,0x10
4.036622375000000,0,0xFF,0x00
4.038583000000000,0,0x90,0x12
4.038601041666666,0,0xFF,0x12
4.038619250000000,0,0xFF,0x00
4.040582625000000,0,0x98,0x1A
4.040600666666666,0,0xFF,0x02
4.040618875000000,0,0xFF,0x00
4.042574583333334,0,0x90,0x12
4.042592625000000,0,0xFF,0x12
4.042610833333334,0,0xFF,0x00
4.044564875000000,0,0xB0,0x12
4.044582916666666,0,0xFF,0x12
4.044601083333333,0,0xFF,0x00
4.044625916666667,0,0xC3,0x12
4.044643916666667,0,0xFF,0x00
4.044662125000000,0,0xFF,0x80
4.044682708333333,0,0x03,0x13
4.044700708333333,0,0x00,0x10
4.044718791666667,0,0x38,0x02
4.044857041666667,0,0x03,0x00
4.044875041666667,0,0x00,0x01
4.044893125000000,0,0x28,0x01
4.044913708333334,0,0x14,0x01
4.044931750000000,0,0xC0,0x01
4.044949833333333,0,0x80,0x00
4.044970041666667,0,0x07,0x01
4.044988083333333,0,0xFF,0x00
4.045006291666667,0,0xFF,0x38
4.045027166666666,0,0x03,0x01
4.045045166666666,0,0x80,0x01
4.045063250000000,0,0xA8,0x01
4.046555416666667,0,0x98,0x10
4.046573458333333,0,0xFF,0x02
4.046591666666667,0,0xFF,0x00
4.048544000000000,0,0xF0,0x12
4.048562000000000,0,0x7F,0x12
4.048580208333333,0,0xFF,0x18
4.050531708333334,0,0x98,0x10
4.050549750000000,0,0xFF,0x12
4.050567958333334,0,0xFF,0x10
4.052518708333333,0,0x98,0x1A
4.052536750000000,0,0xFF,0x02
4.052554958333333,0,0xFF,0x10
4.054512666666667,0,0xB0,0x12
4.054530708333333,0,0xFF,0x12
4.054548916666667,0,0xFF,0x10
4.056503750000000,0,0xB0,0x12
4.056521791666666,0,0xFF,0x12
4.056539958333333,0,0xFF,0x10
4.058495291666667,0,0xF0,0x02
4.058513291666666,0,0x7F,0x12
4.058531500000000,0,0xFF,0x10
4.060481875000000,0,0xB0,0x12
4.060499916666667,0,0xFF,0x12
4.060518125000000,0,0xFF,0x10
4.062468708333333,0,0xB0,0x12
4.062486750000000,0,0xFF,0x12
4.062504916666667,0,0xFF,0x10
4.064457708333333,0,0xB0,0x13
4.064475708333333,0,0xFF,0x10
4.064493916666667,0,0xFF,0x10
4.066446000000000,0,0xB0,0x12
4.066464041666666,0,0xFF,0x13
4.066482250000000,0,0xFF,0x10
4.068435416666667,0,0xB0,0x12
4.068453416666666,0,0xFF,0x10
4.068471625000000,0,0xFF,0x10
4.070429708333333,0,0xB0,0x12
4.070447750000000,0,0xFF,0x12
4.070465958333333,0,0xFF,0x10
4.072429000000000,0,0xB0,0x13
4.072447000000000,0,0x7F,0x18
4.072465208333333,0,0xFF,0x18
4.074418666666666,0,0xB0,0x12
4.074436708333334,0,0xFF,0x13
4.074454916666666,0,0xFF,0x10
4.076414416666666,0,0x98,0x10
4.076432458333334,0,0xFF,0x02
4.076450666666666,0,0xFF,0x10
4.076475458333333,0,0x87,0x12
4.076493500000000,0,0xFF,0x00
4.076511666666667,0,0xFF,0x28
4.076532250000000,0,0x03,0x13
4.076550250000000,0,0x80,0x1A
4.076568333333333,0,0x0A,0x12
4.076651500000000,0,0x07,0x01
4.076669500000000,0,0x00,0x01
4.076687583333333,0,0x0E,0x01
4.076708166666666,0,0x1E,0x01
4.076726208333334,0,0xC0,0x01
4.076744250000000,0,0x00,0x81
4.076764500000000,0,0x87,0x01
4.076782541666667,0,0xFF,0x00
4.076800750000000,0,0xFF,0x0A
4.076821625000000,0,0x07,0x01
4.076839625000000,0,0x00,0x01
4.076857708333334,0,0xCE,0x01
4.078406000000000,0,0x30,0x92
4.078424041666667,0,0xFF,0x12
4.078442250000000,0,0xFF,0x14
4.080395708333334,0,0xB0,0x12
4.080413708333333,0,0xFF,0x12
4.080431916666667,0,0xFF,0x14
4.082391083333333,0,0xB0,0x12
4.082409125000000,0,0xFF,0x12
4.082427333333333,0,0xFF,0x14
4.084384458333333,0,0x98,0x12
4.084402500000000,0,0xFF,0x12
4.084420708333333,0,0xFF,0x14
4.086377250000000,0,0x98,0x1A
4.086395291666666,0,0xFF,0x12
4.086413500000000,0,0xFF,0x14
4.088372791666667,0,0xF0,0x12
4.088390791666667,0,0x7F,0x12
4.088409000000000,0,0xFF,0x14
4.090368000000000,0,0xB0,0x12
4.090386041666667,0,0xFF,0x13
4.090404250000000,0,0xFF,0x14
4.092364541666667,0,0x98,0x1A
4.092382583333333,0,0xFF,0x02
4.092400791666667,0,0xFF,0x00
4.094354666666667,0,0xF0,0x12
4.094372708333333,0,0xFF,0x12
4.094390875000000,0,0xFF,0x14
4.096346250000000,0,0xB0,0x12
4.096364291666666,0,0xFF,0x12
4.096382500000000,0,0xFF,0x14
4.098343250000000,0,0xB0,0x12
4.098361291666667,0,0xFF,0x13
4.098379500000000,0,0xFF,0x14
4.100339750000000,0,0xB0,0x12
4.100357791666666,0,0xFF,0x12
4.100376000000000,0,0xFF,0x14
4.102334250000000,0,0xB0,0x12
4.102352291666667,0,0xFF,0x12
4.102370500000000,0,0xFF,0x10
4.104323291666667,0,0xB0,0x12
4.104341291666667,0,0xFF,0x12
4.104359500000000,0,0xFF,0x14
4.106318583333334,0,0x90,0x12
4.106336625000000,0,0xFF,0x12
4.106354833333334,0,0xFF,0x14
4.108308541666666,0,0x98,0x1A
4.108326583333334,0,0xFF,0x12
4.108344791666667,0,0xFF,0x04
4.108369583333333,0,0x87,0x12
4.108387625000000,0,0xFF,0x00
4.108405833333333,0,0xFF,0x8B
4.108426375000000,0,0x07,0x12
4.108446500000000,0,0x00,0x12
4.108464541666667,0,0x18,0x10
4.109441583333333,0,0x07,0x01
4.109459625000000,0,0x00,0x01
4.109477708333333,0,0x33,0x00
4.109498291666666,0,0x36,0x01
4.109516333333334,0,0xC0,0x01
4.109534375000000,0,0x00,0x81
4.109554625000000,0,0x07,0x01
4.109572666666667,0,0xFF,0x00
4.109590875000000,0,0xFF,0x32
4.109611750000000,0,0x07,0x01
4.109629791666666,0,0x00,0x01
4.109647833333334,0,0x18,0x01
4.111039791666666,0,0x18,0x1A
4.111057833333334,0,0xFF,0x12
4.111076041666666,0,0xFF,0x04
4.113028791666666,0,0x98,0x10
4.113046833333334,0,0xFF,0x02
4.113065041666666,0,0xFF,0x00
4.115027291666666,0,0xF0,0x02
4.115045291666667,0,0x7F,0x12
4.115063500000000,0,0xFF,0x04
4.117014041666667,0,0xF0,0x02
4.117032041666667,0,0x7F,0x1A
4.117050250000000,0,0xFF,0x04
4.119002958333334,0,0xF0,0x02
4.119020958333333,0,0x7F,0x12
4.119039166666667,0,0xFF,0x04
4.120990333333333,0,0xB0,0x12
4.121008333333333,0,0xFF,0x12
4.121026541666667,0,0xFF,0x04
4.122978000000000,0,0x98,0x10
4.122996041666666,0,0xFF,0x12
4.123014250000000,0,0xFF,0x04
4.124967916666667,0,0xF0,0x02
4.124985916666667,0,0x7F,0x12
4.125004125000000,0,0xFF,0x04
4.126959000000000,0,0xF0,0x02
4.126977000000000,0,0x7F,0x12
4.126995208333334,0,0xFF,0x04
4.128945625000000,0,0x98,0x10
4.128963666666666,0,0xFF,0x02
4.128981875000000,0,0xFF,0x00
4.130937000000000,0,0xB0,0x12
4.130955000000000,0,0xFF,0x12
4.130973208333334,0,0xFF,0x04
4.132924250000000,0,0x98,0x1A
4.132942291666667,0,0xFF,0x12
4.132960500000000,0,0xFF,0x00
4.134921125000000,0,0xB0,0x12
4.134939125000000,0,0xFF,0x10
4.134957333333333,0,0xFF,0x04
4.136920458333333,0,0x98,0x10
4.136938500000000,0,0xFF,0x02
4.136956708333333,0,0xFF,0x04
4.138917666666667,0,0xB0,0x12
4.138935708333333,0,0xFF,0x12
4.138953916666667,0,0xFF,0x00
4.140907750000000,0,0xB0,0x12
4.140925791666667,0,0xFF,0x12
4.140943958333334,0,0xFF,0x04
4.140968791666666,0,0x83,0x12
4.140986791666666,0,0xFF,0x00
4.141005000000000,0,0xFF,0xB2
4.141025541666667,0,0x07,0x12
4.141043583333333,0,0x00,0x13
4.141061625000000,0,0x1E,0x18
4.141235625000000,0,0x07,0x01
4.141253666666667,0,0x00,0x01
4.141271708333333,0,0x1E,0x01
4.141292333333333,0,0x34,0x01
4.141310333333333,0,0x80,0x01
4.141328416666667,0,0x80,0x00
4.141348625000000,0,0x07,0x81
4.141366666666666,0,0xFF,0x00
4.141384875000000,0,0xFF,0x04
4.141405750000000,0,0x03,0x00
4.141423750000000,0,0x00,0x01
4.141441833333333,0,0xD4,0x01
4.142901500000000,0,0xB0,0x13
4.142919500000000,0,0xFF,0x10
4.142937708333333,0,0xFF,0x08
4.144894416666666,0,0xF0,0x12
4.144912416666667,0,0x7F,0x12
4.144930625000000,0,0xFF,0x08
4.146891666666667,0,0xF0,0x12
4.146909666666667,0,0x7F,0x12
4.146927875000000,0,0xFF,0x08
4.148883166666667,0,0xB0,0x12
4.148901208333333,0,0xFF,0x13
4.148919416666667,0,0xFF,0x08
4.150875041666667,0,0x98,0x10
4.150893083333333,0,0xFF,0x02
4.150911291666667,0,0xFF,0x08
4.152862208333334,0,0xB0,0x12
4.152880208333333,0,0xFF,0x10
4.152898416666667,0,0xFF,0x08
4.154859791666667,0,0xB0,0x12
4.154877833333333,0,0xFF,0x12
4.154896000000000,0,0xFF,0x08
4.156849625000000,0,0xF0,0x02
4.156867625000000,0,0x7F,0x12
4.156885833333333,0,0xFF,0x08
4.158847416666666,0,0xB0,0x12
4.158865458333334,0,0xFF,0x13
4.158883666666667,0,0xFF,0x08
4.160845791666667,0,0xF0,0x02
4.160863791666666,0,0x7F,0x12
4.160882000000000,0,0xFF,0x08
4.162844666666667,0,0x98,0x10
4.162862708333333,0,0xFF,0x02
4.162880916666666,0,0xFF,0x08
4.164831958333333,0,0xB0,0x12
4.164850000000000,0,0xFF,0x13
4.164868208333333,0,0xFF,0x08
4.166820875000000,0,0xB0,0x12
4.166838916666666,0,0xFF,0x12
4.166857125000000,0,0xFF,0x08
4.168813416666667,0,0xB0,0x12
4.168831458333333,0,0xFF,0x12
4.168849666666667,0,0xFF,0x08
4.170812208333333,0,0xB0,0x12
4.170830250000000,0,0xFF,0x12
4.170848416666667,0,0xFF,0x08
4.172805708333334,0,0xB0,0x12
4.172823708333333,0,0xFF,0x12
4.172841916666667,0,0xFF,0x08
4.172866708333333,0,0x87,0x10
4.172884750000000,0,0xFF,0x00
4.172902958333333,0,0xFF,0x90
4.172923500000000,0,0x07,0x12
4.172941541666667,0,0x00,0x12
4.172959583333333,0,0x3C,0x12
4.173029250000000,0,0x03,0x01
4.173047250000000,0,0x80,0x01
4.173065333333334,0,0x3C,0x01
4.173085916666667,0,0x1E,0x01
4.173103958333333,0,0xC0,0x01
4.173122000000000,0,0x00,0x81
4.173142250000000,0,0x87,0x01
4.173160291666667,0,0xFF,0x00
4.173178458333333,0,0xFF,0x3C
4.173199333333334,0,0x87,0x01
4.173217375000000,0,0x00,0x01
4.173235458333333,0,0xBC,0x01
4.174802625000000,0,0xF0,0x13
4.174820625000000,0,0x7F,0x18
4.174838833333333,0,0xFF,0x18
4.176792583333333,0,0xF0,0x02
4.176810583333333,0,0x7F,0x12
4.176828791666667,0,0xFF,0x18
4.178785625000000,0,0xF0,0x02
4.178803625000000,0,0x7F,0x12
4.178821833333333,0,0xFF,0x18
4.180777083333333,0,0xB0,0x12
4.180795125000000,0,0xFF,0x12
4.180813333333333,0,0xFF,0x18
4.182770208333333,0,0x98,0x1A
4.182788250000000,0,0xFF,0x02
4.182806458333333,0,0xFF,0x1C
4.184759541666667,0,0xB0,0x12
4.184777583333333,0,0xFF,0x13
4.184795791666667,0,0xFF,0x18
4.186756625000000,0,0x98,0x1A
4.186774666666667,0,0xFF,0x12
4.186792875000000,0,0xFF,0x0C
4.188746458333333,0,0xB0,0x12
4.188764500000000,0,0xFF,0x12
4.188782708333333,0,0xFF,0x18
4.190734541666667,0,0xB0,0x13
4.190752541666667,0,0x7F,0x18
4.190770750000000,0,0xFF,0x18
4.192725500000000,0,0xB0,0x12
4.192743541666666,0,0xFF,0x13
4.192761750000000,0,0xFF,0x18
4.194718041666667,0,0x90,0x12
4.194736083333333,0,0xFF,0x13
4.194754291666666,0,0xFF,0x18
4.196705333333333,0,0xF0,0x13
4.196723333333333,0,0x7F,0x1A
4.196741541666666,0,0xFF,0x18
4.198693083333334,0,0xF0,0x02
4.198711083333333,0,0x7F,0x1A
4.198729291666667,0,0xFF,0x18
4.200682541666667,0,0xB0,0x12
4.200700583333333,0,0xFF,0x12
4.200718791666667,0,0xFF,0x18
4.202669625000000,0,0xB0,0x13
4.202687625000000,0,0x7F,0x18
4.202705833333333,0,0xFF,0x18
4.204664208333333,0,0xF0,0x12
4.204682208333334,0,0x7F,0x1A
4.204700416666666,0,0xFF,0x18
4.204725250000000,0,0x87,0x12
4.204743250000000,0,0xFF,0x00
4.204761458333333,0,0xFF,0xBC
4.204782000000000,0,0x87,0x12
4.204800041666667,0,0x00,0x12
4.204818125000000,0,0x1F,0x13
4.205816916666667,0,0x07,0x01
4.205834958333333,0,0x00,0x01
4.205853041666667,0,0x1F,0x01
4.205873625000000,0,0x34,0x01
4.205891666666667,0,0x80,0x00
4.205909708333333,0,0x00,0x01
4.205929958333333,0,0x87,0x01
4.205948000000000,0,0xFF,0x00
4.205966208333333,0,0xFF,0x1F
4.205987083333333,0,0x07,0x01
4.206005083333333,0,0x00,0x01
4.206023166666666,0,0xCE,0x01
4.207403833333333,0,0xF0,0x12
4.207421833333333,0,0x7F,0x12
4.207440041666667,0,0xFF,0x1C
4.209404125000000,0,0xB0,0x12
4.209422166666666,0,0xFF,0x12
4.209440333333333,0,0xFF,0x1C
4.211391791666666,0,0xF0,0x02
4.211409791666667,0,0x7F,0x12
4.211428000000000,0,0xFF,0x1C
4.213384666666666,0,0x98,0x1A
4.213402708333334,0,0xFF,0x12
4.213420916666666,0,0xFF,0x0C
4.215378041666667,0,0xB0,0x12
4.215396083333333,0,0xFF,0x12
4.215414291666667,0,0xFF,0x1C
4.217365833333333,0,0xF0,0x02
4.217383833333334,0,0x7F,0x12
4.217402041666666,0,0xFF,0x1C
4.219360000000000,0,0xB0,0x12
4.219378041666666,0,0xFF,0x12
4.219396250000000,0,0xFF,0x1C
4.221348541666667,0,0xF0,0x12
4.221366541666667,0,0x7F,0x12
4.221384750000000,0,0xFF,0x1C
4.223340625000000,0,0xF0,0x02
4.223358625000000,0,0x7F,0x12
4.223376833333333,0,0xFF,0x1E
4.225330041666667,0,0xB0,0x12
4.225348083333333,0,0xFF,0x12
4.225366250000000,0,0xFF,0x1C
4.227325250000000,0,0xB0,0x13
4.227343250000000,0,0x7F,0x18
4.227361458333333,0,0xFF,0x1E
4.229324375000000,0,0x98,0x10
4.229342416666666,0,0xFF,0x02
4.229360625000000,0,0xFF,0x1C
4.231310916666667,0,0xF0,0x02
4.231328916666667,0,0x7F,0x12
4.231347125000000,0,0xFF,0x1C
4.233304500000000,0,0xF0,0x13
4.233322500000000,0,0x7F,0x1A
4.233340708333333,0,0xFF,0x1E
4.235302041666666,0,0xB0,0x13
4.235320041666666,0,0xFF,0x10
4.235338250000000,0,0xFF,0x1E
4.237299541666666,0,0x98,0x10
4.237317583333334,0,0xFF,0x02
4.237335791666666,0,0xFF,0x0C
4.237360583333333,0,0x87,0x12
4.237378625000000,0,0xFF,0x00
4.237396833333333,0,0xFF,0x9F
4.237417375000000,0,0x07,0x12
4.237435416666667,0,0x00,0x12
4.237453458333333,0,0x46,0x12
4.237612500000000,0,0x07,0x01
4.237630541666666,0,0x00,0x01
4.237648625000000,0,0x43,0x01
4.237669208333333,0,0x36,0x01
4.237687250000000,0,0xC0,0x00
4.237705291666667,0,0x00,0x01
4.237725541666666,0,0x87,0x01
4.237743583333334,0,0xFF,0x00
4.237761791666666,0,0xFF,0x42
4.237782666666667,0,0x03,0x00
4.237800666666667,0,0x80,0x01
4.237818750000000,0,0xC6,0x01
4.239288541666666,0,0x18,0x1A
4.239306583333334,0,0xFF,0x12
4.239324791666666,0,0xFF,0x0C
4.241278166666667,0,0xB0,0x12
4.241296208333333,0,0xFF,0x13
4.241314416666667,0,0xFF,0x0C
4.243268000000000,0,0xF0,0x02
4.243286000000000,0,0x7F,0x12
4.243304208333333,0,0xFF,0x0C
4.245259333333333,0,0xB0,0x12
4.245277375000000,0,0xFF,0x12
4.245295583333333,0,0xFF,0x0C
4.247249000000000,0,0xF0,0x12
4.247267000000000,0,0x7F,0x1A
4.247285208333333,0,0xFF,0x06
4.249238500000000,0,0xB0,0x12
4.249256541666667,0,0xFF,0x12
4.249274708333333,0,0xFF,0x0C
4.251233583333334,0,0xF0,0x12
4.251251625000000,0,0xFF,0x12
4.251269791666667,0,0xFF,0x0C
4.253222833333333,0,0xB0,0x12
4.253240875000000,0,0xFF,0x13
4.253259083333333,0,0xFF,0x0C
4.255213000000000,0,0xB0,0x12
4.255231041666667,0,0xFF,0x12
4.255249208333334,0,0xFF,0x0C
4.257204333333333,0,0xB0,0x13
4.257222333333333,0,0xFF,0x10
4.257240541666667,0,0xFF,0x0C
4.259197458333333,0,0xB0,0x12
4.259215500000000,0,0xFF,0x12
4.259233708333333,0,0xFF,0x0C
4.261187791666667,0,0xB0,0x12
4.261205833333333,0,0xFF,0x12
4.261224041666667,0,0xFF,0x0C
4.263177708333333,0,0xF0,0x12
4.263195708333333,0,0x7F,0x12
4.263213916666666,0,0xFF,0x04
4.265171708333333,0,0xF0,0x02
4.265189708333334,0,0x7F,0x12
4.265207916666666,0,0xFF,0x0C
4.267165250000000,0,0xB0,0x12
4.267183291666667,0,0xFF,0x12
4.267201500000000,0,0xFF,0x0C
4.269164875000000,0,0xF0,0x02
4.269182875000000,0,0x7F,0x12
4.269201083333333,0,0xFF,0x0C
4.269225916666667,0,0x83,0x13
4.269243916666666,0,0xFF,0x00
4.269262125000000,0,0xFF,0xC6
4.269282708333333,0,0x03,0x12
4.269300708333334,0,0x00,0x10
4.269318791666667,0,0x00,0x02
4.269408583333333,0,0x03,0x01
4.269426583333333,0,0x80,0x81
4.269444666666667,0,0x00,0x01
4.269465291666667,0,0x30,0x00
4.269483291666667,0,0x00,0x01
4.269501375000000,0,0x80,0x01
4.269521625000000,0,0xC3,0x00
4.269539625000000,0,0xFF,0x00
4.269557833333334,0,0xFF,0x00
4.269578708333333,0,0x07,0x01
4.269596750000000,0,0x00,0x01
4.269614791666666,0,0x00,0x81
4.271163833333333,0,0xB0,0x12
4.271181833333333,0,0xFF,0x10
4.271200041666667,0,0xFF,0x00
4.273150750000000,0,0xB0,0x12
4.273168750000000,0,0xFF,0x12
4.273186958333334,0,0xFF,0x00
4.275137791666666,0,0xB0,0x12
4.275155791666666,0,0xFF,0x12
4.275174000000000,0,0xFF,0x00
4.277129833333333,0,0x98,0x10
4.277147875000000,0,0xFF,0x02
4.277166083333333,0,0xFF,0x00
4.279116791666667,0,0x90,0x12
4.279134833333333,0,0xFF,0x12
4.279153041666667,0,0xFF,0x00
4.281108375000000,0,0xB0,0x12
4.281126375000000,0,0xFF,0x12
4.281144583333333,0,0xFF,0x00
4.283094958333334,0,0xF0,0x02
4.283112958333334,0,0x7F,0x12
4.283131166666666,0,0xFF,0x00
4.285082875000000,0,0xB0,0x12
4.285100916666667,0,0xFF,0x12
4.285119125000000,0,0xFF,0x00
4.287073333333334,0,0xB0,0x12
4.287091333333334,0,0xFF,0x12
4.287109541666666,0,0xFF,0x00
4.289070750000000,0,0xB0,0x12
4.289088791666667,0,0xFF,0x12
4.289107000000000,0,0xFF,0x00
4.291069833333333,0,0xF0,0x02
4.291087833333333,0,0x7F,0x12
4.291106041666667,0,0xFF,0x00
4.293058750000000,0,0xB0,0x12
4.293076791666667,0,0xFF,0x12
4.293095000000000,0,0xFF,0x00
4.295052291666667,0,0xB0,0x13
4.295070291666667,0,0x7F,0x18
4.295088500000000,0,0xFF,0x00
4.297044458333334,0,0xF0,0x02
4.297062458333333,0,0x7F,0x12
4.297080666666667,0,0xFF,0x00
4.299043500000000,0,0xF0,0x02
4.299061500000000,0,0x7F,0x12
4.299079708333333,0,0xFF,0x00
4.301039166666667,0,0xF0,0x13
4.301057166666666,0,0x7F,0x18
4.301075375000000,0,0xFF,0x00
4.301100166666667,0,0x87,0x12
4.301118208333333,0,0xFF,0x00
4.301136416666667,0,0xFF,0xC0
4.301156958333333,0,0x07,0x12
4.301175000000000,0,0x00,0x13
4.301193041666667,0,0x08,0x12
4.302196375000000,0,0x07,0x01
4.302214375000000,0,0x80,0x81
4.302232458333333,0,0x00,0x01
4.302253041666667,0,0x34,0x81
4.302271083333333,0,0x80,0x01
4.302289166666666,0,0xC0,0x00
4.302309375000000,0,0x07,0x81
4.302327416666667,0,0xFF,0x00
4.302345625000000,0,0xFF,0x38
4.302366500000000,0,0x03,0x01
4.302384500000000,0,0x80,0x01
4.302402583333333,0,0xA8,0x01
4.303778958333333,0,0xF0,0x13
4.303796958333334,0,0x7F,0x18
4.303815166666666,0,0xFF,0x10
4.305778583333334,0,0xB0,0x12
4.305796625000000,0,0xFF,0x13
4.305814833333334,0,0xFF,0x10
4.307770958333333,0,0xB0,0x12
4.307789000000000,0,0xFF,0x12
4.307807166666667,0,0xFF,0x10
4.309763750000000,0,0xF0,0x02
4.309781750000000,0,0x7F,0x12
4.309799958333334,0,0xFF,0x18
4.311759916666666,0,0x98,0x1A
4.311777958333334,0,0xFF,0x12
4.311796166666666,0,0xFF,0x00
4.313747250000000,0,0xB0,0x12
4.313765291666667,0,0xFF,0x12
4.313783458333333,0,0xFF,0x10
4.315740000000000,0,0x98,0x18
4.315758041666666,0,0xFF,0x02
4.315776250000000,0,0xFF,0x10
4.317734333333333,0,0x98,0x1A
4.317752375000000,0,0xFF,0x12
4.317770583333333,0,0xFF,0x00
4.319722666666666,0,0xB0,0x12
4.319740708333334,0,0xFF,0x13
4.319758916666666,0,0xFF,0x10
4.321714291666667,0,0xB0,0x12
4.321732333333333,0,0xFF,0x12
4.321750500000000,0,0xFF,0x10
4.323703125000000,0,0xB0,0x12
4.323721166666667,0,0xFF,0x13
4.323739375000000,0,0xFF,0x10
4.325692291666667,0,0x98,0x10
4.325710333333333,0,0xFF,0x02
4.325728541666667,0,0xFF,0x00
4.327683916666667,0,0xB0,0x12
4.327701958333333,0,0xFF,0x12
4.327720166666666,0,0xFF,0x10
4.329682666666667,0,0xB0,0x12
4.329700708333333,0,0xFF,0x12
4.329718916666667,0,0xFF,0x10
4.331678708333333,0,0x98,0x10
4.331696750000000,0,0xFF,0x13
4.331714958333333,0,0xFF,0x10
4.333671500000000,0,0xB0,0x12
4.333689541666667,0,0xFF,0x12
4.333707750000000,0,0xFF,0x10
4.333732541666667,0,0x87,0x10
4.333750583333333,0,0xFF,0x00
4.333768791666667,0,0xFF,0xA8
4.333789333333334,0,0x07,0x12
4.333807375000000,0,0x00,0x12
4.333825416666667,0,0x00,0x10
4.333990291666667,0,0x07,0x01
4.334008333333333,0,0x00,0x01
4.334026375000000,0,0x0B,0x81
4.334047000000000,0,0x30,0x01
4.334065000000000,0,0x00,0x81
4.334083083333334,0,0x80,0x01
4.334103333333333,0,0xC3,0x01
4.334121333333333,0,0xFF,0x00
4.334139541666667,0,0xFF,0x08
4.334160416666666,0,0x07,0x01
4.334178458333334,0,0x00,0x00
4.334196500000000,0,0x02,0x01
4.335669333333334,0,0xF0,0x12
4.335687375000000,0,0xFF,0x12
4.335705541666667,0,0xFF,0x14
4.337661875000000,0,0x98,0x10
4.337679916666667,0,0xFF,0x02
4.337698125000000,0,0xFF,0x14
4.339653666666667,0,0xF0,0x12
4.339671666666667,0,0x7F,0x12
4.339689875000000,0,0xFF,0x1C
4.341641916666667,0,0xB0,0x12
4.341659958333334,0,0xFF,0x12
4.341678166666667,0,0xFF,0x14
4.343631458333333,0,0xB0,0x12
4.343649458333333,0,0xFF,0x12
4.343667666666667,0,0xFF,0x14
4.345620750000000,0,0x98,0x1A
4.345638791666667,0,0xFF,0x12
4.345657000000000,0,0xFF,0x00
4.347611375000000,0,0xF0,0x12
4.347629416666667,0,0xFF,0x12
4.347647583333333,0,0xFF,0x14
4.349600000000000,0,0xB0,0x12
4.349618041666667,0,0xFF,0x12
4.349636208333333,0,0xFF,0x14
4.351588750000000,0,0x98,0x10
4.351606791666667,0,0xFF,0x02
4.351625000000000,0,0xFF,0x04
4.353577750000000,0,0x98,0x1A
4.353595791666667,0,0xFF,0x12
4.353614000000000,0,0xFF,0x04
4.355577541666666,0,0xF0,0x13
4.355595541666666,0,0x7F,0x1A
4.355613750000000,0,0xFF,0x1E
4.357566875000000,0,0x98,0x1A
4.357584916666666,0,0xFF,0x12
4.357603125000000,0,0xFF,0x04
4.359560041666667,0,0x98,0x1A
4.359578083333333,0,0xFF,0x12
4.359596291666667,0,0xFF,0x14
4.361547375000000,0,0xB0,0x12
4.361565375000000,0,0xFF,0x10
4.361583583333333,0,0xFF,0x14
4.363542916666667,0,0xB0,0x13
4.363560916666667,0,0x7F,0x1A
4.363579125000000,0,0xFF,0x1C
4.365531583333333,0,0xF0,0x02
4.365549583333333,0,0x7F,0x12
4.365567791666667,0,0xFF,0x1C
4.365592625000000,0,0x87,0x12
4.365610625000000,0,0xFF,0x00
4.365628833333333,0,0xFF,0x8A
4.365649375000000,0,0x87,0x12
4.365667416666667,0,0x00,0x12
4.365685500000000,0,0x33,0x13
4.365785250000000,0,0x07,0x01
4.365803291666666,0,0x00,0x01
4.365821333333334,0,0x18,0x01
4.365841958333333,0,0x30,0x00
4.365859958333333,0,0x00,0x01
4.365878041666667,0,0xC0,0x01
4.365898291666666,0,0x83,0x00
4.365916291666666,0,0xFF,0x00
4.365934500000000,0,0xFF,0x30
4.365955375000000,0,0x07,0x01
4.365973416666667,0,0x00,0x00
4.365991458333333,0,0x1A,0x01
4.367529500000000,0,0xB0,0x12
4.367547541666666,0,0xFF,0x13
4.367565750000000,0,0xFF,0x04
4.369518750000000,0,0xB0,0x12
4.369536791666667,0,0xFF,0x13
4.369555000000000,0,0xFF,0x04
4.371517625000000,0,0xF0,0x13
4.371535625000000,0,0x7F,0x1A
4.371553833333333,0,0xFF,0x06
4.373511708333333,0,0xB0,0x12
4.373529750000000,0,0xFF,0x12
4.373547958333333,0,0xFF,0x04
4.375498416666667,0,0x98,0x10
4.375516458333333,0,0xFF,0x02
4.375534666666667,0,0xFF,0x00
4.377494250000000,0,0xB0,0x13
4.377512250000000,0,0x7F,0x18
4.377530458333333,0,0xFF,0x06
4.379482375000000,0,0x98,0x12
4.379500416666667,0,0xFF,0x02
4.379518625000000,0,0xFF,0x04
4.381472166666667,0,0x98,0x10
4.381490208333333,0,0xFF,0x02
4.381508416666667,0,0xFF,0x00
4.383466916666666,0,0xB0,0x12
4.383484958333334,0,0xFF,0x12
4.383503125000000,0,0xFF,0x04
4.385459250000000,0,0xB0,0x12
4.385477291666667,0,0xFF,0x12
4.385495500000000,0,0xFF,0x04
4.387453583333333,0,0x98,0x18
4.387471625000000,0,0xFF,0x12
4.387489833333333,0,0xFF,0x00
4.389446291666666,0,0xB0,0x12
4.389464291666667,0,0xFF,0x12
4.389482500000000,0,0xFF,0x04
4.391434916666666,0,0xB0,0x12
4.391452958333334,0,0xFF,0x12
4.391471166666666,0,0xFF,0x00
4.393427041666667,0,0x98,0x10
4.393445083333333,0,0xFF,0x02
4.393463291666666,0,0xFF,0x04
4.395419041666667,0,0xB0,0x13
4.395437041666667,0,0xFF,0x10
4.395455250000000,0,0xFF,0x04
4.397407833333333,0,0xB0,0x12
4.397425875000000,0,0xFF,0x12
4.397444041666667,0,0xFF,0x04
4.397468875000000,0,0x83,0x12
4.397486875000000,0,0xFF,0x00
4.397505083333333,0,0xFF,0xB2
4.397525625000000,0,0x87,0x12
4.397543666666667,0,0x00,0x12
4.397561750000000,0,0x00,0x12
4.398572416666667,0,0x07,0x01
4.398590458333334,0,0x00,0x01
4.398608500000000,0,0x1E,0x01
4.398629125000000,0,0x34,0x01
4.398647125000000,0,0x80,0x01
4.398665208333333,0,0x80,0x01
4.398685416666667,0,0x07,0x01
4.398703458333333,0,0xFF,0x00
4.398721666666667,0,0xFF,0x14
4.398742541666667,0,0x07,0x01
4.398760541666666,0,0x00,0x01
4.398778625000000,0,0xC0,0x00
4.400155875000000,0,0x18,0x18
4.400173916666667,0,0xFF,0x02
4.400192125000000,0,0xFF,0x08
4.402149666666666,0,0xF0,0x02
4.402167666666666,0,0x7F,0x12
4.402185875000000,0,0xFF,0x00
4.404142916666666,0,0xB0,0x12
4.404160916666667,0,0xFF,0x10
4.404179125000000,0,0xFF,0x08
4.406133083333334,0,0xB0,0x12
4.406151125000000,0,0xFF,0x12
4.406169333333334,0,0xFF,0x08
4.408120750000000,0,0xF0,0x02
4.408138750000000,0,0x7F,0x12
4.408156958333334,0,0xFF,0x08
4.410113333333333,0,0xB0,0x12
4.410131333333333,0,0x7F,0x12
4.410149541666667,0,0xFF,0x00
4.412110750000000,0,0xF0,0x02
4.412128750000000,0,0x7F,0x12
4.412146958333333,0,0xFF,0x08
4.414109958333333,0,0x90,0x12
4.414128000000000,0,0xFF,0x13
4.414146208333333,0,0xFF,0x08
4.416105500000000,0,0x90,0x12
4.416123541666667,0,0xFF,0x12
4.416141750000000,0,0xFF,0x0C
4.418096125000000,0,0xB0,0x12
4.418114166666666,0,0xFF,0x12
4.418132375000000,0,0xFF,0x0C
4.420087958333333,0,0xB0,0x12
4.420105958333333,0,0xFF,0x12
4.420124166666667,0,0xFF,0x08
4.422079291666667,0,0x98,0x1A
4.422097333333333,0,0xFF,0x02
4.422115541666667,0,0xFF,0x08
4.424070375000000,0,0x98,0x1A
4.424088416666667,0,0xFF,0x02
4.424106625000000,0,0xFF,0x0C
4.426060958333333,0,0xF0,0x12
4.426078958333333,0,0x7F,0x12
4.426097166666667,0,0xFF,0x00
4.428053750000000,0,0xB0,0x12
4.428071750000000,0,0xFF,0x12
4.428089958333334,0,0xFF,0x08
4.430044375000000,0,0xB0,0x12
4.430062375000000,0,0xFF,0x12
4.430080583333333,0,0xFF,0x08
4.430105375000000,0,0x87,0x12
4.430123416666667,0,0xFF,0x00
4.430141583333334,0,0xFF,0x14
4.430162166666666,0,0x03,0x13
4.430180166666666,0,0x00,0x12
4.430198250000000,0,0x3C,0x02
4.430363083333333,0,0x07,0x01
4.430381125000000,0,0x00,0x01
4.430399208333333,0,0x3C,0x01
4.430419791666667,0,0x34,0x01
4.430437791666667,0,0x00,0x81
4.430455875000000,0,0x80,0x01
4.430476125000000,0,0xC3,0x00
4.430494125000000,0,0xFF,0x00
4.430512333333334,0,0xFF,0x3C
4.430533208333333,0,0x07,0x01
4.430551208333333,0,0x80,0x81
4.430569291666667,0,0xBC,0x01
4.432038625000000,0,0x90,0x12
4.432056666666667,0,0xFF,0x12
4.432074833333333,0,0xFF,0x18
4.434027125000000,0,0xB0,0x12
4.434045125000000,0,0x7F,0x12
4.434063333333333,0,0xFF,0x18
4.436018416666666,0,0x98,0x10
4.436036458333334,0,0xFF,0x02
4.436054666666666,0,0xFF,0x18
4.438008958333334,0,0x98,0x12
4.438027000000000,0,0xFF,0x13
4.438045208333333,0,0xFF,0x18
4.440002541666667,0,0xF0,0x02
4.440020541666667,0,0x7F,0x1A
4.440038750000000,0,0xFF,0x18
4.441995375000000,0,0x98,0x1A
4.442013416666667,0,0xFF,0x12
4.442031625000000,0,0xFF,0x18
4.443985625000000,0,0xB0,0x12
4.444003666666666,0,0xFF,0x12
4.444021833333333,0,0xFF,0x18
4.445975958333333,0,0xF0,0x12
4.445993958333333,0,0x7F,0x12
4.446012166666667,0,0xFF,0x18
4.447970458333334,0,0xB0,0x12
4.447988458333334,0,0xFF,0x12
4.448006666666667,0,0xFF,0x18
4.449961875000000,0,0xF0,0x02
4.449979875000000,0,0x7F,0x1A
4.449998083333333,0,0xFF,0x18
4.451953208333333,0,0xB0,0x12
4.451971250000000,0,0xFF,0x12
4.451989458333333,0,0xFF,0x18
4.453945166666666,0,0xF0,0x12
4.453963166666667,0,0x7F,0x12
4.453981375000000,0,0xFF,0x18
4.455940500000000,0,0x98,0x10
4.455958541666667,0,0xFF,0x02
4.455976750000000,0,0xFF,0x18
4.457929041666667,0,0xB0,0x12
4.457947083333333,0,0xFF,0x13
4.457965291666667,0,0xFF,0x18
4.459924000000000,0,0xB0,0x12
4.459942041666666,0,0xFF,0x13
4.459960250000000,0,0xFF,0x18
4.461910875000000,0,0xB0,0x12
4.461928875000000,0,0xFF,0x12
4.461947083333333,0,0xFF,0x18
4.461971875000000,0,0x87,0x18
4.461989916666667,0,0xFF,0x00
4.462008125000000,0,0xFF,0xBC
4.462028666666667,0,0x07,0x12
4.462046708333333,0,0x00,0x12
4.462064750000000,0,0x1E,0x1A
4.462156250000000,0,0x07,0x01
4.462174291666667,0,0x00,0x00
4.462192333333333,0,0x1E,0x01
4.462212958333334,0,0x30,0x01
4.462230958333333,0,0x00,0x01
4.462249041666666,0,0x80,0x01
4.462269291666667,0,0xC3,0x01
4.462287291666667,0,0xFF,0x00
4.462305500000000,0,0xFF,0x1E
4.462326375000000,0,0x07,0x01
4.462344416666666,0,0x00,0x01
4.462362458333334,0,0x1F,0x81
4.463909916666666,0,0x10,0x12
4.463927958333334,0,0xFF,0x12
4.463946166666667,0,0xFF,0x1C
4.465899625000000,0,0xF0,0x02
4.465917625000000,0,0x7F,0x12
4.465935833333333,0,0xFF,0x1C
4.467898541666667,0,0xB0,0x12
4.467916583333333,0,0xFF,0x10
4.467934791666667,0,0xFF,0x1C
4.469894375000000,0,0x90,0x12
4.469912416666666,0,0xFF,0x12
4.469930625000000,0,0xFF,0x1C
4.471884083333333,0,0x98,0x10
4.471902125000000,0,0xFF,0x02
4.471920333333333,0,0xFF,0x1C
4.473873375000000,0,0x98,0x1A
4.473891416666667,0,0xFF,0x02
4.473909625000000,0,0xFF,0x1C
4.475860791666666,0,0xB0,0x12
4.475878791666666,0,0xFF,0x10
4.475897000000000,0,0xFF,0x1C
4.477851916666666,0,0x98,0x1A
4.477869958333334,0,0xFF,0x12
4.477888166666666,0,0xFF,0x0C
4.479848041666667,0,0xB0,0x12
4.479866083333333,0,0xFF,0x13
4.479884291666667,0,0xFF,0x1C
4.481837458333334,0,0xB0,0x12
4.481855500000000,0,0xFF,0x12
4.481873708333334,0,0xFF,0x1C
4.483833000000000,0,0xB0,0x12
4.483851041666667,0,0xFF,0x12
4.483869208333333,0,0xFF,0x1C
4.485821791666667,0,0xB0,0x12
4.485839833333333,0,0xFF,0x12
4.485858041666667,0,0xFF,0x1C
4.487809916666667,0,0xB0,0x13
4.487827916666666,0,0x7F,0x10
4.487846125000000,0,0xFF,0x1C
4.489796916666666,0,0xF0,0x13
4.489814916666667,0,0xFF,0x10
4.489833125000000,0,0xFF,0x1C
4.491793708333334,0,0x98,0x10
4.491811750000000,0,0xFF,0x02
4.491829958333334,0,0xFF,0x0C
4.493784833333334,0,0xB0,0x12
4.493802875000000,0,0xFF,0x12
4.493821041666667,0,0xFF,0x1C
4.493845875000000,0,0xC3,0x13
4.493863875000000,0,0xFF,0x00
4.493882083333333,0,0xFF,0x9E
4.493902666666667,0,0x03,0x13
4.493920666666667,0,0x00,0x18
4.493938750000000,0,0x46,0x12
4.494944000000000,0,0x07,0x01
4.494962041666667,0,0x00,0x01
4.494980083333333,0,0x66,0x01
4.495000708333333,0,0x34,0x01
4.495018708333333,0,0x80,0x01
4.495036791666666,0,0xC0,0x01
4.495057000000000,0,0x07,0x81
4.495075041666666,0,0xFF,0x00
4.495093250000000,0,0xFF,0x46
4.495114125000000,0,0x03,0x01
4.495132125000000,0,0x80,0x01
4.495150208333333,0,0xC6,0x01
4.496558208333333,0,0x18,0x1A
4.496576250000000,0,0xFF,0x12
4.496594458333333,0,0xFF,0x0C
4.498549958333333,0,0x98,0x10
4.498568000000000,0,0xFF,0x12
4.498586208333333,0,0xFF,0x0C
4.500540083333333,0,0x98,0x10
4.500558125000000,0,0xFF,0x13
4.500576333333333,0,0xFF,0x0C
4.502539000000000,0,0xF0,0x12
4.502557000000000,0,0x7F,0x12
4.502575208333333,0,0xFF,0x04
4.504528625000000,0,0x90,0x12
4.504546666666666,0,0xFF,0x13
4.504564875000000,0,0xFF,0x0C
4.506517291666666,0,0xB0,0x12
4.506535333333333,0,0xFF,0x12
4.506553500000000,0,0xFF,0x04
4.508506333333333,0,0xB0,0x12
4.508524333333333,0,0xFF,0x12
4.508542541666666,0,0xFF,0x0C
4.510500041666667,0,0xB0,0x12
4.510518041666667,0,0xFF,0x12
4.510536250000000,0,0xFF,0x0C
4.512494125000000,0,0xB0,0x12
4.512512125000000,0,0xFF,0x10
4.512530333333333,0,0xFF,0x0C
4.514486125000000,0,0xF0,0x02
4.514504125000000,0,0x7F,0x12
4.514522333333334,0,0xFF,0x04
4.516475916666667,0,0xB0,0x12
4.516493958333333,0,0xFF,0x13
4.516512166666667,0,0xFF,0x0C
4.518464666666667,0,0xB0,0x13
4.518482666666666,0,0xFF,0x10
4.518500875000000,0,0xFF,0x0C
4.520463083333333,0,0xB0,0x12
4.520481125000000,0,0xFF,0x12
4.520499333333333,0,0xFF,0x0C
4.522459583333333,0,0x98,0x1A
4.522477625000000,0,0xFF,0x12
4.522495833333333,0,0xFF,0x0C
4.524450916666667,0,0xB0,0x12
4.524468916666667,0,0xFF,0x12
4.524487125000000,0,0xFF,0x0C
4.526442541666666,0,0xB0,0x12
4.526460583333333,0,0xFF,0x12
4.526478791666666,0,0xFF,0x0C
4.526503583333334,0,0x87,0x12
4.526521583333333,0,0xFF,0x00
4.526539791666667,0,0xFF,0xE6
4.526560375000000,0,0x07,0x12
4.526578375000000,0,0x00,0x12
4.526596458333334,0,0x00,0x13
4.526736041666667,0,0x03,0x00
4.526754041666667,0,0x00,0x01
4.526772125000000,0,0x00,0x01
4.526792708333334,0,0x1E,0x01
4.526810750000000,0,0xC0,0x01
4.526828791666667,0,0x00,0x81
4.526849041666667,0,0x87,0x01
4.526867083333333,0,0xFF,0x00
4.526885291666667,0,0xFF,0x00
4.526906125000000,0,0x87,0x01
4.526924166666666,0,0x00,0x01
4.526942250000000,0,0x80,0x01
4.528435458333333,0,0x18,0x10
4.528453500000000,0,0xFF,0x02
4.528471708333333,0,0xFF,0x00
4.530424916666667,0,0xF0,0x02
4.530442916666667,0,0x7F,0x12
4.530461125000000,0,0xFF,0x00
4.532424458333334,0,0xF0,0x12
4.532442458333334,0,0x7F,0x12
4.532460666666666,0,0xFF,0x00
4.534413916666667,0,0xB0,0x12
4.534431958333333,0,0xFF,0x12
4.534450125000000,0,0xFF,0x00
4.536411666666667,0,0xF0,0x02
4.536429666666667,0,0x7F,0x18
4.536447875000000,0,0xFF,0x00
4.538399791666667,0,0xF0,0x02
4.538417791666666,0,0x7F,0x12
4.538436000000000,0,0xFF,0x00
4.540394625000000,0,0xF0,0x13
4.540412625000000,0,0x7F,0x1A
4.540430833333334,0,0xFF,0x00
4.542389875000000,0,0x98,0x1A
4.542407916666667,0,0xFF,0x12
4.542426125000000,0,0xFF,0x00
4.544376166666667,0,0xB0,0x12
4.544394208333333,0,0xFF,0x12
4.544412375000000,0,0xFF,0x00
4.546368416666667,0,0xB0,0x12
4.546386458333333,0,0xFF,0x12
4.546404625000000,0,0xFF,0x00
4.548356333333333,0,0x98,0x1A
4.548374375000000,0,0xFF,0x02
4.548392583333333,0,0xFF,0x00
4.550344208333334,0,0x98,0x12
4.550362250000000,0,0xFF,0x13
4.550380458333334,0,0xFF,0x00
4.552340083333333,0,0x98,0x10
4.552358125000000,0,0xFF,0x13
4.552376333333333,0,0xFF,0x00
4.554329625000000,0,0xB0,0x12
4.554347666666667,0,0xFF,0x13
4.554365875000000,0,0xFF,0x00
4.556320208333333,0,0xB0,0x12
4.556338208333333,0,0xFF,0x12
4.556356416666667,0,0xFF,0x00
4.558316833333333,0,0x98,0x10
4.558334875000000,0,0xFF,0x02
4.558353083333333,0,0xFF,0x00
4.558377875000000,0,0x87,0x12
4.558395916666667,0,0xFF,0x00
4.558414083333333,0,0xFF,0x00
4.558434666666667,0,0x03,0x02
4.558452666666667,0,0x80,0x1A
4.558470750000000,0,0x28,0x12
4.558527708333333,0,0x07,0x01
4.558545750000000,0,0x00,0x01
4.558563791666667,0,0x00,0x01
4.558584416666666,0,0x30,0x00
4.558602416666667,0,0x00,0x01
4.558620500000000,0,0xC0,0x01
4.558640750000000,0,0x83,0x01
4.558658750000000,0,0xFF,0x00
4.558676958333334,0,0xFF,0x28
4.558697833333333,0,0x07,0x01
4.558715875000000,0,0x00,0x01
4.558733916666666,0,0x80,0x01
4.560315083333333,0,0xF0,0x02
4.560333083333333,0,0x7F,0x12
4.560351291666667,0,0xFF,0x18
4.562311625000000,0,0xF0,0x12
4.562329625000000,0,0x7F,0x1A
4.562347833333333,0,0xFF,0x10
4.564305583333334,0,0xB0,0x12
4.564323625000000,0,0xFF,0x12
4.564341833333334,0,0xFF,0x10
4.566301500000000,0,0xF0,0x02
4.566319500000000,0,0x7F,0x12
4.566337708333333,0,0xFF,0x18
4.568293375000000,0,0xF0,0x13
4.568311375000000,0,0x7F,0x18
4.568329583333333,0,0xFF,0x10
4.570282250000000,0,0xB0,0x13
4.570300250000000,0,0xFF,0x10
4.570318458333333,0,0xFF,0x10
4.572274333333334,0,0x98,0x10
4.572292375000000,0,0xFF,0x02
4.572310583333334,0,0xFF,0x00
4.574267000000000,0,0xF0,0x02
4.574285000000000,0,0x7F,0x12
4.574303208333333,0,0xFF,0x18
4.576262375000000,0,0x98,0x1A
4.576280416666667,0,0xFF,0x02
4.576298625000000,0,0xFF,0x00
4.578252791666666,0,0x98,0x1A
4.578270833333334,0,0xFF,0x12
4.578289041666666,0,0xFF,0x00
4.580240875000000,0,0xB0,0x12
4.580258916666667,0,0xFF,0x12
4.580277125000000,0,0xFF,0x10
4.582234833333334,0,0xF0,0x02
4.582252833333333,0,0x7F,0x12
4.582271041666667,0,0xFF,0x10
4.584223333333333,0,0xB0,0x12
4.584241333333333,0,0xFF,0x10
4.584259541666666,0,0xFF,0x10
4.586214666666667,0,0xB0,0x12
4.586232708333333,0,0xFF,0x12
4.586250875000000,0,0xFF,0x10
4.588204541666666,0,0x98,0x1A
4.588222583333334,0,0xFF,0x12
4.588240791666666,0,0xFF,0x00
4.590198250000000,0,0xB0,0x12
4.590216291666667,0,0xFF,0x13
4.590234500000000,0,0xFF,0x10
4.590259291666666,0,0xC7,0x02
4.590277291666666,0,0xFF,0x00
4.590295500000000,0,0xFF,0x28
4.590316083333334,0,0x03,0x02
4.590334291666666,0,0x00,0x02
4.590352333333334,0,0x0A,0x12
4.591315333333333,0,0x07,0x01
4.591333375000000,0,0x00,0x01
4.591351458333333,0,0x0E,0x01
4.591372041666666,0,0x1E,0x01
4.591390083333334,0,0xC0,0x01
4.591408125000000,0,0x00,0x81
4.591428375000000,0,0x07,0x01
4.591446416666667,0,0xFF,0x00
4.591464625000000,0,0xFF,0x0E
4.591485500000000,0,0x03,0x00
4.591503500000000,0,0x00,0x01
4.591521583333333,0,0xCA,0x01
4.592872833333334,0,0x18,0x10
4.592890875000000,0,0xFF,0x02
4.592909083333334,0,0xFF,0x04
4.594865541666667,0,0xF0,0x12
4.594883541666666,0,0x7F,0x12
4.594901750000000,0,0xFF,0x14
4.596863791666666,0,0x98,0x1A
4.596881833333334,0,0xFF,0x12
4.596900041666666,0,0xFF,0x04
4.598857375000000,0,0xB0,0x13
4.598875375000000,0,0xFF,0x10
4.598893583333333,0,0xFF,0x14
4.600848708333333,0,0xB0,0x13
4.600866708333333,0,0x7F,0x1A
4.600884916666667,0,0xFF,0x16
4.602836625000000,0,0x90,0x12
4.602854666666667,0,0xFF,0x12
4.602872875000000,0,0xFF,0x14
4.604833083333333,0,0x98,0x1A
4.604851125000000,0,0xFF,0x12
4.604869333333333,0,0xFF,0x00
4.606825041666666,0,0xB0,0x12
4.606843083333334,0,0xFF,0x12
4.606861291666666,0,0xFF,0x14
4.608812750000000,0,0xF0,0x13
4.608830750000000,0,0x7F,0x18
4.608848958333334,0,0xFF,0x16
4.610806666666667,0,0x98,0x10
4.610824708333333,0,0xFF,0x02
4.610842916666667,0,0xFF,0x14
4.612794083333333,0,0x98,0x12
4.612812125000000,0,0xFF,0x13
4.612830333333333,0,0xFF,0x14
4.614782416666666,0,0xB0,0x12
4.614800458333334,0,0xFF,0x13
4.614818666666666,0,0xFF,0x14
4.616780916666666,0,0xF0,0x02
4.616798916666666,0,0x7F,0x12
4.616817125000000,0,0xFF,0x14
4.618769625000000,0,0xB0,0x12
4.618787666666667,0,0xFF,0x12
4.618805833333333,0,0xFF,0x14
4.620769083333333,0,0xB0,0x13
4.620787083333333,0,0x7F,0x1A
4.620805291666667,0,0xFF,0x1E
4.622769083333333,0,0xB0,0x12
4.622787125000000,0,0xFF,0x12
4.622805333333333,0,0xFF,0x14
4.622830125000000,0,0x87,0x10
4.622848166666667,0,0xFF,0x00
4.622866375000000,0,0xFF,0x8B
4.622886916666666,0,0x07,0x12
4.622904958333334,0,0x00,0x12
4.622923000000000,0,0x18,0x12
4.623110208333333,0,0x07,0x01
4.623128250000000,0,0x00,0x01
4.623146291666667,0,0x18,0x01
4.623166916666666,0,0x34,0x01
4.623184916666666,0,0x80,0x01
4.623203000000000,0,0xC0,0x01
4.623223250000000,0,0x87,0x01
4.623241250000000,0,0xFF,0x00
4.623259458333333,0,0xFF,0x32
4.623280333333334,0,0x07,0x01
4.623298375000000,0,0x00,0x01
4.623316416666666,0,0x18,0x01
4.624767458333333,0,0x90,0x12
4.624785500000000,0,0xFF,0x13
4.624803708333333,0,0xFF,0x04
4.626755916666666,0,0xF0,0x13
4.626773916666667,0,0x7F,0x18
4.626792125000000,0,0xFF,0x06
4.628751250000000,0,0xB0,0x12
4.628769291666667,0,0xFF,0x12
4.628787458333333,0,0xFF,0x04
4.630739166666666,0,0xB0,0x12
4.630757208333334,0,0xFF,0x12
4.630775375000000,0,0xFF,0x04
4.632734625000000,0,0xB0,0x13
4.632752625000000,0,0xFF,0x10
4.632770833333334,0,0xFF,0x04
4.634723375000000,0,0xB0,0x12
4.634741375000000,0,0xFF,0x12
4.634759583333333,0,0xFF,0x04
4.636719541666666,0,0x98,0x10
4.636737583333334,0,0xFF,0x13
4.636755791666666,0,0xFF,0x04
4.638711291666667,0,0xF0,0x12
4.638729291666666,0,0x7F,0x1A
4.638747500000000,0,0xFF,0x06
4.640699041666666,0,0x98,0x1A
4.640717083333334,0,0xFF,0x12
4.640735291666667,0,0xFF,0x04
4.642692625000000,0,0xF0,0x13
4.642710625000000,0,0x7F,0x18
4.642728833333333,0,0xFF,0x06
4.644682708333334,0,0xB0,0x12
4.644700708333334,0,0xFF,0x12
4.644718916666666,0,0xFF,0x04
4.646673916666667,0,0xF0,0x02
4.646691916666667,0,0x7F,0x12
4.646710125000000,0,0xFF,0x06
4.648664875000000,0,0xB0,0x13
4.648682875000000,0,0x7F,0x18
4.648701083333333,0,0xFF,0x04
4.650653833333333,0,0xB0,0x12
4.650671833333333,0,0xFF,0x12
4.650690041666667,0,0xFF,0x04
4.652651583333333,0,0xB0,0x12
4.652669625000000,0,0xFF,0x12
4.652687833333333,0,0xFF,0x00
4.654643166666666,0,0xB0,0x13
4.654661166666667,0,0xFF,0x10
4.654679375000000,0,0xFF,0x04
4.654704166666667,0,0x87,0x1A
4.654722208333333,0,0xFF,0x00
4.654740416666667,0,0xFF,0xB2
4.654760958333333,0,0x07,0x12
4.654779000000000,0,0x00,0x12
4.654797041666667,0,0x1E,0x10
4.654902041666666,0,0x07,0x01
4.654920083333334,0,0x00,0x00
4.654938125000000,0,0x14,0x01
4.654958750000000,0,0x30,0x01
4.654976750000000,0,0x00,0x01
4.654994833333333,0,0x80,0x01
4.655015083333334,0,0x83,0x00
4.655033083333334,0,0xFF,0x00
4.655051291666667,0,0xFF,0x14
4.655072166666667,0,0x07,0x01
4.655090166666667,0,0x80,0x81
4.655108250000000,0,0x96,0x01
4.656637666666667,0,0x18,0x10
4.656655708333333,0,0xFF,0x02
4.656673916666667,0,0xFF,0x08
4.658626333333333,0,0x98,0x1A
4.658644375000000,0,0xFF,0x12
4.658662583333333,0,0xFF,0x0C
4.660621958333333,0,0xB0,0x12
4.660639958333333,0,0xFF,0x12
4.660658166666667,0,0xFF,0x08
4.662613458333333,0,0x98,0x1A
4.662631500000000,0,0xFF,0x12
4.662649708333333,0,0xFF,0x08
4.664609083333334,0,0xF0,0x02
4.664627083333333,0,0x7F,0x12
4.664645291666667,0,0xFF,0x00
4.666601083333333,0,0xB0,0x13
4.666619083333333,0,0xFF,0x10
4.666637291666667,0,0xFF,0x08
4.668596250000000,0,0xB0,0x12
4.668614291666667,0,0xFF,0x13
4.668632500000000,0,0xFF,0x08
4.670587833333333,0,0x98,0x10
4.670605875000000,0,0xFF,0x02
4.670624083333333,0,0xFF,0x0C
4.672580666666667,0,0x98,0x10
4.672598708333333,0,0xFF,0x13
4.672616916666667,0,0xFF,0x08
4.674568333333333,0,0x90,0x12
4.674586375000000,0,0xFF,0x12
4.674604583333333,0,0xFF,0x08
4.676555666666666,0,0xB0,0x12
4.676573708333334,0,0xFF,0x12
4.676591916666666,0,0xFF,0x08
4.678543333333334,0,0x98,0x10
4.678561375000000,0,0xFF,0x02
4.678579583333334,0,0xFF,0x08
4.680531708333334,0,0x98,0x10
4.680549750000000,0,0xFF,0x02
4.680567958333334,0,0xFF,0x0C
4.682523875000000,0,0xF0,0x12
4.682541875000000,0,0x7F,0x1A
4.682560083333334,0,0xFF,0x00
4.684517208333333,0,0xB0,0x12
4.684535250000000,0,0xFF,0x12
4.684553458333333,0,0xFF,0x08
4.686511291666666,0,0xB0,0x12
4.686529291666667,0,0xFF,0x10
4.686547500000000,0,0xFF,0x08
4.686572291666667,0,0x87,0x12
4.686590333333333,0,0xFF,0x00
4.686608541666667,0,0xFF,0xD4
4.686629083333333,0,0x87,0x1A
4.686647125000000,0,0x00,0x02
4.686665208333333,0,0x3C,0x12
4.686695416666667,0,0x07,0x01
4.686713416666667,0,0x80,0x81
4.686731500000000,0,0x3E,0x01
4.686752125000000,0,0x34,0x01
4.686770125000000,0,0x80,0x01
4.686788208333334,0,0xC0,0x01
4.686808458333333,0,0x83,0x01
4.686826458333333,0,0xFF,0x00
4.686844666666667,0,0xFF,0x3C
4.686865541666666,0,0x07,0x01
4.686883583333334,0,0x00,0x01
4.686901625000000,0,0x1E,0x01
4.688498458333333,0,0xB0,0x12
4.688516500000000,0,0xFF,0x13
4.688534708333333,0,0xFF,0x18
4.690489500000000,0,0x90,0x12
4.690507541666666,0,0xFF,0x12
4.690525750000000,0,0xFF,0x18
4.692485916666667,0,0x98,0x18
4.692503958333333,0,0xFF,0x02
4.692522166666667,0,0xFF,0x18
4.694480958333333,0,0xF0,0x13
4.694498958333333,0,0x7F,0x10
4.694517166666667,0,0xFF,0x18
4.696474291666667,0,0xF0,0x12
4.696492291666667,0,0x7F,0x1A
4.696510500000000,0,0xFF,0x18
4.698469291666667,0,0xB0,0x12
4.698487333333333,0,0xFF,0x12
4.698505541666667,0,0xFF,0x18
4.700459416666667,0,0xF0,0x12
4.700477416666667,0,0x7F,0x12
4.700495625000000,0,0xFF,0x18
4.702447958333333,0,0xB0,0x12
4.702466000000000,0,0xFF,0x12
4.702484166666666,0,0xFF,0x18
4.704440416666666,0,0xB0,0x12
4.704458458333334,0,0xFF,0x12
4.704476666666666,0,0xFF,0x08
4.706432958333333,0,0xF0,0x12
4.706450958333333,0,0x7F,0x1A
4.706469166666666,0,0xFF,0x18
4.708424208333334,0,0xB0,0x13
4.708442208333333,0,0xFF,0x10
4.708460416666667,0,0xFF,0x18
4.710413875000000,0,0xF0,0x13
4.710431875000000,0,0x7F,0x10
4.710450083333333,0,0xFF,0x18
4.712403833333333,0,0xB0,0x12
4.712421875000000,0,0xFF,0x12
4.712440083333333,0,0xFF,0x18
4.714394250000000,0,0xF0,0x02
4.714412250000000,0,0x7F,0x12
4.714430458333333,0,0xFF,0x18
4.716388833333333,0,0xB0,0x12
4.716406875000000,0,0xFF,0x12
4.716425083333333,0,0xFF,0x18
4.718382000000000,0,0x98,0x10
4.718400041666666,0,0xFF,0x02
4.718418250000000,0,0xFF,0x18
4.718443041666666,0,0xC7,0x02
4.718461041666667,0,0xFF,0x00
4.718479250000000,0,0xFF,0x9C
4.718499750000000,0,0x07,0x12
4.718517750000000,0,0x00,0x12
4.718535833333333,0,0x0E,0x12
4.719482666666667,0,0x07,0x01
4.719500708333333,0,0x00,0x01
4.719518791666666,0,0x1F,0x01
4.719539375000000,0,0x34,0x01
4.719557375000000,0,0x00,0x81
4.719575458333333,0,0x80,0x01
4.719595708333333,0,0x83,0x00
4.719613708333333,0,0xFF,0x00
4.719631916666667,0,0xFF,0x1E
4.719652791666666,0,0x03,0x01
4.719670791666666,0,0x80,0x81
4.719688875000000,0,0x9E,0x01
4.721058250000000,0,0x90,0x12
4.721076291666667,0,0xFF,0x13
4.721094500000000,0,0xFF,0x1C
4.723057750000000,0,0xB0,0x12
4.723075791666667,0,0xFF,0x12
4.723094000000000,0,0xFF,0x1C
4.725045958333333,0,0x98,0x10
4.725064000000000,0,0xFF,0x12
4.725082208333333,0,0xFF,0x1C
4.727032875000000,0,0xF0,0x12
4.727050875000000,0,0x7F,0x12
4.727069083333333,0,0xFF,0x1C
4.729031750000000,0,0xB0,0x12
4.729049791666666,0,0xFF,0x12
4.729067958333333,0,0xFF,0x1C
4.731020625000000,0,0xF0,0x02
4.731038625000000,0,0x7F,0x12
4.731056833333334,0,0xFF,0x1E
4.733016000000000,0,0xB0,0x12
4.733034041666667,0,0xFF,0x12
4.733052208333334,0,0xFF,0x1C
4.735016000000000,0,0xB0,0x12
4.735034041666666,0,0xFF,0x13
4.735052250000000,0,0xFF,0x1C
4.737003000000000,0,0xF0,0x13
4.737021000000000,0,0x7F,0x1A
4.737039208333333,0,0xFF,0x1C
4.738999375000000,0,0xB0,0x12
4.739017416666667,0,0xFF,0x12
4.739035625000000,0,0xFF,0x1C
4.740988500000000,0,0x98,0x10
4.741006541666667,0,0xFF,0x02
4.741024750000000,0,0xFF,0x1C
4.742981291666666,0,0xB0,0x12
4.742999333333334,0,0xFF,0x12
4.743017541666666,0,0xFF,0x1C
4.744979041666666,0,0xF0,0x12
4.744997041666666,0,0x7F,0x1A
4.745015250000000,0,0xFF,0x1E
4.746967583333333,0,0xB0,0x12
4.746985583333333,0,0xFF,0x12
4.747003791666667,0,0xFF,0x1C
4.748962333333333,0,0x98,0x18
4.748980375000000,0,0xFF,0x02
4.748998583333333,0,0xFF,0x1C
4.750950250000000,0,0xB0,0x12
4.750968291666666,0,0xFF,0x12
4.750986500000000,0,0xFF,0x1C
4.751011291666667,0,0x87,0x12
4.751029333333333,0,0xFF,0x00
4.751047541666667,0,0xFF,0xDE
4.751068083333333,0,0x07,0x1A
4.751086125000000,0,0x00,0x12
4.751104208333333,0,0x43,0x13
4.751277125000000,0,0x07,0x01
4.751295166666667,0,0x00,0x01
4.751313208333333,0,0x66,0x01
4.751333833333334,0,0x30,0x01
4.751351833333334,0,0x00,0x81
4.751369916666667,0,0x00,0x01
4.751390166666667,0,0x87,0x01
4.751408208333333,0,0xFF,0x00
4.751426416666667,0,0xFF,0x47
4.751447291666667,0,0x07,0x01
4.751465291666666,0,0x00,0x01
4.751483375000000,0,0xC2,0x01
4.752942791666666,0,0xB0,0x13
4.752960791666666,0,0xFF,0x10
4.752979000000000,0,0xFF,0x0C
4.754932916666666,0,0xB0,0x12
4.754950958333334,0,0xFF,0x12
4.754969166666666,0,0xFF,0x0C
4.756925875000000,0,0xB0,0x12
4.756943875000000,0,0xFF,0x12
4.756962083333334,0,0xFF,0x0C
4.758925375000000,0,0xF0,0x13
4.758943375000000,0,0x7F,0x1A
4.758961583333333,0,0xFF,0x0E
4.760918125000000,0,0xB0,0x12
4.760936166666666,0,0xFF,0x12
4.760954375000000,0,0xFF,0x0C
4.762910291666667,0,0xB0,0x12
4.762928333333333,0,0xFF,0x12
4.762946541666667,0,0xFF,0x0C
4.764897833333333,0,0xB0,0x12
4.764915875000000,0,0xFF,0x13
4.764934083333333,0,0xFF,0x0C
4.766896750000000,0,0xF0,0x13
4.766914750000000,0,0x7F,0x10
4.766932958333333,0,0xFF,0x0C
4.768883958333333,0,0xB0,0x12
4.768901958333333,0,0xFF,0x12
4.768920166666667,0,0xFF,0x0C
4.770875125000000,0,0xB0,0x12
4.770893125000000,0,0xFF,0x12
4.770911333333333,0,0xFF,0x0C
4.772864916666666,0,0xB0,0x12
4.772882958333334,0,0xFF,0x12
4.772901125000000,0,0xFF,0x04
4.774853875000000,0,0xB0,0x12
4.774871916666667,0,0xFF,0x12
4.774890125000000,0,0xFF,0x0C
4.776841708333333,0,0xB0,0x12
4.776859750000000,0,0xFF,0x12
4.776877916666667,0,0xFF,0x0C
4.778833500000000,0,0x90,0x12
4.778851541666667,0,0xFF,0x12
4.778869750000000,0,0xFF,0x0C
4.780828541666667,0,0xB0,0x12
4.780846583333333,0,0xFF,0x13
4.780864791666667,0,0xFF,0x0C
4.782819625000000,0,0x98,0x10
4.782837666666667,0,0xFF,0x02
4.782855875000000,0,0xFF,0x0C
4.782880666666666,0,0xC3,0x02
4.782898666666667,0,0xFF,0x00
4.782916875000000,0,0xFF,0xE6
4.782937458333334,0,0x03,0x12
4.782955458333333,0,0x00,0x12
4.782973541666666,0,0x00,0x12
4.783069125000000,0,0x07,0x01
4.783087166666666,0,0x00,0x01
4.783105208333334,0,0x00,0x01
4.783125833333333,0,0x30,0x00
4.783143833333333,0,0x00,0x01
4.783161916666667,0,0xC0,0x01
4.783182166666666,0,0x87,0x01
4.783200166666667,0,0xFF,0x00
4.783218375000000,0,0xFF,0x00
4.783239250000000,0,0x03,0x01
4.783257250000000,0,0x80,0x81
4.783275333333333,0,0x80,0x01
4.784818500000000,0,0x30,0x92
4.784836541666666,0,0xFF,0x12
4.784854750000000,0,0xFF,0x00
4.786806500000000,0,0x90,0x12
4.786824541666666,0,0xFF,0x13
4.786842750000000,0,0xFF,0x00
4.788794291666667,0,0xB0,0x12
4.788812333333333,0,0xFF,0x12
4.788830541666667,0,0xFF,0x00
4.790782208333333,0,0xB0,0x12
4.790800250000000,0,0xFF,0x12
4.790818416666666,0,0xFF,0x00
4.792781125000000,0,0xB0,0x12
4.792799166666667,0,0xFF,0x13
4.792817375000000,0,0xFF,0x00
4.794772291666667,0,0xB0,0x12
4.794790291666667,0,0x7F,0x12
4.794808500000000,0,0xFF,0x00
4.796770458333333,0,0x98,0x1A
4.796788500000000,0,0xFF,0x02
4.796806708333333,0,0xFF,0x00
4.798758416666667,0,0x98,0x12
4.798776458333333,0,0xFF,0x13
4.798794666666667,0,0xFF,0x00
4.800748541666667,0,0xF0,0x12
4.800766541666666,0,0x7F,0x1A
4.800784750000000,0,0xFF,0x00
4.802738875000000,0,0xB0,0x13
4.802756875000000,0,0xFF,0x10
4.802775083333334,0,0xFF,0x00
4.804731000000000,0,0xB0,0x12
4.804749000000000,0,0x7F,0x12
4.804767208333334,0,0xFF,0x00
4.806723125000000,0,0xB0,0x12
4.806741125000000,0,0xFF,0x12
4.806759333333333,0,0xFF,0x00
4.808717083333334,0,0xB0,0x12
4.808735125000000,0,0xFF,0x12
4.808753333333334,0,0xFF,0x00
4.810712208333333,0,0xB0,0x13
4.810730208333333,0,0x7F,0x18
4.810748416666667,0,0xFF,0x00
4.812710625000000,0,0xF0,0x02
4.812728625000000,0,0x7F,0x10
4.812746833333334,0,0xFF,0x00
4.814701583333333,0,0xF0,0x12
4.814719583333333,0,0x7F,0x12
4.814737791666666,0,0xFF,0x00
4.814762583333334,0,0x87,0x1A
4.814780625000000,0,0xFF,0x00
4.814798833333334,0,0xFF,0x80
4.814819375000000,0,0x03,0x02
4.814837375000000,0,0x80,0x18
4.814855458333334,0,0x28,0x12
4.815853833333334,0,0x07,0x01
4.815871833333333,0,0x80,0x81
4.815889916666666,0,0x28,0x01
4.815910500000000,0,0x34,0x81
4.815928541666667,0,0x80,0x01
4.815946625000000,0,0xC0,0x00
4.815966833333333,0,0x07,0x81
4.815984875000000,0,0xFF,0x00
4.816003083333333,0,0xFF,0x28
4.816023958333333,0,0x03,0x01
4.816041958333333,0,0x80,0x01
4.816060041666667,0,0xA8,0x01
4.817476583333334,0,0xF0,0x02
4.817494583333334,0,0x7F,0x1A
4.817512791666666,0,0xFF,0x10
4.819464708333333,0,0x98,0x18
4.819482750000000,0,0xFF,0x02
4.819500958333333,0,0xFF,0x10
4.821456291666666,0,0xB0,0x13
4.821474291666667,0,0xFF,0x12
4.821492500000000,0,0xFF,0x10
4.823448375000000,0,0xB0,0x12
4.823466375000000,0,0xFF,0x12
4.823484583333333,0,0xFF,0x10
4.825442291666667,0,0xB0,0x12
4.825460333333333,0,0xFF,0x12
4.825478541666667,0,0xFF,0x00
4.827436125000000,0,0xB0,0x12
4.827454125000000,0,0xFF,0x12
4.827472333333334,0,0xFF,0x10
4.829433791666666,0,0xB0,0x12
4.829451791666667,0,0xFF,0x12
4.829470000000000,0,0xFF,0x10
4.831421791666667,0,0xB0,0x12
4.831439833333333,0,0xFF,0x12
4.831458041666667,0,0xFF,0x10
4.833414791666667,0,0xB0,0x12
4.833432833333333,0,0xFF,0x12
4.833451041666667,0,0xFF,0x10
4.835409333333334,0,0x98,0x1A
4.835427375000000,0,0xFF,0x02
4.835445583333334,0,0xFF,0x10
4.837400375000000,0,0x98,0x10
4.837418416666667,0,0xFF,0x13
4.837436625000000,0,0xFF,0x10
4.839388416666667,0,0x98,0x12
4.839406458333333,0,0xFF,0x13
4.839424666666667,0,0xFF,0x10
4.841377208333333,0,0x98,0x10
4.841395250000000,0,0xFF,0x02
4.841413458333333,0,0xFF,0x10
4.843368666666667,0,0xF0,0x12
4.843386666666667,0,0x7F,0x12
4.843404875000000,0,0xFF,0x10
4.845357291666667,0,0xF0,0x02
4.845375291666667,0,0x7F,0x1A
4.845393500000000,0,0xFF,0x10
4.847348208333333,0,0xB0,0x12
4.847366208333334,0,0xFF,0x12
4.847384416666666,0,0xFF,0x10
4.847409208333334,0,0x87,0x10
4.847427250000000,0,0xFF,0x00
4.847445458333334,0,0xFF,0xA8
4.847466000000000,0,0x07,0x02
4.847484000000000,0,0x80,0x12
4.847502083333334,0,0x0A,0x12
4.847645125000000,0,0x07,0x01
4.847663125000000,0,0x80,0x81
4.847681208333333,0,0x0A,0x01
4.847701791666666,0,0x1E,0x01
4.847719833333334,0,0xC0,0x01
4.847737875000000,0,0x00,0x81
4.847758125000000,0,0x87,0x01
4.847776166666667,0,0xFF,0x00
4.847794333333334,0,0xFF,0x00
4.847815208333333,0,0x07,0x01
4.847833250000000,0,0x00,0x01
4.847851291666666,0,0x80,0x01
4.849341791666666,0,0xF0,0x02
4.849359791666667,0,0x7F,0x1A
4.849378000000000,0,0xFF,0x14
4.851330916666667,0,0xB0,0x12
4.851348958333333,0,0xFF,0x13
4.851367166666667,0,0xFF,0x14
4.853322458333333,0,0xB0,0x12
4.853340500000000,0,0xFF,0x12
4.853358708333333,0,0xFF,0x00
4.855315833333333,0,0xF0,0x12
4.855333833333333,0,0x7F,0x12
4.855352041666666,0,0xFF,0x16
4.857307041666667,0,0x98,0x18
4.857325083333333,0,0xFF,0x02
4.857343291666667,0,0xFF,0x10
4.859296208333333,0,0xB0,0x12
4.859314250000000,0,0xFF,0x12
4.859332458333333,0,0xFF,0x14
4.861292958333333,0,0xF0,0x02
4.861310958333333,0,0x7F,0x1A
4.861329166666667,0,0xFF,0x1E
4.863281041666666,0,0xB0,0x13
4.863299041666667,0,0xFF,0x10
4.863317250000000,0,0xFF,0x14
4.865269833333334,0,0xB0,0x12
4.865287875000000,0,0xFF,0x13
4.865306083333333,0,0xFF,0x14
4.867256625000000,0,0x98,0x10
4.867274666666667,0,0xFF,0x03
4.867292875000000,0,0xFF,0x14
4.869252833333333,0,0x98,0x1A
4.869270875000000,0,0xFF,0x02
4.869289083333333,0,0xFF,0x14
4.871244666666667,0,0x98,0x10
4.871262708333333,0,0xFF,0x12
4.871280875000000,0,0xFF,0x14
4.873242125000000,0,0xB0,0x12
4.873260166666666,0,0xFF,0x12
4.873278333333333,0,0xFF,0x14
4.875233666666666,0,0xB0,0x12
4.875251708333334,0,0xFF,0x12
4.875269916666666,0,0xFF,0x14
4.877231333333333,0,0x90,0x12
4.877249375000000,0,0xFF,0x12
4.877267583333333,0,0xFF,0x14
4.879226375000000,0,0xB0,0x12
4.879244416666666,0,0xFF,0x12
4.879262583333333,0,0xFF,0x14
4.879287416666667,0,0x83,0x12
4.879305416666667,0,0xFF,0x00
4.879323625000000,0,0xFF,0x8A
4.879344166666667,0,0x07,0x12
4.879362208333333,0,0x00,0x13
4.879380250000000,0,0x1A,0x1A
4.879435083333333,0,0x07,0x01
4.879453125000000,0,0x00,0x01
4.879471166666667,0,0x18,0x01
4.879491791666666,0,0x30,0x01
4.879509791666667,0,0x80,0x01
4.879527875000000,0,0xC0,0x00
4.879548083333333,0,0x07,0x81
4.879566125000000,0,0xFF,0x00
4.879584333333334,0,0xFF,0x33
4.879605208333333,0,0x07,0x01
4.879623208333333,0,0x00,0x01
4.879641291666666,0,0xB3,0x01
4.881214291666667,0,0xB0,0x12
4.881232291666667,0,0xFF,0x12
4.881250500000000,0,0xFF,0x04
4.883205166666666,0,0x98,0x12
4.883223208333333,0,0xFF,0x13
4.883241416666666,0,0xFF,0x04
4.885200458333333,0,0xB0,0x12
4.885218500000000,0,0xFF,0x12
4.885236708333333,0,0xFF,0x04
4.887189708333334,0,0xF0,0x02
4.887207708333333,0,0x7F,0x1A
4.887225916666667,0,0xFF,0x04
4.889184916666666,0,0xB0,0x12
4.889202958333334,0,0xFF,0x12
4.889221166666666,0,0xFF,0x00
4.891179708333333,0,0x98,0x1A
4.891197750000000,0,0xFF,0x02
4.891215958333333,0,0xFF,0x04
4.893167000000000,0,0xF0,0x13
4.893185000000000,0,0xFF,0x12
4.893203208333333,0,0xFF,0x04
4.895153583333333,0,0xF0,0x13
4.895171583333333,0,0x7F,0x18
4.895189791666667,0,0xFF,0x04
4.897148416666667,0,0xF0,0x12
4.897166416666667,0,0x7F,0x12
4.897184625000000,0,0xFF,0x06
4.899137958333333,0,0xF0,0x12
4.899155958333333,0,0x7F,0x12
4.899174166666667,0,0xFF,0x06
4.901134833333334,0,0xF0,0x02
4.901152833333334,0,0x7F,0x18
4.901171041666666,0,0xFF,0x04
4.903122375000000,0,0xB0,0x12
4.903140375000000,0,0xFF,0x12
4.903158583333333,0,0xFF,0x04
4.905110250000000,0,0xB0,0x12
4.905128291666666,0,0xFF,0x12
4.905146458333333,0,0xFF,0x04
4.907096833333333,0,0xB0,0x12
4.907114875000000,0,0xFF,0x12
4.907133083333333,0,0xFF,0x00
4.909083875000000,0,0x98,0x1A
4.909101916666667,0,0xFF,0x12
4.909120125000000,0,0xFF,0x00
4.911073291666667,0,0xB0,0x12
4.911091333333333,0,0xFF,0x12
4.911109500000000,0,0xFF,0x04
4.911134333333333,0,0x87,0x12
4.911152333333333,0,0xFF,0x00
4.911170541666666,0,0xFF,0xB2
4.911191083333334,0,0x07,0x10
4.911209125000000,0,0x00,0x02
4.911227416666667,0,0x14,0x12
4.912217125000000,0,0x03,0x01
4.912235125000000,0,0x00,0x01
4.912253208333333,0,0x00,0x01
4.912273791666666,0,0x1E,0x01
4.912291833333334,0,0xC0,0x01
4.912309875000000,0,0x00,0x81
4.912330125000000,0,0x07,0x01
4.912348166666667,0,0xFF,0x00
4.912366375000000,0,0xFF,0x10
4.912387250000000,0,0x03,0x00
4.912405250000000,0,0x00,0x01
4.912423333333333,0,0x94,0x01
4.913809000000000,0,0x98,0x12
4.913827041666667,0,0xFF,0x12
4.913845250000000,0,0xFF,0x08
4.915796708333334,0,0xB0,0x12
4.915814750000000,0,0xFF,0x12
4.915832916666667,0,0xFF,0x08
4.917785416666667,0,0x98,0x10
4.917803458333333,0,0xFF,0x12
4.917821666666667,0,0xFF,0x08
4.919784083333333,0,0xB0,0x12
4.919802125000000,0,0xFF,0x12
4.919820291666666,0,0xFF,0x00
4.921772458333334,0,0x98,0x1A
4.921790500000000,0,0xFF,0x02
4.921808708333334,0,0xFF,0x08
4.923764166666666,0,0xB0,0x13
4.923782166666666,0,0xFF,0x10
4.923800375000000,0,0xFF,0x08
4.925751958333334,0,0xF0,0x02
4.925769958333333,0,0x7F,0x1A
4.925788166666667,0,0xFF,0x08
4.927739291666667,0,0x98,0x10
4.927757333333333,0,0xFF,0x13
4.927775541666667,0,0xFF,0x08
4.929732166666667,0,0xF0,0x13
4.929750166666667,0,0xFF,0x12
4.929768375000000,0,0xFF,0x08
4.931726000000000,0,0xB0,0x12
4.931744041666667,0,0xFF,0x12
4.931762250000000,0,0xFF,0x08
4.933720625000000,0,0xB0,0x12
4.933738625000000,0,0xFF,0x12
4.933756833333334,0,0xFF,0x08
4.935710833333333,0,0x98,0x10
4.935728875000000,0,0xFF,0x13
4.935747083333333,0,0xFF,0x08
4.937700750000000,0,0xF0,0x02
4.937718750000000,0,0x7F,0x18
4.937736958333334,0,0xFF,0x08
4.939690958333333,0,0xB0,0x13
4.939708958333333,0,0xFF,0x10
4.939727166666667,0,0xFF,0x08
4.941680291666667,0,0xB0,0x12
4.941698333333333,0,0xFF,0x12
4.941716541666667,0,0xFF,0x08
4.943666666666667,0,0xB0,0x12
4.943684708333334,0,0xFF,0x12
4.943702916666667,0,0xFF,0x0C
4.943727708333333,0,0x87,0x12
4.943745708333333,0,0xFF,0x00
4.943763916666667,0,0xFF,0x9C
4.943784500000000,0,0x03,0x12
4.943802500000000,0,0x00,0x10
4.943820583333333,0,0x3C,0x02
4.944006458333333,0,0x07,0x01
4.944024500000000,0,0x00,0x00
4.944042541666667,0,0x1C,0x01
4.944063166666667,0,0x30,0x00
4.944081166666667,0,0x00,0x01
4.944099250000000,0,0xC0,0x01
4.944119500000000,0,0x87,0x01
4.944137500000000,0,0xFF,0x00
4.944155708333334,0,0xFF,0x3C
4.944176583333333,0,0x03,0x01
4.944194583333333,0,0x80,0x01
4.944212666666667,0,0xBC,0x01
4.945656125000000,0,0xB0,0x12
4.945674125000000,0,0xFF,0x12
4.945692333333334,0,0xFF,0x18
4.947645916666667,0,0xB0,0x12
4.947663958333333,0,0xFF,0x13
4.947682166666667,0,0xFF,0x18
4.949634583333333,0,0xB0,0x12
4.949652583333333,0,0xFF,0x12
4.949670791666667,0,0xFF,0x18
4.951627166666666,0,0xB0,0x12
4.951645166666666,0,0xFF,0x12
4.951663375000000,0,0xFF,0x18
4.953619625000000,0,0xB0,0x12
4.953637666666666,0,0xFF,0x12
4.953655875000000,0,0xFF,0x18
4.955607125000000,0,0x98,0x18
4.955625166666667,0,0xFF,0x02
4.955643375000000,0,0xFF,0x1C
4.957599666666667,0,0xF0,0x12
4.957617666666667,0,0x7F,0x12
4.957635875000000,0,0xFF,0x18
4.959586833333334,0,0xB0,0x12
4.959604875000000,0,0xFF,0x12
4.959623083333334,0,0xFF,0x0C
4.961582583333334,0,0xB0,0x12
4.961600625000000,0,0xFF,0x13
4.961618833333334,0,0xFF,0x18
4.963571333333333,0,0xB0,0x12
4.963589333333333,0,0xFF,0x12
4.963607541666667,0,0xFF,0x18
4.965558000000000,0,0x98,0x1A
4.965576041666667,0,0xFF,0x02
4.965594250000000,0,0xFF,0x0C
4.967554500000000,0,0xF0,0x02
4.967572500000000,0,0x7F,0x12
4.967590708333334,0,0xFF,0x18
4.969544041666667,0,0xB0,0x12
4.969562041666666,0,0xFF,0x12
4.969580250000000,0,0xFF,0x18
4.971536583333333,0,0xB0,0x12
4.971554625000000,0,0xFF,0x12
4.971572833333333,0,0xFF,0x0C
4.973525541666667,0,0xB0,0x12
4.973543583333333,0,0xFF,0x12
4.973561750000000,0,0xFF,0x18
4.975521625000000,0,0xF0,0x12
4.975539625000000,0,0x7F,0x12
4.975557833333333,0,0xFF,0x18
4.975582625000000,0,0x87,0x12
4.975600666666667,0,0xFF,0x00
4.975618875000000,0,0xFF,0xFC
4.975639416666667,0,0x07,0x10
4.975657458333333,0,0x00,0x02
4.975675500000000,0,0x1E,0x12
4.975797833333333,0,0x07,0x01
4.975815875000000,0,0x00,0x01
4.975833958333333,0,0x1F,0x01
4.975854541666667,0,0x34,0x01
4.975872541666667,0,0x00,0x81
4.975890625000000,0,0x80,0x01
4.975910875000000,0,0xC3,0x01
4.975928875000000,0,0xFF,0x00
4.975947083333334,0,0xFF,0x1E
4.975967958333333,0,0x07,0x01
4.975986000000000,0,0x00,0x01
4.976004041666667,0,0x9E,0x01
4.977520666666667,0,0xB0,0x13
4.977538666666667,0,0xFF,0x10
4.977556875000000,0,0xFF,0x1C
4.979510458333333,0,0xB0,0x12
4.979528458333333,0,0xFF,0x12
4.979546666666667,0,0xFF,0x0C
4.981502375000000,0,0xB0,0x12
4.981520375000000,0,0xFF,0x12
4.981538583333333,0,0xFF,0x1C
4.983495375000000,0,0xB0,0x12
4.983513416666667,0,0xFF,0x12
4.983531625000000,0,0xFF,0x1C
4.985484250000000,0,0xF0,0x12
4.985502250000000,0,0x7F,0x12
4.985520458333333,0,0xFF,0x1C
4.987474125000000,0,0xF0,0x02
4.987492125000000,0,0x7F,0x12
4.987510333333334,0,0xFF,0x1C
4.989466291666667,0,0xB0,0x12
4.989484333333333,0,0xFF,0x12
4.989502541666667,0,0xFF,0x1C
4.991457500000000,0,0xB0,0x12
4.991475500000000,0,0xFF,0x10
4.991493708333334,0,0xFF,0x1C
4.993449291666667,0,0xB0,0x12
4.993467291666667,0,0x7F,0x12
4.993485500000000,0,0xFF,0x1C
4.995441250000000,0,0xB0,0x12
4.995459250000000,0,0xFF,0x12
4.995477458333333,0,0xFF,0x1C
4.997430791666667,0,0xF0,0x02
4.997448791666667,0,0x7F,0x12
4.997467000000000,0,0xFF,0x1C
4.999425291666666,0,0xB0,0x12
4.999443333333334,0,0xFF,0x12
4.999461541666666,0,0xFF,0x1C
5.001414541666667,0,0x98,0x10
5.001432583333333,0,0xFF,0x13
5.001450791666667,0,0xFF,0x1C
5.003405916666667,0,0x98,0x10
5.003423958333333,0,0xFF,0x02
5.003442166666667,0,0xFF,0x1C
5.005401250000000,0,0xB0,0x12
5.005419250000000,0,0xFF,0x12
5.005437458333334,0,0xFF,0x1C
5.007391000000000,0,0xF0,0x12
5.007409000000000,0,0x7F,0x1A
5.007427208333334,0,0xFF,0x1E
5.007452000000000,0,0x87,0x12
5.007470041666667,0,0xFF,0x00
5.007488250000000,0,0xFF,0xDE
5.007508791666667,0,0x07,0x18
5.007526833333333,0,0x00,0x02
5.007544916666666,0,0x47,0x12
5.007589333333334,0,0x07,0x01
5.007607375000000,0,0x00,0x00
5.007625416666666,0,0x66,0x01
5.007646041666667,0,0x30,0x00
5.007664041666667,0,0x00,0x01
5.007682125000000,0,0xC0,0x01
5.007702375000000,0,0x87,0x01
5.007720375000000,0,0xFF,0x00
5.007738583333333,0,0xFF,0x06
5.007759458333333,0,0x03,0x00
5.007777458333333,0,0x00,0x01
5.007795541666667,0,0xC6,0x01
5.009379291666667,0,0x98,0x10
5.009397333333333,0,0xFF,0x02
5.009415541666667,0,0xFF,0x0C
5.011378625000000,0,0x98,0x10
5.011396666666666,0,0xFF,0x13
5.011414875000000,0,0xFF,0x0C
5.013374416666666,0,0xB0,0x12
5.013392458333334,0,0xFF,0x13
5.013410666666666,0,0xFF,0x0C
5.015364708333333,0,0xB0,0x12
5.015382708333333,0,0xFF,0x12
5.015400916666667,0,0xFF,0x0C
5.017355625000000,0,0xB0,0x12
5.017373625000000,0,0xFF,0x12
5.017391833333333,0,0xFF,0x0C
5.019345666666666,0,0xB0,0x12
5.019363666666667,0,0xFF,0x12
5.019381875000000,0,0xFF,0x0C
5.021343125000000,0,0xB0,0x12
5.021361166666667,0,0xFF,0x12
5.021379333333333,0,0xFF,0x0C
5.023333458333333,0,0x98,0x10
5.023351500000000,0,0xFF,0x12
5.023369708333333,0,0xFF,0x0C
5.025319583333333,0,0xB0,0x12
5.025337583333333,0,0xFF,0x12
5.025355791666667,0,0xFF,0x0C
5.027318958333334,0,0xB0,0x12
5.027337000000000,0,0xFF,0x12
5.027355208333334,0,0xFF,0x0C
5.029309166666667,0,0xB0,0x12
5.029327208333333,0,0xFF,0x12
5.029345375000000,0,0xFF,0x0E
5.031300500000000,0,0xB0,0x13
5.031318500000000,0,0x7F,0x18
5.031336708333333,0,0xFF,0x0E
5.033289583333334,0,0x98,0x10
5.033307625000000,0,0xFF,0x02
5.033325833333333,0,0xFF,0x0C
5.035281458333333,0,0xB0,0x12
5.035299458333333,0,0x7F,0x12
5.035317666666667,0,0xFF,0x0C
5.037275333333334,0,0x98,0x18
5.037293375000000,0,0xFF,0x02
5.037311583333334,0,0xFF,0x0C
5.039265500000000,0,0x98,0x12
5.039283541666666,0,0xFF,0x13
5.039301750000000,0,0xFF,0x0C
5.039326541666667,0,0xC3,0x02
5.039344541666667,0,0xFF,0x00
5.039362750000000,0,0xFF,0xC6
5.039383541666667,0,0x07,0x12
5.039401583333333,0,0x00,0x12
5.039419625000000,0,0x00,0x12
5.040373000000000,0,0x03,0x01
5.040391000000000,0,0x80,0x81
5.040409083333333,0,0x00,0x01
5.040429666666666,0,0x34,0x81
5.040447708333334,0,0x80,0x01
5.040465791666667,0,0x80,0x00
5.040486000000000,0,0x07,0x01
5.040504041666667,0,0xFF,0x00
5.040522250000000,0,0xFF,0x00
5.040543125000000,0,0x03,0x00
5.040561125000000,0,0x00,0x01
5.040579208333333,0,0xC0,0x01
5.041955458333334,0,0xB0,0x13
5.041973458333334,0,0xFF,0x18
5.041991666666667,0,0xFF,0x00
5.043955291666666,0,0xB0,0x12
5.043973333333334,0,0xFF,0x12
5.043991541666666,0,0xFF,0x00
5.045949708333334,0,0xB0,0x12
5.045967750000000,0,0xFF,0x13
5.045985958333334,0,0xFF,0x00
5.047937875000000,0,0xF0,0x12
5.047955875000000,0,0x7F,0x12
5.047974083333333,0,0xFF,0x00
5.049933333333334,0,0xF0,0x12
5.049951333333333,0,0x7F,0x12
5.049969541666667,0,0xFF,0x00
5.051923458333333,0,0xF0,0x02
5.051941458333333,0,0x7F,0x12
5.051959666666667,0,0xFF,0x00
5.053912125000000,0,0xB0,0x12
5.053930166666667,0,0xFF,0x12
5.053948375000000,0,0xFF,0x00
5.055899208333333,0,0xB0,0x12
5.055917250000000,0,0xFF,0x12
5.055935458333333,0,0xFF,0x00
5.057891166666667,0,0xF0,0x12
5.057909166666667,0,0x7F,0x12
5.057927375000000,0,0xFF,0x00
5.059880000000000,0,0xB0,0x12
5.059898041666667,0,0xFF,0x13
5.059916250000000,0,0xFF,0x00
5.061877250000000,0,0xB0,0x12
5.061895250000000,0,0xFF,0x12
5.061913458333334,0,0xFF,0x00
5.063868916666666,0,0x98,0x12
5.063886958333334,0,0xFF,0x12
5.063905166666666,0,0xFF,0x00
5.065858375000000,0,0xB0,0x12
5.065876416666667,0,0xFF,0x13
5.065894625000000,0,0xFF,0x00
5.067856166666667,0,0xF0,0x12
5.067874208333333,0,0xFF,0x12
5.067892375000000,0,0xFF,0x00
5.069848083333333,0,0xB0,0x12
5.069866125000000,0,0xFF,0x13
5.069884333333333,0,0xFF,0x00
5.071838125000000,0,0x98,0x12
5.071856166666667,0,0xFF,0x13
5.071874375000000,0,0xFF,0x00
5.071899166666666,0,0xC3,0x02
5.071917166666666,0,0xFF,0x00
5.071935375000000,0,0xFF,0x80
5.071955958333334,0,0x03,0x13
5.071973958333333,0,0x80,0x1A
5.071992041666666,0,0x28,0x12
5.072166375000000,0,0x03,0x01
5.072184375000000,0,0x00,0x01
5.072202458333333,0,0x3C,0x01
5.072223041666667,0,0x1E,0x01
5.072241083333333,0,0xC0,0x01
5.072259166666667,0,0x80,0x01
5.072279375000000,0,0x07,0x01
5.072297416666666,0,0xFF,0x00
5.072315625000000,0,0xFF,0x28
5.072336500000000,0,0x03,0x00
5.072354500000000,0,0x00,0x01
5.072372583333333,0,0xE8,0x01
5.073827791666667,0,0xF0,0x02
5.073845791666667,0,0x7F,0x1A
5.073864000000000,0,0xFF,0x18
5.075816708333333,0,0xF0,0x12
5.075834708333334,0,0x7F,0x1A
5.075852916666666,0,0xFF,0x18
5.077813166666667,0,0xB0,0x12
5.077831166666667,0,0xFF,0x12
5.077849375000000,0,0xFF,0x10
5.079801333333333,0,0x98,0x10
5.079819375000000,0,0xFF,0x02
5.079837583333333,0,0xFF,0x10
5.081799458333333,0,0x98,0x1A
5.081817500000000,0,0xFF,0x02
5.081835708333333,0,0xFF,0x00
5.083788708333334,0,0xB0,0x12
5.083806708333333,0,0xFF,0x12
5.083824916666667,0,0xFF,0x10
5.085779625000000,0,0x98,0x12
5.085797666666667,0,0xFF,0x12
5.085815875000000,0,0xFF,0x10
5.087779291666667,0,0x98,0x10
5.087797333333334,0,0xFF,0x02
5.087815541666667,0,0xFF,0x10
5.089776291666666,0,0xB0,0x13
5.089794291666666,0,0x7F,0x18
5.089812500000000,0,0xFF,0x10
5.091768541666666,0,0xF0,0x02
5.091786541666667,0,0x7F,0x1A
5.091804750000000,0,0xFF,0x18
5.093763625000000,0,0xB0,0x12
5.093781666666667,0,0xFF,0x13
5.093799875000000,0,0xFF,0x10
5.095750541666667,0,0xF0,0x02
5.095768541666667,0,0x7F,0x1A
5.095786750000000,0,0xFF,0x10
5.097743958333333,0,0xB0,0x12
5.097761958333333,0,0xFF,0x12
5.097780166666666,0,0xFF,0x10
5.099734333333333,0,0xB0,0x12
5.099752333333333,0,0xFF,0x12
5.099770541666667,0,0xFF,0x10
5.101723500000000,0,0x98,0x18
5.101741541666667,0,0xFF,0x02
5.101759750000000,0,0xFF,0x10
5.103720458333333,0,0xB0,0x12
5.103738500000000,0,0xFF,0x12
5.103756666666666,0,0xFF,0x18
5.103781458333334,0,0x87,0x12
5.103799500000000,0,0xFF,0x00
5.103817708333334,0,0xFF,0xFC
5.103838250000000,0,0x07,0x12
5.103856291666666,0,0x00,0x13
5.103874333333334,0,0x00,0x10
5.103960833333334,0,0x07,0x01
5.103978833333334,0,0x00,0x01
5.103996916666667,0,0x0B,0x01
5.104017500000000,0,0x34,0x01
5.104035500000000,0,0x00,0x81
5.104053583333333,0,0x80,0x01
5.104073833333334,0,0x83,0x00
5.104091833333333,0,0xFF,0x00
5.104110041666667,0,0xFF,0x0A
5.104130916666667,0,0x03,0x01
5.104148916666666,0,0x80,0x01
5.104167000000000,0,0xCA,0x01
5.105716208333333,0,0x10,0x12
5.105734250000000,0,0xFF,0x12
5.105752458333333,0,0xFF,0x00
5.107705166666666,0,0xB0,0x12
5.107723208333334,0,0xFF,0x12
5.107741375000000,0,0xFF,0x14
5.109703291666666,0,0x98,0x1A
5.109721333333333,0,0xFF,0x02
5.109739541666666,0,0xFF,0x14
5.111697791666667,0,0x98,0x12
5.111715833333333,0,0xFF,0x12
5.111734000000000,0,0xFF,0x14
5.113690875000000,0,0xF0,0x02
5.113708875000000,0,0x7F,0x1A
5.113727083333333,0,0xFF,0x14
5.115680458333333,0,0xF0,0x02
5.115698458333333,0,0x7F,0x18
5.115716666666667,0,0xFF,0x14
5.117671208333333,0,0xB0,0x12
5.117689208333333,0,0xFF,0x12
5.117707416666667,0,0xFF,0x14
5.119657375000000,0,0x98,0x10
5.119675416666666,0,0xFF,0x02
5.119693625000000,0,0xFF,0x00
5.121650875000000,0,0x98,0x10
5.121668916666667,0,0xFF,0x02
5.121687125000000,0,0xFF,0x14
5.123646125000000,0,0xB0,0x12
5.123664166666667,0,0xFF,0x12
5.123682375000000,0,0xFF,0x14
5.125636625000000,0,0xF0,0x13
5.125654625000000,0,0xFF,0x12
5.125672833333334,0,0xFF,0x14
5.127631791666666,0,0x90,0x12
5.127649833333333,0,0xFF,0x13
5.127668041666666,0,0xFF,0x14
5.129627541666666,0,0xF0,0x02
5.129645541666667,0,0x7F,0x1A
5.129663750000000,0,0xFF,0x14
5.131619625000000,0,0xB0,0x12
5.131637666666666,0,0xFF,0x12
5.131655875000000,0,0xFF,0x04
5.133610958333334,0,0xB0,0x12
5.133629000000000,0,0xFF,0x12
5.133647166666667,0,0xFF,0x14
5.135598541666667,0,0xB0,0x13
5.135616541666667,0,0xFF,0x10
5.135634750000000,0,0xFF,0x14
5.135659541666667,0,0x87,0x1A
5.135677583333333,0,0xFF,0x00
5.135695791666667,0,0xFF,0x8B
5.135716333333334,0,0x07,0x12
5.135734375000000,0,0x00,0x12
5.135752666666667,0,0x33,0x13
5.136744541666666,0,0x07,0x01
5.136762583333334,0,0x00,0x00
5.136780625000000,0,0x1A,0x01
5.136801250000000,0,0x30,0x00
5.136819250000000,0,0x00,0x01
5.136837333333333,0,0xC0,0x01
5.136857541666667,0,0x07,0x81
5.136875583333333,0,0xFF,0x00
5.136893791666667,0,0xFF,0x32
5.136914666666667,0,0x03,0x00
5.136932666666667,0,0x00,0x01
5.136950750000000,0,0xF2,0x01
5.138368666666667,0,0xB0,0x12
5.138386708333333,0,0xFF,0x12
5.138404875000000,0,0xFF,0x04
5.140357291666667,0,0xB0,0x12
5.140375333333333,0,0xFF,0x12
5.140393500000000,0,0xFF,0x04
5.142344291666666,0,0xF0,0x02
5.142362291666666,0,0x7F,0x10
5.142380500000000,0,0xFF,0x04
5.144331541666666,0,0x98,0x1A
5.144349583333334,0,0xFF,0x12
5.144367791666666,0,0xFF,0x00
5.146326625000000,0,0xB0,0x12
5.146344666666667,0,0xFF,0x12
5.146362833333334,0,0xFF,0x04
5.148324416666667,0,0xB0,0x12
5.148342458333333,0,0xFF,0x12
5.148360625000000,0,0xFF,0x04
5.150316083333333,0,0x98,0x18
5.150334125000000,0,0xFF,0x02
5.150352333333333,0,0xFF,0x04
5.152303583333333,0,0xF0,0x12
5.152321583333333,0,0x7F,0x12
5.152339791666667,0,0xFF,0x06
5.154298791666666,0,0xB0,0x12
5.154316833333334,0,0xFF,0x13
5.154335041666666,0,0xFF,0x04
5.156289583333334,0,0xB0,0x12
5.156307625000000,0,0xFF,0x12
5.156325791666666,0,0xFF,0x04
5.158278500000000,0,0xB0,0x12
5.158296541666667,0,0xFF,0x13
5.158314750000000,0,0xFF,0x04
5.160272458333333,0,0x98,0x10
5.160290500000000,0,0xFF,0x02
5.160308708333333,0,0xFF,0x00
5.162269791666667,0,0xF0,0x02
5.162287791666667,0,0x7F,0x12
5.162306000000000,0,0xFF,0x04
5.164260708333333,0,0xB0,0x12
5.164278750000000,0,0xFF,0x13
5.164296958333333,0,0xFF,0x04
5.166247375000000,0,0xF0,0x02
5.166265375000000,0,0x7F,0x1A
5.166283583333334,0,0xFF,0x06
5.168235875000000,0,0xB0,0x12
5.168253875000000,0,0x7F,0x12
5.168272083333333,0,0xFF,0x04
5.168296916666667,0,0x87,0x12
5.168314916666667,0,0xFF,0x00
5.168333125000000,0,0xFF,0xB2
5.168353666666667,0,0x87,0x18
5.168371708333333,0,0x00,0x02
5.168389750000000,0,0x14,0x12
5.168536541666667,0,0x07,0x01
5.168554541666667,0,0x00,0x01
5.168572625000000,0,0x00,0x01
5.168593208333333,0,0x1E,0x01
5.168611250000000,0,0xC0,0x01
5.168629291666667,0,0x00,0x81
5.168649541666666,0,0x87,0x01
5.168667583333334,0,0xFF,0x00
5.168685791666666,0,0xFF,0x14
5.168706625000000,0,0x87,0x01
5.168724666666667,0,0x00,0x01
5.168742750000000,0,0xC0,0x00
5.170222458333333,0,0x30,0x92
5.170240500000000,0,0xFF,0x12
5.170258708333333,0,0xFF,0x08
5.172209916666667,0,0xB0,0x12
5.172227958333333,0,0xFF,0x12
5.172246166666667,0,0xFF,0x08
5.174200208333334,0,0xB0,0x12
5.174218208333333,0,0xFF,0x10
5.174236416666667,0,0xFF,0x08
5.176189041666666,0,0xB0,0x12
5.176207083333333,0,0xFF,0x12
5.176225291666666,0,0xFF,0x08
5.178186041666667,0,0xF0,0x02
5.178204041666667,0,0x7F,0x1A
5.178222250000000,0,0xFF,0x08
5.180174958333334,0,0xF0,0x02
5.180192958333333,0,0x7F,0x12
5.180211166666667,0,0xFF,0x00
5.182171416666667,0,0xB0,0x12
5.182189458333333,0,0xFF,0x12
5.182207666666667,0,0xFF,0x0C
5.184158750000000,0,0x90,0x12
5.184176791666666,0,0xFF,0x12
5.184195000000000,0,0xFF,0x08
5.186151625000000,0,0x98,0x10
5.186169666666666,0,0xFF,0x13
5.186187875000000,0,0xFF,0x08
5.188150916666666,0,0xF0,0x13
5.188168916666666,0,0x7F,0x1A
5.188187125000000,0,0xFF,0x00
5.190144666666667,0,0xF0,0x13
5.190162666666667,0,0x7F,0x18
5.190180875000000,0,0xFF,0x08
5.192133333333333,0,0xB0,0x12
5.192151375000000,0,0xFF,0x02
5.192169583333333,0,0xFF,0x0C
5.194120541666667,0,0xB0,0x12
5.194138583333333,0,0xFF,0x12
5.194156791666667,0,0xFF,0x08
5.196113541666667,0,0xB0,0x12
5.196131541666666,0,0xFF,0x12
5.196149750000000,0,0xFF,0x08
5.198106708333333,0,0x98,0x10
5.198124750000000,0,0xFF,0x02
5.198142958333333,0,0xFF,0x08
5.200097833333333,0,0x98,0x1A
5.200115875000000,0,0xFF,0x12
5.200134083333333,0,0xFF,0x0C
5.200158875000000,0,0x87,0x12
5.200176916666667,0,0xFF,0x00
5.200195083333333,0,0xFF,0x14
5.200215666666667,0,0x03,0x12
5.200233666666667,0,0x80,0x1A
5.200251750000000,0,0x3C,0x12
5.200330333333333,0,0x07,0x01
5.200348333333333,0,0x80,0x81
5.200366416666666,0,0x1E,0x01
5.200387041666667,0,0x30,0x00
5.200405041666667,0,0x00,0x01
5.200423125000000,0,0xC0,0x01
5.200443375000000,0,0xC3,0x00
5.200461375000000,0,0xFF,0x00
5.200479583333333,0,0xFF,0x3E
5.200500458333333,0,0x07,0x01
5.200518500000000,0,0x00,0x00
5.200536541666667,0,0x1C,0x01
5.202095500000000,0,0x10,0x12
5.202113541666667,0,0xFF,0x12
5.202131750000000,0,0xFF,0x18
5.204090041666666,0,0xF0,0x02
5.204108041666666,0,0x7F,0x1A
5.204126250000000,0,0xFF,0x18
5.206078166666667,0,0x98,0x1A
5.206096208333333,0,0xFF,0x02
5.206114416666667,0,0xFF,0x0C
5.208068333333333,0,0x98,0x10
5.208086375000000,0,0xFF,0x12
5.208104583333333,0,0xFF,0x18
5.210064541666667,0,0xB0,0x12
5.210082583333334,0,0xFF,0x13
5.210100791666667,0,0xFF,0x18
5.212056625000000,0,0x98,0x18
5.212074666666667,0,0xFF,0x02
5.212092875000000,0,0xFF,0x0C
5.214048291666667,0,0xB0,0x12
5.214066333333333,0,0xFF,0x13
5.214084541666667,0,0xFF,0x18
5.216046750000000,0,0x98,0x10
5.216064791666667,0,0xFF,0x02
5.216083000000000,0,0xFF,0x18
5.218037541666667,0,0xB0,0x12
5.218055583333333,0,0xFF,0x12
5.218073791666667,0,0xFF,0x18
5.220031541666667,0,0xB0,0x12
5.220049583333333,0,0xFF,0x12
5.220067791666667,0,0xFF,0x08
5.222021916666667,0,0xF0,0x02
5.222039916666667,0,0x7F,0x1A
5.222058125000000,0,0xFF,0x18
5.224010500000000,0,0xF0,0x02
5.224028500000000,0,0x7F,0x12
5.224046708333334,0,0xFF,0x18
5.226002708333334,0,0xB0,0x12
5.226020750000000,0,0xFF,0x13
5.226038958333334,0,0xFF,0x18
5.227995750000000,0,0xF0,0x12
5.228013750000000,0,0x7F,0x1A
5.228031958333333,0,0xFF,0x18
5.229994541666667,0,0xF0,0x12
5.230012583333333,0,0xFF,0x12
5.230030750000000,0,0xFF,0x18
5.231984708333333,0,0xB0,0x12
5.232002750000000,0,0xFF,0x12
5.232020958333333,0,0xFF,0x18
5.232045750000000,0,0x87,0x1A
5.232063791666667,0,0xFF,0x00
5.232082000000000,0,0xFF,0xBC
5.232102541666666,0,0x07,0x12
5.232122625000000,0,0x00,0x12
5.232140666666667,0,0x1E,0x10
5.233118416666667,0,0x07,0x01
5.233136458333333,0,0x00,0x01
5.233154541666667,0,0x0F,0x00
5.233175125000000,0,0x36,0x01
5.233193166666666,0,0x80,0x00
5.233211208333334,0,0x00,0x01
5.233231458333333,0,0x87,0x01
5.233249500000000,0,0xFF,0x00
5.233267708333333,0,0xFF,0x1F
5.233288583333334,0,0x03,0x00
5.233306583333333,0,0x00,0x01
5.233324666666666,0,0xDE,0x01
5.234716208333333,0,0x30,0x92
5.234734250000000,0,0xFF,0x12
5.234752458333333,0,0xFF,0x1C
5.236706083333333,0,0xB0,0x12
5.236724125000000,0,0xFF,0x12
5.236742333333333,0,0xFF,0x1C
5.238703958333334,0,0xF0,0x02
5.238721958333334,0,0x7F,0x12
5.238740166666667,0,0xFF,0x1C
5.240700916666666,0,0xB0,0x12
5.240718958333333,0,0xFF,0x12
5.240737125000000,0,0xFF,0x1C
5.242691166666667,0,0xB0,0x12
5.242709208333333,0,0xFF,0x12
5.242727416666667,0,0xFF,0x1C
5.244686625000000,0,0xB0,0x13
5.244704625000000,0,0xFF,0x10
5.244722833333333,0,0xFF,0x1C
5.246674250000000,0,0x98,0x12
5.246692291666666,0,0xFF,0x13
5.246710500000000,0,0xFF,0x1C
5.248674125000000,0,0xF0,0x12
5.248692166666666,0,0xFF,0x12
5.248710333333333,0,0xFF,0x1C
5.250663791666667,0,0x98,0x1A
5.250681833333333,0,0xFF,0x12
5.250700041666667,0,0xFF,0x0C
5.252652166666667,0,0xB0,0x12
5.252670166666666,0,0xFF,0x12
5.252688375000000,0,0xFF,0x1C
5.254640666666667,0,0xB0,0x12
5.254658708333333,0,0xFF,0x13
5.254676916666667,0,0xFF,0x1C
5.256629083333333,0,0xB0,0x12
5.256647125000000,0,0xFF,0x12
5.256665333333333,0,0xFF,0x0C
5.258618333333334,0,0xF0,0x12
5.258636333333333,0,0x7F,0x12
5.258654541666667,0,0xFF,0x1C
5.260608333333334,0,0xB0,0x12
5.260626375000000,0,0xFF,0x12
5.260644541666666,0,0xFF,0x1C
5.262601458333333,0,0xB0,0x12
5.262619500000000,0,0xFF,0x12
5.262637666666667,0,0xFF,0x1C
5.264595208333334,0,0xB0,0x12
5.264613208333333,0,0xFF,0x12
5.264631416666667,0,0xFF,0x1C
5.264656208333333,0,0x87,0x12
5.264674250000000,0,0xFF,0x00
5.264692416666667,0,0xFF,0x1E
5.264713000000000,0,0x03,0x12
5.264731000000000,0,0x00,0x10
5.264749083333333,0,0x02,0x02
5.264910916666667,0,0x03,0x00
5.264928916666666,0,0x00,0x01
5.264947000000000,0,0x02,0x01
5.264967583333333,0,0x1E,0x01
5.264985625000000,0,0xC0,0x00
5.265003666666667,0,0x00,0x01
5.265023916666666,0,0x87,0x01
5.265041958333334,0,0xFF,0x00
5.265060125000000,0,0xFF,0x46
5.265081000000000,0,0x87,0x01
5.265099041666667,0,0x00,0x01
5.265117083333333,0,0x66,0x01
5.266584541666667,0,0x90,0x12
5.266602583333333,0,0xFF,0x13
5.266620791666667,0,0xFF,0x0C
5.268573458333333,0,0x98,0x1A
5.268591500000000,0,0xFF,0x12
5.268609708333333,0,0xFF,0x0C
5.270570458333333,0,0xB0,0x12
5.270588500000000,0,0xFF,0x12
5.270606666666667,0,0xFF,0x0C
5.272556750000000,0,0xB0,0x12
5.272574791666667,0,0xFF,0x12
5.272592958333333,0,0xFF,0x0C
5.274546750000000,0,0xF0,0x02
5.274564750000000,0,0x7F,0x12
5.274582958333333,0,0xFF,0x0E
5.276536000000000,0,0xB0,0x13
5.276554000000000,0,0x7F,0x10
5.276572208333334,0,0xFF,0x0C
5.278522458333334,0,0xB0,0x12
5.278540458333334,0,0x7F,0x12
5.278558666666667,0,0xFF,0x04
5.280519833333333,0,0xF0,0x13
5.280537833333334,0,0x7F,0x10
5.280556041666666,0,0xFF,0x0C
5.282508500000000,0,0xB0,0x12
5.282526500000000,0,0xFF,0x12
5.282544708333333,0,0xFF,0x0C
5.284495958333333,0,0xB0,0x12
5.284513958333333,0,0xFF,0x12
5.284532166666667,0,0xFF,0x0C
5.286484750000000,0,0x98,0x12
5.286502791666667,0,0xFF,0x13
5.286521000000000,0,0xFF,0x0C
5.288472041666667,0,0xB0,0x12
5.288490041666667,0,0xFF,0x12
5.288508250000000,0,0xFF,0x0C
5.290465333333334,0,0xB0,0x12
5.290483375000000,0,0xFF,0x12
5.290501541666667,0,0xFF,0x0C
5.292456083333334,0,0x98,0x18
5.292474125000000,0,0xFF,0x02
5.292492333333334,0,0xFF,0x0C
5.294445125000000,0,0x98,0x1A
5.294463166666667,0,0xFF,0x02
5.294481375000000,0,0xFF,0x0C
5.296444333333334,0,0xF0,0x02
5.296462333333333,0,0x7F,0x1A
5.296480541666667,0,0xFF,0x0E
5.296505333333333,0,0x87,0x12
5.296523375000000,0,0xFF,0x00
5.296541583333333,0,0xFF,0xC2
5.296562125000000,0,0x07,0x12
5.296580166666667,0,0x00,0x12
5.296598208333333,0,0x00,0x12
5.296701291666666,0,0x07,0x01
5.296719333333333,0,0x00,0x01
5.296737375000000,0,0x00,0x01
5.296757958333333,0,0x34,0x81
5.296776000000000,0,0x80,0x01
5.296794083333333,0,0x80,0x01
5.296814291666666,0,0x07,0x01
5.296832333333334,0,0xFF,0x00
5.296850541666666,0,0xFF,0x00
5.296871375000000,0,0x87,0x01
5.296889416666667,0,0x00,0x01
5.296907458333333,0,0x00,0x81
5.298432083333333,0,0x30,0x92
5.298450125000000,0,0xFF,0x12
5.298468333333333,0,0xFF,0x00
5.300420166666667,0,0xB0,0x12
5.300438208333333,0,0xFF,0x12
5.300456375000000,0,0xFF,0x00
5.302418750000000,0,0x90,0x12
5.302436791666667,0,0xFF,0x12
5.302454958333334,0,0xFF,0x00
5.304412625000000,0,0xF0,0x02
5.304430625000000,0,0x7F,0x1A
5.304448833333334,0,0xFF,0x00
5.306407958333334,0,0x98,0x10
5.306426000000000,0,0xFF,0x02
5.306444208333334,0,0xFF,0x00
5.308399000000000,0,0xB0,0x12
5.308417000000000,0,0xFF,0x12
5.308435208333333,0,0xFF,0x00
5.310386041666667,0,0xF0,0x02
5.310404041666667,0,0x7F,0x1A
5.310422250000000,0,0xFF,0x00
5.312379875000000,0,0xF0,0x13
5.312397875000000,0,0xFF,0x10
5.312416083333333,0,0xFF,0x00
5.314368916666667,0,0x98,0x10
5.314386958333333,0,0xFF,0x13
5.314405166666667,0,0xFF,0x00
5.316360750000000,0,0xB0,0x12
5.316378791666667,0,0xFF,0x12
5.316397000000000,0,0xFF,0x00
5.318359250000000,0,0xF0,0x02
5.318377250000000,0,0x7F,0x18
5.318395458333334,0,0xFF,0x00
5.320351458333334,0,0xB0,0x12
5.320369500000000,0,0xFF,0x12
5.320387708333334,0,0xFF,0x00
5.322345875000000,0,0x98,0x10
5.322363916666666,0,0xFF,0x02
5.322382125000000,0,0xFF,0x00
5.324337666666667,0,0xF0,0x12
5.324355666666666,0,0x7F,0x12
5.324373875000000,0,0xFF,0x00
5.326336500000000,0,0xF0,0x02
5.326354500000000,0,0x7F,0x12
5.326372708333333,0,0xFF,0x00
5.328326666666666,0,0xB0,0x12
5.328344666666666,0,0xFF,0x12
5.328362875000000,0,0xFF,0x00
5.328387666666667,0,0x87,0x12
5.328405708333333,0,0xFF,0x00
5.328423875000000,0,0xFF,0x00
5.328444458333333,0,0x03,0x13
5.328462458333333,0,0x00,0x10
5.328480541666667,0,0x28,0x12
5.329484958333333,0,0x07,0x01
5.329502958333333,0,0x00,0x01
5.329521041666666,0,0x3C,0x00
5.329541625000000,0,0x34,0x01
5.329559666666666,0,0x80,0x01
5.329577708333334,0,0x80,0x01
5.329597958333333,0,0xC3,0x01
5.329615958333333,0,0xFF,0x00
5.329634166666667,0,0xFF,0x28
5.329655041666666,0,0x07,0x01
5.329673083333334,0,0x00,0x01
5.329691125000000,0,0x80,0x01
5.331082041666667,0,0x98,0x10
5.331100083333333,0,0xFF,0x02
5.331118291666667,0,0xFF,0x10
5.333070541666666,0,0x90,0x12
5.333088583333334,0,0xFF,0x13
5.333106791666666,0,0xFF,0x10
5.335069458333333,0,0xF0,0x02
5.335087458333334,0,0x7F,0x1A
5.335105666666666,0,0xFF,0x10
5.337059166666666,0,0xB0,0x13
5.337077166666667,0,0xFF,0x10
5.337095375000000,0,0xFF,0x10
5.339056541666666,0,0xB0,0x12
5.339074583333334,0,0xFF,0x12
5.339092750000000,0,0xFF,0x10
5.341049000000000,0,0x98,0x1A
5.341067041666666,0,0xFF,0x02
5.341085250000000,0,0xFF,0x10
5.343040500000000,0,0xB0,0x12
5.343058541666666,0,0xFF,0x12
5.343076750000000,0,0xFF,0x00
5.345031500000000,0,0xB0,0x12
5.345049541666667,0,0xFF,0x12
5.345067750000000,0,0xFF,0x00
5.347021791666666,0,0x98,0x1A
5.347039833333334,0,0xFF,0x02
5.347058041666667,0,0xFF,0x10
5.349020208333333,0,0x98,0x10
5.349038250000000,0,0xFF,0x13
5.349056458333333,0,0xFF,0x10
5.351017833333334,0,0x98,0x10
5.351035875000000,0,0xFF,0x13
5.351054083333334,0,0xFF,0x10
5.353008166666666,0,0xB0,0x12
5.353026166666667,0,0xFF,0x12
5.353044375000000,0,0xFF,0x10
5.354995500000000,0,0x98,0x12
5.355013541666667,0,0xFF,0x13
5.355031750000000,0,0xFF,0x10
5.356987583333333,0,0xB0,0x12
5.357005625000000,0,0xFF,0x12
5.357023791666666,0,0xFF,0x10
5.358978041666667,0,0xB0,0x12
5.358996083333333,0,0xFF,0x12
5.359014291666667,0,0xFF,0x10
5.360967208333333,0,0xF0,0x02
5.360985208333333,0,0x7F,0x12
5.361003416666667,0,0xFF,0x18
5.361028208333333,0,0x87,0x12
5.361046250000000,0,0xFF,0x00
5.361064458333333,0,0xFF,0xA8
5.361085000000000,0,0x87,0x1A
5.361103041666667,0,0x00,0x02
5.361121125000000,0,0x0A,0x12
5.361275500000000,0,0x07,0x01
5.361293541666667,0,0x00,0x01
5.361311583333333,0,0x0B,0x81
5.361332208333334,0,0x34,0x01
5.361350208333334,0,0x00,0x81
5.361368291666667,0,0x80,0x01
5.361388541666667,0,0xC3,0x01
5.361406541666667,0,0xFF,0x00
5.361424750000000,0,0xFF,0x08
5.361445625000000,0,0x07,0x01
5.361463666666666,0,0x00,0x01
5.361481708333334,0,0x0B,0x81
5.362966375000000,0,0xF0,0x12
5.362984375000000,0,0x7F,0x12
5.363002583333333,0,0xFF,0x14
5.364965250000000,0,0xF0,0x02
5.364983250000000,0,0x7F,0x12
5.365001458333333,0,0xFF,0x1C
5.366953500000000,0,0xB0,0x12
5.366971541666667,0,0xFF,0x12
5.366989750000000,0,0xFF,0x14
5.368947458333333,0,0x90,0x12
5.368965500000000,0,0xFF,0x13
5.368983708333333,0,0xFF,0x14
5.370942375000000,0,0x98,0x12
5.370960416666667,0,0xFF,0x13
5.370978625000000,0,0xFF,0x14
5.372941583333334,0,0xF0,0x02
5.372959583333333,0,0x7F,0x12
5.372977791666667,0,0xFF,0x16
5.374937208333334,0,0xB0,0x12
5.374955250000000,0,0xFF,0x12
5.374973416666666,0,0xFF,0x14
5.376931791666666,0,0xB0,0x12
5.376949833333334,0,0xFF,0x12
5.376968041666666,0,0xFF,0x14
5.378924583333333,0,0x98,0x12
5.378942625000000,0,0xFF,0x12
5.378960833333333,0,0xFF,0x14
5.380912833333333,0,0x98,0x18
5.380930875000000,0,0xFF,0x02
5.380949083333333,0,0xFF,0x14
5.382899291666667,0,0xB0,0x12
5.382917333333333,0,0xFF,0x12
5.382935500000000,0,0xFF,0x1E
5.384889291666667,0,0xB0,0x12
5.384907291666667,0,0xFF,0x12
5.384925500000000,0,0xFF,0x14
5.386887791666667,0,0xF0,0x02
5.386905791666667,0,0x7F,0x12
5.386924000000000,0,0xFF,0x14
5.388882125000000,0,0xB0,0x12
5.388900166666667,0,0xFF,0x12
5.388918333333334,0,0xFF,0x14
5.390873458333333,0,0xF0,0x13
5.390891458333333,0,0xFF,0x10
5.390909666666666,0,0xFF,0x14
5.392868541666667,0,0x98,0x1A
5.392886583333333,0,0xFF,0x12
5.392904791666667,0,0xFF,0x10
5.392929583333333,0,0xC7,0x12
5.392947583333333,0,0xFF,0x00
5.392965791666667,0,0xFF,0x0A
5.392986375000000,0,0x03,0x13
5.393004375000000,0,0x00,0x10
5.393022458333333,0,0x32,0x02
5.393066583333334,0,0x07,0x01
5.393084583333334,0,0x80,0x81
5.393102666666667,0,0x38,0x01
5.393123250000000,0,0x34,0x81
5.393141291666667,0,0x80,0x01
5.393159375000000,0,0x80,0x00
5.393179583333334,0,0x07,0x81
5.393197625000000,0,0xFF,0x00
5.393215833333334,0,0xFF,0x32
5.393236708333333,0,0x03,0x00
5.393254708333333,0,0x00,0x01
5.393272791666667,0,0xF2,0x01
5.394861833333334,0,0x30,0x92
5.394879875000000,0,0xFF,0x12
5.394898083333334,0,0xFF,0x00
5.396855375000000,0,0xB0,0x12
5.396873375000000,0,0xFF,0x12
5.396891583333334,0,0xFF,0x04
5.398846750000000,0,0x98,0x10
5.398864791666667,0,0xFF,0x13
5.398883000000000,0,0xFF,0x04
5.400836583333334,0,0xF0,0x13
5.400854583333333,0,0x7F,0x18
5.400872791666667,0,0xFF,0x04
5.402828875000000,0,0xF0,0x12
5.402846875000000,0,0x7F,0x12
5.402865083333333,0,0xFF,0x04
5.404820500000000,0,0x98,0x10
5.404838541666667,0,0xFF,0x13
5.404856750000000,0,0xFF,0x04
5.406809166666667,0,0x98,0x1A
5.406827208333334,0,0xFF,0x02
5.406845416666667,0,0xFF,0x04
5.408798708333333,0,0xB0,0x12
5.408816708333333,0,0xFF,0x12
5.408834916666667,0,0xFF,0x04
5.410786791666666,0,0xF0,0x02
5.410804791666667,0,0x7F,0x12
5.410823000000000,0,0xFF,0x06
5.412773333333333,0,0xF0,0x13
5.412791333333334,0,0x7F,0x10
5.412809541666666,0,0xFF,0x04
5.414771166666666,0,0x98,0x18
5.414789208333334,0,0xFF,0x02
5.414807416666667,0,0xFF,0x04
5.416764250000000,0,0xB0,0x12
5.416782250000000,0,0x7F,0x12
5.416800458333333,0,0xFF,0x04
5.418758041666667,0,0x98,0x10
5.418776083333333,0,0xFF,0x02
5.418794291666667,0,0xFF,0x04
5.420745833333333,0,0xB0,0x12
5.420763833333333,0,0xFF,0x12
5.420782041666667,0,0xFF,0x04
5.422735083333333,0,0xF0,0x02
5.422753083333333,0,0x7F,0x12
5.422771291666667,0,0xFF,0x06
5.424722583333334,0,0xF0,0x12
5.424740583333334,0,0x7F,0x12
5.424758791666667,0,0xFF,0x04
5.424783625000000,0,0x87,0x12
5.424801625000000,0,0xFF,0x00
5.424819833333333,0,0xFF,0xB2
5.424840375000000,0,0x87,0x12
5.424858625000000,0,0x80,0x12
5.424876708333334,0,0x14,0x12
5.425849291666666,0,0x07,0x01
5.425867333333334,0,0x00,0x01
5.425885416666667,0,0x14,0x01
5.425906000000000,0,0x34,0x01
5.425924000000000,0,0x00,0x81
5.425942083333333,0,0x80,0x01
5.425962333333334,0,0xC3,0x00
5.425980333333333,0,0xFF,0x00
5.425998541666667,0,0xFF,0x14
5.426019416666667,0,0x07,0x01
5.426037416666667,0,0x80,0x81
5.426055500000000,0,0x94,0x01
5.427447333333333,0,0xF0,0x13
5.427465333333333,0,0x7F,0x10
5.427483541666667,0,0xFF,0x08
5.429442916666667,0,0x98,0x1A
5.429460958333333,0,0xFF,0x02
5.429479166666667,0,0xFF,0x08
5.431432833333333,0,0xB0,0x12
5.431450833333333,0,0xFF,0x12
5.431469041666666,0,0xFF,0x08
5.433430541666667,0,0xF0,0x02
5.433448541666666,0,0x7F,0x1A
5.433466750000000,0,0xFF,0x08
5.435418000000000,0,0xB0,0x12
5.435436000000000,0,0xFF,0x12
5.435454208333334,0,0xFF,0x08
5.437417208333334,0,0xF0,0x02
5.437435208333333,0,0x7F,0x1A
5.437453416666667,0,0xFF,0x08
5.439411750000000,0,0x98,0x12
5.439429791666667,0,0xFF,0x12
5.439447958333333,0,0xFF,0x08
5.441402166666666,0,0xB0,0x12
5.441420166666667,0,0xFF,0x12
5.441438375000000,0,0xFF,0x08
5.443394958333333,0,0xB0,0x12
5.443413000000000,0,0xFF,0x12
5.443431208333333,0,0xFF,0x0C
5.445383125000000,0,0xF0,0x13
5.445401125000000,0,0x7F,0x1A
5.445419333333334,0,0xFF,0x08
5.447369541666666,0,0xF0,0x02
5.447387541666667,0,0x7F,0x1A
5.447405750000000,0,0xFF,0x08
5.449356791666666,0,0xB0,0x12
5.449374791666667,0,0x7F,0x12
5.449393000000000,0,0xFF,0x08
5.451343166666667,0,0xF0,0x12
5.451361166666667,0,0x7F,0x12
5.451379375000000,0,0xFF,0x08
5.453337916666666,0,0xF0,0x13
5.453355916666666,0,0x7F,0x10
5.453374125000000,0,0xFF,0x08
5.455330500000000,0,0xB0,0x12
5.455348500000000,0,0xFF,0x12
5.455366708333333,0,0xFF,0x08
5.457324958333333,0,0xB0,0x12
5.457342958333333,0,0xFF,0x12
5.457361166666667,0,0xFF,0x08
5.457385958333333,0,0x87,0x12
5.457404000000000,0,0xFF,0x00
5.457422166666666,0,0xFF,0x14
5.457442750000000,0,0x07,0x12
5.457460750000000,0,0x00,0x12
5.457478833333333,0,0x3C,0x12
5.457638583333333,0,0x07,0x01
5.457656625000000,0,0x00,0x01
5.457674666666667,0,0x3E,0x01
5.457695250000000,0,0x34,0x81
5.457713291666667,0,0xC0,0x01
5.457731333333333,0,0x00,0x81
5.457751583333334,0,0x87,0x01
5.457769583333334,0,0xFF,0x00
5.457787791666667,0,0xFF,0x3C
5.457808666666667,0,0x07,0x01
5.457826666666667,0,0x80,0x81
5.457844750000000,0,0xBC,0x01
5.459315958333334,0,0xB0,0x12
5.459334000000000,0,0xFF,0x12
5.459352166666666,0,0xFF,0x18
5.461314041666666,0,0xB0,0x12
5.461332041666667,0,0xFF,0x12
5.461350250000000,0,0xFF,0x18
5.463302041666667,0,0xB0,0x12
5.463320083333334,0,0xFF,0x12
5.463338250000000,0,0xFF,0x18
5.465300333333333,0,0xB0,0x12
5.465318375000000,0,0xFF,0x12
5.465336541666667,0,0xFF,0x18
5.467291333333334,0,0xB0,0x13
5.467309333333334,0,0x7F,0x18
5.467327541666666,0,0xFF,0x18
5.469285083333333,0,0xB0,0x12
5.469303083333333,0,0xFF,0x12
5.469321291666667,0,0xFF,0x18
5.471283750000000,0,0x98,0x10
5.471301791666667,0,0xFF,0x02
5.471320000000000,0,0xFF,0x18
5.473276750000000,0,0xB0,0x12
5.473294791666667,0,0xFF,0x12
5.473313000000000,0,0xFF,0x18
5.475274750000000,0,0xB0,0x12
5.475292791666667,0,0xFF,0x12
5.475311000000000,0,0xFF,0x18
5.477261416666667,0,0xB0,0x12
5.477279458333333,0,0xFF,0x12
5.477297625000000,0,0xFF,0x18
5.479256333333334,0,0xF0,0x12
5.479274333333334,0,0x7F,0x1A
5.479292541666666,0,0xFF,0x18
5.481243958333334,0,0xB0,0x12
5.481261958333334,0,0xFF,0x12
5.481280166666667,0,0xFF,0x18
5.483232833333333,0,0xF0,0x13
5.483250833333333,0,0x7F,0x1A
5.483269041666667,0,0xFF,0x18
5.485232250000000,0,0xB0,0x13
5.485250250000000,0,0xFF,0x10
5.485268458333334,0,0xFF,0x18
5.487223125000000,0,0xB0,0x13
5.487241125000000,0,0xFF,0x12
5.487259333333333,0,0xFF,0x18
5.489218750000000,0,0xF0,0x12
5.489236750000000,0,0x7F,0x12
5.489254958333333,0,0xFF,0x18
5.489279791666666,0,0x87,0x12
5.489297791666667,0,0xFF,0x00
5.489316000000000,0,0xFF,0xFC
5.489336541666667,0,0x07,0x12
5.489354583333333,0,0x00,0x12
5.489372625000000,0,0x1E,0x12
5.489428000000000,0,0x07,0x01
5.489446041666667,0,0x00,0x01
5.489464083333333,0,0x1E,0x01
5.489484708333333,0,0x30,0x01
5.489502708333333,0,0x80,0x01
5.489520791666667,0,0xC0,0x01
5.489541041666667,0,0x87,0x01
5.489559041666666,0,0xFF,0x00
5.489577250000000,0,0xFF,0x1E
5.489598125000000,0,0x03,0x01
5.489616125000000,0,0x80,0x01
5.489634208333333,0,0x9E,0x01
5.491210916666667,0,0x30,0x92
5.491228958333333,0,0xFF,0x12
5.491247166666667,0,0xFF,0x1C
5.493203833333333,0,0x98,0x10
5.493221875000000,0,0xFF,0x13
5.493240083333333,0,0xFF,0x1C
5.495198875000000,0,0xB0,0x12
5.495216875000000,0,0x7F,0x12
5.495235083333333,0,0xFF,0x1C
5.497190708333333,0,0xB0,0x12
5.497208750000000,0,0xFF,0x12
5.497226916666667,0,0xFF,0x1C
5.499182958333333,0,0xF0,0x13
5.499200958333334,0,0x7F,0x18
5.499219166666666,0,0xFF,0x1C
5.501173500000000,0,0xB0,0x12
5.501191500000000,0,0xFF,0x12
5.501209708333334,0,0xFF,0x1C
5.503172250000000,0,0xB0,0x12
5.503190250000000,0,0xFF,0x10
5.503208458333333,0,0xFF,0x1C
5.505165708333333,0,0xB0,0x12
5.505183750000000,0,0xFF,0x13
5.505201958333333,0,0xFF,0x1C
5.507155791666666,0,0xB0,0x12
5.507173791666666,0,0xFF,0x12
5.507192000000000,0,0xFF,0x1C
5.509146750000000,0,0xF0,0x02
5.509164750000000,0,0x7F,0x12
5.509182958333334,0,0xFF,0x1E
5.511137958333333,0,0xF0,0x13
5.511155958333333,0,0x7F,0x10
5.511174166666667,0,0xFF,0x1C
5.513126291666667,0,0x98,0x18
5.513144333333333,0,0xFF,0x02
5.513162541666667,0,0xFF,0x1C
5.515112375000000,0,0xB0,0x12
5.515130416666667,0,0xFF,0x12
5.515148625000000,0,0xFF,0x0C
5.517100500000000,0,0xB0,0x12
5.517118541666667,0,0xFF,0x12
5.517136708333333,0,0xFF,0x1C
5.519090041666667,0,0xF0,0x13
5.519108041666667,0,0xFF,0x10
5.519126250000000,0,0xFF,0x1C
5.521089625000000,0,0xB0,0x12
5.521107625000000,0,0x7F,0x12
5.521125833333334,0,0xFF,0x1E
5.521150625000000,0,0x87,0x1A
5.521168666666667,0,0xFF,0x00
5.521186875000000,0,0xFF,0x9F
5.521207416666667,0,0x07,0x12
5.521225250000000,0,0x00,0x12
5.521243333333334,0,0x03,0x13
5.522211708333334,0,0x03,0x00
5.522229708333334,0,0x00,0x01
5.522247791666667,0,0x06,0x01
5.522268375000000,0,0x1E,0x01
5.522286416666667,0,0xC0,0x00
5.522304458333333,0,0x00,0x01
5.522324708333334,0,0xC7,0x01
5.522342708333333,0,0xFF,0x80
5.522360916666667,0,0xFF,0x66
5.522381791666667,0,0x07,0x01
5.522399833333333,0,0x00,0x01
5.522417875000000,0,0x66,0x01
5.523795375000000,0,0xB0,0x12
5.523813375000000,0,0xFF,0x12
5.523831583333333,0,0xFF,0x0C
5.525784791666666,0,0x98,0x18
5.525802833333334,0,0xFF,0x02
5.525821041666667,0,0xFF,0x0C
5.527782666666667,0,0x98,0x10
5.527800708333333,0,0xFF,0x02
5.527818916666667,0,0xFF,0x0C
5.529775875000000,0,0xB0,0x12
5.529793875000000,0,0xFF,0x12
5.529812083333334,0,0xFF,0x0C
5.531772375000000,0,0xB0,0x12
5.531790416666666,0,0xFF,0x12
5.531808583333333,0,0xFF,0x04
5.533758958333333,0,0x98,0x18
5.533777000000000,0,0xFF,0x02
5.533795208333333,0,0xFF,0x0C
5.535748916666667,0,0x98,0x10
5.535766958333333,0,0xFF,0x12
5.535785166666667,0,0xFF,0x0C
5.537738041666667,0,0x98,0x10
5.537756083333333,0,0xFF,0x13
5.537774291666667,0,0xFF,0x0C
5.539735208333333,0,0xF0,0x02
5.539753208333333,0,0x7F,0x1A
5.539771416666667,0,0xFF,0x0C
5.541725583333333,0,0xB0,0x12
5.541743583333333,0,0xFF,0x12
5.541761791666667,0,0xFF,0x0C
5.543716958333333,0,0xF0,0x12
5.543734958333333,0,0xFF,0x12
5.543753166666667,0,0xFF,0x0C
5.545706250000000,0,0xB0,0x12
5.545724291666667,0,0xFF,0x12
5.545742458333334,0,0xFF,0x04
5.547700166666667,0,0x98,0x10
5.547718208333333,0,0xFF,0x02
5.547736416666667,0,0xFF,0x0C
5.549694416666667,0,0xB0,0x12
5.549712458333333,0,0xFF,0x12
5.549730625000000,0,0xFF,0x0C
5.551690291666667,0,0xF0,0x13
5.551708291666666,0,0xFF,0x12
5.551726500000000,0,0xFF,0x0C
5.553676333333334,0,0xB0,0x12
5.553694333333334,0,0x7F,0x12
5.553712541666667,0,0xFF,0x06
5.553737333333333,0,0x87,0x12
5.553755375000000,0,0xFF,0x00
5.553773583333333,0,0xFF,0xC6
5.553794125000000,0,0x03,0x02
5.553812125000000,0,0x80,0x1A
5.553830208333333,0,0x00,0x02
5.554000250000000,0,0x03,0x00
5.554018250000000,0,0x00,0x01
5.554036333333333,0,0x00,0x00
5.554056916666666,0,0x34,0x01
5.554074958333334,0,0x80,0x01
5.554093000000000,0,0x80,0x01
5.554113250000000,0,0xC3,0x01
5.554131250000000,0,0xFF,0x00
5.554149458333334,0,0xFF,0x00
5.554170333333333,0,0x07,0x01
5.554188333333333,0,0x80,0x81
5.554206416666666,0,0x80,0x01
5.555664083333333,0,0xB0,0x12
5.555682083333333,0,0xFF,0x12
5.555700291666667,0,0xFF,0x00
5.557651500000000,0,0xB0,0x12
5.557669541666667,0,0xFF,0x12
5.557687708333333,0,0xFF,0x00
5.559639958333333,0,0xB0,0x12
5.559657958333333,0,0xFF,0x12
5.559676166666667,0,0xFF,0x00
5.561632208333333,0,0xB0,0x12
5.561650208333333,0,0xFF,0x12
5.561668416666667,0,0xFF,0x00
5.563629208333333,0,0xB0,0x12
5.563647208333333,0,0x7F,0x12
5.563665416666667,0,0xFF,0x00
5.565619708333333,0,0x98,0x18
5.565637750000000,0,0xFF,0x02
5.565655958333333,0,0xFF,0x00
5.567609708333333,0,0xF0,0x13
5.567627708333333,0,0x7F,0x18
5.567645916666667,0,0xFF,0x00
5.569599625000000,0,0xF0,0x12
5.569617625000000,0,0x7F,0x12
5.569635833333333,0,0xFF,0x00
5.571592708333333,0,0xF0,0x02
5.571610708333333,0,0x7F,0x12
5.571628916666667,0,0xFF,0x00
5.573579458333334,0,0x98,0x10
5.573597500000000,0,0xFF,0x13
5.573615708333334,0,0xFF,0x00
5.575573000000000,0,0xF0,0x12
5.575591000000000,0,0x7F,0x12
5.575609208333334,0,0xFF,0x00
5.577568416666667,0,0xF0,0x02
5.577586416666667,0,0x7F,0x12
5.577604625000000,0,0xFF,0x00
5.579557875000000,0,0xB0,0x12
5.579575875000000,0,0xFF,0x12
5.579594083333333,0,0xFF,0x00
5.581546916666666,0,0xB0,0x12
5.581564958333334,0,0xFF,0x12
5.581583125000000,0,0xFF,0x00
5.583541166666667,0,0x98,0x1A
5.583559208333333,0,0xFF,0x02
5.583577416666667,0,0xFF,0x00
5.585540041666667,0,0xB0,0x12
5.585558041666666,0,0xFF,0x10
5.585576250000000,0,0xFF,0x00
5.585601041666667,0,0x87,0x10
5.585619083333333,0,0xFF,0x00
5.585637291666667,0,0xFF,0x80
5.585657833333333,0,0x07,0x02
5.585675833333333,0,0x80,0x12
5.585693916666667,0,0x00,0x12
5.585790125000000,0,0x07,0x01
5.585808125000000,0,0x80,0x81
5.585826208333334,0,0x28,0x01
5.585846791666667,0,0x34,0x81
5.585864833333333,0,0x80,0x01
5.585882916666667,0,0x80,0x01
5.585903125000000,0,0x07,0x01
5.585921166666667,0,0xFF,0x00
5.585939375000000,0,0xFF,0x3C
5.585960250000000,0,0x03,0x00
5.585978250000000,0,0x00,0x01
5.585996333333333,0,0xFC,0x01
5.587534000000000,0,0x30,0x92
5.587552041666667,0,0xFF,0x12
5.587570250000000,0,0xFF,0x10
5.589523958333333,0,0xB0,0x12
5.589541958333333,0,0xFF,0x12
5.589560166666667,0,0xFF,0x10
5.591511541666667,0,0xB0,0x12
5.591529541666667,0,0xFF,0x12
5.591547750000000,0,0xFF,0x10
5.593500750000000,0,0xB0,0x12
5.593518750000000,0,0xFF,0x12
5.593536958333333,0,0xFF,0x10
5.595491541666667,0,0xB0,0x12
5.595509541666667,0,0xFF,0x12
5.595527750000000,0,0xFF,0x10
5.597484000000000,0,0xF0,0x02
5.597502000000000,0,0x7F,0x1A
5.597520208333333,0,0xFF,0x18
5.599477083333333,0,0xB0,0x12
5.599495125000000,0,0xFF,0x13
5.599513333333333,0,0xFF,0x10
5.601475083333334,0,0x98,0x18
5.601493125000000,0,0xFF,0x02
5.601511333333334,0,0xFF,0x00
5.603469750000000,0,0xB0,0x12
5.603487791666667,0,0xFF,0x12
5.603506000000000,0,0xFF,0x00
5.605462916666666,0,0xF0,0x12
5.605480916666667,0,0x7F,0x18
5.605499125000000,0,0xFF,0x10
5.607459958333333,0,0xB0,0x12
5.607478000000000,0,0xFF,0x12
5.607496208333333,0,0xFF,0x10
5.609455916666667,0,0xF0,0x13
5.609473916666667,0,0x7F,0x18
5.609492125000000,0,0xFF,0x10
5.611443916666667,0,0x98,0x1A
5.611461958333333,0,0xFF,0x12
5.611480166666666,0,0xFF,0x00
5.613436500000000,0,0xB0,0x12
5.613454541666667,0,0xFF,0x13
5.613472750000000,0,0xFF,0x10
5.615431541666666,0,0x98,0x1A
5.615449583333334,0,0xFF,0x12
5.615467791666667,0,0xFF,0x00
5.617420541666666,0,0xF0,0x02
5.617438541666667,0,0x7F,0x12
5.617456750000000,0,0xFF,0x18
5.617481541666667,0,0x87,0x12
5.617499583333333,0,0xFF,0x00
5.617517791666667,0,0xFF,0xBC
5.617538333333333,0,0x07,0x12
5.617556375000000,0,0x00,0x12
5.617574416666667,0,0x00,0x10
5.618575625000000,0,0x07,0x01
5.618593625000000,0,0x00,0x01
5.618611708333333,0,0x0F,0x00
5.618632291666667,0,0x36,0x01
5.618650333333333,0,0x80,0x00
5.618668375000000,0,0x00,0x01
5.618688625000000,0,0x87,0x01
5.618706666666666,0,0xFF,0x00
5.618724833333333,0,0xFF,0x0A
5.618745708333333,0,0x87,0x01
5.618763750000000,0,0x00,0x01
5.618781791666667,0,0x0A,0x81
5.620198541666666,0,0xB0,0x12
5.620216541666666,0,0xFF,0x12
5.620234750000000,0,0xFF,0x14
5.622196750000000,0,0x98,0x18
5.622214791666667,0,0xFF,0x03
5.622233000000000,0,0xFF,0x14
5.624187833333333,0,0xB0,0x12
5.624205833333333,0,0x7F,0x12
5.624224041666666,0,0xFF,0x1C
5.626186375000000,0,0x98,0x10
5.626204416666667,0,0xFF,0x13
5.626222625000000,0,0xFF,0x14
5.628173083333333,0,0xB0,0x12
5.628191083333333,0,0xFF,0x12
5.628209291666667,0,0xFF,0x14
5.630161291666667,0,0xB0,0x12
5.630179333333333,0,0xFF,0x12
5.630197500000000,0,0xFF,0x14
5.632151041666667,0,0x98,0x1A
5.632169083333333,0,0xFF,0x02
5.632187291666667,0,0xFF,0x00
5.634143708333333,0,0xB0,0x12
5.634161750000000,0,0xFF,0x12
5.634179958333333,0,0xFF,0x00
5.636137708333333,0,0xB0,0x12
5.636155708333333,0,0x7F,0x12
5.636173916666666,0,0xFF,0x1C
5.638129791666667,0,0xB0,0x12
5.638147833333333,0,0xFF,0x12
5.638166041666667,0,0xFF,0x14
5.640123333333333,0,0xF0,0x02
5.640141333333333,0,0x7F,0x12
5.640159541666667,0,0xFF,0x1C
5.642115416666667,0,0xB0,0x12
5.642133458333333,0,0xFF,0x12
5.642151666666667,0,0xFF,0x14
5.644108333333334,0,0xB0,0x12
5.644126375000000,0,0xFF,0x12
5.644144583333333,0,0xFF,0x14
5.646099500000000,0,0xF0,0x02
5.646117500000000,0,0x7F,0x12
5.646135708333333,0,0xFF,0x14
5.648090000000000,0,0x90,0x12
5.648108041666666,0,0xFF,0x12
5.648126250000000,0,0xFF,0x00
5.650078416666667,0,0x98,0x1A
5.650096458333334,0,0xFF,0x12
5.650114666666667,0,0xFF,0x00
5.650139458333333,0,0x87,0x12
5.650157500000000,0,0xFF,0x00
5.650175666666667,0,0xFF,0x0A
5.650196250000000,0,0x03,0x12
5.650214250000000,0,0x00,0x12
5.650232333333333,0,0x33,0x13
5.650366833333333,0,0x07,0x01
5.650384875000000,0,0x00,0x01
5.650402916666667,0,0x1A,0x01
5.650423541666667,0,0x30,0x00
5.650441541666667,0,0x00,0x01
5.650459625000000,0,0xC0,0x01
5.650479875000000,0,0x83,0x01
5.650497875000000,0,0xFF,0x00
5.650516083333334,0,0xFF,0x32
5.650536958333333,0,0x07,0x01
5.650555000000000,0,0x00,0x01
5.650573041666667,0,0x98,0x01
5.652066583333333,0,0xB0,0x12
5.652084583333333,0,0xFF,0x12
5.652102791666667,0,0xFF,0x04
5.654053916666666,0,0xF0,0x12
5.654071958333334,0,0xFF,0x12
5.654090125000000,0,0xFF,0x04
5.656044791666667,0,0xB0,0x12
5.656062791666667,0,0xFF,0x12
5.656081000000000,0,0xFF,0x04
5.658036291666667,0,0xB0,0x12
5.658054333333333,0,0xFF,0x12
5.658072541666667,0,0xFF,0x04
5.660034750000000,0,0x98,0x1A
5.660052791666667,0,0xFF,0x12
5.660071000000000,0,0xFF,0x00
5.662025916666667,0,0x90,0x12
5.662043958333333,0,0xFF,0x13
5.662062166666667,0,0xFF,0x04
5.664022666666667,0,0xB0,0x12
5.664040708333333,0,0xFF,0x13
5.664058916666667,0,0xFF,0x04
5.666009375000000,0,0xB0,0x12
5.666027375000000,0,0xFF,0x12
5.666045583333333,0,0xFF,0x04
5.668003416666667,0,0xB0,0x12
5.668021458333333,0,0xFF,0x13
5.668039666666667,0,0xFF,0x04
5.669993208333334,0,0xF0,0x02
5.670011208333333,0,0x7F,0x12
5.670029416666667,0,0xFF,0x04
5.671982416666666,0,0xB0,0x13
5.672000416666667,0,0x7F,0x1A
5.672018625000000,0,0xFF,0x04
5.673971791666666,0,0x98,0x10
5.673989833333334,0,0xFF,0x02
5.674008041666666,0,0xFF,0x00
5.675966708333333,0,0xB0,0x12
5.675984750000000,0,0xFF,0x12
5.676002958333333,0,0xFF,0x04
5.677955500000000,0,0xB0,0x12
5.677973500000000,0,0xFF,0x12
5.677991708333334,0,0xFF,0x04
5.679944583333334,0,0xF0,0x02
5.679962583333333,0,0x7F,0x12
5.679980791666667,0,0xFF,0x04
5.681931541666667,0,0xB0,0x12
5.681949541666667,0,0xFF,0x12
5.681967750000000,0,0xFF,0x04
5.681992541666666,0,0x87,0x1A
5.682010583333334,0,0xFF,0x00
5.682028791666666,0,0xFF,0xF2
5.682049333333334,0,0x07,0x10
5.682067375000000,0,0x00,0x02
5.682085416666666,0,0x14,0x12
5.682161083333333,0,0x07,0x01
5.682179125000000,0,0x00,0x01
5.682197166666667,0,0x1E,0x01
5.682217791666667,0,0x30,0x01
5.682235791666667,0,0x80,0x01
5.682253875000000,0,0xC0,0x01
5.682274083333334,0,0x07,0x81
5.682292125000000,0,0xFF,0x00
5.682310333333334,0,0xFF,0x14
5.682331208333333,0,0x03,0x01
5.682349208333333,0,0x80,0x01
5.682367291666667,0,0x96,0x01
5.683930625000000,0,0xB0,0x12
5.683948625000000,0,0xFF,0x12
5.683966833333334,0,0xFF,0x08
5.685925041666667,0,0xF0,0x12
5.685943041666667,0,0x7F,0x1A
5.685961250000000,0,0xFF,0x00
5.687915250000000,0,0x98,0x1A
5.687933291666667,0,0xFF,0x12
5.687951500000000,0,0xFF,0x0C
5.689912208333333,0,0xB0,0x12
5.689930250000000,0,0xFF,0x12
5.689948458333333,0,0xFF,0x08
5.691904041666667,0,0xB0,0x12
5.691922083333333,0,0xFF,0x12
5.691940250000000,0,0xFF,0x08
5.693896041666667,0,0xB0,0x13
5.693914041666667,0,0xFF,0x10
5.693932250000000,0,0xFF,0x08
5.695889208333333,0,0xB0,0x12
5.695907208333334,0,0x7F,0x12
5.695925416666666,0,0xFF,0x08
5.697881791666667,0,0xF0,0x13
5.697899791666667,0,0x7F,0x1A
5.697918000000000,0,0xFF,0x08
5.699877583333333,0,0xB0,0x12
5.699895583333333,0,0xFF,0x12
5.699913791666667,0,0xFF,0x08
5.701870208333333,0,0xB0,0x12
5.701888250000000,0,0xFF,0x13
5.701906458333333,0,0xFF,0x08
5.703866875000000,0,0xB0,0x12
5.703884875000000,0,0xFF,0x10
5.703903083333334,0,0xFF,0x08
5.705862208333333,0,0xB0,0x12
5.705880250000000,0,0xFF,0x12
5.705898416666667,0,0xFF,0x08
5.707851541666667,0,0xF0,0x02
5.707869541666667,0,0x7F,0x1A
5.707887750000000,0,0xFF,0x00
5.709844166666667,0,0x98,0x10
5.709862208333333,0,0xFF,0x02
5.709880416666667,0,0xFF,0x08
5.711843791666666,0,0x90,0x12
5.711861833333334,0,0xFF,0x13
5.711880041666666,0,0xFF,0x08
5.713838291666667,0,0xB0,0x12
5.713856333333333,0,0xFF,0x12
5.713874500000000,0,0xFF,0x00
5.713899291666666,0,0x87,0x12
5.713917333333334,0,0xFF,0x00
5.713935541666666,0,0xFF,0x94
5.713956708333333,0,0x87,0x12
5.713974750000000,0,0x00,0x12
5.713992833333333,0,0x3C,0x13
5.714948500000000,0,0x03,0x00
5.714966500000000,0,0x00,0x01
5.714984583333333,0,0x3C,0x01
5.715005166666667,0,0x1E,0x01
5.715023208333333,0,0xC0,0x00
5.715041250000000,0,0x00,0x01
5.715061500000000,0,0x87,0x01
5.715079500000000,0,0xFF,0x80
5.715097708333333,0,0xFF,0x1C
5.715118583333333,0,0x07,0x01
5.715136625000000,0,0x00,0x00
5.715154666666667,0,0x1C,0x01
5.716530375000000,0,0x98,0x10
5.716548416666667,0,0xFF,0x12
5.716566625000000,0,0xFF,0x18
5.718528166666666,0,0x98,0x18
5.718546208333334,0,0xFF,0x02
5.718564416666666,0,0xFF,0x18
5.720514916666667,0,0xF0,0x12
5.720532916666667,0,0x7F,0x12
5.720551125000000,0,0xFF,0x18
5.722502541666667,0,0xB0,0x12
5.722520583333333,0,0xFF,0x13
5.722538791666667,0,0xFF,0x18
5.724494750000000,0,0xB0,0x12
5.724512750000000,0,0xFF,0x10
5.724530958333333,0,0xFF,0x18
5.726489875000000,0,0x98,0x1A
5.726507916666667,0,0xFF,0x12
5.726526125000000,0,0xFF,0x18
5.728476750000000,0,0xB0,0x12
5.728494791666667,0,0xFF,0x12
5.728512958333333,0,0xFF,0x18
5.730465166666667,0,0x98,0x1A
5.730483208333333,0,0xFF,0x02
5.730501416666667,0,0xFF,0x18
5.732453583333333,0,0xF0,0x02
5.732471583333333,0,0x7F,0x1A
5.732489791666667,0,0xFF,0x18
5.734443541666667,0,0xF0,0x13
5.734461541666667,0,0x7F,0x10
5.734479750000000,0,0xFF,0x18
5.736441625000000,0,0xB0,0x12
5.736459666666667,0,0xFF,0x12
5.736477833333334,0,0xFF,0x18
5.738428958333333,0,0xB0,0x12
5.738446958333333,0,0xFF,0x10
5.738465166666667,0,0xFF,0x18
5.740415916666667,0,0xB0,0x12
5.740433916666666,0,0xFF,0x12
5.740452125000000,0,0xFF,0x0C
5.742408250000000,0,0x98,0x10
5.742426291666667,0,0xFF,0x13
5.742444500000000,0,0xFF,0x18
5.744399291666666,0,0xF0,0x13
5.744417291666666,0,0x7F,0x1A
5.744435500000000,0,0xFF,0x18
5.746387041666667,0,0xB0,0x12
5.746405041666667,0,0xFF,0x12
5.746423250000000,0,0xFF,0x18
5.746448041666667,0,0x87,0x12
5.746466083333333,0,0xFF,0x00
5.746484250000000,0,0xFF,0x1C
5.746504833333334,0,0x07,0x12
5.746522833333334,0,0x00,0x12
5.746540916666667,0,0x1F,0x12
5.746739250000000,0,0x07,0x01
5.746757291666666,0,0x00,0x01
5.746775333333333,0,0x1E,0x01
5.746795958333333,0,0x34,0x01
5.746813958333333,0,0x80,0x01
5.746832041666667,0,0xC0,0x00
5.746852250000000,0,0x07,0x81
5.746870291666666,0,0xFF,0x00
5.746888500000000,0,0xFF,0x1F
5.746909375000000,0,0x07,0x01
5.746927375000000,0,0x00,0x01
5.746945458333333,0,0xCF,0x00
5.748385750000000,0,0xF0,0x12
5.748403791666667,0,0xFF,0x12
5.748421958333333,0,0xFF,0x1C
5.750373500000000,0,0xB0,0x12
5.750391541666667,0,0xFF,0x13
5.750409750000000,0,0xFF,0x1C
5.752361666666666,0,0xF0,0x02
5.752379666666666,0,0x7F,0x12
5.752397875000000,0,0xFF,0x1C
5.754360708333333,0,0xB0,0x12
5.754378750000000,0,0xFF,0x12
5.754396916666667,0,0xFF,0x1C
5.756353791666666,0,0x98,0x12
5.756371833333334,0,0xFF,0x13
5.756390041666666,0,0xFF,0x1C
5.758345083333333,0,0xB0,0x12
5.758363083333333,0,0xFF,0x12
5.758381291666667,0,0xFF,0x0C
5.760336250000000,0,0xF0,0x02
5.760354250000000,0,0x7F,0x12
5.760372458333333,0,0xFF,0x1E
5.762324833333333,0,0x90,0x12
5.762342875000000,0,0xFF,0x13
5.762361083333333,0,0xFF,0x1C
5.764313333333333,0,0xF0,0x02
5.764331333333334,0,0x7F,0x1A
5.764349541666666,0,0xFF,0x1E
5.766312375000000,0,0xB0,0x12
5.766330375000000,0,0xFF,0x12
5.766348583333333,0,0xFF,0x1C
5.768309208333333,0,0x90,0x12
5.768327250000000,0,0xFF,0x13
5.768345458333333,0,0xFF,0x1C
5.770299666666666,0,0x98,0x18
5.770317708333334,0,0xFF,0x12
5.770335916666666,0,0xFF,0x1C
5.772298458333333,0,0xB0,0x12
5.772316458333333,0,0x7F,0x12
5.772334666666667,0,0xFF,0x1C
5.774286458333333,0,0xB0,0x12
5.774304458333333,0,0xFF,0x12
5.774322666666666,0,0xFF,0x1C
5.776275875000000,0,0xF0,0x02
5.776293875000000,0,0x7F,0x12
5.776312083333333,0,0xFF,0x1C
5.778263041666666,0,0xB0,0x12
5.778281041666666,0,0xFF,0x12
5.778299250000000,0,0xFF,0x1C
5.778324041666667,0,0x87,0x12
5.778342083333333,0,0xFF,0x00
5.778360250000000,0,0xFF,0x1E
5.778380833333333,0,0x07,0x12
5.778398833333333,0,0x00,0x12
5.778416916666667,0,0x03,0x13
5.778530208333334,0,0x07,0x01
5.778548208333333,0,0x00,0x01
5.778566291666666,0,0x43,0x01
5.778586875000000,0,0x34,0x01
5.778604875000000,0,0x00,0x81
5.778622958333333,0,0x80,0x01
5.778643208333333,0,0x83,0x00
5.778661208333333,0,0xFF,0x00
5.778679416666667,0,0xFF,0x46
5.778700291666667,0,0x07,0x01
5.778718333333333,0,0x00,0x01
5.778736375000000,0,0xE6,0x01
5.780252250000000,0,0xB0,0x13
5.780270250000000,0,0xFF,0x12
5.780288458333334,0,0xFF,0x0C
5.782241625000000,0,0x98,0x10
5.782259666666667,0,0xFF,0x02
5.782277875000000,0,0xFF,0x0C
5.784234208333333,0,0xB0,0x13
5.784252208333333,0,0xFF,0x10
5.784270416666667,0,0xFF,0x0C
5.786228166666667,0,0xB0,0x12
5.786246166666666,0,0xFF,0x12
5.786264375000000,0,0xFF,0x0C
5.788224666666666,0,0xF0,0x02
5.788242666666667,0,0x7F,0x12
5.788260875000000,0,0xFF,0x06
5.790215333333333,0,0xB0,0x12
5.790233375000000,0,0xFF,0x12
5.790251541666667,0,0xFF,0x0C
5.792203916666667,0,0x98,0x1A
5.792221958333333,0,0xFF,0x12
5.792240166666667,0,0xFF,0x0C
5.794203083333334,0,0xF0,0x13
5.794221083333333,0,0x7F,0x18
5.794239291666667,0,0xFF,0x0C
5.796190291666667,0,0xB0,0x12
5.796208333333333,0,0xFF,0x12
5.796226541666667,0,0xFF,0x0C
5.798182458333334,0,0xF0,0x12
5.798200500000000,0,0xFF,0x12
5.798218666666667,0,0xFF,0x0C
5.800181333333334,0,0xF0,0x02
5.800199333333333,0,0x7F,0x12
5.800217541666667,0,0xFF,0x06
5.802172166666667,0,0x98,0x10
5.802190208333333,0,0xFF,0x02
5.802208416666667,0,0xFF,0x0C
5.804161000000000,0,0xB0,0x12
5.804179000000000,0,0xFF,0x12
5.804197208333333,0,0xFF,0x0C
5.806151750000000,0,0xF0,0x13
5.806169750000000,0,0x7F,0x1A
5.806187958333333,0,0xFF,0x06
5.808150708333334,0,0xB0,0x12
5.808168750000000,0,0xFF,0x12
5.808186958333334,0,0xFF,0x0C
5.810148208333334,0,0x98,0x1A
5.810166250000000,0,0xFF,0x12
5.810184458333334,0,0xFF,0x0C
5.810209250000000,0,0x87,0x12
5.810227291666667,0,0xFF,0x00
5.810245500000000,0,0xFF,0xC6
5.810266041666667,0,0x03,0x02
5.810284041666667,0,0x80,0x1A
5.810302125000000,0,0x00,0x12
5.811316291666667,0,0x03,0x01
5.811334291666666,0,0x80,0x81
5.811352375000000,0,0x00,0x01
5.811372958333333,0,0x34,0x81
5.811391000000000,0,0x80,0x01
5.811409083333333,0,0xC0,0x00
5.811429291666666,0,0x07,0x81
5.811447333333334,0,0xFF,0x00
5.811465541666666,0,0xFF,0x00
5.811486416666667,0,0x03,0x00
5.811504416666667,0,0x00,0x01
5.811522500000000,0,0xC0,0x01
5.812899166666667,0,0xB0,0x12
5.812917208333333,0,0xFF,0x13
5.812935416666667,0,0xFF,0x00
5.814898458333333,0,0xF0,0x13
5.814916458333333,0,0x7F,0x18
5.814934666666667,0,0xFF,0x00
5.816891791666666,0,0x98,0x10
5.816909833333333,0,0xFF,0x02
5.816928041666666,0,0xFF,0x00
5.818884000000000,0,0xB0,0x12
5.818902000000000,0,0xFF,0x10
5.818920208333333,0,0xFF,0x00
5.820877000000000,0,0xB0,0x13
5.820895000000000,0,0xFF,0x10
5.820913208333334,0,0xFF,0x00
5.822876000000000,0,0xB0,0x12
5.822894041666666,0,0xFF,0x13
5.822912250000000,0,0xFF,0x00
5.824866541666666,0,0x98,0x12
5.824884583333334,0,0xFF,0x12
5.824902791666666,0,0xFF,0x00
5.826859375000000,0,0xB0,0x12
5.826877375000000,0,0xFF,0x12
5.826895583333333,0,0xFF,0x00
5.828848666666667,0,0x98,0x18
5.828866708333333,0,0xFF,0x02
5.828884916666667,0,0xFF,0x00
5.830836083333334,0,0xF0,0x02
5.830854083333334,0,0x7F,0x1A
5.830872291666667,0,0xFF,0x00
5.832824916666667,0,0xF0,0x12
5.832842958333333,0,0xFF,0x12
5.832861125000000,0,0xFF,0x00
5.834824583333333,0,0xB0,0x12
5.834842583333334,0,0xFF,0x12
5.834860791666666,0,0xFF,0x00
5.836815750000000,0,0xB0,0x12
5.836833791666667,0,0xFF,0x12
5.836852000000000,0,0xFF,0x00
5.838803625000000,0,0xF0,0x13
5.838821625000000,0,0x7F,0x18
5.838839833333333,0,0xFF,0x00
5.840795333333333,0,0xF0,0x02
5.840813333333333,0,0x7F,0x12
5.840831541666667,0,0xFF,0x00
5.842785583333334,0,0x98,0x1A
5.842803625000000,0,0xFF,0x02
5.842821833333334,0,0xFF,0x00
5.842846625000000,0,0xC3,0x02
5.842864625000000,0,0xFF,0x00
5.842882833333333,0,0xFF,0x80
5.842903375000000,0,0x87,0x12
5.842921416666667,0,0x00,0x12
5.842939500000000,0,0x3C,0x13
5.843109041666667,0,0x03,0x01
5.843127041666667,0,0x80,0x01
5.843145125000000,0,0x28,0x01
5.843165708333333,0,0x1E,0x01
5.843183750000000,0,0xC0,0x01
5.843201791666667,0,0x00,0x81
5.843222041666666,0,0x87,0x01
5.843240083333333,0,0xFF,0x00
5.843258250000000,0,0xFF,0x28
5.843279125000000,0,0x87,0x01
5.843297166666667,0,0x00,0x01
5.843315250000000,0,0xA8,0x01
5.844782791666667,0,0xB0,0x12
5.844800791666667,0,0xFF,0x12
5.844819000000000,0,0xFF,0x10
5.846780541666667,0,0xF0,0x13
5.846798541666667,0,0xFF,0x10
5.846816750000000,0,0xFF,0x10
5.848777541666666,0,0x98,0x10
5.848795583333334,0,0xFF,0x02
5.848813791666666,0,0xFF,0x10
5.850768708333334,0,0xB0,0x12
5.850786708333334,0,0xFF,0x12
5.850804916666666,0,0xFF,0x10
5.852756583333333,0,0x98,0x1A
5.852774625000000,0,0xFF,0x02
5.852792833333333,0,0xFF,0x10
5.854754041666666,0,0xF0,0x02
5.854772041666667,0,0x7F,0x12
5.854790250000000,0,0xFF,0x10
5.856750000000000,0,0xB0,0x12
5.856768000000000,0,0xFF,0x10
5.856786208333333,0,0xFF,0x10
5.858740958333334,0,0x98,0x18
5.858759000000000,0,0xFF,0x02
5.858777208333334,0,0xFF,0x10
5.860731791666667,0,0xB0,0x12
5.860749833333333,0,0xFF,0x12
5.860768000000000,0,0xFF,0x10
5.862721208333333,0,0xB0,0x12
5.862739250000000,0,0xFF,0x12
5.862757416666667,0,0xFF,0x10
5.864717583333333,0,0x98,0x1A
5.864735625000000,0,0xFF,0x02
5.864753833333333,0,0xFF,0x10
5.866709625000000,0,0xB0,0x12
5.866727666666667,0,0xFF,0x12
5.866745875000000,0,0xFF,0x00
5.868702458333333,0,0xF0,0x12
5.868720458333334,0,0x7F,0x12
5.868738666666666,0,0xFF,0x18
5.870695833333333,0,0xF0,0x13
5.870713833333333,0,0x7F,0x10
5.870732041666667,0,0xFF,0x10
5.872683041666667,0,0xB0,0x12
5.872701083333333,0,0xFF,0x12
5.872719250000000,0,0xFF,0x18
5.874676041666667,0,0xF0,0x02
5.874694041666666,0,0x7F,0x1A
5.874712250000000,0,0xFF,0x18
5.874737041666667,0,0x87,0x12
5.874755083333334,0,0xFF,0x00
5.874773291666667,0,0xFF,0xA8
5.874793833333333,0,0x87,0x18
5.874811875000000,0,0x00,0x02
5.874829958333334,0,0x0A,0x12
5.874900000000000,0,0x03,0x00
5.874918000000000,0,0x00,0x01
5.874936083333333,0,0x0E,0x01
5.874956666666667,0,0x1E,0x01
5.874974708333333,0,0xC0,0x01
5.874992750000000,0,0x00,0x81
5.875013000000000,0,0x87,0x01
5.875031041666666,0,0xFF,0x00
5.875049250000000,0,0xFF,0x0B
5.875070125000000,0,0x07,0x01
5.875088125000000,0,0x00,0x01
5.875106208333333,0,0xCF,0x00
5.876663875000000,0,0x30,0x92
5.876681916666667,0,0xFF,0x12
5.876700125000000,0,0xFF,0x14
5.878656083333333,0,0xB0,0x12
5.878674125000000,0,0xFF,0x13
5.878692333333333,0,0xFF,0x14
5.880642708333333,0,0xB0,0x12
5.880660750000000,0,0xFF,0x12
5.880678958333333,0,0xFF,0x14
5.882637875000000,0,0x98,0x18
5.882655916666667,0,0xFF,0x02
5.882674125000000,0,0xFF,0x10
5.884631208333333,0,0xB0,0x12
5.884649250000000,0,0xFF,0x12
5.884667458333333,0,0xFF,0x14
5.886625208333333,0,0xB0,0x12
5.886643250000000,0,0xFF,0x12
5.886661458333333,0,0xFF,0x14
5.888618916666666,0,0xB0,0x12
5.888636916666667,0,0xFF,0x12
5.888655125000000,0,0xFF,0x14
5.890608416666667,0,0xB0,0x13
5.890626416666667,0,0x7F,0x10
5.890644625000000,0,0xFF,0x16
5.892600708333333,0,0x98,0x18
5.892618750000000,0,0xFF,0x02
5.892636958333333,0,0xFF,0x00
5.894590250000000,0,0xF0,0x12
5.894608250000000,0,0x7F,0x18
5.894626458333334,0,0xFF,0x16
5.896586958333334,0,0xF0,0x02
5.896604958333334,0,0x7F,0x1A
5.896623166666667,0,0xFF,0x16
5.898577166666667,0,0x98,0x10
5.898595208333333,0,0xFF,0x02
5.898613416666667,0,0xFF,0x14
5.900570000000000,0,0x98,0x12
5.900588041666667,0,0xFF,0x13
5.900606250000000,0,0xFF,0x14
5.902561583333333,0,0xB0,0x12
5.902579625000000,0,0xFF,0x12
5.902597833333333,0,0xFF,0x14
5.904553416666666,0,0xB0,0x12
5.904571416666666,0,0xFF,0x12
5.904589625000000,0,0xFF,0x14
5.906544875000000,0,0xF0,0x02
5.906562875000000,0,0x7F,0x12
5.906581083333333,0,0xFF,0x14
5.906605916666667,0,0x83,0x13
5.906623916666667,0,0xFF,0x00
5.906642125000000,0,0xFF,0x88
5.906662708333333,0,0x07,0x12
5.906680708333333,0,0x00,0x18
5.906698916666667,0,0x30,0x12
5.907686791666666,0,0x07,0x01
5.907704791666666,0,0x80,0x81
5.907722875000000,0,0x30,0x01
5.907743458333333,0,0x34,0x81
5.907761500000000,0,0x80,0x01
5.907779583333333,0,0x80,0x00
5.907799791666666,0,0x07,0x01
5.907817833333334,0,0xFF,0x00
5.907836041666667,0,0xFF,0x32
5.907856916666667,0,0x03,0x00
5.907874916666667,0,0x00,0x01
5.907893000000000,0,0xF2,0x01
5.909273333333333,0,0xF0,0x02
5.909291333333333,0,0x7F,0x1A
5.909309541666667,0,0xFF,0x06
5.911268791666667,0,0xB0,0x12
5.911286791666667,0,0xFF,0x12
5.911305000000000,0,0xFF,0x04
5.913262750000000,0,0xB0,0x12
5.913280791666667,0,0xFF,0x13
5.913299000000000,0,0xFF,0x04
5.915254875000000,0,0x90,0x12
5.915272916666667,0,0xFF,0x12
5.915291125000000,0,0xFF,0x00
5.917250125000000,0,0xF0,0x12
5.917268166666667,0,0xFF,0x12
5.917286333333333,0,0xFF,0x04
5.919237041666666,0,0xF0,0x02
5.919255041666666,0,0x7F,0x12
5.919273250000000,0,0xFF,0x06
5.921226000000000,0,0x98,0x1A
5.921244041666666,0,0xFF,0x12
5.921262250000000,0,0xFF,0x00
5.923217583333333,0,0xB0,0x13
5.923235583333334,0,0x7F,0x1A
5.923253791666666,0,0xFF,0x04
5.925204541666667,0,0xF0,0x13
5.925222541666667,0,0x7F,0x10
5.925240750000000,0,0xFF,0x04
5.927191583333333,0,0xB0,0x12
5.927209583333333,0,0xFF,0x12
5.927227791666667,0,0xFF,0x04
5.929178083333333,0,0x98,0x1A
5.929196125000000,0,0xFF,0x02
5.929214333333333,0,0xFF,0x00
5.931177625000000,0,0xF0,0x13
5.931195625000000,0,0x7F,0x1A
5.931213833333334,0,0xFF,0x06
5.933166416666666,0,0xB0,0x13
5.933184416666666,0,0xFF,0x10
5.933202625000000,0,0xFF,0x04
5.935155000000000,0,0xF0,0x12
5.935173000000000,0,0x7F,0x12
5.935191208333333,0,0xFF,0x04
5.937148083333334,0,0xF0,0x02
5.937166083333334,0,0x7F,0x18
5.937184291666667,0,0xFF,0x04
5.939137666666666,0,0xB0,0x12
5.939155666666666,0,0xFF,0x12
5.939173875000000,0,0xFF,0x04
5.939198666666667,0,0x87,0x12
5.939216708333333,0,0xFF,0x00
5.939234875000000,0,0xFF,0x32
5.939255458333333,0,0x03,0x13
5.939273458333333,0,0x80,0x10
5.939291541666667,0,0x00,0x02
5.939479458333333,0,0x07,0x01
5.939497500000000,0,0x00,0x00
5.939515541666666,0,0x14,0x01
5.939536166666667,0,0x30,0x01
5.939554166666666,0,0x00,0x01
5.939572250000000,0,0x80,0x01
5.939592500000000,0,0xC3,0x00
5.939610500000000,0,0xFF,0x00
5.939628708333333,0,0xFF,0x16
5.939649583333333,0,0x07,0x01
5.939667625000000,0,0x00,0x01
5.939685666666667,0,0x1E,0x01
5.941132000000000,0,0x18,0x18
5.941150041666667,0,0xFF,0x02
5.941168250000000,0,0xFF,0x0C
5.943125708333334,0,0xB0,0x12
5.943143750000000,0,0xFF,0x12
5.943161916666667,0,0xFF,0x08
5.945117625000000,0,0x98,0x10
5.945135666666666,0,0xFF,0x02
5.945153875000000,0,0xFF,0x0C
5.947117500000000,0,0xB0,0x12
5.947135541666666,0,0xFF,0x13
5.947153750000000,0,0xFF,0x08
5.949117208333333,0,0xB0,0x13
5.949135208333334,0,0xFF,0x10
5.949153416666666,0,0xFF,0x08
5.951104666666667,0,0xB0,0x12
5.951122708333333,0,0xFF,0x13
5.951140916666667,0,0xFF,0x08
5.953092708333333,0,0xB0,0x12
5.953110750000000,0,0xFF,0x12
5.953128958333333,0,0xFF,0x08
5.955084000000000,0,0xB0,0x12
5.955102000000000,0,0xFF,0x12
5.955120208333334,0,0xFF,0x08
5.957075166666667,0,0xB0,0x12
5.957093208333333,0,0xFF,0x12
5.957111375000000,0,0xFF,0x08
5.959065625000000,0,0xB0,0x12
5.959083625000000,0,0xFF,0x12
5.959101833333333,0,0xFF,0x08
5.961064250000000,0,0xB0,0x12
5.961082291666667,0,0xFF,0x12
5.961100500000000,0,0xFF,0x08
5.963055541666667,0,0xB0,0x12
5.963073583333333,0,0xFF,0x12
5.963091791666667,0,0xFF,0x08
5.965048791666667,0,0xF0,0x12
5.965066791666667,0,0x7F,0x12
5.965085000000000,0,0xFF,0x08
5.967041666666667,0,0xB0,0x13
5.967059666666667,0,0xFF,0x10
5.967077875000000,0,0xFF,0x08
5.969036125000000,0,0x98,0x10
5.969054166666667,0,0xFF,0x02
5.969072375000000,0,0xFF,0x0C
5.971023291666667,0,0x98,0x1A
5.971041333333333,0,0xFF,0x02
5.971059541666667,0,0xFF,0x08
5.971084333333334,0,0xC7,0x12
5.971102333333334,0,0xFF,0x00
5.971120541666667,0,0xFF,0x14
5.971141125000000,0,0x03,0x13
5.971159125000000,0,0x00,0x10
5.971177208333334,0,0x3C,0x02
5.971271708333333,0,0x07,0x01
5.971289750000000,0,0x00,0x01
5.971307833333333,0,0x3C,0x00
5.971328416666666,0,0x34,0x01
5.971346458333334,0,0x80,0x01
5.971364500000000,0,0x00,0x01
5.971384750000000,0,0xC7,0x01
5.971402750000000,0,0xFF,0x80
5.971420958333334,0,0xFF,0x1C
5.971441833333333,0,0x07,0x01
5.971459875000000,0,0x00,0x01
5.971477916666666,0,0x3C,0x81
5.973022875000000,0,0x18,0x1A
5.973040916666666,0,0xFF,0x12
5.973059125000000,0,0xFF,0x18
5.975010666666667,0,0x98,0x1A
5.975028708333333,0,0xFF,0x02
5.975046916666667,0,0xFF,0x18
5.977000083333333,0,0xF0,0x02
5.977018083333333,0,0x7F,0x12
5.977036291666667,0,0xFF,0x18
5.978998208333334,0,0xB0,0x12
5.979016250000000,0,0xFF,0x12
5.979034458333333,0,0xFF,0x18
5.980995791666667,0,0xF0,0x12
5.981013791666666,0,0x7F,0x12
5.981032000000000,0,0xFF,0x18
5.982982666666667,0,0xF0,0x02
5.983000666666666,0,0x7F,0x12
5.983018875000000,0,0xFF,0x18
5.984971625000000,0,0xB0,0x13
5.984989625000000,0,0xFF,0x10
5.985007833333333,0,0xFF,0x18
5.986964125000000,0,0xF0,0x02
5.986982125000000,0,0x7F,0x18
5.987000333333333,0,0xFF,0x18
5.988958750000000,0,0xB0,0x12
5.988976791666667,0,0xFF,0x13
5.988995000000000,0,0xFF,0x18
5.990948750000000,0,0xB0,0x12
5.990966791666667,0,0xFF,0x12
5.990985000000000,0,0xFF,0x18
5.992945666666667,0,0xB0,0x12
5.992963708333333,0,0xFF,0x13
5.992981916666666,0,0xFF,0x18
5.994938500000000,0,0xF0,0x12
5.994956500000000,0,0x7F,0x12
5.994974708333333,0,0xFF,0x18
5.996936833333334,0,0xB0,0x12
5.996954875000000,0,0xFF,0x12
5.996973041666666,0,0xFF,0x18
5.998926041666667,0,0x98,0x10
5.998944083333333,0,0xFF,0x02
5.998962291666667,0,0xFF,0x18
6.000919916666667,0,0xB0,0x12
6.000937958333333,0,0xFF,0x12
6.000956166666667,0,0xFF,0x0C
6.002913333333334,0,0xB0,0x12
6.002931375000000,0,0xFF,0x13
6.002949583333334,0,0xFF,0x18
6.002974375000000,0,0xC3,0x02
6.002992375000000,0,0xFF,0x00
6.003010583333333,0,0xFF,0x9C
6.003031166666666,0,0x03,0x13
6.003049166666667,0,0x00,0x10
6.003067458333334,0,0x1E,0x12
6.004056666666667,0,0x07,0x01
6.004074666666667,0,0x80,0x81
6.004092750000000,0,0x1E,0x01
6.004113333333334,0,0x34,0x81
6.004131375000000,0,0x80,0x01
6.004149458333333,0,0x80,0x01
6.004169666666667,0,0x07,0x01
6.004187708333333,0,0xFF,0x00
6.004205916666667,0,0xFF,0x1F
6.004226791666667,0,0x07,0x01
6.004244791666666,0,0x00,0x01
6.004262875000000,0,0xCF,0x00
6.005625541666666,0,0x30,0x92
6.005643583333334,0,0xFF,0x12
6.005661791666666,0,0xFF,0x1C
6.007612666666667,0,0xB0,0x12
6.007630708333333,0,0xFF,0x12
6.007648875000000,0,0xFF,0x1C
6.009604375000000,0,0xB0,0x12
6.009622416666667,0,0xFF,0x12
6.009640583333334,0,0xFF,0x1C
6.011597125000000,0,0x98,0x10
6.011615166666667,0,0xFF,0x02
6.011633375000000,0,0xFF,0x1C
6.013593958333334,0,0xB0,0x12
6.013612000000000,0,0xFF,0x12
6.013630208333334,0,0xFF,0x1C
6.015585583333333,0,0xF0,0x02
6.015603583333333,0,0x7F,0x1A
6.015621791666667,0,0xFF,0x1E
6.017572208333333,0,0xF0,0x02
6.017590208333333,0,0x7F,0x12
6.017608416666667,0,0xFF,0x1C
6.019560416666667,0,0xF0,0x13
6.019578416666667,0,0x7F,0x1A
6.019596625000000,0,0xFF,0x1E
6.021550708333334,0,0xB0,0x12
6.021568750000000,0,0xFF,0x12
6.021586958333334,0,0xFF,0x0C
6.023538041666667,0,0xB0,0x12
6.023556083333333,0,0xFF,0x12
6.023574291666667,0,0xFF,0x1C
6.025528416666667,0,0xB0,0x12
6.025546458333333,0,0xFF,0x13
6.025564666666667,0,0xFF,0x1C
6.027526958333334,0,0x98,0x1A
6.027545000000000,0,0xFF,0x02
6.027563208333333,0,0xFF,0x1C
6.029523500000000,0,0xB0,0x12
6.029541541666666,0,0xFF,0x12
6.029559750000000,0,0xFF,0x1C
6.031522291666667,0,0xF0,0x13
6.031540291666666,0,0x7F,0x10
6.031558500000000,0,0xFF,0x1C
6.033509791666667,0,0xB0,0x12
6.033527833333333,0,0xFF,0x12
6.033546000000000,0,0xFF,0x1C
6.035509791666667,0,0x98,0x10
6.035527833333333,0,0xFF,0x02
6.035546041666667,0,0xFF,0x1C
6.035570833333334,0,0xC3,0x02
6.035588833333334,0,0xFF,0x00
6.035607041666666,0,0xFF,0x9E
6.035627625000000,0,0x07,0x12
6.035645625000000,0,0x00,0x12
6.035663708333334,0,0x02,0x12
6.035849583333333,0,0x07,0x01
6.035867583333333,0,0x80,0x81
6.035885666666666,0,0x66,0x01
6.035906291666667,0,0x30,0x01
6.035924291666666,0,0x80,0x01
6.035942375000000,0,0xC0,0x01
6.035962625000000,0,0x83,0x00
6.035980625000000,0,0xFF,0x00
6.035998833333333,0,0xFF,0x46
6.036019708333333,0,0x07,0x01
6.036037750000000,0,0x00,0x01
6.036055791666667,0,0xC6,0x01
6.037500708333333,0,0xB0,0x12
6.037518708333334,0,0xFF,0x10
6.037536916666666,0,0xFF,0x0C
6.039488791666667,0,0x98,0x12
6.039506833333333,0,0xFF,0x13
6.039525041666667,0,0xFF,0x0C
6.041483500000000,0,0xB0,0x12
6.041501541666666,0,0xFF,0x12
6.041519750000000,0,0xFF,0x0C
6.043470916666666,0,0xF0,0x02
6.043488916666667,0,0x7F,0x12
6.043507125000000,0,0xFF,0x0C
6.045458125000000,0,0xF0,0x02
6.045476125000000,0,0x7F,0x12
6.045494333333333,0,0xFF,0x06
6.047445250000000,0,0xF0,0x02
6.047463250000000,0,0x7F,0x12
6.047481458333333,0,0xFF,0x0E
6.049444500000000,0,0xB0,0x12
6.049462500000000,0,0xFF,0x10
6.049480708333333,0,0xFF,0x0C
6.051431166666666,0,0x98,0x10
6.051449208333334,0,0xFF,0x12
6.051467416666667,0,0xFF,0x0C
6.053426458333333,0,0xB0,0x12
6.053444458333333,0,0x7F,0x12
6.053462666666666,0,0xFF,0x04
6.055419708333333,0,0xF0,0x13
6.055437708333334,0,0x7F,0x1A
6.055455916666666,0,0xFF,0x06
6.057413125000000,0,0x90,0x12
6.057431166666666,0,0xFF,0x12
6.057449375000000,0,0xFF,0x0C
6.059406916666667,0,0x98,0x1A
6.059424958333333,0,0xFF,0x02
6.059443166666667,0,0xFF,0x0C
6.061402541666666,0,0x98,0x10
6.061420583333334,0,0xFF,0x02
6.061438791666666,0,0xFF,0x0C
6.063397166666666,0,0x98,0x10
6.063415208333334,0,0xFF,0x12
6.063433416666666,0,0xFF,0x0C
6.065385583333334,0,0xB0,0x12
6.065403625000000,0,0xFF,0x13
6.065421833333334,0,0xFF,0x0C
6.067373708333333,0,0x98,0x1A
6.067391750000000,0,0xFF,0x12
6.067409958333333,0,0xFF,0x0C
6.067434750000000,0,0x87,0x18
6.067452791666667,0,0xFF,0x00
6.067471000000000,0,0xFF,0xC2
6.067491541666667,0,0x07,0x12
6.067509583333333,0,0x00,0x13
6.067527625000000,0,0x00,0x18
6.067643458333333,0,0x07,0x01
6.067661500000000,0,0x00,0x01
6.067679583333334,0,0x00,0x01
6.067700166666667,0,0x34,0x01
6.067718208333333,0,0x80,0x01
6.067736250000000,0,0x80,0x01
6.067756500000000,0,0xC7,0x01
6.067774541666667,0,0xFF,0x00
6.067792708333333,0,0xFF,0x00
6.067813583333334,0,0x87,0x01
6.067831625000000,0,0x00,0x01
6.067849708333333,0,0xC0,0x00
6.069360708333333,0,0x18,0x1A
6.069378750000000,0,0xFF,0x12
6.069396958333333,0,0xFF,0x00
6.071354333333334,0,0xB0,0x12
6.071372333333334,0,0xFF,0x12
6.071390541666666,0,0xFF,0x00
6.073347500000000,0,0x98,0x10
6.073365541666667,0,0xFF,0x02
6.073383750000000,0,0xFF,0x00
6.075338083333333,0,0xB0,0x12
6.075356125000000,0,0xFF,0x12
6.075374333333333,0,0xFF,0x00
6.077332291666667,0,0xB0,0x13
6.077350291666667,0,0xFF,0x10
6.077368500000000,0,0xFF,0x00
6.079328833333333,0,0xF0,0x02
6.079346833333333,0,0x7F,0x12
6.079365041666667,0,0xFF,0x00
6.081324875000000,0,0xB0,0x12
6.081342916666666,0,0xFF,0x13
6.081361125000000,0,0xFF,0x00
6.083317000000000,0,0xB0,0x12
6.083335041666666,0,0xFF,0x12
6.083353250000000,0,0xFF,0x00
6.085305250000000,0,0xB0,0x12
6.085323291666667,0,0xFF,0x12
6.085341500000000,0,0xFF,0x00
6.087295541666666,0,0xF0,0x02
6.087313541666667,0,0x7F,0x12
6.087331750000000,0,0xFF,0x00
6.089284083333333,0,0x98,0x12
6.089302125000000,0,0xFF,0x13
6.089320333333333,0,0xFF,0x00
6.091277041666666,0,0xF0,0x13
6.091295041666666,0,0xFF,0x12
6.091313250000000,0,0xFF,0x00
6.093273166666667,0,0xB0,0x12
6.093291166666667,0,0xFF,0x10
6.093309375000000,0,0xFF,0x00
6.095260541666667,0,0xF0,0x13
6.095278541666667,0,0x7F,0x18
6.095296750000000,0,0xFF,0x00
6.097248333333333,0,0x98,0x10
6.097266375000000,0,0xFF,0x02
6.097284583333333,0,0xFF,0x00
6.099238208333333,0,0xB0,0x12
6.099256250000000,0,0xFF,0x12
6.099274458333333,0,0xFF,0x00
6.099299250000000,0,0x87,0x12
6.099317291666667,0,0xFF,0x00
6.099335500000000,0,0xFF,0x80
6.099356041666667,0,0x07,0x02
6.099374041666667,0,0x80,0x12
6.099392125000000,0,0x20,0x12
6.099435958333333,0,0x03,0x01
6.099453958333333,0,0x00,0x01
6.099472041666667,0,0x3C,0x01
6.099492625000000,0,0x1E,0x01
6.099510666666666,0,0xC0,0x01
6.099528708333334,0,0x00,0x01
6.099548958333333,0,0x87,0x01
6.099567000000000,0,0xFF,0x00
6.099585208333333,0,0xFF,0x28
6.099606041666667,0,0x87,0x01
6.099624083333334,0,0x00,0x01
6.099642166666666,0,0xBC,0x00
6.101234375000000,0,0x30,0x92
6.101252416666667,0,0xFF,0x12
6.101270625000000,0,0xFF,0x10
6.103225125000000,0,0xF0,0x02
6.103243125000000,0,0x7F,0x12
6.103261333333333,0,0xFF,0x18
6.105215250000000,0,0xB0,0x13
6.105233250000000,0,0xFF,0x10
6.105251458333333,0,0xFF,0x10
6.107203916666666,0,0x98,0x1A
6.107221958333334,0,0xFF,0x12
6.107240166666666,0,0xFF,0x00
6.109199208333333,0,0xB0,0x12
6.109217208333333,0,0xFF,0x10
6.109235416666666,0,0xFF,0x10
6.111191166666667,0,0xB0,0x12
6.111209208333333,0,0xFF,0x12
6.111227375000000,0,0xFF,0x10
6.113187333333333,0,0xF0,0x02
6.113205333333333,0,0x7F,0x1A
6.113223541666667,0,0xFF,0x10
6.115177375000000,0,0xB0,0x12
6.115195416666666,0,0xFF,0x12
6.115213625000000,0,0xFF,0x00
6.117166750000000,0,0xB0,0x13
6.117184750000000,0,0xFF,0x10
6.117202958333333,0,0xFF,0x10
6.119160541666667,0,0x98,0x10
6.119178583333333,0,0xFF,0x13
6.119196791666667,0,0xFF,0x10
6.121147833333334,0,0x98,0x10
6.121165875000000,0,0xFF,0x02
6.121184083333334,0,0xFF,0x10
6.123141083333334,0,0xB0,0x13
6.123159083333333,0,0xFF,0x10
6.123177291666667,0,0xFF,0x10
6.125139500000000,0,0xF0,0x02
6.125157500000000,0,0x7F,0x18
6.125175708333333,0,0xFF,0x10
6.127129125000000,0,0xB0,0x12
6.127147125000000,0,0x7F,0x12
6.127165333333333,0,0xFF,0x18
6.129123333333333,0,0xF0,0x13
6.129141333333333,0,0xFF,0x10
6.129159541666667,0,0xFF,0x10
6.131111166666667,0,0xB0,0x12
6.131129208333333,0,0xFF,0x12
6.131147375000000,0,0xFF,0x10
6.131172208333333,0,0x87,0x12
6.131190208333333,0,0xFF,0x00
6.131208416666666,0,0xFF,0xE8
6.131229166666667,0,0x07,0x12
6.131247166666666,0,0x00,0x12
6.131265250000000,0,0x0F,0x13
6.132220875000000,0,0x03,0x00
6.132238875000000,0,0x00,0x01
6.132256958333334,0,0x0F,0x00
6.132277541666666,0,0x34,0x01
6.132295583333334,0,0x80,0x01
6.132313625000000,0,0x80,0x01
6.132333875000000,0,0xC3,0x01
6.132351875000000,0,0xFF,0x00
6.132370083333333,0,0xFF,0x0A
6.132390958333334,0,0x07,0x01
6.132409000000000,0,0x00,0x01
6.132427041666666,0,0x88,0x01
6.133821791666667,0,0x90,0x12
6.133839833333333,0,0xFF,0x13
6.133858041666667,0,0xFF,0x14
6.135810916666666,0,0xB0,0x12
6.135828958333334,0,0xFF,0x12
6.135847125000000,0,0xFF,0x14
6.137806750000000,0,0xB0,0x12
6.137824791666667,0,0xFF,0x13
6.137843000000000,0,0xFF,0x14
6.139794166666666,0,0xB0,0x12
6.139812208333334,0,0xFF,0x13
6.139830416666666,0,0xFF,0x14
6.141788333333333,0,0x98,0x18
6.141806375000000,0,0xFF,0x02
6.141824583333333,0,0xFF,0x00
6.143779166666667,0,0xF0,0x02
6.143797166666666,0,0x7F,0x12
6.143815375000000,0,0xFF,0x16
6.145768833333333,0,0xB0,0x12
6.145786875000000,0,0xFF,0x12
6.145805083333333,0,0xFF,0x14
6.147758083333334,0,0xB0,0x12
6.147776125000000,0,0xFF,0x12
6.147794333333334,0,0xFF,0x14
6.149756875000000,0,0xB0,0x12
6.149774916666667,0,0xFF,0x12
6.149793125000000,0,0xFF,0x14
6.151745208333334,0,0x98,0x10
6.151763250000000,0,0xFF,0x02
6.151781458333334,0,0xFF,0x14
6.153738041666666,0,0xB0,0x12
6.153756083333334,0,0xFF,0x13
6.153774291666666,0,0xFF,0x14
6.155725250000000,0,0xB0,0x13
6.155743250000000,0,0x7F,0x1A
6.155761458333333,0,0xFF,0x16
6.157716416666666,0,0xB0,0x12
6.157734416666667,0,0xFF,0x12
6.157752625000000,0,0xFF,0x14
6.159715041666667,0,0xB0,0x12
6.159733083333333,0,0xFF,0x13
6.159751291666667,0,0xFF,0x14
6.161711083333334,0,0xB0,0x12
6.161729125000000,0,0xFF,0x12
6.161747333333333,0,0xFF,0x14
6.163699250000000,0,0xF0,0x02
6.163717250000000,0,0x7F,0x12
6.163735458333333,0,0xFF,0x14
6.163760291666667,0,0xC3,0x02
6.163778291666667,0,0xFF,0x00
6.163796500000000,0,0xFF,0x8A
6.163817083333333,0,0x03,0x13
6.163835083333334,0,0x80,0x1A
6.163853166666667,0,0x32,0x12
6.164014083333333,0,0x07,0x01
6.164032125000000,0,0x00,0x00
6.164050166666667,0,0x12,0x01
6.164070791666667,0,0x30,0x01
6.164088791666667,0,0x00,0x01
6.164106875000000,0,0x80,0x01
6.164127125000000,0,0xC7,0x01
6.164145125000000,0,0xFF,0x80
6.164163333333334,0,0xFF,0x32
6.164184208333333,0,0x87,0x01
6.164202250000000,0,0x00,0x01
6.164220333333334,0,0xB3,0x01
6.165691291666667,0,0xB0,0x12
6.165709291666666,0,0x7F,0x12
6.165727500000000,0,0xFF,0x04
6.167681791666666,0,0x90,0x12
6.167699833333334,0,0xFF,0x12
6.167718041666666,0,0xFF,0x04
6.169672666666667,0,0x98,0x10
6.169690708333333,0,0xFF,0x02
6.169708916666667,0,0xFF,0x00
6.171661916666666,0,0xB0,0x12
6.171679958333334,0,0xFF,0x13
6.171698166666666,0,0xFF,0x04
6.173654625000000,0,0x98,0x1A
6.173672666666667,0,0xFF,0x02
6.173690875000000,0,0xFF,0x00
6.175644500000000,0,0xB0,0x13
6.175662500000000,0,0xFF,0x10
6.175680708333333,0,0xFF,0x04
6.177642875000000,0,0xB0,0x12
6.177660916666667,0,0xFF,0x12
6.177679125000000,0,0xFF,0x04
6.179631500000000,0,0xF0,0x02
6.179649500000000,0,0x7F,0x12
6.179667708333334,0,0xFF,0x04
6.181626416666667,0,0xF0,0x02
6.181644416666667,0,0x7F,0x1A
6.181662625000000,0,0xFF,0x04
6.183618083333333,0,0xF0,0x12
6.183636083333333,0,0x7F,0x12
6.183654291666667,0,0xFF,0x04
6.185606666666667,0,0xF0,0x02
6.185624666666667,0,0x7F,0x12
6.185642875000000,0,0xFF,0x04
6.187594708333333,0,0xB0,0x12
6.187612750000000,0,0xFF,0x12
6.187630916666667,0,0xFF,0x04
6.189581916666667,0,0xB0,0x12
6.189599958333333,0,0xFF,0x12
6.189618166666667,0,0xFF,0x04
6.191569541666667,0,0x98,0x10
6.191587583333333,0,0xFF,0x02
6.191605791666666,0,0xFF,0x04
6.193561625000000,0,0xF0,0x02
6.193579625000000,0,0x7F,0x12
6.193597833333333,0,0xFF,0x04
6.195560083333334,0,0xF0,0x02
6.195578083333333,0,0x7F,0x12
6.195596291666667,0,0xFF,0x04
6.195621125000000,0,0x87,0x12
6.195639125000000,0,0xFF,0x00
6.195657333333333,0,0xFF,0xB2
6.195677875000000,0,0x87,0x12
6.195695916666667,0,0x00,0x12
6.195714000000000,0,0x00,0x13
6.195809541666667,0,0x07,0x01
6.195827583333333,0,0x00,0x01
6.195845666666667,0,0x14,0x01
6.195866250000000,0,0x36,0x01
6.195884291666666,0,0x80,0x00
6.195902333333334,0,0x00,0x01
6.195922583333333,0,0x87,0x01
6.195940625000000,0,0xFF,0x00
6.195958833333333,0,0xFF,0x10
6.195979708333334,0,0x03,0x00
6.195997708333334,0,0x00,0x01
6.196015791666666,0,0x94,0x01
6.197550208333333,0,0xF0,0x13
6.197568208333333,0,0x7F,0x18
6.197586416666667,0,0xFF,0x08
6.199541791666666,0,0xF0,0x12
6.199559791666666,0,0x7F,0x1A
6.199578000000000,0,0xFF,0x00
6.201536416666666,0,0x98,0x10
6.201554458333334,0,0xFF,0x02
6.201572666666666,0,0xFF,0x08
6.203527916666666,0,0xB0,0x12
6.203545916666667,0,0xFF,0x12
6.203564125000000,0,0xFF,0x08
6.205518416666667,0,0xF0,0x12
6.205536458333333,0,0xFF,0x12
6.205554666666667,0,0xFF,0x08
6.207510166666666,0,0xF0,0x02
6.207528166666667,0,0x7F,0x12
6.207546375000000,0,0xFF,0x00
6.209501208333333,0,0xF0,0x13
6.209519208333333,0,0x7F,0x18
6.209537416666667,0,0xFF,0x08
6.211497208333333,0,0x98,0x10
6.211515250000000,0,0xFF,0x02
6.211533458333333,0,0xFF,0x08
6.213490625000000,0,0xB0,0x12
6.213508666666667,0,0xFF,0x13
6.213526875000000,0,0xFF,0x08
6.215478708333333,0,0xB0,0x12
6.215496750000000,0,0xFF,0x12
6.215514958333333,0,0xFF,0x08
6.217467250000000,0,0xF0,0x02
6.217485250000000,0,0x7F,0x1A
6.217503458333334,0,0xFF,0x00
6.219457041666667,0,0xB0,0x12
6.219475083333333,0,0xFF,0x12
6.219493291666667,0,0xFF,0x08
6.221443750000000,0,0xF0,0x02
6.221461750000000,0,0x7F,0x12
6.221479958333333,0,0xFF,0x00
6.223433250000000,0,0x98,0x1A
6.223451291666667,0,0xFF,0x12
6.223469500000000,0,0xFF,0x08
6.225431250000000,0,0xB0,0x13
6.225449250000000,0,0x7F,0x1A
6.225467458333333,0,0xFF,0x00
6.227420125000000,0,0xB0,0x12
6.227438125000000,0,0xFF,0x10
6.227456333333333,0,0xFF,0x08
6.227481125000000,0,0x87,0x1A
6.227499166666667,0,0xFF,0x00
6.227517375000000,0,0xFF,0xC4
6.227537916666667,0,0x07,0x10
6.227555958333333,0,0x00,0x02
6.227574000000000,0,0x3C,0x12
6.227603583333333,0,0x03,0x00
6.227621583333334,0,0x00,0x01
6.227639666666667,0,0x3C,0x01
6.227660250000000,0,0x1E,0x01
6.227678291666667,0,0xC0,0x01
6.227696375000000,0,0x80,0x01
6.227716583333334,0,0x07,0x01
6.227734625000000,0,0xFF,0x00
6.227752833333334,0,0xFF,0x3C
6.227773708333333,0,0x03,0x00
6.227791708333333,0,0x00,0x01
6.227809791666667,0,0xFC,0x01
6.229416833333334,0,0xB0,0x12
6.229434875000000,0,0xFF,0x13
6.229453083333333,0,0xFF,0x18
6.231406958333333,0,0xB0,0x12
6.231425000000000,0,0xFF,0x12
6.231443208333333,0,0xFF,0x18
6.233401500000000,0,0x98,0x18
6.233419541666667,0,0xFF,0x12
6.233437750000000,0,0xFF,0x18
6.235388541666667,0,0xB0,0x12
6.235406583333333,0,0xFF,0x13
6.235424791666667,0,0xFF,0x18
6.237387666666667,0,0xB0,0x12
6.237405708333333,0,0xFF,0x13
6.237423916666667,0,0xFF,0x18
6.239378375000000,0,0x98,0x1A
6.239396416666667,0,0xFF,0x12
6.239414625000000,0,0xFF,0x08
6.241368458333334,0,0xF0,0x02
6.241386458333333,0,0x7F,0x12
6.241404666666667,0,0xFF,0x18
6.243356625000000,0,0xF0,0x13
6.243374625000000,0,0x7F,0x1A
6.243392833333333,0,0xFF,0x18
6.245346500000000,0,0xB0,0x13
6.245364500000000,0,0x7F,0x1A
6.245382708333334,0,0xFF,0x18
6.247345041666667,0,0xB0,0x12
6.247363083333333,0,0xFF,0x12
6.247381250000000,0,0xFF,0x18
6.249332416666666,0,0xB0,0x12
6.249350458333334,0,0xFF,0x12
6.249368666666666,0,0xFF,0x18
6.251327708333333,0,0xB0,0x12
6.251345708333333,0,0xFF,0x10
6.251363916666667,0,0xFF,0x18
6.253326541666667,0,0x98,0x10
6.253344583333333,0,0xFF,0x02
6.253362791666667,0,0xFF,0x18
6.255323791666667,0,0xB0,0x12
6.255341833333333,0,0xFF,0x13
6.255360041666667,0,0xFF,0x18
6.257314875000000,0,0xB0,0x12
6.257332875000000,0,0xFF,0x12
6.257351083333333,0,0xFF,0x18
6.259304291666667,0,0xF0,0x12
6.259322291666667,0,0x7F,0x12
6.259340500000000,0,0xFF,0x18
6.259365333333333,0,0x83,0x12
6.259383333333333,0,0xFF,0x00
6.259401791666667,0,0xFF,0xBC
6.259422333333333,0,0x07,0x12
6.259440375000000,0,0x00,0x12
6.259458416666667,0,0x1E,0x1A
6.260392583333333,0,0x07,0x01
6.260410625000000,0,0x00,0x01
6.260428708333333,0,0x0F,0x00
6.260449291666666,0,0x1E,0x01
6.260467333333334,0,0xC0,0x01
6.260485375000000,0,0x00,0x81
6.260505625000000,0,0x87,0x01
6.260523666666667,0,0xFF,0x00
6.260541875000000,0,0xFF,0x1E
6.260562750000000,0,0x03,0x01
6.260580750000000,0,0x80,0x01
6.260598833333333,0,0x9E,0x01
6.262014166666667,0,0xF0,0x02
6.262032166666667,0,0x7F,0x12
6.262050375000000,0,0xFF,0x1C
6.264014333333333,0,0xB0,0x13
6.264032333333334,0,0xFF,0x10
6.264050541666666,0,0xFF,0x1C
6.266001041666667,0,0xF0,0x12
6.266019041666667,0,0x7F,0x12
6.266037250000000,0,0xFF,0x1C
6.267991416666667,0,0xB0,0x12
6.268009458333333,0,0xFF,0x12
6.268027625000000,0,0xFF,0x1C
6.269990833333333,0,0xB0,0x12
6.270008875000000,0,0xFF,0x12
6.270027083333333,0,0xFF,0x1C
6.271988125000000,0,0xB0,0x12
6.272006166666666,0,0xFF,0x12
6.272024375000000,0,0xFF,0x1C
6.273976666666667,0,0xB0,0x13
6.273994666666667,0,0x7F,0x1A
6.274012875000000,0,0xFF,0x1C
6.275966958333333,0,0xB0,0x13
6.275984958333333,0,0xFF,0x10
6.276003166666666,0,0xFF,0x1E
6.277960083333333,0,0xB0,0x12
6.277978125000000,0,0xFF,0x13
6.277996333333333,0,0xFF,0x1C
6.279958250000000,0,0x98,0x10
6.279976291666666,0,0xFF,0x02
6.279994500000000,0,0xFF,0x1C
6.281947583333333,0,0xB0,0x12
6.281965625000000,0,0xFF,0x12
6.281983833333333,0,0xFF,0x1C
6.283943000000000,0,0xB0,0x12
6.283961000000000,0,0xFF,0x10
6.283979208333333,0,0xFF,0x1E
6.285942041666667,0,0xF0,0x13
6.285960041666667,0,0x7F,0x1A
6.285978250000000,0,0xFF,0x1C
6.287940166666667,0,0xB0,0x12
6.287958166666667,0,0xFF,0x12
6.287976375000000,0,0xFF,0x1C
6.289929875000000,0,0xF0,0x13
6.289947875000000,0,0x7F,0x1A
6.289966083333334,0,0xFF,0x1E
6.291920791666667,0,0x98,0x18
6.291938833333333,0,0xFF,0x02
6.291957041666667,0,0xFF,0x0C
6.291981833333334,0,0x87,0x12
6.291999875000000,0,0xFF,0x00
6.292018083333334,0,0xFF,0x9E
6.292038625000000,0,0x07,0x02
6.292056625000000,0,0x80,0x12
6.292074708333334,0,0x66,0x10
6.292188666666667,0,0x07,0x01
6.292206708333334,0,0x00,0x01
6.292224750000000,0,0x66,0x01
6.292245375000000,0,0x30,0x00
6.292263375000000,0,0x00,0x01
6.292281458333333,0,0x80,0x01
6.292301708333333,0,0xC7,0x01
6.292319708333333,0,0xFF,0x80
6.292337916666667,0,0xFF,0x46
6.292358791666667,0,0x87,0x01
6.292376833333333,0,0x00,0x01
6.292394916666667,0,0xC6,0x01
6.293915041666667,0,0x30,0x12
6.293933083333333,0,0xFF,0x12
6.293951291666667,0,0xFF,0x0C
6.295906291666666,0,0x98,0x10
6.295924333333334,0,0xFF,0x02
6.295942541666666,0,0xFF,0x0C
6.297896333333333,0,0xF0,0x12
6.297914375000000,0,0xFF,0x12
6.297932541666666,0,0xFF,0x0C
6.299884041666667,0,0xF0,0x02
6.299902041666667,0,0x7F,0x12
6.299920250000000,0,0xFF,0x0C
6.301881833333334,0,0xB0,0x12
6.301899875000000,0,0xFF,0x12
6.301918083333334,0,0xFF,0x0C
6.303870916666667,0,0xF0,0x12
6.303888958333333,0,0xFF,0x12
6.303907125000000,0,0xFF,0x0C
6.305867791666667,0,0x98,0x10
6.305885833333333,0,0xFF,0x02
6.305904041666667,0,0xFF,0x0C
6.307855708333333,0,0xF0,0x02
6.307873708333333,0,0x7F,0x12
6.307891916666667,0,0xFF,0x04
6.309855083333333,0,0x98,0x10
6.309873125000000,0,0xFF,0x02
6.309891333333334,0,0xFF,0x0C
6.311850000000000,0,0xF0,0x02
6.311868000000000,0,0x7F,0x12
6.311886208333333,0,0xFF,0x04
6.313843666666667,0,0xB0,0x12
6.313861708333333,0,0xFF,0x12
6.313879916666667,0,0xFF,0x0C
6.315831166666666,0,0x98,0x10
6.315849208333334,0,0xFF,0x02
6.315867416666666,0,0xFF,0x0C
6.317829333333333,0,0xB0,0x12
6.317847375000000,0,0xFF,0x13
6.317865583333333,0,0xFF,0x0C
6.319819333333333,0,0xB0,0x12
6.319837333333333,0,0xFF,0x10
6.319855541666667,0,0xFF,0x0C
6.321808750000000,0,0x98,0x10
6.321826791666667,0,0xFF,0x02
6.321845000000000,0,0xFF,0x0C
6.323799958333334,0,0xB0,0x12
6.323818000000000,0,0xFF,0x13
6.323836208333334,0,0xFF,0x0C
6.323861000000000,0,0xC3,0x02
6.323879000000000,0,0xFF,0x00
6.323897208333333,0,0xFF,0xE6
6.323917791666666,0,0x03,0x13
6.323935791666667,0,0x00,0x18
6.323953875000000,0,0x00,0x12
6.323983625000000,0,0x07,0x01
6.324001666666667,0,0x00,0x01
6.324019750000000,0,0x00,0x01
6.324040333333333,0,0x1E,0x01
6.324058375000000,0,0xC0,0x01
6.324076458333334,0,0x80,0x01
6.324096666666667,0,0x07,0x01
6.324114708333333,0,0xFF,0x00
6.324132916666667,0,0xFF,0x00
6.324153791666666,0,0x03,0x01
6.324171791666667,0,0x80,0x01
6.324189875000000,0,0x80,0x01
6.325796375000000,0,0x30,0x92
6.325814416666667,0,0xFF,0x10
6.325832625000000,0,0xFF,0x00
6.327786083333334,0,0xF0,0x12
6.327804083333334,0,0x7F,0x12
6.327822291666667,0,0xFF,0x00
6.329778916666666,0,0x98,0x12
6.329796958333334,0,0xFF,0x12
6.329815166666667,0,0xFF,0x00
6.331774166666666,0,0x98,0x10
6.331792208333333,0,0xFF,0x02
6.331810416666666,0,0xFF,0x00
6.333761791666666,0,0xF0,0x02
6.333779791666666,0,0x7F,0x12
6.333798000000000,0,0xFF,0x00
6.335754125000000,0,0x90,0x12
6.335772166666667,0,0xFF,0x12
6.335790375000000,0,0xFF,0x00
6.337741958333333,0,0xF0,0x12
6.337759958333334,0,0x7F,0x12
6.337778166666666,0,0xFF,0x00
6.339732666666666,0,0xB0,0x12
6.339750666666666,0,0x7F,0x12
6.339768875000000,0,0xFF,0x00
6.341722083333333,0,0xF0,0x12
6.341740125000000,0,0xFF,0x12
6.341758333333333,0,0xFF,0x00
6.343712666666667,0,0xB0,0x12
6.343730708333333,0,0xFF,0x12
6.343748916666667,0,0xFF,0x00
6.345700791666666,0,0x98,0x10
6.345718833333334,0,0xFF,0x02
6.345737041666666,0,0xFF,0x00
6.347691708333334,0,0xB0,0x12
6.347709708333333,0,0xFF,0x10
6.347727916666667,0,0xFF,0x00
6.349688750000000,0,0xB0,0x12
6.349706791666667,0,0xFF,0x12
6.349725000000000,0,0xFF,0x00
6.351685958333333,0,0xF0,0x13
6.351703958333333,0,0x7F,0x1A
6.351722166666667,0,0xFF,0x00
6.353679000000000,0,0x98,0x12
6.353697041666667,0,0xFF,0x02
6.353715250000000,0,0xFF,0x00
6.355670583333334,0,0xF0,0x12
6.355688583333333,0,0x7F,0x1A
6.355706791666667,0,0xFF,0x00
6.355731625000000,0,0x83,0x13
6.355749625000000,0,0xFF,0x00
6.355767833333333,0,0xFF,0x80
6.355788541666667,0,0x07,0x12
6.355806583333333,0,0x00,0x13
6.355824625000000,0,0x00,0x1A
6.356775041666666,0,0x07,0x01
6.356793041666666,0,0x80,0x81
6.356811125000000,0,0x00,0x01
6.356831750000000,0,0x30,0x00
6.356849750000000,0,0x00,0x01
6.356867833333333,0,0x80,0x01
6.356888083333334,0,0xC3,0x01
6.356906083333334,0,0xFF,0x80
6.356924291666667,0,0xFF,0x28
6.356945166666667,0,0x87,0x01
6.356963208333333,0,0x00,0x01
6.356981291666667,0,0xFC,0x01
6.358369500000000,0,0xB0,0x12
6.358387541666667,0,0xFF,0x13
6.358405750000000,0,0xFF,0x10
6.360357125000000,0,0xB0,0x12
6.360375166666667,0,0xFF,0x12
6.360393375000000,0,0xFF,0x10
6.362347625000000,0,0xF0,0x12
6.362365625000000,0,0x7F,0x12
6.362383833333333,0,0xFF,0x10
6.364342916666667,0,0xB0,0x12
6.364360958333333,0,0xFF,0x12
6.364379166666667,0,0xFF,0x10
6.366331583333333,0,0xB0,0x13
6.366349583333333,0,0x7F,0x18
6.366367791666667,0,0xFF,0x10
6.368330250000000,0,0xB0,0x12
6.368348291666667,0,0xFF,0x12
6.368366500000000,0,0xFF,0x10
6.370319208333333,0,0xF0,0x13
6.370337208333333,0,0x7F,0x1A
6.370355416666666,0,0xFF,0x18
6.372306666666667,0,0xB0,0x12
6.372324708333333,0,0xFF,0x13
6.372342916666667,0,0xFF,0x10
6.374297500000000,0,0xF0,0x13
6.374315500000000,0,0x7F,0x1A
6.374333708333333,0,0xFF,0x18
6.376290250000000,0,0xB0,0x12
6.376308291666667,0,0xFF,0x12
6.376326458333334,0,0xFF,0x10
6.378280333333334,0,0xB0,0x12
6.378298375000000,0,0xFF,0x12
6.378316583333334,0,0xFF,0x10
6.380267458333333,0,0xB0,0x13
6.380285458333334,0,0xFF,0x10
6.380303666666666,0,0xFF,0x10
6.382255166666667,0,0xB0,0x12
6.382273166666667,0,0xFF,0x12
6.382291375000000,0,0xFF,0x10
6.384254625000000,0,0xB0,0x12
6.384272666666667,0,0xFF,0x12
6.384290875000000,0,0xFF,0x10
6.386250375000000,0,0xB0,0x12
6.386268416666667,0,0xFF,0x12
6.386286625000000,0,0xFF,0x10
6.388242416666666,0,0x90,0x12
6.388260458333333,0,0xFF,0x12
6.388278666666666,0,0xFF,0x00
6.388303458333334,0,0x87,0x12
6.388321458333333,0,0xFF,0x00
6.388339666666667,0,0xFF,0x80
6.388360250000000,0,0x07,0x12
6.388378250000000,0,0x00,0x12
6.388396333333334,0,0x0E,0x12
6.388570208333333,0,0x07,0x01
6.388588250000000,0,0x00,0x00
6.388606291666667,0,0x02,0x01
6.388626916666666,0,0x30,0x00
6.388644916666666,0,0x00,0x01
6.388663000000000,0,0xC0,0x01
6.388683250000000,0,0x87,0x01
6.388701250000000,0,0xFF,0x00
6.388719458333333,0,0xFF,0x0A
6.388740333333334,0,0x03,0x01
6.388758333333334,0,0x80,0x01
6.388776416666667,0,0x8A,0x01
6.390240458333333,0,0x98,0x10
6.390258500000000,0,0xFF,0x02
6.390276708333333,0,0xFF,0x00
6.392228833333333,0,0x98,0x10
6.392246875000000,0,0xFF,0x12
6.392265083333333,0,0xFF,0x14
6.394222208333334,0,0x98,0x1A
6.394240250000000,0,0xFF,0x02
6.394258458333334,0,0xFF,0x10
6.396210666666667,0,0x98,0x10
6.396228708333333,0,0xFF,0x02
6.396246916666667,0,0xFF,0x14
6.398208458333333,0,0xB0,0x12
6.398226500000000,0,0xFF,0x12
6.398244708333333,0,0xFF,0x14
6.400197458333333,0,0x98,0x1A
6.400215500000000,0,0xFF,0x12
6.400233708333333,0,0xFF,0x00
6.402187416666667,0,0xB0,0x12
6.402205416666667,0,0xFF,0x12
6.402223625000000,0,0xFF,0x14
6.404186166666666,0,0xB0,0x12
6.404204166666666,0,0xFF,0x12
6.404222375000000,0,0xFF,0x14
6.406184291666666,0,0x98,0x12
6.406202333333334,0,0xFF,0x13
6.406220541666666,0,0xFF,0x14
6.408172833333333,0,0xF0,0x13
6.408190833333333,0,0x7F,0x10
6.408209041666667,0,0xFF,0x14
6.410163000000000,0,0xF0,0x12
6.410181000000000,0,0x7F,0x12
6.410199208333333,0,0xFF,0x14
6.412154500000000,0,0xB0,0x12
6.412172541666667,0,0xFF,0x13
6.412190750000000,0,0xFF,0x14
6.414143875000000,0,0xF0,0x02
6.414161875000000,0,0x7F,0x1A
6.414180083333333,0,0xFF,0x1E
6.416137125000000,0,0xB0,0x12
6.416155166666667,0,0xFF,0x12
6.416173333333333,0,0xFF,0x14
6.418133875000000,0,0xF0,0x02
6.418151875000000,0,0x7F,0x1A
6.418170083333333,0,0xFF,0x16
6.420124375000000,0,0xB0,0x12
6.420142416666667,0,0xFF,0x12
6.420160625000000,0,0xFF,0x14
6.420185416666667,0,0x87,0x10
6.420203458333333,0,0xFF,0x00
6.420221666666666,0,0xFF,0x8A
6.420242208333334,0,0x07,0x12
6.420260250000000,0,0x00,0x13
6.420278291666667,0,0x1A,0x1A
6.420364166666666,0,0x03,0x01
6.420382166666666,0,0x80,0x81
6.420400250000000,0,0x18,0x01
6.420420875000000,0,0x34,0x01
6.420438875000000,0,0x80,0x01
6.420456958333333,0,0xC0,0x01
6.420477208333334,0,0x87,0x01
6.420495208333334,0,0xFF,0x00
6.420513416666667,0,0xFF,0x32
6.420534291666667,0,0x07,0x01
6.420552333333333,0,0x00,0x01
6.420570375000000,0,0x18,0x01
6.422120958333333,0,0xB0,0x12
6.422139000000000,0,0xFF,0x12
6.422157166666667,0,0xFF,0x04
6.424115125000000,0,0xB0,0x12
6.424133125000000,0,0xFF,0x12
6.424151333333334,0,0xFF,0x04
6.426104291666666,0,0xB0,0x12
6.426122333333334,0,0xFF,0x12
6.426140541666666,0,0xFF,0x04
6.428098625000000,0,0x98,0x1A
6.428116666666667,0,0xFF,0x12
6.428134875000000,0,0xFF,0x04
6.430088916666667,0,0xB0,0x13
6.430106916666666,0,0x7F,0x18
6.430125125000000,0,0xFF,0x06
6.432078041666666,0,0x98,0x1A
6.432096083333334,0,0xFF,0x02
6.432114291666666,0,0xFF,0x00
6.434069416666667,0,0xF0,0x02
6.434087416666666,0,0x7F,0x1A
6.434105625000000,0,0xFF,0x04
6.436057083333333,0,0xB0,0x12
6.436075083333333,0,0xFF,0x12
6.436093291666666,0,0xFF,0x04
6.438053250000000,0,0x98,0x18
6.438071291666667,0,0xFF,0x02
6.438089500000000,0,0xFF,0x04
6.440042750000000,0,0xF0,0x12
6.440060750000000,0,0x7F,0x12
6.440078958333333,0,0xFF,0x04
6.442031041666667,0,0xF0,0x12
6.442049041666666,0,0x7F,0x12
6.442067250000000,0,0xFF,0x04
6.444020333333333,0,0xB0,0x12
6.444038375000000,0,0xFF,0x12
6.444056541666667,0,0xFF,0x04
6.446012250000000,0,0xB0,0x13
6.446030250000000,0,0x7F,0x18
6.446048458333333,0,0xFF,0x06
6.448000000000000,0,0x90,0x12
6.448018041666667,0,0xFF,0x13
6.448036250000000,0,0xFF,0x04
6.449995291666666,0,0x98,0x10
6.450013333333334,0,0xFF,0x02
6.450031541666666,0,0xFF,0x00
6.451985625000000,0,0xF0,0x12
6.452003625000000,0,0x7F,0x1A
6.452021833333333,0,0xFF,0x06
6.452046625000000,0,0x87,0x12
6.452064666666667,0,0xFF,0x00
6.452082875000000,0,0xFF,0xB2
6.452103416666667,0,0x87,0x18
6.452121458333333,0,0x00,0x02
6.452139541666667,0,0x14,0x12
6.453151375000000,0,0x07,0x01
6.453169416666666,0,0x00,0x01
6.453187500000000,0,0x00,0x00
6.453208083333333,0,0x3E,0x01
6.453226125000000,0,0x80,0x00
6.453244166666667,0,0x00,0x01
6.453264416666666,0,0x87,0x01
6.453282458333334,0,0xFF,0x00
6.453300666666666,0,0xFF,0x14
6.453321541666667,0,0x03,0x01
6.453339541666667,0,0x00,0x01
6.453357625000000,0,0xC4,0x01
6.454744291666667,0,0xB0,0x12
6.454762291666666,0,0xFF,0x10
6.454780500000000,0,0xFF,0x08
6.456731583333333,0,0xB0,0x13
6.456749583333333,0,0xFF,0x10
6.456767791666667,0,0xFF,0x08
6.458727500000000,0,0x98,0x10
6.458745541666667,0,0xFF,0x02
6.458763750000000,0,0xFF,0x0C
6.460716666666666,0,0xB0,0x12
6.460734708333334,0,0xFF,0x12
6.460752875000000,0,0xFF,0x08
6.462713791666666,0,0xF0,0x12
6.462731791666666,0,0x7F,0x12
6.462750000000000,0,0xFF,0x08
6.464706500000000,0,0xF0,0x12
6.464724541666667,0,0xFF,0x12
6.464742708333334,0,0xFF,0x08
6.466702375000000,0,0xB0,0x12
6.466720416666667,0,0xFF,0x12
6.466738625000000,0,0xFF,0x08
6.468694916666666,0,0xB0,0x12
6.468712916666667,0,0xFF,0x10
6.468731125000000,0,0xFF,0x08
6.470682708333333,0,0x98,0x1A
6.470700750000000,0,0xFF,0x12
6.470718958333333,0,0xFF,0x0C
6.472670291666667,0,0x98,0x1A
6.472688333333333,0,0xFF,0x12
6.472706541666667,0,0xFF,0x08
6.474657083333334,0,0xF0,0x02
6.474675083333334,0,0x7F,0x12
6.474693291666667,0,0xFF,0x08
6.476656166666666,0,0xB0,0x13
6.476674166666666,0,0xFF,0x10
6.476692375000000,0,0xFF,0x08
6.478649708333333,0,0xB0,0x12
6.478667750000000,0,0xFF,0x12
6.478685958333333,0,0xFF,0x08
6.480639333333333,0,0xB0,0x12
6.480657375000000,0,0xFF,0x12
6.480675541666667,0,0xFF,0x08
6.482632166666667,0,0xB0,0x12
6.482650166666667,0,0xFF,0x12
6.482668375000000,0,0xFF,0x08
6.484630500000000,0,0xB0,0x12
6.484648500000000,0,0xFF,0x12
6.484666708333333,0,0xFF,0x08
6.484691500000000,0,0x87,0x1A
6.484709541666667,0,0xFF,0x00
6.484727750000000,0,0xFF,0x80
6.484748291666667,0,0x07,0x12
6.484766333333333,0,0x00,0x12
6.484784375000000,0,0x1E,0x10
6.484945791666667,0,0x03,0x00
6.484963791666667,0,0x00,0x01
6.484981875000000,0,0x3C,0x01
6.485002458333334,0,0x1C,0x01
6.485020500000000,0,0xC0,0x01
6.485038583333333,0,0x80,0x01
6.485058791666667,0,0x07,0x01
6.485076833333333,0,0xFF,0x00
6.485095041666667,0,0xFF,0x3C
6.485115916666667,0,0x03,0x01
6.485133916666666,0,0x00,0x01
6.485152000000000,0,0xFC,0x01
6.486619125000000,0,0xB0,0x13
6.486637125000000,0,0xFF,0x10
6.486655333333333,0,0xFF,0x18
6.488609333333334,0,0xB0,0x13
6.488627333333334,0,0xFF,0x10
6.488645541666667,0,0xFF,0x18
6.490604916666666,0,0x98,0x18
6.490622958333334,0,0xFF,0x02
6.490641166666666,0,0xFF,0x0C
6.492592166666666,0,0xF0,0x12
6.492610208333334,0,0xFF,0x12
6.492628375000000,0,0xFF,0x18
6.494585291666667,0,0xF0,0x02
6.494603291666667,0,0x7F,0x12
6.494621500000000,0,0xFF,0x18
6.496580333333333,0,0x98,0x18
6.496598375000000,0,0xFF,0x02
6.496616583333333,0,0xFF,0x0C
6.498577166666666,0,0xB0,0x13
6.498595166666667,0,0x7F,0x1A
6.498613375000000,0,0xFF,0x18
