Time [s],Packet ID,MOSI,MISO
0.097622625000000,0,0x21,0x0E
0.097632375000000,0,0x00,0x00
0.097650375000000,1,0x22,0x0E
0.097660125000000,1,0x01,0x00
0.097678125000000,2,0x23,0x0E
0.097687750000000,2,0x02,0x00
0.097705750000000,3,0x24,0x0E
0.097715500000000,3,0x00,0x00
0.097733500000000,4,0x26,0x0E
0.097743250000000,4,0x24,0x00
0.097761750000000,5,0x27,0x0E
0.097771500000000,5,0xF0,0x00
0.097789500000000,6,0x25,0x0E
0.097799250000000,6,0x58,0x00
0.097817250000000,7,0x20,0x0E
0.097827000000000,7,0x3F,0x00
0.097845000000000,8,0x31,0x0E
0.097854750000000,8,0x04,0x00
0.097868500000000,9,0x2A,0x0E
0.097878375000000,9,0xC3,0x00
0.097888125000000,9,0xC3,0x00
0.097898000000000,9,0xAA,0x00
0.097907875000000,9,0x55,0x00
0.097921500000000,10,0x0A,0x0E
0.097931375000000,10,0xFF,0xC3
0.097941375000000,10,0xFF,0xC3
0.097951375000000,10,0xFF,0xAA
0.097961375000000,10,0xFF,0x55
0.097976875000000,11,0xE2,0x0E
0.097994750000000,12,0x27,0x0E
0.098004500000000,12,0xF0,0x00
0.115649250000000,13,0x30,0x0E
0.115659250000000,13,0x0D,0x00
0.115669125000000,13,0x9A,0x00
0.115679125000000,13,0xE0,0x00
0.115689125000000,13,0xF8,0x00
0.198837750000000,14,0x25,0x0E
0.198847750000000,14,0x10,0x00
0.198866000000000,15,0x20,0x0E
0.198875750000000,15,0x5E,0x00
0.198894000000000,16,0x21,0x0E
0.198903750000000,16,0x00,0x00
0.198921750000000,17,0x22,0x0E
0.198931500000000,17,0x01,0x00
0.198949500000000,18,0x23,0x0E
0.198959125000000,18,0x02,0x00
0.198977125000000,19,0x24,0x0E
0.198986875000000,19,0x00,0x00
0.199004875000000,20,0x26,0x0E
0.199014625000000,20,0x24,0x00
0.199029250000000,21,0xE1,0x0E
0.199047500000000,22,0x27,0x0E
0.199057250000000,22,0xF0,0x00
0.199071375000000,23,0xA0,0x0E
0.199081375000000,23,0xFF,0x00
0.199091375000000,23,0x02,0x00
0.199101375000000,23,0x72,0x00
0.199111250000000,23,0xFE,0x00
0.199121250000000,23,0x79,0x00
0.199131125000000,23,0xE4,0x00
0.199141125000000,23,0x1C,0x00
0.200455250000000,24,0x20,0x2E
0.200464875000000,24,0x5E,0x00
0.200483250000000,25,0x21,0x2E
0.200493000000000,25,0x00,0x00
0.200517375000000,26,0x22,0x2E
0.200527125000000,26,0x01,0x00
0.200545125000000,27,0x23,0x2E
0.200554875000000,27,0x02,0x00
0.200572750000000,28,0x24,0x2E
0.200582500000000,28,0x00,0x00
0.200600500000000,29,0x26,0x2E
0.200610250000000,29,0x24,0x00
0.200624875000000,30,0xE1,0x2E
0.200642750000000,31,0x27,0x2E
0.200652500000000,31,0xF0,0x00
0.200666625000000,32,0xA0,0x0E
0.200676625000000,32,0xFF,0x00
0.200686625000000,32,0x02,0x00
0.200696625000000,32,0x72,0x00
0.200706625000000,32,0xFE,0x00
0.200716500000000,32,0x79,0x00
0.200726500000000,32,0xE4,0x00
0.200736500000000,32,0x1C,0x00
0.216520000000000,33,0x25,0x2E
0.216530000000000,33,0x06,0x00
0.216548250000000,34,0x20,0x2E
0.216558000000000,34,0x5E,0x00
0.216576375000000,35,0x21,0x2E
0.216586125000000,35,0x00,0x00
0.216604125000000,36,0x22,0x2E
0.216613875000000,36,0x01,0x00
0.216631875000000,37,0x23,0x2E
0.216641625000000,37,0x02,0x00
0.216659625000000,38,0x24,0x2E
0.216669375000000,38,0x00,0x00
0.216687375000000,39,0x26,0x2E
0.216697125000000,39,0x24,0x00
0.216711750000000,40,0xE1,0x2E
0.216732375000000,41,0x27,0x2E
0.216742125000000,41,0xF0,0x00
0.216756375000000,42,0xA0,0x0E
0.216766375000000,42,0xFF,0x00
0.216776375000000,42,0x02,0x00
0.216786375000000,42,0x72,0x00
0.216796375000000,42,0xFE,0x00
0.216806375000000,42,0x79,0x00
0.216816375000000,42,0xE4,0x00
0.216826375000000,42,0x1C,0x00
0.218141500000000,43,0x20,0x2E
0.218151250000000,43,0x5E,0x00
0.218169625000000,44,0x21,0x2E
0.218179250000000,44,0x00,0x00
0.218203750000000,45,0x22,0x2E
0.218213500000000,45,0x01,0x00
0.218231500000000,46,0x23,0x2E
0.218241250000000,46,0x02,0x00
0.218259250000000,47,0x24,0x2E
0.218269000000000,47,0x00,0x00
0.218287000000000,48,0x26,0x2E
0.218296750000000,48,0x24,0x00
0.218311375000000,49,0xE1,0x2E
0.218329250000000,50,0x27,0x2E
0.218339000000000,50,0xF0,0x00
0.218353250000000,51,0xA0,0x0E
0.218363250000000,51,0xFF,0x00
0.218373250000000,51,0x02,0x00
0.218383125000000,51,0x72,0x00
0.218393125000000,51,0xFE,0x00
0.218403125000000,51,0x79,0x00
0.218413125000000,51,0xE4,0x00
0.218423125000000,51,0x1C,0x00
0.234212625000000,52,0x25,0x2E
0.234222625000000,52,0x23,0x00
0.234240875000000,53,0x20,0x2E
0.234250625000000,53,0x5E,0x00
0.234269125000000,54,0x21,0x2E
0.234278750000000,54,0x00,0x00
0.234296750000000,55,0x22,0x2E
0.234306500000000,55,0x01,0x00
0.234324500000000,56,0x23,0x2E
0.234334250000000,56,0x02,0x00
0.234352250000000,57,0x24,0x2E
0.234362000000000,57,0x00,0x00
0.234380000000000,58,0x26,0x2E
0.234389750000000,58,0x24,0x00
0.234404375000000,59,0xE1,0x2E
0.234428125000000,60,0x27,0x2E
0.234437875000000,60,0xF0,0x00
0.234452125000000,61,0xA0,0x0E
0.234462125000000,61,0xFF,0x00
0.234472000000000,61,0x02,0x00
0.234482000000000,61,0x72,0x00
0.234492000000000,61,0xFE,0x00
0.234502000000000,61,0x79,0x00
0.234512000000000,61,0xE4,0x00
0.234522000000000,61,0x1C,0x00
0.235836375000000,62,0x20,0x2E
0.235846125000000,62,0x5E,0x00
0.235864500000000,63,0x21,0x2E
0.235874125000000,63,0x00,0x00
0.235898625000000,64,0x22,0x2E
0.235908375000000,64,0x01,0x00
0.235926250000000,65,0x23,0x2E
0.235936000000000,65,0x02,0x00
0.235954000000000,66,0x24,0x2E
0.235963750000000,66,0x00,0x00
0.235981750000000,67,0x26,0x2E
0.235991500000000,67,0x24,0x00
0.236006000000000,68,0xE1,0x2E
0.236023875000000,69,0x27,0x2E
0.236033625000000,69,0xF0,0x00
0.236047875000000,70,0xA0,0x0E
0.236057875000000,70,0xFF,0x00
0.236067750000000,70,0x02,0x00
0.236077750000000,70,0x72,0x00
0.236087750000000,70,0xFE,0x00
0.236097750000000,70,0x79,0x00
0.236107625000000,70,0xE4,0x00
0.236117625000000,70,0x1C,0x00
0.251902125000000,71,0x25,0x2E
0.251912125000000,71,0x2B,0x00
0.251930375000000,72,0x20,0x2E
0.251940125000000,72,0x5E,0x00
0.251958500000000,73,0x21,0x2E
0.251968250000000,73,0x00,0x00
0.251986250000000,74,0x22,0x2E
0.251996000000000,74,0x01,0x00
0.252014000000000,75,0x23,0x2E
0.252023750000000,75,0x02,0x00
0.252041750000000,76,0x24,0x2E
0.252051500000000,76,0x00,0x00
0.252069500000000,77,0x26,0x2E
0.252079250000000,77,0x24,0x00
0.252093750000000,78,0xE1,0x2E
0.252118125000000,79,0x27,0x2E
0.252127875000000,79,0xF0,0x00
0.252142000000000,80,0xA0,0x0E
0.252152000000000,80,0xFF,0x00
0.252162000000000,80,0x02,0x00
0.252172000000000,80,0x72,0x00
0.252181875000000,80,0xFE,0x00
0.252191875000000,80,0x79,0x00
0.252201875000000,80,0xE4,0x00
0.252211875000000,80,0x1C,0x00
0.253526750000000,81,0x20,0x2E
0.253536500000000,81,0x5E,0x00
0.253554875000000,82,0x21,0x2E
0.253564625000000,82,0x00,0x00
0.253589000000000,83,0x22,0x2E
0.253598750000000,83,0x01,0x00
0.253616750000000,84,0x23,0x2E
0.253626500000000,84,0x02,0x00
0.253644500000000,85,0x24,0x2E
0.253654250000000,85,0x00,0x00
0.253672250000000,86,0x26,0x2E
0.253682000000000,86,0x24,0x00
0.253696625000000,87,0xE1,0x2E
0.253714500000000,88,0x27,0x2E
0.253724250000000,88,0xF0,0x00
0.253738500000000,89,0xA0,0x0E
0.253748500000000,89,0xFF,0x00
0.253758375000000,89,0x02,0x00
0.253768375000000,89,0x72,0x00
0.253778375000000,89,0xFE,0x00
0.253788375000000,89,0x79,0x00
0.253798250000000,89,0xE4,0x00
0.253808250000000,89,0x1C,0x00
0.269591250000000,90,0x25,0x2E
0.269601250000000,90,0x1D,0x00
0.269619500000000,91,0x20,0x2E
0.269629250000000,91,0x5E,0x00
0.269647625000000,92,0x21,0x2E
0.269657375000000,92,0x00,0x00
0.269675375000000,93,0x22,0x2E
0.269685125000000,93,0x01,0x00
0.269703125000000,94,0x23,0x2E
0.269712875000000,94,0x02,0x00
0.269730875000000,95,0x24,0x2E
0.269740625000000,95,0x00,0x00
0.269758625000000,96,0x26,0x2E
0.269768375000000,96,0x24,0x00
0.269783000000000,97,0xE1,0x2E
0.269807250000000,98,0x27,0x2E
0.269817000000000,98,0xF0,0x00
0.269831250000000,99,0xA0,0x0E
0.269841250000000,99,0xFF,0x00
0.269851250000000,99,0x02,0x00
0.269861250000000,99,0x72,0x00
0.269871250000000,99,0xFE,0x00
0.269881250000000,99,0x79,0x00
0.269891125000000,99,0xE4,0x00
0.269901125000000,99,0x1C,0x00
0.271215125000000,100,0x20,0x2E
0.271224875000000,100,0x5E,0x00
0.271243250000000,101,0x21,0x2E
0.271253000000000,101,0x00,0x00
0.271277500000000,102,0x22,0x2E
0.271287125000000,102,0x01,0x00
0.271305125000000,103,0x23,0x2E
0.271314875000000,103,0x02,0x00
0.271332875000000,104,0x24,0x2E
0.271342625000000,104,0x00,0x00
0.271360625000000,105,0x26,0x2E
0.271370250000000,105,0x24,0x00
0.271384875000000,106,0xE1,0x2E
0.271402750000000,107,0x27,0x2E
0.271412500000000,107,0xF0,0x00
0.271426750000000,108,0xA0,0x0E
0.271436625000000,108,0xFF,0x00
0.271446625000000,108,0x02,0x00
0.271456625000000,108,0x72,0x00
0.271466625000000,108,0xFE,0x00
0.271476500000000,108,0x79,0x00
0.271486500000000,108,0xE4,0x00
0.271496500000000,108,0x1C,0x00
0.287278125000000,109,0x25,0x2E
0.287288125000000,109,0x29,0x00
0.287306375000000,110,0x20,0x2E
0.287316125000000,110,0x5E,0x00
0.287334500000000,111,0x21,0x2E
0.287344125000000,111,0x00,0x00
0.287362125000000,112,0x22,0x2E
0.287371875000000,112,0x01,0x00
0.287390000000000,113,0x23,0x2E
0.287399625000000,113,0x02,0x00
0.287417625000000,114,0x24,0x2E
0.287427375000000,114,0x00,0x00
0.287445375000000,115,0x26,0x2E
0.287455125000000,115,0x24,0x00
0.287469750000000,116,0xE1,0x2E
0.287494125000000,117,0x27,0x2E
0.287503875000000,117,0xF0,0x00
0.287518125000000,118,0xA0,0x0E
0.287528125000000,118,0xFF,0x00
0.287538125000000,118,0x02,0x00
0.287548125000000,118,0x72,0x00
0.287558125000000,118,0xFE,0x00
0.287568000000000,118,0x79,0x00
0.287578000000000,118,0xE4,0x00
0.287588000000000,118,0x1C,0x00
0.288902375000000,119,0x20,0x2E
0.288912125000000,119,0x5E,0x00
0.288930375000000,120,0x21,0x2E
0.288940125000000,120,0x00,0x00
0.288964625000000,121,0x22,0x2E
0.288974375000000,121,0x01,0x00
0.288992375000000,122,0x23,0x2E
0.289002125000000,122,0x02,0x00
0.289020125000000,123,0x24,0x2E
0.289029875000000,123,0x00,0x00
0.289048000000000,124,0x26,0x2E
0.289057750000000,124,0x24,0x00
0.289072250000000,125,0xE1,0x2E
0.289090250000000,126,0x27,0x2E
0.289100000000000,126,0xF0,0x00
0.289114125000000,127,0xA0,0x0E
0.289124125000000,127,0xFF,0x00
0.289134125000000,127,0x02,0x00
0.289144125000000,127,0x72,0x00
0.289154125000000,127,0xFE,0x00
0.289164125000000,127,0x79,0x00
0.289174125000000,127,0xE4,0x00
0.289184000000000,127,0x1C,0x00
0.304967250000000,128,0x25,0x2E
0.304977250000000,128,0x0C,0x00
0.304995500000000,129,0x20,0x2E
0.305005250000000,129,0x5E,0x00
0.305023625000000,130,0x21,0x2E
0.305033375000000,130,0x00,0x00
0.305051375000000,131,0x22,0x2E
0.305061125000000,131,0x01,0x00
0.305079125000000,132,0x23,0x2E
0.305088875000000,132,0x02,0x00
0.305106875000000,133,0x24,0x2E
0.305116625000000,133,0x00,0x00
0.305134625000000,134,0x26,0x2E
0.305144375000000,134,0x24,0x00
0.305158875000000,135,0xE1,0x2E
0.305176750000000,136,0x27,0x2E
0.305186250000000,136,0xF0,0x00
0.305200500000000,137,0xA0,0x0E
0.305210500000000,137,0xFF,0x00
0.305220375000000,137,0x02,0x00
0.305230375000000,137,0x72,0x00
0.305240375000000,137,0xFE,0x00
0.305250375000000,137,0x79,0x00
0.305260375000000,137,0xE4,0x00
0.305270250000000,137,0x1C,0x00
0.306584875000000,138,0x20,0x2E
0.306594625000000,138,0x5E,0x00
0.306613000000000,139,0x21,0x2E
0.306622750000000,139,0x00,0x00
0.306640750000000,140,0x22,0x2E
0.306656875000000,140,0x01,0x00
0.306674875000000,141,0x23,0x2E
0.306684625000000,141,0x02,0x00
0.306702625000000,142,0x24,0x2E
0.306712375000000,142,0x00,0x00
0.306730375000000,143,0x26,0x2E
0.306740125000000,143,0x24,0x00
0.306754750000000,144,0xE1,0x2E
0.306772625000000,145,0x27,0x2E
0.306782375000000,145,0xF0,0x00
0.306796625000000,146,0xA0,0x0E
0.306806625000000,146,0xFF,0x00
0.306816625000000,146,0x02,0x00
0.306826500000000,146,0x72,0x00
0.306836500000000,146,0xFE,0x00
0.306846500000000,146,0x79,0x00
0.306856500000000,146,0xE4,0x00
0.306866500000000,146,0x1C,0x00
0.322645375000000,147,0x25,0x2E
0.322655250000000,147,0x05,0x00
0.322673500000000,148,0x20,0x2E
0.322683250000000,148,0x5E,0x00
0.322701500000000,149,0x21,0x2E
0.322711250000000,149,0x00,0x00
0.322729250000000,150,0x22,0x2E
0.322739000000000,150,0x01,0x00
0.322757000000000,151,0x23,0x2E
0.322766625000000,151,0x02,0x00
0.322784625000000,152,0x24,0x2E
0.322794375000000,152,0x00,0x00
0.322812375000000,153,0x26,0x2E
0.322822125000000,153,0x24,0x00
0.322836625000000,154,0xE1,0x2E
0.322854500000000,155,0x27,0x2E
0.322867125000000,155,0xF0,0x00
0.322881250000000,156,0xA0,0x0E
0.322891250000000,156,0xFF,0x00
0.322901250000000,156,0x02,0x00
0.322911250000000,156,0x72,0x00
0.322921125000000,156,0xFE,0x00
0.322931125000000,156,0x79,0x00
0.322941125000000,156,0xE4,0x00
0.322951000000000,156,0x1C,0x00
0.324264625000000,157,0x20,0x2E
0.324274375000000,157,0x5E,0x00
0.324292750000000,158,0x21,0x2E
0.324302500000000,158,0x00,0x00
0.324320500000000,159,0x22,0x2E
0.324336625000000,159,0x01,0x00
0.324354625000000,160,0x23,0x2E
0.324364375000000,160,0x02,0x00
0.324382375000000,161,0x24,0x2E
0.324392000000000,161,0x00,0x00
0.324410000000000,162,0x26,0x2E
0.324419750000000,162,0x24,0x00
0.324434375000000,163,0xE1,0x2E
0.324452250000000,164,0x27,0x2E
0.324462000000000,164,0xF0,0x00
0.324476250000000,165,0xA0,0x0E
0.324486250000000,165,0xFF,0x00
0.324496250000000,165,0x02,0x00
0.324506125000000,165,0x72,0x00
0.324516125000000,165,0xFE,0x00
0.324526125000000,165,0x79,0x00
0.324536125000000,165,0xE4,0x00
0.324546000000000,165,0x1C,0x00
0.340331250000000,166,0x25,0x2E
0.340341125000000,166,0x30,0x00
0.340359375000000,167,0x20,0x2E
0.340369125000000,167,0x5E,0x00
0.340387500000000,168,0x21,0x2E
0.340397250000000,168,0x00,0x00
0.340415250000000,169,0x22,0x2E
0.340425000000000,169,0x01,0x00
0.340443000000000,170,0x23,0x2E
0.340452750000000,170,0x02,0x00
0.340470750000000,171,0x24,0x2E
0.340480500000000,171,0x00,0x00
0.340498500000000,172,0x26,0x2E
0.340508250000000,172,0x24,0x00
0.340522875000000,173,0xE1,0x2E
0.340540750000000,174,0x27,0x2E
0.340556375000000,174,0xF0,0x00
0.340570625000000,175,0xA0,0x0E
0.340580625000000,175,0xFF,0x00
0.340590625000000,175,0x02,0x00
0.340600625000000,175,0x72,0x00
0.340610500000000,175,0xFE,0x00
0.340620500000000,175,0x79,0x00
0.340630500000000,175,0xE4,0x00
0.340640500000000,175,0x1C,0x00
0.341955500000000,176,0x20,0x2E
0.341965250000000,176,0x5E,0x00
0.341983625000000,177,0x21,0x2E
0.341993375000000,177,0x00,0x00
0.342011375000000,178,0x22,0x2E
0.342027500000000,178,0x01,0x00
0.342045625000000,179,0x23,0x2E
0.342055250000000,179,0x02,0x00
0.342073250000000,180,0x24,0x2E
0.342083000000000,180,0x00,0x00
0.342101000000000,181,0x26,0x2E
0.342110750000000,181,0x24,0x00
0.342125375000000,182,0xE1,0x2E
0.342143250000000,183,0x27,0x2E
0.342153000000000,183,0xF0,0x00
0.342167250000000,184,0xA0,0x0E
0.342177250000000,184,0xFF,0x00
0.342187250000000,184,0x02,0x00
0.342197125000000,184,0x72,0x00
0.342207125000000,184,0xFE,0x00
0.342217125000000,184,0x79,0x00
0.342227125000000,184,0xE4,0x00
0.342237125000000,184,0x1C,0x00
0.358022750000000,185,0x25,0x2E
0.358032750000000,185,0x48,0x00
0.358051000000000,186,0x20,0x2E
0.358060625000000,186,0x5E,0x00
0.358079000000000,187,0x21,0x2E
0.358088750000000,187,0x00,0x00
0.358106750000000,188,0x22,0x2E
0.358116500000000,188,0x01,0x00
0.358134500000000,189,0x23,0x2E
0.358144250000000,189,0x02,0x00
0.358162250000000,190,0x24,0x2E
0.358171875000000,190,0x00,0x00
0.358189875000000,191,0x26,0x2E
0.358199625000000,191,0x24,0x00
0.358214250000000,192,0xE1,0x2E
0.358232125000000,193,0x27,0x2E
0.358241875000000,193,0xF0,0x00
0.358256375000000,194,0xA0,0x0E
0.358266375000000,194,0xFF,0x00
0.358276375000000,194,0x02,0x00
0.358286375000000,194,0x72,0x00
0.358296375000000,194,0xFE,0x00
0.358306375000000,194,0x79,0x00
0.358316250000000,194,0xE4,0x00
0.358326250000000,194,0x1C,0x00
0.359640375000000,195,0x20,0x2E
0.359650125000000,195,0x5E,0x00
0.359668500000000,196,0x21,0x2E
0.359678125000000,196,0x00,0x00
0.359696250000000,197,0x22,0x2E
0.359706000000000,197,0x01,0x00
0.359730375000000,198,0x23,0x2E
0.359740125000000,198,0x02,0x00
0.359758125000000,199,0x24,0x2E
0.359767875000000,199,0x00,0x00
0.359785875000000,200,0x26,0x2E
0.359795625000000,200,0x24,0x00
0.359810250000000,201,0xE1,0x2E
0.359828125000000,202,0x27,0x2E
0.359837875000000,202,0xF0,0x00
0.359852125000000,203,0xA0,0x0E
0.359862125000000,203,0xFF,0x00
0.359872000000000,203,0x02,0x00
0.359882000000000,203,0x72,0x00
0.359892000000000,203,0xFE,0x00
0.359902000000000,203,0x79,0x00
0.359912000000000,203,0xE4,0x00
0.359921875000000,203,0x1C,0x00
0.375711750000000,204,0x25,0x2E
0.375721750000000,204,0x1E,0x00
0.375740000000000,205,0x20,0x2E
0.375749750000000,205,0x5E,0x00
0.375768125000000,206,0x21,0x2E
0.375777875000000,206,0x00,0x00
0.375795875000000,207,0x22,0x2E
0.375805625000000,207,0x01,0x00
0.375823625000000,208,0x23,0x2E
0.375833375000000,208,0x02,0x00
0.375851375000000,209,0x24,0x2E
0.375861125000000,209,0x00,0x00
0.375879125000000,210,0x26,0x2E
0.375888750000000,210,0x24,0x00
0.375903375000000,211,0xE1,0x2E
0.375921250000000,212,0x27,0x2E
0.375931000000000,212,0xF0,0x00
0.375947500000000,213,0xA0,0x0E
0.375957500000000,213,0xFF,0x00
0.375967375000000,213,0x02,0x00
0.375977375000000,213,0x72,0x00
0.375987375000000,213,0xFE,0x00
0.375997375000000,213,0x79,0x00
0.376007250000000,213,0xE4,0x00
0.376017250000000,213,0x1C,0x00
0.377331750000000,214,0x20,0x2E
0.377341500000000,214,0x5E,0x00
0.377359875000000,215,0x21,0x2E
0.377369500000000,215,0x00,0x00
0.377387500000000,216,0x22,0x2E
0.377397250000000,216,0x01,0x00
0.377421750000000,217,0x23,0x2E
0.377431500000000,217,0x02,0x00
0.377449500000000,218,0x24,0x2E
0.377459250000000,218,0x00,0x00
0.377477250000000,219,0x26,0x2E
0.377487000000000,219,0x24,0x00
0.377501500000000,220,0xE1,0x2E
0.377519500000000,221,0x27,0x2E
0.377529125000000,221,0xF0,0x00
0.377543375000000,222,0xA0,0x0E
0.377553375000000,222,0xFF,0x00
0.377563375000000,222,0x02,0x00
0.377573375000000,222,0x72,0x00
0.377583375000000,222,0xFE,0x00
0.377593250000000,222,0x79,0x00
0.377603250000000,222,0xE4,0x00
0.377613250000000,222,0x1C,0x00
0.393397250000000,223,0x25,0x2E
0.393407250000000,223,0x33,0x00
0.393425500000000,224,0x20,0x2E
0.393435250000000,224,0x5E,0x00
0.393453625000000,225,0x21,0x2E
0.393463375000000,225,0x00,0x00
0.393481375000000,226,0x22,0x2E
0.393491125000000,226,0x01,0x00
0.393509125000000,227,0x23,0x2E
0.393518875000000,227,0x02,0x00
0.393536875000000,228,0x24,0x2E
0.393546625000000,228,0x00,0x00
0.393564625000000,229,0x26,0x2E
0.393574375000000,229,0x24,0x00
0.393589000000000,230,0xE1,0x2E
0.393606875000000,231,0x27,0x2E
0.393616625000000,231,0xF0,0x00
0.393636125000000,232,0xA0,0x0E
0.393646000000000,232,0xFF,0x00
0.393656000000000,232,0x02,0x00
0.393666000000000,232,0x72,0x00
0.393676000000000,232,0xFE,0x00
0.393686000000000,232,0x79,0x00
0.393695875000000,232,0xE4,0x00
0.393705875000000,232,0x1C,0x00
0.395020875000000,233,0x20,0x2E
0.395030625000000,233,0x5E,0x00
0.395049000000000,234,0x21,0x2E
0.395058750000000,234,0x00,0x00
0.395076625000000,235,0x22,0x2E
0.395086375000000,235,0x01,0x00
0.395110875000000,236,0x23,0x2E
0.395120625000000,236,0x02,0x00
0.395138625000000,237,0x24,0x2E
0.395148375000000,237,0x00,0x00
0.395166375000000,238,0x26,0x2E
0.395176125000000,238,0x24,0x00
0.395190750000000,239,0xE1,0x2E
0.395208625000000,240,0x27,0x2E
0.395218375000000,240,0xF0,0x00
0.395232625000000,241,0xA0,0x0E
0.395242625000000,241,0xFF,0x00
0.395252500000000,241,0x02,0x00
0.395262500000000,241,0x72,0x00
0.395272500000000,241,0xFE,0x00
0.395282500000000,241,0x79,0x00
0.395292500000000,241,0xE4,0x00
0.395302375000000,241,0x1C,0x00
0.411090750000000,242,0x25,0x2E
