Time [s],Packet ID,MOSI,MISO
0.098094375000000,0,0x21,0x0E
0.098104000000000,0,0x00,0x00
0.098122000000000,1,0x22,0x0E
0.098131750000000,1,0x01,0x00
0.098149875000000,2,0x23,0x0E
0.098159625000000,2,0x02,0x00
0.098177625000000,3,0x24,0x0E
0.098187250000000,3,0x00,0x00
0.098205250000000,4,0x26,0x0E
0.098215000000000,4,0x24,0x00
0.098233500000000,5,0x27,0x0E
0.098243250000000,5,0xF0,0x00
0.098261250000000,6,0x25,0x0E
0.098271000000000,6,0x58,0x00
0.098289000000000,7,0x20,0x0E
0.098298750000000,7,0x3F,0x00
0.098316750000000,8,0x31,0x0E
0.098326500000000,8,0x04,0x00
0.098340250000000,9,0x2A,0x0E
0.098350125000000,9,0xC3,0x00
0.098360000000000,9,0xC3,0x00
0.098369875000000,9,0xAA,0x00
0.098379750000000,9,0x55,0x00
0.098393375000000,10,0x0A,0x0E
0.098403125000000,10,0xFF,0xC3
0.098413125000000,10,0xFF,0xC3
0.098423125000000,10,0xFF,0xAA
0.098433125000000,10,0xFF,0x55
0.098448625000000,11,0xE2,0x0E
0.098466625000000,12,0x27,0x0E
0.098476375000000,12,0xF0,0x00
0.116125250000000,13,0x30,0x0E
0.116135250000000,13,0x0D,0x00
0.116145125000000,13,0x9A,0x00
0.116155125000000,13,0xE0,0x00
0.116165125000000,13,0xF8,0x00
0.199346000000000,14,0x25,0x0E
0.199356000000000,14,0x10,0x00
0.199374250000000,15,0x20,0x0E
0.199384000000000,15,0x5E,0x00
0.199402375000000,16,0x21,0x0E
0.199412125000000,16,0x00,0x00
0.199430125000000,17,0x22,0x0E
0.199439875000000,17,0x01,0x00
0.199457875000000,18,0x23,0x0E
0.199467625000000,18,0x02,0x00
0.199485625000000,19,0x24,0x0E
0.199495375000000,19,0x00,0x00
0.199513375000000,20,0x26,0x0E
0.199523125000000,20,0x24,0x00
0.199537750000000,21,0xE1,0x0E
0.199556000000000,22,0x27,0x0E
0.199565625000000,22,0xF0,0x00
0.199579875000000,23,0xA0,0x0E
0.199589875000000,23,0xFF,0x00
0.199599875000000,23,0x03,0x00
0.199609875000000,23,0x72,0x00
0.199619875000000,23,0xFE,0x00
0.199629750000000,23,0x79,0x00
0.199639750000000,23,0xE4,0x00
0.199649750000000,23,0x1C,0x00
0.200964125000000,24,0x20,0x2E
0.200973875000000,24,0x5E,0x00
0.200992250000000,25,0x21,0x2E
0.201002000000000,25,0x00,0x00
0.201026375000000,26,0x22,0x2E
0.201036125000000,26,0x01,0x00
0.201054125000000,27,0x23,0x2E
0.201063875000000,27,0x02,0x00
0.201081875000000,28,0x24,0x2E
0.201091625000000,28,0x00,0x00
0.201109750000000,29,0x26,0x2E
0.201119375000000,29,0x24,0x00
0.201134000000000,30,0xE1,0x2E
0.201152000000000,31,0x27,0x2E
0.201161625000000,31,0xF0,0x00
0.201175875000000,32,0xA0,0x0E
0.201185875000000,32,0xFF,0x00
0.201195875000000,32,0x03,0x00
0.201205875000000,32,0x72,0x00
0.201215750000000,32,0xFE,0x00
0.201225750000000,32,0x79,0x00
0.201235750000000,32,0xE4,0x00
0.201245750000000,32,0x1C,0x00
0.217037750000000,33,0x25,0x2E
0.217047750000000,33,0x06,0x00
0.217066000000000,34,0x20,0x2E
0.217075750000000,34,0x5E,0x00
0.217094125000000,35,0x21,0x2E
0.217103875000000,35,0x00,0x00
0.217121875000000,36,0x22,0x2E
0.217131625000000,36,0x01,0x00
0.217149625000000,37,0x23,0x2E
0.217159375000000,37,0x02,0x00
0.217177375000000,38,0x24,0x2E
0.217187125000000,38,0x00,0x00
0.217205125000000,39,0x26,0x2E
0.217214875000000,39,0x24,0x00
0.217229500000000,40,0xE1,0x2E
0.217250750000000,41,0x27,0x2E
0.217260500000000,41,0xF0,0x00
0.217274750000000,42,0xA0,0x0E
0.217284750000000,42,0xFF,0x00
0.217294625000000,42,0x02,0x00
0.217304625000000,42,0x72,0x00
0.217314625000000,42,0xFE,0x00
0.217324625000000,42,0x79,0x00
0.217334625000000,42,0xE4,0x00
0.217344625000000,42,0x1C,0x00
0.218659500000000,43,0x20,0x2E
0.218669250000000,43,0x5E,0x00
0.218687500000000,44,0x21,0x2E
0.218697250000000,44,0x00,0x00
0.218721750000000,45,0x22,0x2E
0.218731375000000,45,0x01,0x00
0.218749500000000,46,0x23,0x2E
0.218759125000000,46,0x02,0x00
0.218777125000000,47,0x24,0x2E
0.218786875000000,47,0x00,0x00
0.218804875000000,48,0x26,0x2E
0.218814625000000,48,0x24,0x00
0.218829250000000,49,0xE1,0x2E
0.218847125000000,50,0x27,0x2E
0.218856875000000,50,0xF0,0x00
0.218871125000000,51,0xA0,0x0E
0.218881125000000,51,0xFF,0x00
0.218891125000000,51,0x02,0x00
0.218901125000000,51,0x72,0x00
0.218911000000000,51,0xFE,0x00
0.218921000000000,51,0x79,0x00
0.218931000000000,51,0xE4,0x00
0.218941000000000,51,0x1C,0x00
0.234727000000000,52,0x25,0x2E
0.234737000000000,52,0x23,0x00
0.234755250000000,53,0x20,0x2E
0.234765000000000,53,0x5E,0x00
0.234783375000000,54,0x21,0x2E
0.234793125000000,54,0x00,0x00
0.234811125000000,55,0x22,0x2E
0.234820875000000,55,0x01,0x00
0.234838875000000,56,0x23,0x2E
0.234848500000000,56,0x02,0x00
0.234866500000000,57,0x24,0x2E
0.234876250000000,57,0x00,0x00
0.234894375000000,58,0x26,0x2E
0.234904000000000,58,0x24,0x00
0.234918625000000,59,0xE1,0x2E
0.234943000000000,60,0x27,0x2E
0.234952625000000,60,0xF0,0x00
0.234966875000000,61,0xA0,0x0E
0.234976875000000,61,0xFF,0x00
0.234986875000000,61,0x02,0x00
0.234996875000000,61,0x72,0x00
0.235006875000000,61,0xFE,0x00
0.235016750000000,61,0x79,0x00
0.235026750000000,61,0xE4,0x00
0.235036750000000,61,0x1C,0x00
0.236351375000000,62,0x20,0x2E
0.236361125000000,62,0x5E,0x00
0.236379500000000,63,0x21,0x2E
0.236389250000000,63,0x00,0x00
0.236413625000000,64,0x22,0x2E
0.236423375000000,64,0x01,0x00
0.236441375000000,65,0x23,0x2E
0.236451125000000,65,0x02,0x00
0.236469125000000,66,0x24,0x2E
0.236478875000000,66,0x00,0x00
0.236496875000000,67,0x26,0x2E
0.236506625000000,67,0x24,0x00
0.236521250000000,68,0xE1,0x2E
0.236539125000000,69,0x27,0x2E
0.236548875000000,69,0xF0,0x00
0.236563125000000,70,0xA0,0x0E
0.236573125000000,70,0xFF,0x00
0.236583000000000,70,0x02,0x00
0.236593000000000,70,0x72,0x00
0.236603000000000,70,0xFE,0x00
0.236613000000000,70,0x79,0x00
0.236622875000000,70,0xE4,0x00
0.236632875000000,70,0x1C,0x00
0.252419500000000,71,0x25,0x2E
0.252429500000000,71,0x2B,0x00
0.252447750000000,72,0x20,0x2E
0.252457500000000,72,0x5E,0x00
0.252475875000000,73,0x21,0x2E
0.252485625000000,73,0x00,0x00
0.252503625000000,74,0x22,0x2E
0.252513375000000,74,0x01,0x00
0.252531250000000,75,0x23,0x2E
0.252541000000000,75,0x02,0x00
0.252559000000000,76,0x24,0x2E
0.252568750000000,76,0x00,0x00
0.252586750000000,77,0x26,0x2E
0.252596500000000,77,0x24,0x00
0.252611125000000,78,0xE1,0x2E
0.252635500000000,79,0x27,0x2E
0.252645250000000,79,0xF0,0x00
0.252659375000000,80,0xA0,0x0E
0.252669375000000,80,0xFF,0x00
0.252679375000000,80,0x02,0x00
0.252689375000000,80,0x72,0x00
0.252699375000000,80,0xFE,0x00
0.252709250000000,80,0x79,0x00
0.252719250000000,80,0xE4,0x00
0.252729250000000,80,0x1C,0x00
0.254043500000000,81,0x20,0x2E
0.254053250000000,81,0x5E,0x00
0.254071625000000,82,0x21,0x2E
0.254081375000000,82,0x00,0x00
0.254105750000000,83,0x22,0x2E
0.254115500000000,83,0x01,0x00
0.254133500000000,84,0x23,0x2E
0.254143250000000,84,0x02,0x00
0.254161250000000,85,0x24,0x2E
0.254171000000000,85,0x00,0x00
0.254188875000000,86,0x26,0x2E
0.254198625000000,86,0x24,0x00
0.254213250000000,87,0xE1,0x2E
0.254231125000000,88,0x27,0x2E
0.254240875000000,88,0xF0,0x00
0.254255125000000,89,0xA0,0x0E
0.254265000000000,89,0xFF,0x00
0.254275000000000,89,0x02,0x00
0.254285000000000,89,0x72,0x00
0.254295000000000,89,0xFE,0x00
0.254305000000000,89,0x79,0x00
0.254315000000000,89,0xE4,0x00
0.254324875000000,89,0x1C,0x00
0.270114375000000,90,0x25,0x2E
0.270124375000000,90,0x1D,0x00
0.270142625000000,91,0x20,0x2E
0.270152375000000,91,0x5E,0x00
0.270170750000000,92,0x21,0x2E
0.270180500000000,92,0x00,0x00
0.270198500000000,93,0x22,0x2E
0.270208250000000,93,0x01,0x00
0.270226250000000,94,0x23,0x2E
0.270235875000000,94,0x02,0x00
0.270253875000000,95,0x24,0x2E
0.270263625000000,95,0x00,0x00
0.270281625000000,96,0x26,0x2E
0.270291375000000,96,0x24,0x00
0.270306000000000,97,0xE1,0x2E
0.270330375000000,98,0x27,0x2E
0.270340125000000,98,0xF0,0x00
0.270354375000000,99,0xA0,0x0E
0.270364375000000,99,0xFF,0x00
0.270374250000000,99,0x02,0x00
0.270384250000000,99,0x72,0x00
0.270394250000000,99,0xFE,0x00
0.270404250000000,99,0x79,0x00
0.270414250000000,99,0xE4,0x00
0.270424250000000,99,0x1C,0x00
0.271739875000000,100,0x20,0x2E
0.271749500000000,100,0x5E,0x00
0.271767875000000,101,0x21,0x2E
0.271777625000000,101,0x00,0x00
0.271802125000000,102,0x22,0x2E
0.271811875000000,102,0x01,0x00
0.271829875000000,103,0x23,0x2E
0.271839625000000,103,0x02,0x00
0.271857625000000,104,0x24,0x2E
0.271867375000000,104,0x00,0x00
0.271885375000000,105,0x26,0x2E
0.271895125000000,105,0x24,0x00
0.271909750000000,106,0xE1,0x2E
0.271927625000000,107,0x27,0x2E
0.271937375000000,107,0xF0,0x00
0.271951625000000,108,0xA0,0x0E
0.271961625000000,108,0xFF,0x00
0.271971625000000,108,0x02,0x00
0.271981500000000,108,0x72,0x00
0.271991500000000,108,0xFE,0x00
0.272001500000000,108,0x79,0x00
0.272011500000000,108,0xE4,0x00
0.272021500000000,108,0x1C,0x00
0.287802625000000,109,0x25,0x2E
0.287812625000000,109,0x29,0x00
0.287830875000000,110,0x20,0x2E
0.287840625000000,110,0x5E,0x00
0.287858875000000,111,0x21,0x2E
0.287868625000000,111,0x00,0x00
0.287886625000000,112,0x22,0x2E
0.287896375000000,112,0x01,0x00
0.287914375000000,113,0x23,0x2E
0.287924125000000,113,0x02,0x00
0.287942125000000,114,0x24,0x2E
0.287951875000000,114,0x00,0x00
0.287969875000000,115,0x26,0x2E
0.287979500000000,115,0x24,0x00
0.287994125000000,116,0xE1,0x2E
0.288018500000000,117,0x27,0x2E
0.288028250000000,117,0xF0,0x00
0.288042375000000,118,0xA0,0x0E
0.288052375000000,118,0xFF,0x00
0.288062375000000,118,0x02,0x00
0.288072375000000,118,0x72,0x00
0.288082250000000,118,0xFE,0x00
0.288092250000000,118,0x79,0x00
0.288102250000000,118,0xE4,0x00
0.288112250000000,118,0x1C,0x00
0.289425750000000,119,0x20,0x2E
0.289435500000000,119,0x5E,0x00
0.289453875000000,120,0x21,0x2E
0.289463625000000,120,0x00,0x00
0.289488000000000,121,0x22,0x2E
0.289497750000000,121,0x01,0x00
0.289515750000000,122,0x23,0x2E
0.289525500000000,122,0x02,0x00
0.289543500000000,123,0x24,0x2E
0.289553250000000,123,0x00,0x00
0.289571250000000,124,0x26,0x2E
0.289580875000000,124,0x24,0x00
0.289595500000000,125,0xE1,0x2E
0.289613375000000,126,0x27,0x2E
0.289623125000000,126,0xF0,0x00
0.289637375000000,127,0xA0,0x0E
0.289647375000000,127,0xFF,0x00
0.289657250000000,127,0x02,0x00
0.289667250000000,127,0x72,0x00
0.289677250000000,127,0xFE,0x00
0.289687250000000,127,0x79,0x00
0.289697125000000,127,0xE4,0x00
0.289707125000000,127,0x1C,0x00
0.305482000000000,128,0x25,0x2E
0.305492000000000,128,0x0C,0x00
0.305510125000000,129,0x20,0x2E
0.305519875000000,129,0x5E,0x00
0.305538250000000,130,0x21,0x2E
0.305548000000000,130,0x00,0x00
0.305566000000000,131,0x22,0x2E
0.305575625000000,131,0x01,0x00
0.305593625000000,132,0x23,0x2E
0.305603375000000,132,0x02,0x00
0.305621375000000,133,0x24,0x2E
0.305631125000000,133,0x00,0x00
0.305649125000000,134,0x26,0x2E
0.305658750000000,134,0x24,0x00
0.305673375000000,135,0xE1,0x2E
0.305691250000000,136,0x27,0x2E
0.305700750000000,136,0xF0,0x00
0.305715000000000,137,0xA0,0x0E
0.305725000000000,137,0xFF,0x00
0.305734875000000,137,0x03,0x00
0.305744875000000,137,0x72,0x00
0.305754875000000,137,0xFE,0x00
0.305764875000000,137,0x79,0x00
0.305774750000000,137,0xE4,0x00
0.305784750000000,137,0x1C,0x00
0.307098250000000,138,0x20,0x2E
0.307108000000000,138,0x5E,0x00
0.307126375000000,139,0x21,0x2E
0.307136125000000,139,0x00,0x00
0.307154000000000,140,0x22,0x2E
0.307163750000000,140,0x01,0x00
0.307182125000000,141,0x23,0x2E
0.307191875000000,141,0x02,0x00
0.307209875000000,142,0x24,0x2E
0.307219625000000,142,0x00,0x00
0.307237625000000,143,0x26,0x2E
0.307247250000000,143,0x24,0x00
0.307261875000000,144,0xE1,0x2E
0.307279750000000,145,0x27,0x2E
0.307289500000000,145,0xF0,0x00
0.307303750000000,146,0xA0,0x0E
0.307313750000000,146,0xFF,0x00
0.307323750000000,146,0x03,0x00
0.307333625000000,146,0x72,0x00
0.307343625000000,146,0xFE,0x00
0.307353625000000,146,0x79,0x00
0.307363625000000,146,0xE4,0x00
0.307373625000000,146,0x1C,0x00
0.323162625000000,147,0x25,0x2E
0.323172625000000,147,0x05,0x00
0.323190875000000,148,0x20,0x2E
0.323200625000000,148,0x5E,0x00
0.323219000000000,149,0x21,0x2E
0.323228750000000,149,0x00,0x00
0.323246750000000,150,0x22,0x2E
0.323256500000000,150,0x01,0x00
0.323274500000000,151,0x23,0x2E
0.323284250000000,151,0x02,0x00
0.323302250000000,152,0x24,0x2E
0.323312000000000,152,0x00,0x00
0.323330000000000,153,0x26,0x2E
0.323339750000000,153,0x24,0x00
0.323354375000000,154,0xE1,0x2E
0.323372125000000,155,0x27,0x2E
0.323384750000000,155,0xF0,0x00
0.323398875000000,156,0xA0,0x0E
0.323408875000000,156,0xFF,0x00
0.323418875000000,156,0x02,0x00
0.323428875000000,156,0x72,0x00
0.323438750000000,156,0xFE,0x00
0.323448750000000,156,0x79,0x00
0.323458750000000,156,0xE4,0x00
0.323468750000000,156,0x1C,0x00
0.324782625000000,157,0x20,0x2E
0.324792375000000,157,0x5E,0x00
0.324810750000000,158,0x21,0x2E
0.324820500000000,158,0x00,0x00
0.324838500000000,159,0x22,0x2E
0.324854625000000,159,0x01,0x00
0.324872625000000,160,0x23,0x2E
0.324882375000000,160,0x02,0x00
0.324900375000000,161,0x24,0x2E
0.324910125000000,161,0x00,0x00
0.324928125000000,162,0x26,0x2E
0.324937875000000,162,0x24,0x00
0.324952500000000,163,0xE1,0x2E
0.324970375000000,164,0x27,0x2E
0.324980125000000,164,0xF0,0x00
0.324994250000000,165,0xA0,0x0E
0.325004250000000,165,0xFF,0x00
0.325014250000000,165,0x02,0x00
0.325024250000000,165,0x72,0x00
0.325034250000000,165,0xFE,0x00
0.325044125000000,165,0x79,0x00
0.325054125000000,165,0xE4,0x00
0.325064125000000,165,0x1C,0x00
0.340847250000000,166,0x25,0x2E
0.340857250000000,166,0x30,0x00
0.340875500000000,167,0x20,0x2E
0.340885250000000,167,0x5E,0x00
0.340903625000000,168,0x21,0x2E
0.340913375000000,168,0x00,0x00
0.340931375000000,169,0x22,0x2E
0.340941125000000,169,0x01,0x00
0.340959125000000,170,0x23,0x2E
0.340968875000000,170,0x02,0x00
0.340986875000000,171,0x24,0x2E
0.340996625000000,171,0x00,0x00
0.341014625000000,172,0x26,0x2E
0.341024375000000,172,0x24,0x00
0.341039000000000,173,0xE1,0x2E
0.341057000000000,174,0x27,0x2E
0.341072500000000,174,0xF0,0x00
0.341086750000000,175,0xA0,0x0E
0.341096750000000,175,0xFF,0x00
0.341106750000000,175,0x02,0x00
0.341116750000000,175,0x72,0x00
0.341126750000000,175,0xFE,0x00
0.341136750000000,175,0x79,0x00
0.341146625000000,175,0xE4,0x00
0.341156625000000,175,0x1C,0x00
0.342471625000000,176,0x20,0x2E
0.342481375000000,176,0x5E,0x00
0.342499750000000,177,0x21,0x2E
0.342509500000000,177,0x00,0x00
0.342527500000000,178,0x22,0x2E
0.342543750000000,178,0x01,0x00
0.342561750000000,179,0x23,0x2E
0.342571500000000,179,0x02,0x00
0.342589500000000,180,0x24,0x2E
0.342599250000000,180,0x00,0x00
0.342617250000000,181,0x26,0x2E
0.342626875000000,181,0x24,0x00
0.342641500000000,182,0xE1,0x2E
0.342659375000000,183,0x27,0x2E
0.342669125000000,183,0xF0,0x00
0.342683375000000,184,0xA0,0x0E
0.342693375000000,184,0xFF,0x00
0.342703375000000,184,0x02,0x00
0.342713375000000,184,0x72,0x00
0.342723250000000,184,0xFE,0x00
0.342733250000000,184,0x79,0x00
0.342743250000000,184,0xE4,0x00
0.342753250000000,184,0x1C,0x00
0.358543500000000,185,0x25,0x2E
0.358553500000000,185,0x48,0x00
0.358571750000000,186,0x20,0x2E
0.358581500000000,186,0x5E,0x00
0.358599875000000,187,0x21,0x2E
0.358609625000000,187,0x00,0x00
0.358627625000000,188,0x22,0x2E
0.358637375000000,188,0x01,0x00
0.358655375000000,189,0x23,0x2E
0.358665125000000,189,0x02,0x00
0.358683125000000,190,0x24,0x2E
0.358692875000000,190,0x00,0x00
0.358710875000000,191,0x26,0x2E
0.358720625000000,191,0x24,0x00
0.358735250000000,192,0xE1,0x2E
0.358753125000000,193,0x27,0x2E
0.358762875000000,193,0xF0,0x00
0.358777500000000,194,0xA0,0x0E
0.358787500000000,194,0xFF,0x00
0.358797500000000,194,0x02,0x00
0.358807375000000,194,0x72,0x00
0.358817375000000,194,0xFE,0x00
0.358827375000000,194,0x79,0x00
0.358837375000000,194,0xE4,0x00
0.358847250000000,194,0x1C,0x00
0.360161750000000,195,0x20,0x2E
0.360171500000000,195,0x5E,0x00
0.360189875000000,196,0x21,0x2E
0.360199625000000,196,0x00,0x00
0.360217625000000,197,0x22,0x2E
0.360227375000000,197,0x01,0x00
0.360251750000000,198,0x23,0x2E
0.360261500000000,198,0x02,0x00
0.360279500000000,199,0x24,0x2E
0.360289250000000,199,0x00,0x00
0.360307250000000,200,0x26,0x2E
0.360317000000000,200,0x24,0x00
0.360331625000000,201,0xE1,0x2E
0.360349375000000,202,0x27,0x2E
0.360359125000000,202,0xF0,0x00
0.360373375000000,203,0xA0,0x0E
0.360383375000000,203,0xFF,0x00
0.360393250000000,203,0x02,0x00
0.360403250000000,203,0x72,0x00
0.360413250000000,203,0xFE,0x00
0.360423250000000,203,0x79,0x00
0.360433250000000,203,0xE4,0x00
0.360443250000000,203,0x1C,0x00
0.376236500000000,204,0x25,0x2E
0.376246500000000,204,0x1E,0x00
0.376264750000000,205,0x20,0x2E
0.376274500000000,205,0x5E,0x00
0.376292875000000,206,0x21,0x2E
0.376302625000000,206,0x00,0x00
0.376320625000000,207,0x22,0x2E
0.376330375000000,207,0x01,0x00
0.376348375000000,208,0x23,0x2E
0.376358125000000,208,0x02,0x00
0.376376125000000,209,0x24,0x2E
0.376385875000000,209,0x00,0x00
0.376403875000000,210,0x26,0x2E
0.376413625000000,210,0x24,0x00
0.376428250000000,211,0xE1,0x2E
0.376446125000000,212,0x27,0x2E
0.376455875000000,212,0xF0,0x00
0.376472375000000,213,0xA0,0x0E
0.376482250000000,213,0xFF,0x00
0.376492250000000,213,0x02,0x00
0.376502250000000,213,0x72,0x00
0.376512250000000,213,0xFE,0x00
0.376522125000000,213,0x79,0x00
0.376532125000000,213,0xE4,0x00
0.376542125000000,213,0x1C,0x00
0.377856625000000,214,0x20,0x2E
0.377866375000000,214,0x5E,0x00
0.377884750000000,215,0x21,0x2E
0.377894500000000,215,0x00,0x00
0.377912500000000,216,0x22,0x2E
0.377922250000000,216,0x01,0x00
0.377946750000000,217,0x23,0x2E
0.377956500000000,217,0x02,0x00
0.377974500000000,218,0x24,0x2E
0.377984250000000,218,0x00,0x00
0.378002125000000,219,0x26,0x2E
0.378011875000000,219,0x24,0x00
0.378026500000000,220,0xE1,0x2E
0.378044375000000,221,0x27,0x2E
0.378054125000000,221,0xF0,0x00
0.378068250000000,222,0xA0,0x0E
0.378078250000000,222,0xFF,0x00
0.378088250000000,222,0x02,0x00
0.378098250000000,222,0x72,0x00
0.378108250000000,222,0xFE,0x00
0.378118125000000,222,0x79,0x00
0.378128125000000,222,0xE4,0x00
0.378138125000000,222,0x1C,0x00
0.393929875000000,223,0x25,0x2E
0.393939875000000,223,0x33,0x00
0.393958125000000,224,0x20,0x2E
0.393967875000000,224,0x5E,0x00
0.393986250000000,225,0x21,0x2E
0.393996000000000,225,0x00,0x00
0.394014000000000,226,0x22,0x2E
0.394023750000000,226,0x01,0x00
0.394041750000000,227,0x23,0x2E
0.394051500000000,227,0x02,0x00
0.394069625000000,228,0x24,0x2E
0.394079375000000,228,0x00,0x00
0.394097375000000,229,0x26,0x2E
0.394107125000000,229,0x24,0x00
0.394121750000000,230,0xE1,0x2E
0.394139625000000,231,0x27,0x2E
0.394149375000000,231,0xF0,0x00
0.394168875000000,232,0xA0,0x0E
0.394178875000000,232,0xFF,0x00
0.394188875000000,232,0x03,0x00
0.394198875000000,232,0x72,0x00
0.394208875000000,232,0xFE,0x00
0.394218875000000,232,0x79,0x00
0.394228750000000,232,0xE4,0x00
0.394238750000000,232,0x1C,0x00
0.395553625000000,233,0x20,0x2E
0.395563375000000,233,0x5E,0x00
0.395581750000000,234,0x21,0x2E
0.395591500000000,234,0x00,0x00
0.395609500000000,235,0x22,0x2E
0.395619250000000,235,0x01,0x00
0.395643625000000,236,0x23,0x2E
0.395653375000000,236,0x02,0x00
0.395671375000000,237,0x24,0x2E
0.395681125000000,237,0x00,0x00
0.395699125000000,238,0x26,0x2E
0.395708875000000,238,0x24,0x00
0.395723500000000,239,0xE1,0x2E
0.395741375000000,240,0x27,0x2E
0.395751000000000,240,0xF0,0x00
0.395765250000000,241,0xA0,0x0E
0.395775250000000,241,0xFF,0x00
0.395785250000000,241,0x03,0x00
0.395795250000000,241,0x72,0x00
0.395805250000000,241,0xFE,0x00
0.395815250000000,241,0x79,0x00
0.395825125000000,241,0xE4,0x00
0.395835125000000,241,0x1C,0x00
0.411607125000000,242,0x25,0x2E
