Time [s],Packet ID,MOSI,MISO
0.000000000000000,0,0x25,0x2E
0.000010000000000,0,0x30,0x00
0.000028250000000,1,0x20,0x2E
0.000038000000000,1,0x5E,0x00
0.000056375000000,2,0x21,0x2E
0.000066125000000,2,0x00,0x00
0.000084125000000,3,0x22,0x2E
0.000093875000000,3,0x01,0x00
0.000112000000000,4,0x23,0x2E
0.000121750000000,4,0x02,0x00
0.000139750000000,5,0x24,0x2E
0.000149500000000,5,0x00,0x00
0.000167625000000,6,0x26,0x2E
0.000177375000000,6,0x24,0x00
0.000192000000000,7,0xE1,0x2E
0.000209875000000,8,0x27,0x2E
0.000219625000000,8,0xF0,0x00
0.000233875000000,9,0xA0,0x0E
0.000243875000000,9,0xFF,0x00
0.000253875000000,9,0x02,0x00
0.000263875000000,9,0x72,0x00
0.000273875000000,9,0xFE,0x00
0.000283875000000,9,0x79,0x00
0.000293750000000,9,0xE4,0x00
0.000303750000000,9,0x1C,0x00
0.001619375000000,10,0x20,0x2E
0.001629125000000,10,0x5E,0x00
0.001647625000000,11,0x21,0x2E
0.001657375000000,11,0x00,0x00
0.001675375000000,12,0x22,0x2E
0.001685125000000,12,0x01,0x00
0.001703125000000,13,0x23,0x2E
0.001712875000000,13,0x02,0x00
0.001730875000000,14,0x24,0x2E
0.001740625000000,14,0x00,0x00
0.001758750000000,15,0x26,0x2E
0.001768500000000,15,0x24,0x00
0.001783125000000,16,0xE1,0x2E
0.001801000000000,17,0x27,0x2E
0.001810750000000,17,0xF0,0x00
0.001825000000000,18,0xA0,0x0E
0.001835000000000,18,0xFF,0x00
0.001845000000000,18,0x02,0x00
0.001855000000000,18,0x72,0x00
0.001865000000000,18,0xFE,0x00
0.001875000000000,18,0x79,0x00
0.001885000000000,18,0xE4,0x00
0.001894875000000,18,0x1C,0x00
0.017716875000000,19,0x25,0x2E
0.017726875000000,19,0x48,0x00
0.017745125000000,20,0x20,0x2E
0.017754875000000,20,0x5E,0x00
0.017773375000000,21,0x21,0x2E
0.017783125000000,21,0x00,0x00
0.017801125000000,22,0x22,0x2E
0.017810875000000,22,0x01,0x00
0.017828875000000,23,0x23,0x2E
0.017838625000000,23,0x02,0x00
0.017856750000000,24,0x24,0x2E
0.017866500000000,24,0x00,0x00
0.017884500000000,25,0x26,0x2E
0.017894250000000,25,0x24,0x00
0.017908875000000,26,0xE1,0x2E
0.017926750000000,27,0x27,0x2E
0.017936500000000,27,0xF0,0x00
0.017950750000000,28,0xA0,0x0E
0.017960750000000,28,0xFF,0x00
0.017970750000000,28,0x02,0x00
0.017980750000000,28,0x72,0x00
0.017990750000000,28,0xFE,0x00
0.018000750000000,28,0x79,0x00
0.018010750000000,28,0xE4,0x00
0.018020750000000,28,0x1C,0x00
0.019336125000000,29,0x20,0x2E
0.019345875000000,29,0x5E,0x00
0.019364250000000,30,0x21,0x2E
0.019374000000000,30,0x00,0x00
0.019392000000000,31,0x22,0x2E
0.019401750000000,31,0x01,0x00
0.019419875000000,32,0x23,0x2E
0.019429500000000,32,0x02,0x00
0.019447625000000,33,0x24,0x2E
0.019457375000000,33,0x00,0x00
0.019475375000000,34,0x26,0x2E
0.019485125000000,34,0x24,0x00
0.019499750000000,35,0xE1,0x2E
0.019517625000000,36,0x27,0x2E
0.019527375000000,36,0xF0,0x00
0.019541625000000,37,0xA0,0x0E
0.019551625000000,37,0xFF,0x00
0.019561625000000,37,0x02,0x00
0.019571625000000,37,0x72,0x00
0.019581625000000,37,0xFE,0x00
0.019591625000000,37,0x79,0x00
0.019601625000000,37,0xE4,0x00
0.019611625000000,37,0x1C,0x00
0.035436500000000,38,0x25,0x2E
0.035446500000000,38,0x1E,0x00
0.035464750000000,39,0x20,0x2E
0.035474500000000,39,0x5E,0x00
0.035493000000000,40,0x21,0x2E
0.035502750000000,40,0x00,0x00
0.035520750000000,41,0x22,0x2E
0.035530500000000,41,0x01,0x00
0.035548500000000,42,0x23,0x2E
0.035558250000000,42,0x02,0x00
0.035576375000000,43,0x24,0x2E
0.035586125000000,43,0x00,0x00
0.035604125000000,44,0x26,0x2E
0.035613875000000,44,0x24,0x00
0.035628500000000,45,0xE1,0x2E
0.035646375000000,46,0x27,0x2E
0.035656125000000,46,0xF0,0x00
0.035670375000000,47,0xA0,0x0E
0.035680375000000,47,0xFF,0x00
0.035690375000000,47,0x02,0x00
0.035700375000000,47,0x73,0x00
0.035710375000000,47,0xFE,0x00
0.035720375000000,47,0x79,0x00
0.035730250000000,47,0xE4,0x00
0.035740250000000,47,0x1C,0x00
0.037055625000000,48,0x20,0x2E
0.037065375000000,48,0x5E,0x00
0.037083750000000,49,0x21,0x2E
0.037093500000000,49,0x00,0x00
0.037111500000000,50,0x22,0x2E
0.037121250000000,50,0x01,0x00
0.037139250000000,51,0x23,0x2E
0.037149000000000,51,0x02,0x00
0.037167125000000,52,0x24,0x2E
0.037176875000000,52,0x00,0x00
0.037194875000000,53,0x26,0x2E
0.037204625000000,53,0x24,0x00
0.037219250000000,54,0xE1,0x2E
0.037237125000000,55,0x27,0x2E
0.037247000000000,55,0xF0,0x00
0.037261250000000,56,0xA0,0x0E
0.037271250000000,56,0xFF,0x00
0.037281250000000,56,0x02,0x00
0.037291250000000,56,0x73,0x00
0.037301250000000,56,0xFE,0x00
0.037311250000000,56,0x79,0x00
0.037321250000000,56,0xE4,0x00
0.037331250000000,56,0x1C,0x00
0.053156625000000,57,0x25,0x2E
0.053166625000000,57,0x33,0x00
0.053184875000000,58,0x20,0x2E
0.053194625000000,58,0x5E,0x00
0.053213000000000,59,0x21,0x2E
0.053222750000000,59,0x00,0x00
0.053240875000000,60,0x22,0x2E
0.053250625000000,60,0x01,0x00
0.053268625000000,61,0x23,0x2E
0.053278375000000,61,0x02,0x00
0.053296375000000,62,0x24,0x2E
0.053306125000000,62,0x00,0x00
0.053324125000000,63,0x26,0x2E
0.053333875000000,63,0x24,0x00
0.053348500000000,64,0xE1,0x2E
0.053366375000000,65,0x27,0x2E
0.053376125000000,65,0xF0,0x00
0.053390375000000,66,0xA0,0x0E
0.053400375000000,66,0xFF,0x00
0.053410375000000,66,0x02,0x00
0.053420375000000,66,0x72,0x00
0.053430375000000,66,0xFE,0x00
0.053440375000000,66,0x79,0x00
0.053450375000000,66,0xE4,0x00
0.053460375000000,66,0x1C,0x00
0.054775625000000,67,0x20,0x2E
0.054785375000000,67,0x5E,0x00
0.054803750000000,68,0x21,0x2E
0.054813500000000,68,0x00,0x00
0.054831500000000,69,0x22,0x2E
0.054841250000000,69,0x01,0x00
0.054859250000000,70,0x23,0x2E
0.054869000000000,70,0x02,0x00
0.054887125000000,71,0x24,0x2E
0.054896875000000,71,0x00,0x00
0.054914875000000,72,0x26,0x2E
0.054924625000000,72,0x24,0x00
0.054939250000000,73,0xE1,0x2E
0.054957125000000,74,0x27,0x2E
0.054966875000000,74,0xF0,0x00
0.054981125000000,75,0xA0,0x0E
0.054991125000000,75,0xFF,0x00
0.055001125000000,75,0x02,0x00
0.055011125000000,75,0x72,0x00
0.055021125000000,75,0xFE,0x00
0.055031125000000,75,0x79,0x00
0.055041125000000,75,0xE4,0x00
0.055051125000000,75,0x1C,0x00
0.070871875000000,76,0x25,0x2E
0.070881875000000,76,0x4F,0x00
0.070900125000000,77,0x20,0x2E
0.070909875000000,77,0x5E,0x00
0.070928250000000,78,0x21,0x2E
0.070938000000000,78,0x00,0x00
0.070956000000000,79,0x22,0x2E
0.070965750000000,79,0x01,0x00
0.070983875000000,80,0x23,0x2E
0.070993625000000,80,0x02,0x00
0.071011625000000,81,0x24,0x2E
0.071021375000000,81,0x00,0x00
0.071039375000000,82,0x26,0x2E
0.071049125000000,82,0x24,0x00
0.071063750000000,83,0xE1,0x2E
0.071081750000000,84,0x27,0x2E
0.071091500000000,84,0xF0,0x00
0.071105750000000,85,0xA0,0x0E
0.071115750000000,85,0xFF,0x00
0.071125750000000,85,0x02,0x00
0.071135750000000,85,0x72,0x00
0.071145750000000,85,0xFE,0x00
0.071155750000000,85,0x79,0x00
0.071165750000000,85,0xE4,0x00
0.071175625000000,85,0x1C,0x00
0.072491875000000,86,0x20,0x2E
0.072501625000000,86,0x5E,0x00
0.072520000000000,87,0x21,0x2E
0.072529750000000,87,0x00,0x00
0.072547875000000,88,0x22,0x2E
0.072557625000000,88,0x01,0x00
0.072575625000000,89,0x23,0x2E
0.072585375000000,89,0x02,0x00
0.072603375000000,90,0x24,0x2E
0.072613125000000,90,0x00,0x00
0.072631125000000,91,0x26,0x2E
0.072640875000000,91,0x24,0x00
0.072655500000000,92,0xE1,0x2E
0.072673500000000,93,0x27,0x2E
0.072683250000000,93,0xF0,0x00
0.072697500000000,94,0xA0,0x0E
0.072707500000000,94,0xFF,0x00
0.072717500000000,94,0x02,0x00
0.072727500000000,94,0x72,0x00
0.072737500000000,94,0xFE,0x00
0.072747500000000,94,0x79,0x00
0.072757500000000,94,0xE4,0x00
0.072767375000000,94,0x1C,0x00
0.088588500000000,95,0x25,0x2E
0.088598500000000,95,0x4E,0x00
0.088616875000000,96,0x20,0x2E
0.088626625000000,96,0x5E,0x00
0.088645000000000,97,0x21,0x2E
0.088654750000000,97,0x00,0x00
0.088672750000000,98,0x22,0x2E
0.088682500000000,98,0x01,0x00
0.088700625000000,99,0x23,0x2E
0.088710375000000,99,0x02,0x00
0.088728375000000,100,0x24,0x2E
0.088738125000000,100,0x00,0x00
0.088756250000000,101,0x26,0x2E
0.088766000000000,101,0x24,0x00
0.088780625000000,102,0xE1,0x2E
0.088798500000000,103,0x27,0x2E
0.088808250000000,103,0xF0,0x00
0.088822500000000,104,0xA0,0x0E
0.088832500000000,104,0xFF,0x00
0.088842500000000,104,0x02,0x00
0.088852500000000,104,0x72,0x00
0.088862375000000,104,0xFE,0x00
0.088872375000000,104,0x79,0x00
0.088882375000000,104,0xE4,0x00
0.088892375000000,104,0x1C,0x00
0.090207750000000,105,0x20,0x2E
0.090217500000000,105,0x5E,0x00
0.090235875000000,106,0x21,0x2E
0.090245625000000,106,0x00,0x00
0.090263625000000,107,0x22,0x2E
0.090273375000000,107,0x01,0x00
0.090291500000000,108,0x23,0x2E
0.090301250000000,108,0x02,0x00
0.090319250000000,109,0x24,0x2E
0.090329000000000,109,0x00,0x00
0.090347000000000,110,0x26,0x2E
0.090356750000000,110,0x24,0x00
0.090371375000000,111,0xE1,0x2E
0.090389375000000,112,0x27,0x2E
0.090399125000000,112,0xF0,0x00
0.090413375000000,113,0xA0,0x0E
0.090423375000000,113,0xFF,0x00
0.090433375000000,113,0x02,0x00
0.090443375000000,113,0x72,0x00
0.090453375000000,113,0xFE,0x00
0.090463250000000,113,0x79,0x00
0.090473375000000,113,0xE4,0x00
0.090483375000000,113,0x1C,0x00
0.106307625000000,114,0x25,0x2E
0.106317625000000,114,0x2F,0x00
0.106335875000000,115,0x20,0x2E
0.106345625000000,115,0x5E,0x00
0.106364000000000,116,0x21,0x2E
0.106373750000000,116,0x00,0x00
0.106391750000000,117,0x22,0x2E
0.106401500000000,117,0x01,0x00
0.106419500000000,118,0x23,0x2E
0.106429250000000,118,0x02,0x00
0.106447250000000,119,0x24,0x2E
0.106457000000000,119,0x00,0x00
0.106475000000000,120,0x26,0x2E
0.106484750000000,120,0x24,0x00
0.106499375000000,121,0xE1,0x2E
0.106517250000000,122,0x27,0x2E
0.106527000000000,122,0xF0,0x00
0.106541250000000,123,0xA0,0x0E
0.106551250000000,123,0xFF,0x00
0.106561250000000,123,0x02,0x00
0.106571250000000,123,0x72,0x00
0.106581250000000,123,0xFE,0x00
0.106591250000000,123,0x79,0x00
0.106601250000000,123,0xE4,0x00
0.106611250000000,123,0x1C,0x00
0.107926500000000,124,0x20,0x2E
0.107936250000000,124,0x5E,0x00
0.107954625000000,125,0x21,0x2E
0.107964500000000,125,0x00,0x00
0.107982500000000,126,0x22,0x2E
0.107992250000000,126,0x01,0x00
0.108010250000000,127,0x23,0x2E
0.108020000000000,127,0x02,0x00
0.108038000000000,128,0x24,0x2E
0.108047750000000,128,0x00,0x00
0.108065750000000,129,0x26,0x2E
0.108075500000000,129,0x24,0x00
0.108090125000000,130,0xE1,0x2E
0.108108125000000,131,0x27,0x2E
0.108117875000000,131,0xF0,0x00
0.108132125000000,132,0xA0,0x0E
0.108142125000000,132,0xFF,0x00
0.108152125000000,132,0x02,0x00
0.108162125000000,132,0x72,0x00
0.108172125000000,132,0xFE,0x00
0.108182000000000,132,0x79,0x00
0.108192000000000,132,0xE4,0x00
0.108202000000000,132,0x1C,0x00
0.124016625000000,133,0x25,0x2E
0.124026625000000,133,0x10,0x00
0.124044875000000,134,0x20,0x2E
0.124054625000000,134,0x5E,0x00
0.124073000000000,135,0x21,0x2E
0.124082750000000,135,0x00,0x00
0.124100750000000,136,0x22,0x2E
0.124110500000000,136,0x01,0x00
0.124128500000000,137,0x23,0x2E
0.124138250000000,137,0x02,0x00
0.124156250000000,138,0x24,0x2E
0.124166000000000,138,0x00,0x00
0.124184000000000,139,0x26,0x2E
0.124193750000000,139,0x24,0x00
0.124208375000000,140,0xE1,0x2E
0.124226250000000,141,0x27,0x2E
0.124236000000000,141,0xF0,0x00
0.124250250000000,142,0xA0,0x0E
0.124260250000000,142,0xFF,0x00
0.124270250000000,142,0x02,0x00
0.124280125000000,142,0x72,0x00
0.124290125000000,142,0xFE,0x00
0.124300125000000,142,0x79,0x00
0.124310125000000,142,0xE4,0x00
0.124320000000000,142,0x1C,0x00
0.125635125000000,143,0x20,0x2E
0.125644875000000,143,0x5E,0x00
0.125663250000000,144,0x21,0x2E
0.125673000000000,144,0x00,0x00
0.125691000000000,145,0x22,0x2E
0.125700750000000,145,0x01,0x00
0.125718750000000,146,0x23,0x2E
0.125728500000000,146,0x02,0x00
0.125746500000000,147,0x24,0x2E
0.125756250000000,147,0x00,0x00
0.125774250000000,148,0x26,0x2E
0.125784000000000,148,0x24,0x00
0.125798625000000,149,0xE1,0x2E
0.125816500000000,150,0x27,0x2E
0.125826250000000,150,0xF0,0x00
0.125840500000000,151,0xA0,0x0E
0.125850500000000,151,0xFF,0x00
0.125860500000000,151,0x02,0x00
0.125870500000000,151,0x72,0x00
0.125880500000000,151,0xFE,0x00
0.125890500000000,151,0x79,0x00
0.125900375000000,151,0xE4,0x00
0.125910375000000,151,0x1C,0x00
0.141717000000000,152,0x25,0x2E
0.141727000000000,152,0x06,0x00
0.141745250000000,153,0x20,0x2E
0.141755000000000,153,0x5E,0x00
0.141773375000000,154,0x21,0x2E
0.141783125000000,154,0x00,0x00
0.141801125000000,155,0x22,0x2E
0.141810875000000,155,0x01,0x00
0.141828875000000,156,0x23,0x2E
0.141838625000000,156,0x02,0x00
0.141856750000000,157,0x24,0x2E
0.141866500000000,157,0x00,0x00
0.141884500000000,158,0x26,0x2E
0.141894250000000,158,0x24,0x00
0.141908875000000,159,0xE1,0x2E
0.141926750000000,160,0x27,0x2E
0.141936500000000,160,0xF0,0x00
0.141950750000000,161,0xA0,0x0E
0.141960750000000,161,0xFF,0x00
0.141970625000000,161,0x02,0x00
0.141980625000000,161,0x72,0x00
0.141990625000000,161,0xFE,0x00
0.142000625000000,161,0x79,0x00
0.142010625000000,161,0xE4,0x00
0.142020625000000,161,0x1C,0x00
0.143335375000000,162,0x20,0x2E
0.143345125000000,162,0x5E,0x00
0.143363500000000,163,0x21,0x2E
0.143373250000000,163,0x00,0x00
0.143391250000000,164,0x22,0x2E
0.143401000000000,164,0x01,0x00
0.143419000000000,165,0x23,0x2E
0.143428750000000,165,0x02,0x00
0.143446750000000,166,0x24,0x2E
0.143456500000000,166,0x00,0x00
0.143474500000000,167,0x26,0x2E
0.143484125000000,167,0x24,0x00
0.143498750000000,168,0xE1,0x2E
0.143516625000000,169,0x27,0x2E
0.143526375000000,169,0xF0,0x00
0.143540625000000,170,0xA0,0x0E
0.143550500000000,170,0xFF,0x00
0.143560500000000,170,0x02,0x00
0.143570500000000,170,0x72,0x00
0.143580500000000,170,0xFE,0x00
0.143590500000000,170,0x79,0x00
0.143600375000000,170,0xE4,0x00
0.143610375000000,170,0x1C,0x00
0.159416375000000,171,0x25,0x2E
0.159426375000000,171,0x23,0x00
0.159444625000000,172,0x20,0x2E
0.159454375000000,172,0x5E,0x00
0.159472750000000,173,0x21,0x2E
0.159482500000000,173,0x00,0x00
0.159500500000000,174,0x22,0x2E
0.159510250000000,174,0x01,0x00
0.159528250000000,175,0x23,0x2E
0.159538000000000,175,0x02,0x00
0.159556000000000,176,0x24,0x2E
0.159565750000000,176,0x00,0x00
0.159583750000000,177,0x26,0x2E
0.159593500000000,177,0x24,0x00
0.159608125000000,178,0xE1,0x2E
0.159626000000000,179,0x27,0x2E
0.159635750000000,179,0xF0,0x00
0.159650000000000,180,0xA0,0x0E
0.159660000000000,180,0xFF,0x00
0.159670000000000,180,0x02,0x00
0.159679875000000,180,0x72,0x00
0.159689875000000,180,0xFE,0x00
0.159699875000000,180,0x79,0x00
0.159709875000000,180,0xE4,0x00
0.159719875000000,180,0x1C,0x00
0.161034875000000,181,0x20,0x2E
0.161044625000000,181,0x5E,0x00
0.161063000000000,182,0x21,0x2E
0.161072750000000,182,0x00,0x00
0.161090750000000,183,0x22,0x2E
0.161100500000000,183,0x01,0x00
0.161118500000000,184,0x23,0x2E
0.161128250000000,184,0x02,0x00
0.161146250000000,185,0x24,0x2E
0.161156000000000,185,0x00,0x00
0.161174000000000,186,0x26,0x2E
0.161183750000000,186,0x24,0x00
0.161198375000000,187,0xE1,0x2E
0.161216250000000,188,0x27,0x2E
0.161226000000000,188,0xF0,0x00
0.161240250000000,189,0xA0,0x0E
0.161250250000000,189,0xFF,0x00
0.161260250000000,189,0x02,0x00
0.161270250000000,189,0x72,0x00
0.161280250000000,189,0xFE,0x00
0.161290125000000,189,0x79,0x00
0.161300125000000,189,0xE4,0x00
0.161310125000000,189,0x1C,0x00
0.177113625000000,190,0x25,0x2E
0.177123625000000,190,0x2B,0x00
0.177141875000000,191,0x20,0x2E
0.177151625000000,191,0x5E,0x00
0.177170000000000,192,0x21,0x2E
0.177179750000000,192,0x00,0x00
0.177197750000000,193,0x22,0x2E
0.177207500000000,193,0x01,0x00
0.177225500000000,194,0x23,0x2E
0.177235250000000,194,0x02,0x00
0.177253250000000,195,0x24,0x2E
0.177262875000000,195,0x00,0x00
0.177281000000000,196,0x26,0x2E
0.177290625000000,196,0x24,0x00
0.177305250000000,197,0xE1,0x2E
0.177323125000000,198,0x27,0x2E
0.177332875000000,198,0xF0,0x00
0.177347125000000,199,0xA0,0x0E
0.177357125000000,199,0xFF,0x00
0.177367125000000,199,0x02,0x00
0.177377125000000,199,0x72,0x00
0.177387125000000,199,0xFE,0x00
0.177397125000000,199,0x79,0x00
0.177407000000000,199,0xE4,0x00
0.177417000000000,199,0x1C,0x00
0.178731875000000,200,0x20,0x2E
0.178741625000000,200,0x5E,0x00
0.178760125000000,201,0x21,0x2E
0.178769875000000,201,0x00,0x00
0.178787875000000,202,0x22,0x2E
0.178797500000000,202,0x01,0x00
0.178815625000000,203,0x23,0x2E
0.178825250000000,203,0x02,0x00
0.178843375000000,204,0x24,0x2E
0.178853125000000,204,0x00,0x00
0.178871125000000,205,0x26,0x2E
0.178880875000000,205,0x24,0x00
0.178895500000000,206,0xE1,0x2E
0.178913375000000,207,0x27,0x2E
0.178923125000000,207,0xF0,0x00
0.178937375000000,208,0xA0,0x0E
0.178947375000000,208,0xFF,0x00
0.178957375000000,208,0x02,0x00
0.178967250000000,208,0x72,0x00
0.178977250000000,208,0xFE,0x00
0.178987250000000,208,0x79,0x00
0.178997250000000,208,0xE4,0x00
0.179007250000000,208,0x1C,0x00
0.194820875000000,209,0x25,0x2E
0.194830875000000,209,0x1D,0x00
0.194849125000000,210,0x20,0x2E
0.194858875000000,210,0x5E,0x00
0.194877375000000,211,0x21,0x2E
0.194887125000000,211,0x00,0x00
0.194905125000000,212,0x22,0x2E
0.194914875000000,212,0x01,0x00
0.194932875000000,213,0x23,0x2E
0.194942625000000,213,0x02,0x00
0.194960625000000,214,0x24,0x2E
0.194970375000000,214,0x00,0x00
0.194988500000000,215,0x26,0x2E
0.194998250000000,215,0x24,0x00
0.195012875000000,216,0xE1,0x2E
0.195030750000000,217,0x27,0x2E
0.195040500000000,217,0xF0,0x00
0.195054750000000,218,0xA0,0x0E
0.195064750000000,218,0xFF,0x00
0.195074625000000,218,0x02,0x00
0.195084625000000,218,0x72,0x00
0.195094625000000,218,0xFE,0x00
0.195104625000000,218,0x79,0x00
0.195114625000000,218,0xE4,0x00
0.195124625000000,218,0x1C,0x00
0.196440500000000,219,0x20,0x2E
0.196450250000000,219,0x5E,0x00
0.196468625000000,220,0x21,0x2E
0.196478375000000,220,0x00,0x00
0.196496375000000,221,0x22,0x2E
0.196506125000000,221,0x01,0x00
0.196524125000000,222,0x23,0x2E
0.196533875000000,222,0x02,0x00
0.196551875000000,223,0x24,0x2E
0.196561625000000,223,0x00,0x00
0.196579625000000,224,0x26,0x2E
0.196589375000000,224,0x24,0x00
0.196604000000000,225,0xE1,0x2E
0.196622000000000,226,0x27,0x2E
0.196631625000000,226,0xF0,0x00
0.196645875000000,227,0xA0,0x0E
0.196655875000000,227,0xFF,0x00
0.196665875000000,227,0x02,0x00
0.196675875000000,227,0x72,0x00
0.196685875000000,227,0xFE,0x00
0.196695875000000,227,0x79,0x00
0.196705875000000,227,0xE4,0x00
0.196715750000000,227,0x1C,0x00
0.212532250000000,228,0x25,0x2E
0.212542250000000,228,0x29,0x00
0.212560500000000,229,0x20,0x2E
0.212570250000000,229,0x5E,0x00
0.212588625000000,230,0x21,0x2E
0.212598375000000,230,0x00,0x00
0.212616375000000,231,0x22,0x2E
0.212626125000000,231,0x01,0x00
0.212644125000000,232,0x23,0x2E
0.212653875000000,232,0x02,0x00
0.212671875000000,233,0x24,0x2E
0.212681625000000,233,0x00,0x00
0.212699625000000,234,0x26,0x2E
0.212709375000000,234,0x24,0x00
0.212724000000000,235,0xE1,0x2E
0.212742000000000,236,0x27,0x2E
0.212751750000000,236,0xF0,0x00
0.212765875000000,237,0xA0,0x0E
0.212775875000000,237,0xFF,0x00
0.212785875000000,237,0x02,0x00
0.212795875000000,237,0x72,0x00
0.212805875000000,237,0xFE,0x00
0.212815875000000,237,0x79,0x00
0.212825875000000,237,0xE4,0x00
0.212835875000000,237,0x1C,0x00
0.214151250000000,238,0x20,0x2E
0.214161000000000,238,0x5E,0x00
0.214179375000000,239,0x21,0x2E
0.214189125000000,239,0x00,0x00
0.214207125000000,240,0x22,0x2E
0.214216875000000,240,0x01,0x00
0.214234875000000,241,0x23,0x2E
0.214244625000000,241,0x02,0x00
0.214262750000000,242,0x24,0x2E
0.214272375000000,242,0x00,0x00
0.214290500000000,243,0x26,0x2E
0.214300250000000,243,0x24,0x00
