Time [s],Packet ID,MOSI,MISO
0.000000000000000,0,0x25,0x2E
0.000010000000000,0,0x23,0x00
0.000028250000000,1,0x20,0x2E
0.000038000000000,1,0x5E,0x00
0.000056375000000,2,0x21,0x2E
0.000066125000000,2,0x00,0x00
0.000084125000000,3,0x22,0x2E
0.000093875000000,3,0x01,0x00
0.000111875000000,4,0x23,0x2E
0.000121625000000,4,0x02,0x00
0.000139750000000,5,0x24,0x2E
0.000149500000000,5,0x00,0x00
0.000167500000000,6,0x26,0x2E
0.000177250000000,6,0x24,0x00
0.000191750000000,7,0xE1,0x2E
0.000209625000000,8,0x27,0x2E
0.000219375000000,8,0xF0,0x00
0.000233750000000,9,0xA0,0x0E
0.000243750000000,9,0xFF,0x00
0.000253750000000,9,0x02,0x00
0.000263750000000,9,0x72,0x00
0.000273625000000,9,0xFE,0x00
0.000283750000000,9,0x79,0x00
0.000293625000000,9,0xE4,0x00
0.000303750000000,9,0x1C,0x00
0.001620000000000,10,0x20,0x2E
0.001629750000000,10,0x5E,0x00
0.001648125000000,11,0x21,0x2E
0.001657875000000,11,0x00,0x00
0.001675875000000,12,0x22,0x2E
0.001685625000000,12,0x01,0x00
0.001703750000000,13,0x23,0x2E
0.001713500000000,13,0x02,0x00
0.001731500000000,14,0x24,0x2E
0.001741250000000,14,0x00,0x00
0.001759250000000,15,0x26,0x2E
0.001769000000000,15,0x24,0x00
0.001783625000000,16,0xE1,0x2E
0.001801500000000,17,0x27,0x2E
0.001811250000000,17,0xF0,0x00
0.001825500000000,18,0xA0,0x0E
0.001835500000000,18,0xFF,0x00
0.001845500000000,18,0x02,0x00
0.001855500000000,18,0x72,0x00
0.001865500000000,18,0xFE,0x00
0.001875500000000,18,0x79,0x00
0.001885500000000,18,0xE4,0x00
0.001895500000000,18,0x1C,0x00
0.017717125000000,19,0x25,0x2E
0.017727125000000,19,0x2B,0x00
0.017745375000000,20,0x20,0x2E
0.017755125000000,20,0x5E,0x00
0.017773500000000,21,0x21,0x2E
0.017783250000000,21,0x00,0x00
0.017801250000000,22,0x22,0x2E
0.017811000000000,22,0x01,0x00
0.017829000000000,23,0x23,0x2E
0.017838750000000,23,0x02,0x00
0.017856750000000,24,0x24,0x2E
0.017866500000000,24,0x00,0x00
0.017884500000000,25,0x26,0x2E
0.017894250000000,25,0x24,0x00
0.017908875000000,26,0xE1,0x2E
0.017926875000000,27,0x27,0x2E
0.017936500000000,27,0xF0,0x00
0.017950750000000,28,0xA0,0x0E
0.017960750000000,28,0xFF,0x00
0.017970750000000,28,0x02,0x00
0.017980750000000,28,0x72,0x00
0.017990750000000,28,0xFE,0x00
0.018000750000000,28,0x79,0x00
0.018010750000000,28,0xE4,0x00
0.018020625000000,28,0x1C,0x00
0.019335625000000,29,0x20,0x2E
0.019345375000000,29,0x5E,0x00
0.019363750000000,30,0x21,0x2E
0.019373500000000,30,0x00,0x00
0.019391500000000,31,0x22,0x2E
0.019401250000000,31,0x01,0x00
0.019419250000000,32,0x23,0x2E
0.019429000000000,32,0x02,0x00
0.019447000000000,33,0x24,0x2E
0.019456750000000,33,0x00,0x00
0.019474750000000,34,0x26,0x2E
0.019484500000000,34,0x24,0x00
0.019499125000000,35,0xE1,0x2E
0.019517000000000,36,0x27,0x2E
0.019526750000000,36,0xF0,0x00
0.019541000000000,37,0xA0,0x0E
0.019551000000000,37,0xFF,0x00
0.019561000000000,37,0x02,0x00
0.019571000000000,37,0x72,0x00
0.019581000000000,37,0xFE,0x00
0.019591000000000,37,0x79,0x00
0.019601000000000,37,0xE4,0x00
0.019610875000000,37,0x1C,0x00
0.035429125000000,38,0x25,0x2E
0.035439125000000,38,0x1D,0x00
0.035457500000000,39,0x20,0x2E
0.035467250000000,39,0x5E,0x00
0.035485625000000,40,0x21,0x2E
0.035495375000000,40,0x00,0x00
0.035513375000000,41,0x22,0x2E
0.035523125000000,41,0x01,0x00
0.035541250000000,42,0x23,0x2E
0.035551000000000,42,0x02,0x00
0.035569000000000,43,0x24,0x2E
0.035578750000000,43,0x00,0x00
0.035596875000000,44,0x26,0x2E
0.035606625000000,44,0x24,0x00
0.035621250000000,45,0xE1,0x2E
0.035639125000000,46,0x27,0x2E
0.035648875000000,46,0xF0,0x00
0.035663125000000,47,0xA0,0x0E
0.035673125000000,47,0xFF,0x00
0.035683125000000,47,0x02,0x00
0.035693125000000,47,0x72,0x00
0.035703125000000,47,0xFE,0x00
0.035713125000000,47,0x79,0x00
0.035723125000000,47,0xE4,0x00
0.035733125000000,47,0x1C,0x00
0.037049000000000,48,0x20,0x2E
0.037058750000000,48,0x5E,0x00
0.037077125000000,49,0x21,0x2E
0.037086875000000,49,0x00,0x00
0.037104875000000,50,0x22,0x2E
0.037114625000000,50,0x01,0x00
0.037132750000000,51,0x23,0x2E
0.037142500000000,51,0x02,0x00
0.037160500000000,52,0x24,0x2E
0.037170250000000,52,0x00,0x00
0.037188250000000,53,0x26,0x2E
0.037198000000000,53,0x24,0x00
0.037212625000000,54,0xE1,0x2E
0.037230500000000,55,0x27,0x2E
0.037240250000000,55,0xF0,0x00
0.037254500000000,56,0xA0,0x0E
0.037264500000000,56,0xFF,0x00
0.037274500000000,56,0x02,0x00
0.037284500000000,56,0x72,0x00
0.037294500000000,56,0xFE,0x00
0.037304500000000,56,0x79,0x00
0.037314500000000,56,0xE4,0x00
0.037324375000000,56,0x1C,0x00
0.053138750000000,57,0x25,0x2E
0.053148750000000,57,0x29,0x00
0.053167000000000,58,0x20,0x2E
0.053176750000000,58,0x5E,0x00
0.053195125000000,59,0x21,0x2E
0.053204875000000,59,0x00,0x00
0.053223000000000,60,0x22,0x2E
0.053232750000000,60,0x01,0x00
0.053250750000000,61,0x23,0x2E
0.053260500000000,61,0x02,0x00
0.053278500000000,62,0x24,0x2E
0.053288250000000,62,0x00,0x00
0.053306250000000,63,0x26,0x2E
0.053316000000000,63,0x24,0x00
0.053330625000000,64,0xE1,0x2E
0.053348625000000,65,0x27,0x2E
0.053358375000000,65,0xF0,0x00
0.053372625000000,66,0xA0,0x0E
0.053382625000000,66,0xFF,0x00
0.053392625000000,66,0x02,0x00
0.053402625000000,66,0x72,0x00
0.053412500000000,66,0xFE,0x00
0.053422500000000,66,0x79,0x00
0.053432500000000,66,0xE4,0x00
0.053442500000000,66,0x1C,0x00
0.054758125000000,67,0x20,0x2E
0.054767875000000,67,0x5E,0x00
0.054786250000000,68,0x21,0x2E
0.054796000000000,68,0x00,0x00
0.054814000000000,69,0x22,0x2E
0.054823750000000,69,0x01,0x00
0.054841750000000,70,0x23,0x2E
0.054851500000000,70,0x02,0x00
0.054869625000000,71,0x24,0x2E
0.054879375000000,71,0x00,0x00
0.054897375000000,72,0x26,0x2E
0.054907125000000,72,0x24,0x00
0.054921750000000,73,0xE1,0x2E
0.054939625000000,74,0x27,0x2E
0.054949375000000,74,0xF0,0x00
0.054963625000000,75,0xA0,0x0E
0.054973625000000,75,0xFF,0x00
0.054983625000000,75,0x02,0x00
0.054993625000000,75,0x72,0x00
0.055003625000000,75,0xFE,0x00
0.055013625000000,75,0x79,0x00
0.055023625000000,75,0xE4,0x00
0.055033625000000,75,0x1C,0x00
0.070850125000000,76,0x25,0x2E
0.070860125000000,76,0x0C,0x00
0.070878375000000,77,0x20,0x2E
0.070888125000000,77,0x5E,0x00
0.070906625000000,78,0x21,0x2E
0.070916375000000,78,0x00,0x00
0.070934375000000,79,0x22,0x2E
0.070944125000000,79,0x01,0x00
0.070962125000000,80,0x23,0x2E
0.070971875000000,80,0x02,0x00
0.070989875000000,81,0x24,0x2E
0.070999625000000,81,0x00,0x00
0.071017750000000,82,0x26,0x2E
0.071027375000000,82,0x24,0x00
0.071042000000000,83,0xE1,0x2E
0.071060000000000,84,0x27,0x2E
0.071069750000000,84,0xF0,0x00
0.071084000000000,85,0xA0,0x0E
0.071094000000000,85,0xFF,0x00
0.071104000000000,85,0x02,0x00
0.071114000000000,85,0x72,0x00
0.071124000000000,85,0xFE,0x00
0.071133875000000,85,0x79,0x00
0.071143875000000,85,0xE4,0x00
0.071153875000000,85,0x1C,0x00
0.072469750000000,86,0x20,0x2E
0.072479375000000,86,0x5E,0x00
0.072497750000000,87,0x21,0x2E
0.072507500000000,87,0x00,0x00
0.072525500000000,88,0x22,0x2E
0.072535250000000,88,0x01,0x00
0.072553250000000,89,0x23,0x2E
0.072563000000000,89,0x02,0x00
0.072581000000000,90,0x24,0x2E
0.072590750000000,90,0x00,0x00
0.072608875000000,91,0x26,0x2E
0.072618625000000,91,0x24,0x00
0.072633250000000,92,0xE1,0x2E
0.072651125000000,93,0x27,0x2E
0.072660875000000,93,0xF0,0x00
0.072675125000000,94,0xA0,0x0E
0.072685125000000,94,0xFF,0x00
0.072695125000000,94,0x02,0x00
0.072705125000000,94,0x72,0x00
0.072715125000000,94,0xFE,0x00
0.072725000000000,94,0x79,0x00
0.072735000000000,94,0xE4,0x00
0.072745000000000,94,0x1C,0x00
0.088563125000000,95,0x25,0x2E
0.088573000000000,95,0x05,0x00
0.088591375000000,96,0x20,0x2E
0.088601000000000,96,0x5E,0x00
0.088619500000000,97,0x21,0x2E
0.088629250000000,97,0x00,0x00
0.088647250000000,98,0x22,0x2E
0.088657000000000,98,0x01,0x00
0.088675125000000,99,0x23,0x2E
0.088684875000000,99,0x02,0x00
0.088702875000000,100,0x24,0x2E
0.088712625000000,100,0x00,0x00
0.088730625000000,101,0x26,0x2E
0.088740375000000,101,0x24,0x00
0.088755000000000,102,0xE1,0x2E
0.088773000000000,103,0x27,0x2E
0.088782750000000,103,0xF0,0x00
0.088797000000000,104,0xA0,0x0E
0.088807000000000,104,0xFF,0x00
0.088817000000000,104,0x02,0x00
0.088827000000000,104,0x72,0x00
0.088837000000000,104,0xFE,0x00
0.088847000000000,104,0x79,0x00
0.088857000000000,104,0xE4,0x00
0.088867000000000,104,0x1C,0x00
0.090182500000000,105,0x20,0x2E
0.090192250000000,105,0x5E,0x00
0.090210625000000,106,0x21,0x2E
0.090220375000000,106,0x00,0x00
0.090238375000000,107,0x22,0x2E
0.090248125000000,107,0x01,0x00
0.090266125000000,108,0x23,0x2E
0.090275875000000,108,0x02,0x00
0.090294000000000,109,0x24,0x2E
0.090303625000000,109,0x00,0x00
0.090321750000000,110,0x26,0x2E
0.090331500000000,110,0x24,0x00
0.090346125000000,111,0xE1,0x2E
0.090364000000000,112,0x27,0x2E
0.090373750000000,112,0xF0,0x00
0.090388000000000,113,0xA0,0x0E
0.090398000000000,113,0xFF,0x00
0.090408000000000,113,0x02,0x00
0.090418000000000,113,0x72,0x00
0.090427875000000,113,0xFE,0x00
0.090437875000000,113,0x79,0x00
0.090447875000000,113,0xE4,0x00
0.090457875000000,113,0x1C,0x00
0.106278125000000,114,0x25,0x2E
0.106288125000000,114,0x30,0x00
0.106306375000000,115,0x20,0x2E
0.106316125000000,115,0x5E,0x00
0.106334500000000,116,0x21,0x2E
0.106344250000000,116,0x00,0x00
0.106362250000000,117,0x22,0x2E
0.106372000000000,117,0x01,0x00
0.106390000000000,118,0x23,0x2E
0.106399750000000,118,0x02,0x00
0.106417750000000,119,0x24,0x2E
0.106427500000000,119,0x00,0x00
0.106445500000000,120,0x26,0x2E
0.106455250000000,120,0x24,0x00
0.106469875000000,121,0xE1,0x2E
0.106487750000000,122,0x27,0x2E
0.106497500000000,122,0xF0,0x00
0.106511750000000,123,0xA0,0x0E
0.106521750000000,123,0xFF,0x00
0.106531750000000,123,0x02,0x00
0.106541750000000,123,0x72,0x00
0.106551750000000,123,0xFE,0x00
0.106561750000000,123,0x79,0x00
0.106571625000000,123,0xE4,0x00
0.106581625000000,123,0x1C,0x00
0.107897250000000,124,0x20,0x2E
0.107907000000000,124,0x5E,0x00
0.107925375000000,125,0x21,0x2E
0.107935125000000,125,0x00,0x00
0.107953250000000,126,0x22,0x2E
0.107962875000000,126,0x01,0x00
0.107981000000000,127,0x23,0x2E
0.107990750000000,127,0x02,0x00
0.108008750000000,128,0x24,0x2E
0.108018500000000,128,0x00,0x00
0.108036500000000,129,0x26,0x2E
0.108046125000000,129,0x24,0x00
0.108060750000000,130,0xE1,0x2E
0.108078750000000,131,0x27,0x2E
0.108088375000000,131,0xF0,0x00
0.108102625000000,132,0xA0,0x0E
0.108112625000000,132,0xFF,0x00
0.108122625000000,132,0x02,0x00
0.108132625000000,132,0x72,0x00
0.108142625000000,132,0xFE,0x00
0.108152625000000,132,0x79,0x00
0.108162625000000,132,0xE4,0x00
0.108172625000000,132,0x1C,0x00
0.123978250000000,133,0x25,0x2E
0.123988250000000,133,0x48,0x00
0.124006500000000,134,0x20,0x2E
0.124016250000000,134,0x5E,0x00
0.124034625000000,135,0x21,0x2E
0.124044375000000,135,0x00,0x00
0.124062375000000,136,0x22,0x2E
0.124072125000000,136,0x01,0x00
0.124090125000000,137,0x23,0x2E
0.124099875000000,137,0x02,0x00
0.124117875000000,138,0x24,0x2E
0.124127625000000,138,0x00,0x00
0.124145625000000,139,0x26,0x2E
0.124155375000000,139,0x24,0x00
0.124170000000000,140,0xE1,0x2E
0.124188000000000,141,0x27,0x2E
0.124197625000000,141,0xF0,0x00
0.124211875000000,142,0xA0,0x0E
0.124221875000000,142,0xFF,0x00
0.124231875000000,142,0x02,0x00
0.124241875000000,142,0x72,0x00
0.124251875000000,142,0xFE,0x00
0.124261750000000,142,0x79,0x00
0.124271750000000,142,0xE4,0x00
0.124281750000000,142,0x1C,0x00
0.125596625000000,143,0x20,0x2E
0.125606375000000,143,0x5E,0x00
0.125624750000000,144,0x21,0x2E
0.125634500000000,144,0x00,0x00
0.125652500000000,145,0x22,0x2E
0.125662250000000,145,0x01,0x00
0.125680250000000,146,0x23,0x2E
0.125690000000000,146,0x02,0x00
0.125708000000000,147,0x24,0x2E
0.125717750000000,147,0x00,0x00
0.125735875000000,148,0x26,0x2E
0.125745625000000,148,0x24,0x00
0.125760125000000,149,0xE1,0x2E
0.125778125000000,150,0x27,0x2E
0.125787875000000,150,0xF0,0x00
0.125802125000000,151,0xA0,0x0E
0.125812000000000,151,0xFF,0x00
0.125822000000000,151,0x02,0x00
0.125832000000000,151,0x72,0x00
0.125842000000000,151,0xFE,0x00
0.125852000000000,151,0x79,0x00
0.125862000000000,151,0xE4,0x00
0.125872000000000,151,0x1C,0x00
0.141679375000000,152,0x25,0x2E
0.141689375000000,152,0x1E,0x00
0.141707625000000,153,0x20,0x2E
0.141717375000000,153,0x5E,0x00
0.141735750000000,154,0x21,0x2E
0.141745375000000,154,0x00,0x00
0.141763375000000,155,0x22,0x2E
0.141773125000000,155,0x01,0x00
0.141791125000000,156,0x23,0x2E
0.141800875000000,156,0x02,0x00
0.141818875000000,157,0x24,0x2E
0.141828625000000,157,0x00,0x00
0.141846625000000,158,0x26,0x2E
0.141856375000000,158,0x24,0x00
0.141870875000000,159,0xE1,0x2E
0.141888750000000,160,0x27,0x2E
0.141898500000000,160,0xF0,0x00
0.141912750000000,161,0xA0,0x0E
0.141922750000000,161,0xFF,0x00
0.141932625000000,161,0x02,0x00
0.141942625000000,161,0x72,0x00
0.141952625000000,161,0xFE,0x00
0.141962625000000,161,0x79,0x00
0.141972625000000,161,0xE4,0x00
0.141982625000000,161,0x1C,0x00
0.143297375000000,162,0x20,0x2E
0.143307125000000,162,0x5E,0x00
0.143325375000000,163,0x21,0x2E
0.143335125000000,163,0x00,0x00
0.143353125000000,164,0x22,0x2E
0.143362875000000,164,0x01,0x00
0.143380875000000,165,0x23,0x2E
0.143390625000000,165,0x02,0x00
0.143408625000000,166,0x24,0x2E
0.143418375000000,166,0x00,0x00
0.143436375000000,167,0x26,0x2E
0.143446125000000,167,0x24,0x00
0.143460750000000,168,0xE1,0x2E
0.143478625000000,169,0x27,0x2E
0.143488375000000,169,0xF0,0x00
0.143502625000000,170,0xA0,0x0E
0.143512500000000,170,0xFF,0x00
0.143522500000000,170,0x02,0x00
0.143532500000000,170,0x72,0x00
0.143542500000000,170,0xFE,0x00
0.143552500000000,170,0x79,0x00
0.143562375000000,170,0xE4,0x00
0.143572375000000,170,0x1C,0x00
0.159375875000000,171,0x25,0x2E
0.159385875000000,171,0x33,0x00
0.159404125000000,172,0x20,0x2E
0.159413875000000,172,0x5E,0x00
0.159432250000000,173,0x21,0x2E
0.159442000000000,173,0x00,0x00
0.159460000000000,174,0x22,0x2E
0.159469625000000,174,0x01,0x00
0.159487625000000,175,0x23,0x2E
0.159497375000000,175,0x02,0x00
0.159515375000000,176,0x24,0x2E
0.159525125000000,176,0x00,0x00
0.159543125000000,177,0x26,0x2E
0.159552875000000,177,0x24,0x00
0.159567500000000,178,0xE1,0x2E
0.159585375000000,179,0x27,0x2E
0.159595125000000,179,0xF0,0x00
0.159609250000000,180,0xA0,0x0E
0.159619250000000,180,0xFF,0x00
0.159629250000000,180,0x02,0x00
0.159639125000000,180,0x72,0x00
0.159649125000000,180,0xFE,0x00
0.159659125000000,180,0x79,0x00
0.159669125000000,180,0xE4,0x00
0.159679125000000,180,0x1C,0x00
0.160993375000000,181,0x20,0x2E
0.161003000000000,181,0x5E,0x00
0.161021500000000,182,0x21,0x2E
0.161031125000000,182,0x00,0x00
0.161049125000000,183,0x22,0x2E
0.161058875000000,183,0x01,0x00
0.161076875000000,184,0x23,0x2E
0.161086625000000,184,0x02,0x00
0.161104625000000,185,0x24,0x2E
0.161114375000000,185,0x00,0x00
0.161132375000000,186,0x26,0x2E
0.161142125000000,186,0x24,0x00
0.161156750000000,187,0xE1,0x2E
0.161174625000000,188,0x27,0x2E
0.161184375000000,188,0xF0,0x00
0.161198625000000,189,0xA0,0x0E
0.161208500000000,189,0xFF,0x00
0.161218500000000,189,0x02,0x00
0.161228500000000,189,0x72,0x00
0.161238500000000,189,0xFE,0x00
0.161248500000000,189,0x79,0x00
0.161258375000000,189,0xE4,0x00
0.161268375000000,189,0x1C,0x00
0.177072875000000,190,0x25,0x2E
0.177082875000000,190,0x4F,0x00
0.177101125000000,191,0x20,0x2E
0.177110875000000,191,0x5E,0x00
0.177129250000000,192,0x21,0x2E
0.177139125000000,192,0x00,0x00
0.177157125000000,193,0x22,0x2E
0.177166875000000,193,0x01,0x00
0.177184875000000,194,0x23,0x2E
0.177194625000000,194,0x02,0x00
0.177212625000000,195,0x24,0x2E
0.177222375000000,195,0x00,0x00
0.177240375000000,196,0x26,0x2E
0.177250125000000,196,0x24,0x00
0.177264750000000,197,0xE1,0x2E
0.177282750000000,198,0x27,0x2E
0.177292375000000,198,0xF0,0x00
0.177306625000000,199,0xA0,0x0E
0.177316625000000,199,0xFF,0x00
0.177326625000000,199,0x02,0x00
0.177336625000000,199,0x72,0x00
0.177346500000000,199,0xFE,0x00
0.177356500000000,199,0x79,0x00
0.177366500000000,199,0xE4,0x00
0.177376500000000,199,0x1C,0x00
0.178692125000000,200,0x20,0x2E
0.178701875000000,200,0x5E,0x00
0.178720250000000,201,0x21,0x2E
0.178730000000000,201,0x00,0x00
0.178748125000000,202,0x22,0x2E
0.178757875000000,202,0x01,0x00
0.178775875000000,203,0x23,0x2E
0.178785625000000,203,0x02,0x00
0.178803625000000,204,0x24,0x2E
0.178813375000000,204,0x00,0x00
0.178831375000000,205,0x26,0x2E
0.178841125000000,205,0x24,0x00
0.178855750000000,206,0xE1,0x2E
0.178873625000000,207,0x27,0x2E
0.178883375000000,207,0xF0,0x00
0.178897625000000,208,0xA0,0x0E
0.178907625000000,208,0xFF,0x00
0.178917625000000,208,0x02,0x00
0.178927625000000,208,0x72,0x00
0.178937625000000,208,0xFE,0x00
0.178947625000000,208,0x79,0x00
0.178957625000000,208,0xE4,0x00
0.178967625000000,208,0x1C,0x00
0.194784375000000,209,0x25,0x2E
0.194794375000000,209,0x4E,0x00
0.194812625000000,210,0x20,0x2E
0.194822375000000,210,0x5E,0x00
0.194840750000000,211,0x21,0x2E
0.194850500000000,211,0x00,0x00
0.194868500000000,212,0x22,0x2E
0.194878250000000,212,0x01,0x00
0.194896250000000,213,0x23,0x2E
0.194906000000000,213,0x02,0x00
0.194924125000000,214,0x24,0x2E
0.194933875000000,214,0x00,0x00
0.194951875000000,215,0x26,0x2E
0.194961625000000,215,0x24,0x00
0.194976250000000,216,0xE1,0x2E
0.194994125000000,217,0x27,0x2E
0.195003875000000,217,0xF0,0x00
0.195018125000000,218,0xA0,0x0E
0.195028125000000,218,0xFF,0x00
0.195038125000000,218,0x02,0x00
0.195048125000000,218,0x72,0x00
0.195058125000000,218,0xFE,0x00
0.195068125000000,218,0x79,0x00
0.195078125000000,218,0xE4,0x00
0.195088000000000,218,0x1C,0x00
0.196403750000000,219,0x20,0x2E
0.196413500000000,219,0x5E,0x00
0.196432000000000,220,0x21,0x2E
0.196441750000000,220,0x00,0x00
0.196459750000000,221,0x22,0x2E
0.196469500000000,221,0x01,0x00
0.196487500000000,222,0x23,0x2E
0.196497250000000,222,0x02,0x00
0.196515250000000,223,0x24,0x2E
0.196525000000000,223,0x00,0x00
0.196543000000000,224,0x26,0x2E
0.196552750000000,224,0x24,0x00
0.196567375000000,225,0xE1,0x2E
0.196585250000000,226,0x27,0x2E
0.196595000000000,226,0xF0,0x00
0.196609250000000,227,0xA0,0x0E
0.196619250000000,227,0xFF,0x00
0.196629250000000,227,0x02,0x00
0.196639250000000,227,0x72,0x00
0.196649250000000,227,0xFE,0x00
0.196659250000000,227,0x79,0x00
0.196669250000000,227,0xE4,0x00
0.196679250000000,227,0x1C,0x00
0.212504250000000,228,0x25,0x2E
0.212514250000000,228,0x2F,0x00
0.212532500000000,229,0x20,0x2E
0.212542250000000,229,0x5E,0x00
0.212560625000000,230,0x21,0x2E
0.212570375000000,230,0x00,0x00
0.212588375000000,231,0x22,0x2E
0.212598125000000,231,0x01,0x00
0.212616250000000,232,0x23,0x2E
0.212626000000000,232,0x02,0x00
0.212644000000000,233,0x24,0x2E
0.212653750000000,233,0x00,0x00
0.212671750000000,234,0x26,0x2E
0.212681500000000,234,0x24,0x00
0.212696125000000,235,0xE1,0x2E
0.212714000000000,236,0x27,0x2E
0.212723750000000,236,0xF0,0x00
0.212738000000000,237,0xA0,0x0E
0.212748000000000,237,0xFF,0x00
0.212758000000000,237,0x02,0x00
0.212768000000000,237,0x72,0x00
0.212778000000000,237,0xFE,0x00
0.212788000000000,237,0x79,0x00
0.212797875000000,237,0xE4,0x00
0.212807875000000,237,0x1C,0x00
0.214124250000000,238,0x20,0x2E
0.214134000000000,238,0x5E,0x00
0.214152375000000,239,0x21,0x2E
0.214162125000000,239,0x00,0x00
0.214180125000000,240,0x22,0x2E
0.214189875000000,240,0x01,0x00
0.214207875000000,241,0x23,0x2E
0.214217625000000,241,0x02,0x00
0.214235625000000,242,0x24,0x2E
0.214245375000000,242,0x00,0x00
0.214263500000000,243,0x26,0x2E
0.214273250000000,243,0x24,0x00
