Time [s],Packet ID,MOSI,MISO
0.000000000000000,0,0x25,0x2E
0.000010000000000,0,0x2F,0x00
0.000028250000000,1,0x20,0x2E
0.000038000000000,1,0x5E,0x00
0.000056375000000,2,0x21,0x2E
0.000066125000000,2,0x00,0x00
0.000084125000000,3,0x22,0x2E
0.000093875000000,3,0x01,0x00
0.000112000000000,4,0x23,0x2E
0.000121750000000,4,0x02,0x00
0.000139750000000,5,0x24,0x2E
0.000149500000000,5,0x00,0x00
0.000167500000000,6,0x26,0x2E
0.000177250000000,6,0x24,0x00
0.000191875000000,7,0xE1,0x2E
0.000209750000000,8,0x27,0x2E
0.000219500000000,8,0xF0,0x00
0.000233750000000,9,0xA0,0x0E
0.000243750000000,9,0xFF,0x00
0.000253625000000,9,0xFE,0x00
0.000263625000000,9,0x08,0x00
0.000273625000000,9,0xFE,0x00
0.000283625000000,9,0x65,0x00
0.000293625000000,9,0xE4,0x00
0.000303625000000,9,0x1C,0x00
0.001619500000000,10,0x20,0x2E
0.001629250000000,10,0x5E,0x00
0.001647625000000,11,0x21,0x2E
0.001657375000000,11,0x00,0x00
0.001675375000000,12,0x22,0x2E
0.001685125000000,12,0x01,0x00
0.001703125000000,13,0x23,0x2E
0.001712875000000,13,0x02,0x00
0.001730875000000,14,0x24,0x2E
0.001740750000000,14,0x00,0x00
0.001758750000000,15,0x26,0x2E
0.001768500000000,15,0x24,0x00
0.001783125000000,16,0xE1,0x2E
0.001801000000000,17,0x27,0x2E
0.001810750000000,17,0xF0,0x00
0.001825000000000,18,0xA0,0x0E
0.001835000000000,18,0xFF,0x00
0.001845000000000,18,0xFE,0x00
0.001855000000000,18,0x08,0x00
0.001864875000000,18,0xFE,0x00
0.001874875000000,18,0x65,0x00
0.001884875000000,18,0xE4,0x00
0.001894875000000,18,0x1C,0x00
0.017714125000000,19,0x25,0x2E
0.017724125000000,19,0x10,0x00
0.017742375000000,20,0x20,0x2E
0.017752000000000,20,0x5E,0x00
0.017770500000000,21,0x21,0x2E
0.017780250000000,21,0x00,0x00
0.017798250000000,22,0x22,0x2E
0.017808000000000,22,0x01,0x00
0.017826000000000,23,0x23,0x2E
0.017835750000000,23,0x02,0x00
0.017853750000000,24,0x24,0x2E
0.017863500000000,24,0x00,0x00
0.017881500000000,25,0x26,0x2E
0.017891250000000,25,0x24,0x00
0.017905875000000,26,0xE1,0x2E
0.017923750000000,27,0x27,0x2E
0.017933500000000,27,0xF0,0x00
0.017947750000000,28,0xA0,0x0E
0.017957750000000,28,0xFF,0x00
0.017967750000000,28,0xFE,0x00
0.017977750000000,28,0x08,0x00
0.017987750000000,28,0xFE,0x00
0.017997750000000,28,0x65,0x00
0.018007750000000,28,0xE4,0x00
0.018017750000000,28,0x1C,0x00
0.019333375000000,29,0x20,0x2E
0.019343125000000,29,0x5E,0x00
0.019361500000000,30,0x21,0x2E
0.019371250000000,30,0x00,0x00
0.019389250000000,31,0x22,0x2E
0.019399000000000,31,0x01,0x00
0.019417125000000,32,0x23,0x2E
0.019426875000000,32,0x02,0x00
0.019444875000000,33,0x24,0x2E
0.019454625000000,33,0x00,0x00
0.019472750000000,34,0x26,0x2E
0.019482500000000,34,0x24,0x00
0.019497125000000,35,0xE1,0x2E
0.019515000000000,36,0x27,0x2E
0.019524750000000,36,0xF0,0x00
0.019539000000000,37,0xA0,0x0E
0.019549000000000,37,0xFF,0x00
0.019559000000000,37,0xFE,0x00
0.019569000000000,37,0x08,0x00
0.019579000000000,37,0xFE,0x00
0.019589000000000,37,0x65,0x00
0.019599000000000,37,0xE4,0x00
0.019609000000000,37,0x1C,0x00
0.035430500000000,38,0x25,0x2E
0.035440500000000,38,0x06,0x00
0.035458750000000,39,0x20,0x2E
0.035468500000000,39,0x5E,0x00
0.035487000000000,40,0x21,0x2E
0.035496750000000,40,0x00,0x00
0.035514750000000,41,0x22,0x2E
0.035524500000000,41,0x01,0x00
0.035542500000000,42,0x23,0x2E
0.035552250000000,42,0x02,0x00
0.035570375000000,43,0x24,0x2E
0.035580000000000,43,0x00,0x00
0.035598125000000,44,0x26,0x2E
0.035607875000000,44,0x24,0x00
0.035622500000000,45,0xE1,0x2E
0.035640375000000,46,0x27,0x2E
0.035650000000000,46,0xF0,0x00
0.035664250000000,47,0xA0,0x0E
0.035674250000000,47,0xFF,0x00
0.035684250000000,47,0xFE,0x00
0.035694250000000,47,0x08,0x00
0.035704250000000,47,0xFE,0x00
0.035714250000000,47,0x65,0x00
0.035724250000000,47,0xE4,0x00
0.035734250000000,47,0x1C,0x00
0.037050250000000,48,0x20,0x2E
0.037060000000000,48,0x5E,0x00
0.037078375000000,49,0x21,0x2E
0.037088125000000,49,0x00,0x00
0.037106125000000,50,0x22,0x2E
0.037115875000000,50,0x01,0x00
0.037134000000000,51,0x23,0x2E
0.037143750000000,51,0x02,0x00
0.037161750000000,52,0x24,0x2E
0.037171500000000,52,0x00,0x00
0.037189500000000,53,0x26,0x2E
0.037199250000000,53,0x24,0x00
0.037213875000000,54,0xE1,0x2E
0.037231750000000,55,0x27,0x2E
0.037241500000000,55,0xF0,0x00
0.037255750000000,56,0xA0,0x0E
0.037265750000000,56,0xFF,0x00
0.037275750000000,56,0xFE,0x00
0.037285750000000,56,0x08,0x00
0.037295750000000,56,0xFE,0x00
0.037305750000000,56,0x65,0x00
0.037315750000000,56,0xE4,0x00
0.037325750000000,56,0x1C,0x00
0.053141375000000,57,0x25,0x2E
0.053151375000000,57,0x23,0x00
0.053169625000000,58,0x20,0x2E
0.053179375000000,58,0x5E,0x00
0.053197750000000,59,0x21,0x2E
0.053207500000000,59,0x00,0x00
0.053225500000000,60,0x22,0x2E
0.053235250000000,60,0x01,0x00
0.053253375000000,61,0x23,0x2E
0.053263000000000,61,0x02,0x00
0.053281125000000,62,0x24,0x2E
0.053290875000000,62,0x00,0x00
0.053308875000000,63,0x26,0x2E
0.053318625000000,63,0x24,0x00
0.053333250000000,64,0xE1,0x2E
0.053351125000000,65,0x27,0x2E
0.053360875000000,65,0xF0,0x00
0.053375125000000,66,0xA0,0x0E
0.053385125000000,66,0xFF,0x00
0.053395000000000,66,0xFE,0x00
0.053405000000000,66,0x08,0x00
0.053415000000000,66,0xFE,0x00
0.053425000000000,66,0x65,0x00
0.053435000000000,66,0xE4,0x00
0.053445000000000,66,0x1C,0x00
0.054761000000000,67,0x20,0x2E
0.054770750000000,67,0x5E,0x00
0.054789125000000,68,0x21,0x2E
0.054798875000000,68,0x00,0x00
0.054816875000000,69,0x22,0x2E
0.054826625000000,69,0x01,0x00
0.054844625000000,70,0x23,0x2E
0.054854375000000,70,0x02,0x00
0.054872500000000,71,0x24,0x2E
0.054882250000000,71,0x00,0x00
0.054900250000000,72,0x26,0x2E
0.054909875000000,72,0x24,0x00
0.054924500000000,73,0xE1,0x2E
0.054942500000000,74,0x27,0x2E
0.054952250000000,74,0xF0,0x00
0.054966500000000,75,0xA0,0x0E
0.054976500000000,75,0xFF,0x00
0.054986375000000,75,0xFE,0x00
0.054996375000000,75,0x08,0x00
0.055006375000000,75,0xFE,0x00
0.055016375000000,75,0x65,0x00
0.055026375000000,75,0xE4,0x00
0.055036375000000,75,0x1C,0x00
0.070852750000000,76,0x25,0x2E
0.070862750000000,76,0x2B,0x00
0.070881000000000,77,0x20,0x2E
0.070890875000000,77,0x5E,0x00
0.070909250000000,78,0x21,0x2E
0.070919000000000,78,0x00,0x00
0.070937000000000,79,0x22,0x2E
0.070946750000000,79,0x01,0x00
0.070964750000000,80,0x23,0x2E
0.070974500000000,80,0x02,0x00
0.070992625000000,81,0x24,0x2E
0.071002375000000,81,0x00,0x00
0.071020375000000,82,0x26,0x2E
0.071030125000000,82,0x24,0x00
0.071044750000000,83,0xE1,0x2E
0.071062625000000,84,0x27,0x2E
0.071072375000000,84,0xF0,0x00
0.071086750000000,85,0xA0,0x0E
0.071096625000000,85,0xFF,0x00
0.071106625000000,85,0xFE,0x00
0.071116625000000,85,0x08,0x00
0.071126625000000,85,0xFE,0x00
0.071136625000000,85,0x65,0x00
0.071146625000000,85,0xE4,0x00
0.071156625000000,85,0x1C,0x00
0.072472500000000,86,0x20,0x2E
0.072482250000000,86,0x5E,0x00
0.072500625000000,87,0x21,0x2E
0.072510375000000,87,0x00,0x00
0.072528375000000,88,0x22,0x2E
0.072538125000000,88,0x01,0x00
0.072556125000000,89,0x23,0x2E
0.072565875000000,89,0x02,0x00
0.072583875000000,90,0x24,0x2E
0.072593625000000,90,0x00,0x00
0.072611750000000,91,0x26,0x2E
0.072621500000000,91,0x24,0x00
0.072636125000000,92,0xE1,0x2E
0.072654000000000,93,0x27,0x2E
0.072663750000000,93,0xF0,0x00
0.072678000000000,94,0xA0,0x0E
0.072687875000000,94,0xFF,0x00
0.072697875000000,94,0xFE,0x00
0.072707875000000,94,0x08,0x00
0.072717875000000,94,0xFE,0x00
0.072727875000000,94,0x65,0x00
0.072737875000000,94,0xE4,0x00
0.072747875000000,94,0x1C,0x00
0.088563000000000,95,0x25,0x2E
0.088573000000000,95,0x1D,0x00
0.088591250000000,96,0x20,0x2E
0.088601000000000,96,0x5E,0x00
0.088619375000000,97,0x21,0x2E
0.088629125000000,97,0x00,0x00
0.088647125000000,98,0x22,0x2E
0.088656875000000,98,0x01,0x00
0.088674875000000,99,0x23,0x2E
0.088684625000000,99,0x02,0x00
0.088702625000000,100,0x24,0x2E
0.088712375000000,100,0x00,0x00
0.088730375000000,101,0x26,0x2E
0.088740125000000,101,0x24,0x00
0.088754750000000,102,0xE1,0x2E
0.088772625000000,103,0x27,0x2E
0.088782375000000,103,0xF0,0x00
0.088796625000000,104,0xA0,0x0E
0.088806625000000,104,0xFF,0x00
0.088816625000000,104,0xFE,0x00
0.088826625000000,104,0x08,0x00
0.088836625000000,104,0xFE,0x00
0.088846625000000,104,0x65,0x00
0.088856625000000,104,0xE4,0x00
0.088866625000000,104,0x1C,0x00
0.090181875000000,105,0x20,0x2E
0.090191625000000,105,0x5E,0x00
0.090210000000000,106,0x21,0x2E
0.090219750000000,106,0x00,0x00
0.090237750000000,107,0x22,0x2E
0.090247500000000,107,0x01,0x00
0.090265625000000,108,0x23,0x2E
0.090275375000000,108,0x02,0x00
0.090293375000000,109,0x24,0x2E
0.090303125000000,109,0x00,0x00
0.090321250000000,110,0x26,0x2E
0.090331000000000,110,0x24,0x00
0.090345625000000,111,0xE1,0x2E
0.090363500000000,112,0x27,0x2E
0.090373250000000,112,0xF0,0x00
0.090387625000000,113,0xA0,0x0E
0.090397625000000,113,0xFF,0x00
0.090407625000000,113,0xFE,0x00
0.090417625000000,113,0x08,0x00
0.090427625000000,113,0xFE,0x00
0.090437625000000,113,0x65,0x00
0.090447625000000,113,0xE4,0x00
0.090457625000000,113,0x1C,0x00
0.106275500000000,114,0x25,0x2E
0.106285500000000,114,0x29,0x00
0.106303750000000,115,0x20,0x2E
0.106313500000000,115,0x5E,0x00
0.106331875000000,116,0x21,0x2E
0.106341625000000,116,0x00,0x00
0.106359750000000,117,0x22,0x2E
0.106369500000000,117,0x01,0x00
0.106387500000000,118,0x23,0x2E
0.106397250000000,118,0x02,0x00
0.106415250000000,119,0x24,0x2E
0.106425000000000,119,0x00,0x00
0.106443125000000,120,0x26,0x2E
0.106452875000000,120,0x24,0x00
0.106467500000000,121,0xE1,0x2E
0.106485375000000,122,0x27,0x2E
0.106495125000000,122,0xF0,0x00
0.106509375000000,123,0xA0,0x0E
0.106519375000000,123,0xFF,0x00
0.106529375000000,123,0xFE,0x00
0.106539375000000,123,0x08,0x00
0.106549375000000,123,0xFE,0x00
0.106559375000000,123,0x65,0x00
0.106569250000000,123,0xE4,0x00
0.106579250000000,123,0x1C,0x00
0.107895000000000,124,0x20,0x2E
0.107904750000000,124,0x5E,0x00
0.107923125000000,125,0x21,0x2E
0.107932875000000,125,0x00,0x00
0.107950875000000,126,0x22,0x2E
0.107960625000000,126,0x01,0x00
0.107978625000000,127,0x23,0x2E
0.107988375000000,127,0x02,0x00
0.108006500000000,128,0x24,0x2E
0.108016125000000,128,0x00,0x00
0.108034250000000,129,0x26,0x2E
0.108044000000000,129,0x24,0x00
0.108058625000000,130,0xE1,0x2E
0.108076500000000,131,0x27,0x2E
0.108086250000000,131,0xF0,0x00
0.108100500000000,132,0xA0,0x0E
0.108110500000000,132,0xFF,0x00
0.108120375000000,132,0xFE,0x00
0.108130375000000,132,0x08,0x00
0.108140375000000,132,0xFE,0x00
0.108150375000000,132,0x65,0x00
0.108160375000000,132,0xE4,0x00
0.108170375000000,132,0x1C,0x00
0.123989250000000,133,0x25,0x2E
0.123999250000000,133,0x0C,0x00
0.124017500000000,134,0x20,0x2E
0.124027250000000,134,0x5E,0x00
0.124045625000000,135,0x21,0x2E
0.124055375000000,135,0x00,0x00
0.124073375000000,136,0x22,0x2E
0.124083125000000,136,0x01,0x00
0.124101250000000,137,0x23,0x2E
0.124111000000000,137,0x02,0x00
0.124129000000000,138,0x24,0x2E
0.124138750000000,138,0x00,0x00
0.124156750000000,139,0x26,0x2E
0.124166500000000,139,0x24,0x00
0.124181125000000,140,0xE1,0x2E
0.124199000000000,141,0x27,0x2E
0.124208750000000,141,0xF0,0x00
0.124223000000000,142,0xA0,0x0E
0.124233000000000,142,0xFF,0x00
0.124243000000000,142,0xFE,0x00
0.124253000000000,142,0x08,0x00
0.124263000000000,142,0xFE,0x00
0.124273000000000,142,0x65,0x00
0.124283000000000,142,0xE4,0x00
0.124293000000000,142,0x1C,0x00
0.125608250000000,143,0x20,0x2E
0.125617875000000,143,0x5E,0x00
0.125636250000000,144,0x21,0x2E
0.125646000000000,144,0x00,0x00
0.125664000000000,145,0x22,0x2E
0.125673750000000,145,0x01,0x00
0.125691875000000,146,0x23,0x2E
0.125701625000000,146,0x02,0x00
0.125719625000000,147,0x24,0x2E
0.125729375000000,147,0x00,0x00
0.125747375000000,148,0x26,0x2E
0.125757125000000,148,0x24,0x00
0.125771750000000,149,0xE1,0x2E
0.125789625000000,150,0x27,0x2E
0.125799375000000,150,0xF0,0x00
0.125813625000000,151,0xA0,0x0E
0.125823625000000,151,0xFF,0x00
0.125833625000000,151,0xFE,0x00
0.125843625000000,151,0x08,0x00
0.125853500000000,151,0xFE,0x00
0.125863500000000,151,0x65,0x00
0.125873500000000,151,0xE4,0x00
0.125883500000000,151,0x1C,0x00
0.141697875000000,152,0x25,0x2E
0.141707875000000,152,0x05,0x00
0.141726125000000,153,0x20,0x2E
0.141735875000000,153,0x5E,0x00
0.141754250000000,154,0x21,0x2E
0.141764000000000,154,0x00,0x00
0.141782125000000,155,0x22,0x2E
0.141791875000000,155,0x01,0x00
0.141809875000000,156,0x23,0x2E
0.141819625000000,156,0x02,0x00
0.141837625000000,157,0x24,0x2E
0.141847375000000,157,0x00,0x00
0.141865375000000,158,0x26,0x2E
0.141875125000000,158,0x24,0x00
0.141889750000000,159,0xE1,0x2E
0.141907750000000,160,0x27,0x2E
0.141917500000000,160,0xF0,0x00
0.141931750000000,161,0xA0,0x0E
0.141941625000000,161,0xFF,0x00
0.141951625000000,161,0xFE,0x00
0.141961625000000,161,0x08,0x00
0.141971625000000,161,0xFE,0x00
0.141981625000000,161,0x65,0x00
0.141991625000000,161,0xE4,0x00
0.142001625000000,161,0x1C,0x00
0.143317500000000,162,0x20,0x2E
0.143327250000000,162,0x5E,0x00
0.143345625000000,163,0x21,0x2E
0.143355375000000,163,0x00,0x00
0.143373500000000,164,0x22,0x2E
0.143383250000000,164,0x01,0x00
0.143401250000000,165,0x23,0x2E
0.143411000000000,165,0x02,0x00
0.143429000000000,166,0x24,0x2E
0.143438750000000,166,0x00,0x00
0.143456875000000,167,0x26,0x2E
0.143466500000000,167,0x24,0x00
0.143481125000000,168,0xE1,0x2E
0.143499125000000,169,0x27,0x2E
0.143508875000000,169,0xF0,0x00
0.143523125000000,170,0xA0,0x0E
0.143533125000000,170,0xFF,0x00
0.143543125000000,170,0xFE,0x00
0.143553000000000,170,0x08,0x00
0.143563000000000,170,0xFE,0x00
0.143573000000000,170,0x65,0x00
0.143583000000000,170,0xE4,0x00
0.143593000000000,170,0x1C,0x00
0.159410875000000,171,0x25,0x2E
0.159420875000000,171,0x30,0x00
0.159439125000000,172,0x20,0x2E
0.159448875000000,172,0x5E,0x00
0.159467375000000,173,0x21,0x2E
0.159477000000000,173,0x00,0x00
0.159495125000000,174,0x22,0x2E
0.159504875000000,174,0x01,0x00
0.159522875000000,175,0x23,0x2E
0.159532625000000,175,0x02,0x00
0.159550625000000,176,0x24,0x2E
0.159560375000000,176,0x00,0x00
0.159578500000000,177,0x26,0x2E
0.159588250000000,177,0x24,0x00
0.159602875000000,178,0xE1,0x2E
0.159620750000000,179,0x27,0x2E
0.159630500000000,179,0xF0,0x00
0.159644750000000,180,0xA0,0x0E
0.159654750000000,180,0xFF,0x00
0.159664750000000,180,0xFE,0x00
0.159674750000000,180,0x08,0x00
0.159684750000000,180,0xFE,0x00
0.159694750000000,180,0x65,0x00
0.159704625000000,180,0xE4,0x00
0.159714625000000,180,0x1C,0x00
0.161030625000000,181,0x20,0x2E
0.161040375000000,181,0x5E,0x00
0.161058875000000,182,0x21,0x2E
0.161068625000000,182,0x00,0x00
0.161086625000000,183,0x22,0x2E
0.161096375000000,183,0x01,0x00
0.161114500000000,184,0x23,0x2E
0.161124250000000,184,0x02,0x00
0.161142250000000,185,0x24,0x2E
0.161152000000000,185,0x00,0x00
0.161170125000000,186,0x26,0x2E
0.161179875000000,186,0x24,0x00
0.161194500000000,187,0xE1,0x2E
0.161212375000000,188,0x27,0x2E
0.161222125000000,188,0xF0,0x00
0.161236375000000,189,0xA0,0x0E
0.161246375000000,189,0xFF,0x00
0.161256375000000,189,0xFE,0x00
0.161266375000000,189,0x08,0x00
0.161276250000000,189,0xFE,0x00
0.161286250000000,189,0x65,0x00
0.161296250000000,189,0xE4,0x00
0.161306250000000,189,0x1C,0x00
0.177125125000000,190,0x25,0x2E
0.177135125000000,190,0x48,0x00
0.177153500000000,191,0x20,0x2E
0.177163250000000,191,0x5E,0x00
0.177181625000000,192,0x21,0x2E
0.177191375000000,192,0x00,0x00
0.177209375000000,193,0x22,0x2E
0.177219125000000,193,0x01,0x00
0.177237125000000,194,0x23,0x2E
0.177246875000000,194,0x02,0x00
0.177265000000000,195,0x24,0x2E
0.177274750000000,195,0x00,0x00
0.177292750000000,196,0x26,0x2E
0.177302500000000,196,0x24,0x00
0.177317125000000,197,0xE1,0x2E
0.177335125000000,198,0x27,0x2E
0.177344875000000,198,0xF0,0x00
0.177359125000000,199,0xA0,0x0E
0.177369125000000,199,0xFF,0x00
0.177379125000000,199,0xFE,0x00
0.177389125000000,199,0x08,0x00
0.177399125000000,199,0xFE,0x00
0.177409125000000,199,0x65,0x00
0.177419125000000,199,0xE4,0x00
0.177429125000000,199,0x1C,0x00
0.178744750000000,200,0x20,0x2E
0.178754500000000,200,0x5E,0x00
0.178773000000000,201,0x21,0x2E
0.178782625000000,201,0x00,0x00
0.178800750000000,202,0x22,0x2E
0.178810500000000,202,0x01,0x00
0.178828500000000,203,0x23,0x2E
0.178838250000000,203,0x02,0x00
0.178856250000000,204,0x24,0x2E
0.178866000000000,204,0x00,0x00
0.178884000000000,205,0x26,0x2E
0.178893750000000,205,0x24,0x00
0.178908375000000,206,0xE1,0x2E
0.178926250000000,207,0x27,0x2E
0.178936000000000,207,0xF0,0x00
0.178950250000000,208,0xA0,0x0E
0.178960250000000,208,0xFF,0x00
0.178970250000000,208,0xFE,0x00
0.178980250000000,208,0x08,0x00
0.178990250000000,208,0xFE,0x00
0.179000125000000,208,0x65,0x00
0.179010125000000,208,0xE4,0x00
0.179020125000000,208,0x1C,0x00
0.194838250000000,209,0x25,0x2E
0.194848250000000,209,0x1E,0x00
0.194866500000000,210,0x20,0x2E
0.194876250000000,210,0x5E,0x00
0.194894750000000,211,0x21,0x2E
0.194904500000000,211,0x00,0x00
0.194922500000000,212,0x22,0x2E
0.194932250000000,212,0x01,0x00
0.194950250000000,213,0x23,0x2E
0.194960000000000,213,0x02,0x00
0.194978000000000,214,0x24,0x2E
0.194987750000000,214,0x00,0x00
0.195005750000000,215,0x26,0x2E
0.195015500000000,215,0x24,0x00
0.195030125000000,216,0xE1,0x2E
0.195048000000000,217,0x27,0x2E
0.195057750000000,217,0xF0,0x00
0.195072000000000,218,0xA0,0x0E
0.195082000000000,218,0xFF,0x00
0.195092000000000,218,0xFE,0x00
0.195102000000000,218,0x08,0x00
0.195112000000000,218,0xFE,0x00
0.195122000000000,218,0x65,0x00
0.195132000000000,218,0xE4,0x00
0.195142000000000,218,0x1C,0x00
0.196457625000000,219,0x20,0x2E
0.196467375000000,219,0x5E,0x00
0.196485875000000,220,0x21,0x2E
0.196495625000000,220,0x00,0x00
0.196513625000000,221,0x22,0x2E
0.196523375000000,221,0x01,0x00
0.196541375000000,222,0x23,0x2E
0.196551125000000,222,0x02,0x00
0.196569250000000,223,0x24,0x2E
0.196579000000000,223,0x00,0x00
0.196597000000000,224,0x26,0x2E
0.196606750000000,224,0x24,0x00
0.196621375000000,225,0xE1,0x2E
0.196639250000000,226,0x27,0x2E
0.196649000000000,226,0xF0,0x00
0.196663250000000,227,0xA0,0x0E
0.196673250000000,227,0xFF,0x00
0.196683250000000,227,0xFE,0x00
0.196693125000000,227,0x08,0x00
0.196703125000000,227,0xFE,0x00
0.196713125000000,227,0x65,0x00
0.196723125000000,227,0xE4,0x00
0.196733125000000,227,0x1C,0x00
0.212546875000000,228,0x25,0x2E
0.212556875000000,228,0x33,0x00
0.212575125000000,229,0x20,0x2E
0.212584875000000,229,0x5E,0x00
0.212603250000000,230,0x21,0x2E
0.212613000000000,230,0x00,0x00
0.212631000000000,231,0x22,0x2E
0.212640750000000,231,0x01,0x00
0.212658750000000,232,0x23,0x2E
0.212668500000000,232,0x02,0x00
0.212686500000000,233,0x24,0x2E
0.212696250000000,233,0x00,0x00
0.212714375000000,234,0x26,0x2E
0.212724125000000,234,0x24,0x00
0.212738750000000,235,0xE1,0x2E
0.212756625000000,236,0x27,0x2E
0.212766375000000,236,0xF0,0x00
0.212780625000000,237,0xA0,0x0E
0.212790625000000,237,0xFF,0x00
0.212800625000000,237,0xFE,0x00
0.212810625000000,237,0x08,0x00
0.212820625000000,237,0xFE,0x00
0.212830625000000,237,0x65,0x00
0.212840625000000,237,0xE4,0x00
0.212850625000000,237,0x1C,0x00
0.214165625000000,238,0x20,0x2E
0.214175375000000,238,0x5E,0x00
0.214193750000000,239,0x21,0x2E
0.214203500000000,239,0x00,0x00
0.214221500000000,240,0x22,0x2E
0.214231250000000,240,0x01,0x00
0.214249375000000,241,0x23,0x2E
0.214259125000000,241,0x02,0x00
0.214277125000000,242,0x24,0x2E
0.214286875000000,242,0x00,0x00
0.214304875000000,243,0x26,0x2E
0.214314625000000,243,0x24,0x00
