Time [s],Packet ID,MOSI,MISO
0.000000000000000,0,0x25,0x2E
0.000010000000000,0,0x4F,0x00
0.000028250000000,1,0x20,0x2E
0.000037875000000,1,0x5E,0x00
0.000056250000000,2,0x21,0x2E
0.000066000000000,2,0x00,0x00
0.000084000000000,3,0x22,0x2E
0.000093750000000,3,0x01,0x00
0.000111750000000,4,0x23,0x2E
0.000121500000000,4,0x02,0x00
0.000139500000000,5,0x24,0x2E
0.000149250000000,5,0x00,0x00
0.000167250000000,6,0x26,0x2E
0.000177000000000,6,0x24,0x00
0.000191625000000,7,0xE1,0x2E
0.000209500000000,8,0x27,0x2E
0.000219250000000,8,0xF0,0x00
0.000233500000000,9,0xA0,0x0E
0.000243500000000,9,0xFF,0x00
0.000253500000000,9,0xFE,0x00
0.000263375000000,9,0xEB,0x00
0.000273375000000,9,0xFE,0x00
0.000283375000000,9,0x55,0x00
0.000293375000000,9,0xE4,0x00
0.000303375000000,9,0x1C,0x00
0.001633250000000,10,0x20,0x2E
0.001643000000000,10,0x5E,0x00
0.001661375000000,11,0x21,0x2E
0.001671125000000,11,0x00,0x00
0.001689125000000,12,0x22,0x2E
0.001698875000000,12,0x01,0x00
0.001716875000000,13,0x23,0x2E
0.001726625000000,13,0x02,0x00
0.001744625000000,14,0x24,0x2E
0.001754375000000,14,0x00,0x00
0.001772375000000,15,0x26,0x2E
0.001782125000000,15,0x24,0x00
0.001796750000000,16,0xE1,0x2E
0.001814625000000,17,0x27,0x2E
0.001824375000000,17,0xF0,0x00
0.001838625000000,18,0xA0,0x0E
0.001848625000000,18,0xFF,0x00
0.001858625000000,18,0xFE,0x00
0.001868625000000,18,0xEB,0x00
0.001878625000000,18,0xFE,0x00
0.001888625000000,18,0x55,0x00
0.001898625000000,18,0xE4,0x00
0.001908500000000,18,0x1C,0x00
0.017703750000000,19,0x25,0x2E
0.017713750000000,19,0x4E,0x00
0.017732000000000,20,0x20,0x2E
0.017741750000000,20,0x5E,0x00
0.017760125000000,21,0x21,0x2E
0.017769750000000,21,0x00,0x00
0.017787875000000,22,0x22,0x2E
0.017797500000000,22,0x01,0x00
0.017815625000000,23,0x23,0x2E
0.017825375000000,23,0x02,0x00
0.017843375000000,24,0x24,0x2E
0.017853125000000,24,0x00,0x00
0.017871125000000,25,0x26,0x2E
0.017880875000000,25,0x24,0x00
0.017895500000000,26,0xE1,0x2E
0.017913375000000,27,0x27,0x2E
0.017923125000000,27,0xF0,0x00
0.017937375000000,28,0xA0,0x0E
0.017947250000000,28,0xFF,0x00
0.017957250000000,28,0xFE,0x00
0.017967250000000,28,0xEB,0x00
0.017977250000000,28,0xFE,0x00
0.017987250000000,28,0x55,0x00
0.017997250000000,28,0xE4,0x00
0.018007125000000,28,0x1C,0x00
0.019337625000000,29,0x20,0x2E
0.019347375000000,29,0x5E,0x00
0.019365750000000,30,0x21,0x2E
0.019375500000000,30,0x00,0x00
0.019393500000000,31,0x22,0x2E
0.019403250000000,31,0x01,0x00
0.019421375000000,32,0x23,0x2E
0.019431125000000,32,0x02,0x00
0.019449125000000,33,0x24,0x2E
0.019458875000000,33,0x00,0x00
0.019476875000000,34,0x26,0x2E
0.019486625000000,34,0x24,0x00
0.019501250000000,35,0xE1,0x2E
0.019519125000000,36,0x27,0x2E
0.019528875000000,36,0xF0,0x00
0.019543125000000,37,0xA0,0x0E
0.019553125000000,37,0xFF,0x00
0.019563125000000,37,0xFE,0x00
0.019573000000000,37,0xEB,0x00
0.019583000000000,37,0xFE,0x00
0.019593000000000,37,0x55,0x00
0.019603000000000,37,0xE4,0x00
0.019613000000000,37,0x1C,0x00
0.035412250000000,38,0x25,0x2E
0.035422250000000,38,0x2F,0x00
0.035440500000000,39,0x20,0x2E
0.035450250000000,39,0x5E,0x00
0.035468625000000,40,0x21,0x2E
0.035478375000000,40,0x00,0x00
0.035496500000000,41,0x22,0x2E
0.035506250000000,41,0x01,0x00
0.035524250000000,42,0x23,0x2E
0.035534000000000,42,0x02,0x00
0.035552000000000,43,0x24,0x2E
0.035561750000000,43,0x00,0x00
0.035579750000000,44,0x26,0x2E
0.035589500000000,44,0x24,0x00
0.035604125000000,45,0xE1,0x2E
0.035622000000000,46,0x27,0x2E
0.035631750000000,46,0xF0,0x00
0.035646125000000,47,0xA0,0x0E
0.035656000000000,47,0xFF,0x00
0.035666000000000,47,0xFE,0x00
0.035676000000000,47,0xEB,0x00
0.035686000000000,47,0xFE,0x00
0.035696000000000,47,0x55,0x00
0.035706000000000,47,0xE4,0x00
0.035716000000000,47,0x1C,0x00
0.037046125000000,48,0x20,0x2E
0.037055875000000,48,0x5E,0x00
0.037074250000000,49,0x21,0x2E
0.037084000000000,49,0x00,0x00
0.037102000000000,50,0x22,0x2E
0.037111750000000,50,0x01,0x00
0.037129875000000,51,0x23,0x2E
0.037139625000000,51,0x02,0x00
0.037157625000000,52,0x24,0x2E
0.037167375000000,52,0x00,0x00
0.037185375000000,53,0x26,0x2E
0.037195125000000,53,0x24,0x00
0.037209750000000,54,0xE1,0x2E
0.037227625000000,55,0x27,0x2E
0.037237375000000,55,0xF0,0x00
0.037251625000000,56,0xA0,0x0E
0.037261500000000,56,0xFF,0x00
0.037271500000000,56,0xFE,0x00
0.037281500000000,56,0xEB,0x00
0.037291500000000,56,0xFE,0x00
0.037301500000000,56,0x55,0x00
0.037311500000000,56,0xE4,0x00
0.037321500000000,56,0x1C,0x00
0.053122125000000,57,0x25,0x2E
0.053132125000000,57,0x10,0x00
0.053150375000000,58,0x20,0x2E
0.053160125000000,58,0x5E,0x00
0.053178500000000,59,0x21,0x2E
0.053188250000000,59,0x00,0x00
0.053206250000000,60,0x22,0x2E
0.053216000000000,60,0x01,0x00
0.053234125000000,61,0x23,0x2E
0.053243875000000,61,0x02,0x00
0.053261875000000,62,0x24,0x2E
0.053271625000000,62,0x00,0x00
0.053289625000000,63,0x26,0x2E
0.053299375000000,63,0x24,0x00
0.053314000000000,64,0xE1,0x2E
0.053331875000000,65,0x27,0x2E
0.053341625000000,65,0xF0,0x00
0.053355875000000,66,0xA0,0x0E
0.053365875000000,66,0xFF,0x00
0.053375875000000,66,0xFE,0x00
0.053385750000000,66,0xEB,0x00
0.053395750000000,66,0xFE,0x00
0.053405750000000,66,0x55,0x00
0.053415750000000,66,0xE4,0x00
0.053425750000000,66,0x1C,0x00
0.054755750000000,67,0x20,0x2E
0.054765500000000,67,0x5E,0x00
0.054784000000000,68,0x21,0x2E
0.054793750000000,68,0x00,0x00
0.054811750000000,69,0x22,0x2E
0.054821500000000,69,0x01,0x00
0.054839500000000,70,0x23,0x2E
0.054849250000000,70,0x02,0x00
0.054867250000000,71,0x24,0x2E
0.054877000000000,71,0x00,0x00
0.054895000000000,72,0x26,0x2E
0.054904750000000,72,0x24,0x00
0.054919375000000,73,0xE1,0x2E
0.054937250000000,74,0x27,0x2E
0.054947000000000,74,0xF0,0x00
0.054961250000000,75,0xA0,0x0E
0.054971250000000,75,0xFF,0x00
0.054981250000000,75,0xFE,0x00
0.054991250000000,75,0xEB,0x00
0.055001250000000,75,0xFE,0x00
0.055011250000000,75,0x55,0x00
0.055021250000000,75,0xE4,0x00
0.055031250000000,75,0x1C,0x00
0.070827125000000,76,0x25,0x2E
0.070837125000000,76,0x06,0x00
0.070855375000000,77,0x20,0x2E
0.070865125000000,77,0x5E,0x00
0.070883500000000,78,0x21,0x2E
0.070893250000000,78,0x00,0x00
0.070911250000000,79,0x22,0x2E
0.070921000000000,79,0x01,0x00
0.070939000000000,80,0x23,0x2E
0.070948750000000,80,0x02,0x00
0.070966750000000,81,0x24,0x2E
0.070976500000000,81,0x00,0x00
0.070994500000000,82,0x26,0x2E
0.071004250000000,82,0x24,0x00
0.071018875000000,83,0xE1,0x2E
0.071036750000000,84,0x27,0x2E
0.071046500000000,84,0xF0,0x00
0.071060750000000,85,0xA0,0x0E
0.071070750000000,85,0xFF,0x00
0.071080750000000,85,0xFE,0x00
0.071090750000000,85,0xEB,0x00
0.071100750000000,85,0xFE,0x00
0.071110750000000,85,0x55,0x00
0.071120750000000,85,0xE4,0x00
0.071130750000000,85,0x1C,0x00
0.072460125000000,86,0x20,0x2E
0.072469875000000,86,0x5E,0x00
0.072488250000000,87,0x21,0x2E
0.072498000000000,87,0x00,0x00
0.072516000000000,88,0x22,0x2E
0.072525750000000,88,0x01,0x00
0.072543750000000,89,0x23,0x2E
0.072553500000000,89,0x02,0x00
0.072571500000000,90,0x24,0x2E
0.072581250000000,90,0x00,0x00
0.072599250000000,91,0x26,0x2E
0.072609000000000,91,0x24,0x00
0.072623625000000,92,0xE1,0x2E
0.072641500000000,93,0x27,0x2E
0.072651250000000,93,0xF0,0x00
0.072665500000000,94,0xA0,0x0E
0.072675500000000,94,0xFF,0x00
0.072685500000000,94,0xFE,0x00
0.072695375000000,94,0xEB,0x00
0.072705375000000,94,0xFE,0x00
0.072715375000000,94,0x55,0x00
0.072725375000000,94,0xE4,0x00
0.072735375000000,94,0x1C,0x00
0.088525250000000,95,0x25,0x2E
0.088535125000000,95,0x23,0x00
0.088553375000000,96,0x20,0x2E
0.088563125000000,96,0x5E,0x00
0.088581500000000,97,0x21,0x2E
0.088591250000000,97,0x00,0x00
0.088609250000000,98,0x22,0x2E
0.088619000000000,98,0x01,0x00
0.088637000000000,99,0x23,0x2E
0.088646750000000,99,0x02,0x00
0.088664750000000,100,0x24,0x2E
0.088674500000000,100,0x00,0x00
0.088692500000000,101,0x26,0x2E
0.088702250000000,101,0x24,0x00
0.088716875000000,102,0xE1,0x2E
0.088734750000000,103,0x27,0x2E
0.088744500000000,103,0xF0,0x00
0.088758750000000,104,0xA0,0x0E
0.088768750000000,104,0xFF,0x00
0.088778750000000,104,0xFE,0x00
0.088788750000000,104,0xEB,0x00
0.088798750000000,104,0xFE,0x00
0.088808625000000,104,0x55,0x00
0.088818625000000,104,0xE4,0x00
0.088828625000000,104,0x1C,0x00
0.090157875000000,105,0x20,0x2E
0.090167625000000,105,0x5E,0x00
0.090186000000000,106,0x21,0x2E
0.090195750000000,106,0x00,0x00
0.090213750000000,107,0x22,0x2E
0.090223500000000,107,0x01,0x00
0.090241500000000,108,0x23,0x2E
0.090251250000000,108,0x02,0x00
0.090269250000000,109,0x24,0x2E
0.090279000000000,109,0x00,0x00
0.090297000000000,110,0x26,0x2E
0.090306750000000,110,0x24,0x00
0.090321375000000,111,0xE1,0x2E
0.090339250000000,112,0x27,0x2E
0.090349000000000,112,0xF0,0x00
0.090363125000000,113,0xA0,0x0E
0.090373125000000,113,0xFF,0x00
0.090383125000000,113,0xFE,0x00
0.090393125000000,113,0xEB,0x00
0.090403125000000,113,0xFE,0x00
0.090413125000000,113,0x55,0x00
0.090423000000000,113,0xE4,0x00
0.090433000000000,113,0x1C,0x00
0.106229125000000,114,0x25,0x2E
0.106239000000000,114,0x2B,0x00
0.106257250000000,115,0x20,0x2E
0.106267000000000,115,0x5E,0x00
0.106285375000000,116,0x21,0x2E
0.106295125000000,116,0x00,0x00
0.106313125000000,117,0x22,0x2E
0.106322875000000,117,0x01,0x00
0.106340875000000,118,0x23,0x2E
0.106350625000000,118,0x02,0x00
0.106368625000000,119,0x24,0x2E
0.106378375000000,119,0x00,0x00
0.106396375000000,120,0x26,0x2E
0.106406125000000,120,0x24,0x00
0.106420750000000,121,0xE1,0x2E
0.106438625000000,122,0x27,0x2E
0.106448375000000,122,0xF0,0x00
0.106462625000000,123,0xA0,0x0E
0.106472625000000,123,0xFF,0x00
0.106482625000000,123,0xFE,0x00
0.106492625000000,123,0xEB,0x00
0.106502625000000,123,0xFE,0x00
0.106512500000000,123,0x55,0x00
0.106522500000000,123,0xE4,0x00
0.106532500000000,123,0x1C,0x00
0.107861500000000,124,0x20,0x2E
0.107871250000000,124,0x5E,0x00
0.107889625000000,125,0x21,0x2E
0.107899375000000,125,0x00,0x00
0.107917375000000,126,0x22,0x2E
0.107927000000000,126,0x01,0x00
0.107945000000000,127,0x23,0x2E
0.107954750000000,127,0x02,0x00
0.107972750000000,128,0x24,0x2E
0.107982500000000,128,0x00,0x00
0.108000500000000,129,0x26,0x2E
0.108010250000000,129,0x24,0x00
0.108024875000000,130,0xE1,0x2E
0.108042750000000,131,0x27,0x2E
0.108052375000000,131,0xF0,0x00
0.108066625000000,132,0xA0,0x0E
0.108076625000000,132,0xFF,0x00
0.108086625000000,132,0xFE,0x00
0.108096625000000,132,0xEB,0x00
0.108106625000000,132,0xFE,0x00
0.108116500000000,132,0x55,0x00
0.108126500000000,132,0xE4,0x00
0.108136500000000,132,0x1C,0x00
0.123925375000000,133,0x25,0x2E
0.123935375000000,133,0x1D,0x00
0.123953750000000,134,0x20,0x2E
0.123963500000000,134,0x5E,0x00
0.123981875000000,135,0x21,0x2E
0.123991625000000,135,0x00,0x00
0.124009625000000,136,0x22,0x2E
0.124019375000000,136,0x01,0x00
0.124037375000000,137,0x23,0x2E
0.124047125000000,137,0x02,0x00
0.124065125000000,138,0x24,0x2E
0.124074875000000,138,0x00,0x00
0.124092875000000,139,0x26,0x2E
0.124102625000000,139,0x24,0x00
0.124117250000000,140,0xE1,0x2E
0.124135125000000,141,0x27,0x2E
0.124144875000000,141,0xF0,0x00
0.124159125000000,142,0xA0,0x0E
0.124169000000000,142,0xFF,0x00
0.124179000000000,142,0xFE,0x00
0.124189000000000,142,0xEB,0x00
0.124199000000000,142,0xFE,0x00
0.124209000000000,142,0x55,0x00
0.124219000000000,142,0xE4,0x00
0.124228875000000,142,0x1C,0x00
0.125558250000000,143,0x20,0x2E
0.125568000000000,143,0x5E,0x00
0.125586250000000,144,0x21,0x2E
0.125596000000000,144,0x00,0x00
0.125614000000000,145,0x22,0x2E
0.125623750000000,145,0x01,0x00
0.125641875000000,146,0x23,0x2E
0.125651625000000,146,0x02,0x00
0.125669625000000,147,0x24,0x2E
0.125679375000000,147,0x00,0x00
0.125697375000000,148,0x26,0x2E
0.125707125000000,148,0x24,0x00
0.125721625000000,149,0xE1,0x2E
0.125739625000000,150,0x27,0x2E
0.125749250000000,150,0xF0,0x00
0.125763500000000,151,0xA0,0x0E
0.125773500000000,151,0xFF,0x00
0.125783500000000,151,0xFE,0x00
0.125793375000000,151,0xEB,0x00
0.125803375000000,151,0xFE,0x00
0.125813375000000,151,0x55,0x00
0.125823375000000,151,0xE4,0x00
0.125833375000000,151,0x1C,0x00
0.141617500000000,152,0x25,0x2E
0.141627500000000,152,0x29,0x00
0.141645750000000,153,0x20,0x2E
0.141655500000000,153,0x5E,0x00
0.141673875000000,154,0x21,0x2E
0.141683625000000,154,0x00,0x00
0.141701625000000,155,0x22,0x2E
0.141711375000000,155,0x01,0x00
0.141729375000000,156,0x23,0x2E
0.141739125000000,156,0x02,0x00
0.141757125000000,157,0x24,0x2E
0.141766875000000,157,0x00,0x00
0.141785000000000,158,0x26,0x2E
0.141794750000000,158,0x24,0x00
0.141809375000000,159,0xE1,0x2E
0.141827250000000,160,0x27,0x2E
0.141837000000000,160,0xF0,0x00
0.141851250000000,161,0xA0,0x0E
0.141861250000000,161,0xFF,0x00
0.141871250000000,161,0xFE,0x00
0.141881250000000,161,0xEB,0x00
0.141891250000000,161,0xFE,0x00
0.141901250000000,161,0x55,0x00
0.141911250000000,161,0xE4,0x00
0.141921125000000,161,0x1C,0x00
0.143251375000000,162,0x20,0x2E
0.143261125000000,162,0x5E,0x00
0.143279500000000,163,0x21,0x2E
0.143289125000000,163,0x00,0x00
0.143307250000000,164,0x22,0x2E
0.143317000000000,164,0x01,0x00
0.143335000000000,165,0x23,0x2E
0.143344750000000,165,0x02,0x00
0.143362750000000,166,0x24,0x2E
0.143372500000000,166,0x00,0x00
0.143390500000000,167,0x26,0x2E
0.143400250000000,167,0x24,0x00
0.143414750000000,168,0xE1,0x2E
0.143432750000000,169,0x27,0x2E
0.143442500000000,169,0xF0,0x00
0.143456750000000,170,0xA0,0x0E
0.143466750000000,170,0xFF,0x00
0.143476625000000,170,0xFE,0x00
0.143486625000000,170,0xEB,0x00
0.143496625000000,170,0xFE,0x00
0.143506625000000,170,0x55,0x00
0.143516625000000,170,0xE4,0x00
0.143526625000000,170,0x1C,0x00
0.159326000000000,171,0x25,0x2E
0.159336000000000,171,0x0C,0x00
0.159354250000000,172,0x20,0x2E
0.159364000000000,172,0x5E,0x00
0.159382375000000,173,0x21,0x2E
0.159392125000000,173,0x00,0x00
0.159410125000000,174,0x22,0x2E
0.159419875000000,174,0x01,0x00
0.159438000000000,175,0x23,0x2E
0.159447750000000,175,0x02,0x00
0.159465750000000,176,0x24,0x2E
0.159475500000000,176,0x00,0x00
0.159493500000000,177,0x26,0x2E
0.159503250000000,177,0x24,0x00
0.159517875000000,178,0xE1,0x2E
0.159535750000000,179,0x27,0x2E
0.159545500000000,179,0xF0,0x00
0.159559750000000,180,0xA0,0x0E
0.159569750000000,180,0xFF,0x00
0.159579750000000,180,0xFE,0x00
0.159589750000000,180,0xEB,0x00
0.159599750000000,180,0xFE,0x00
0.159609750000000,180,0x55,0x00
0.159619750000000,180,0xE4,0x00
0.159629750000000,180,0x1C,0x00
0.160959625000000,181,0x20,0x2E
0.160969375000000,181,0x5E,0x00
0.160987750000000,182,0x21,0x2E
0.160997500000000,182,0x00,0x00
0.161015625000000,183,0x22,0x2E
0.161025375000000,183,0x01,0x00
0.161043375000000,184,0x23,0x2E
0.161053125000000,184,0x02,0x00
0.161071125000000,185,0x24,0x2E
0.161080875000000,185,0x00,0x00
0.161098875000000,186,0x26,0x2E
0.161108625000000,186,0x24,0x00
0.161123250000000,187,0xE1,0x2E
0.161141125000000,188,0x27,0x2E
0.161150875000000,188,0xF0,0x00
0.161165125000000,189,0xA0,0x0E
0.161175125000000,189,0xFF,0x00
0.161185125000000,189,0xFE,0x00
0.161195125000000,189,0xEB,0x00
0.161205125000000,189,0xFE,0x00
0.161215125000000,189,0x55,0x00
0.161225125000000,189,0xE4,0x00
0.161235125000000,189,0x1C,0x00
0.177035000000000,190,0x25,0x2E
0.177045000000000,190,0x05,0x00
0.177063250000000,191,0x20,0x2E
0.177073000000000,191,0x5E,0x00
0.177091375000000,192,0x21,0x2E
0.177101125000000,192,0x00,0x00
0.177119125000000,193,0x22,0x2E
0.177128875000000,193,0x01,0x00
0.177146875000000,194,0x23,0x2E
0.177156625000000,194,0x02,0x00
0.177174625000000,195,0x24,0x2E
0.177184375000000,195,0x00,0x00
0.177202375000000,196,0x26,0x2E
0.177212125000000,196,0x24,0x00
0.177226750000000,197,0xE1,0x2E
0.177244625000000,198,0x27,0x2E
0.177254375000000,198,0xF0,0x00
0.177268625000000,199,0xA0,0x0E
0.177278625000000,199,0xFF,0x00
0.177288625000000,199,0xFE,0x00
0.177298625000000,199,0xEB,0x00
0.177308625000000,199,0xFE,0x00
0.177318625000000,199,0x55,0x00
0.177328625000000,199,0xE4,0x00
0.177338625000000,199,0x1C,0x00
0.178669000000000,200,0x20,0x2E
0.178678750000000,200,0x5E,0x00
0.178697125000000,201,0x21,0x2E
0.178706875000000,201,0x00,0x00
0.178724875000000,202,0x22,0x2E
0.178734625000000,202,0x01,0x00
0.178752625000000,203,0x23,0x2E
0.178762375000000,203,0x02,0x00
0.178780375000000,204,0x24,0x2E
0.178790125000000,204,0x00,0x00
0.178808250000000,205,0x26,0x2E
0.178818000000000,205,0x24,0x00
0.178832500000000,206,0xE1,0x2E
0.178850375000000,207,0x27,0x2E
0.178860125000000,207,0xF0,0x00
0.178874375000000,208,0xA0,0x0E
0.178884375000000,208,0xFF,0x00
0.178894375000000,208,0xFE,0x00
0.178904375000000,208,0xEB,0x00
0.178914375000000,208,0xFE,0x00
0.178924375000000,208,0x55,0x00
0.178934375000000,208,0xE4,0x00
0.178944375000000,208,0x1C,0x00
0.194746750000000,209,0x25,0x2E
0.194756750000000,209,0x30,0x00
0.194775000000000,210,0x20,0x2E
0.194784750000000,210,0x5E,0x00
0.194803125000000,211,0x21,0x2E
0.194812875000000,211,0x00,0x00
0.194830875000000,212,0x22,0x2E
0.194840625000000,212,0x01,0x00
0.194858750000000,213,0x23,0x2E
0.194868500000000,213,0x02,0x00
0.194886500000000,214,0x24,0x2E
0.194896125000000,214,0x00,0x00
0.194914250000000,215,0x26,0x2E
0.194924000000000,215,0x24,0x00
0.194938500000000,216,0xE1,0x2E
0.194956500000000,217,0x27,0x2E
0.194966250000000,217,0xF0,0x00
0.194980500000000,218,0xA0,0x0E
0.194990375000000,218,0xFF,0x00
0.195000375000000,218,0xFE,0x00
0.195010375000000,218,0xEB,0x00
0.195020375000000,218,0xFE,0x00
0.195030375000000,218,0x55,0x00
0.195040375000000,218,0xE4,0x00
0.195050375000000,218,0x1C,0x00
0.196380500000000,219,0x20,0x2E
0.196390250000000,219,0x5E,0x00
0.196408625000000,220,0x21,0x2E
0.196418375000000,220,0x00,0x00
0.196436375000000,221,0x22,0x2E
0.196446125000000,221,0x01,0x00
0.196464250000000,222,0x23,0x2E
0.196474000000000,222,0x02,0x00
0.196492000000000,223,0x24,0x2E
0.196501750000000,223,0x00,0x00
0.196519750000000,224,0x26,0x2E
0.196529500000000,224,0x24,0x00
0.196544125000000,225,0xE1,0x2E
0.196562000000000,226,0x27,0x2E
0.196571750000000,226,0xF0,0x00
0.196586000000000,227,0xA0,0x0E
0.196596000000000,227,0xFF,0x00
0.196606000000000,227,0xFE,0x00
0.196616000000000,227,0xEB,0x00
0.196626000000000,227,0xFE,0x00
0.196636000000000,227,0x55,0x00
0.196646000000000,227,0xE4,0x00
0.196656000000000,227,0x1C,0x00
0.212456875000000,228,0x25,0x2E
0.212466750000000,228,0x48,0x00
0.212485125000000,229,0x20,0x2E
0.212494875000000,229,0x5E,0x00
0.212513250000000,230,0x21,0x2E
0.212523000000000,230,0x00,0x00
0.212541000000000,231,0x22,0x2E
0.212550750000000,231,0x01,0x00
0.212568750000000,232,0x23,0x2E
0.212578500000000,232,0x02,0x00
0.212596500000000,233,0x24,0x2E
0.212606250000000,233,0x00,0x00
0.212624250000000,234,0x26,0x2E
0.212634000000000,234,0x24,0x00
0.212648625000000,235,0xE1,0x2E
0.212666500000000,236,0x27,0x2E
0.212676250000000,236,0xF0,0x00
0.212690500000000,237,0xA0,0x0E
0.212700500000000,237,0xFF,0x00
0.212710500000000,237,0xFE,0x00
0.212720500000000,237,0xEB,0x00
0.212730500000000,237,0xFE,0x00
0.212740500000000,237,0x55,0x00
0.212750500000000,237,0xE4,0x00
0.212760375000000,237,0x1C,0x00
0.214089875000000,238,0x20,0x2E
0.214099625000000,238,0x5E,0x00
0.214118000000000,239,0x21,0x2E
0.214127750000000,239,0x00,0x00
0.214145750000000,240,0x22,0x2E
0.214155500000000,240,0x01,0x00
0.214173500000000,241,0x23,0x2E
0.214183250000000,241,0x02,0x00
0.214201250000000,242,0x24,0x2E
0.214211000000000,242,0x00,0x00
0.214229000000000,243,0x26,0x2E
0.214238750000000,243,0x24,0x00
