Time [s],Packet ID,MOSI,MISO
0.003025375000000,0,0x30,0x0F
0.003068250000000,1,0x0B,0x0F
0.003075250000000,1,0x06,0x0F
0.003083625000000,2,0x0C,0x0F
0.003090625000000,2,0x00,0x0F
0.003099000000000,3,0x0D,0x0F
0.003106000000000,3,0x5C,0x0F
0.003114375000000,4,0x0E,0x0F
0.003121500000000,4,0xB1,0x0F
0.003129875000000,5,0x0F,0x0F
0.003137000000000,5,0x3B,0x0F
0.003145750000000,6,0x10,0x0F
0.003152625000000,6,0x6A,0x0F
0.003161000000000,7,0x11,0x0F
0.003168000000000,7,0xF8,0x0F
0.003176375000000,8,0x12,0x0F
0.003183375000000,8,0x03,0x0F
0.003191750000000,9,0x13,0x0F
0.003198750000000,9,0x23,0x0F
0.003207125000000,10,0x14,0x0F
0.003214125000000,10,0x7A,0x0F
0.003221875000000,11,0x15,0x0F
0.003227375000000,11,0x44,0x0F
0.003235500000000,12,0x22,0x0F
0.003242500000000,12,0x10,0x0F
0.003250750000000,13,0x21,0x0F
0.003257750000000,13,0x56,0x0F
0.003266125000000,14,0x18,0x0F
0.003273125000000,14,0x18,0x0F
0.003281375000000,15,0x19,0x0F
0.003288500000000,15,0x16,0x0F
0.003296875000000,16,0x1A,0x0F
0.003303875000000,16,0x6C,0x0F
0.003322250000000,17,0x1B,0x0F
0.003329375000000,17,0x43,0x0F
0.003337750000000,18,0x1C,0x0F
0.003344750000000,18,0x40,0x0F
0.003353000000000,19,0x1D,0x0F
0.003360125000000,19,0x91,0x0F
0.003368625000000,20,0x23,0x0F
0.003375625000000,20,0xA9,0x0F
0.003384125000000,21,0x24,0x0F
0.003391125000000,21,0x0A,0x0F
0.003399375000000,22,0x25,0x0F
0.003406500000000,22,0x00,0x0F
0.003414750000000,23,0x26,0x0F
0.003421750000000,23,0x11,0x0F
0.003430125000000,24,0x00,0x0F
0.003437125000000,24,0x06,0x0F
0.003445500000000,25,0x01,0x0F
0.003452500000000,25,0x2E,0x0F
0.003461000000000,26,0x02,0x0F
0.003467875000000,26,0x2E,0x0F
0.003476375000000,27,0x07,0x0F
0.003483500000000,27,0x04,0x0F
0.003491875000000,28,0x08,0x0F
0.003498750000000,28,0x05,0x0F
0.003507250000000,29,0x06,0x0F
0.003514250000000,29,0x30,0x0F
0.003522625000000,30,0x04,0x0F
0.003529500000000,30,0x5A,0x0F
0.003537875000000,31,0x05,0x0F
0.003544875000000,31,0x60,0x0F
0.003553250000000,32,0x09,0x0F
0.003560250000000,32,0x00,0x0F
0.003568500000000,33,0x0A,0x0F
0.003575500000000,33,0x00,0x0F
0.003583000000000,34,0x7E,0x0F
0.003588625000000,34,0xFF,0x0F
0.003594375000000,34,0xFF,0x0F
0.003600125000000,34,0xFF,0x0F
0.003605875000000,34,0xFF,0x0F
0.003611625000000,34,0xFF,0x0F
0.003617375000000,34,0xFF,0x0F
0.003623125000000,34,0xFF,0x0F
0.003628875000000,34,0xFF,0x0F
0.003635500000000,35,0x36,0x0F
0.003641000000000,35,0x3D,0x0F
0.003648000000000,36,0x3A,0x0F
0.003656250000000,37,0x3B,0x0F
0.004490625000000,38,0x36,0x0F
0.004496125000000,38,0x3D,0x0F
0.004503125000000,39,0x3A,0x0F
0.004511375000000,40,0x34,0x0F
0.406078125000000,41,0x36,0x1F
0.406083500000000,41,0x3D,0x0F
0.406090500000000,42,0x3A,0x0F
0.406098750000000,43,0x34,0x0F
0.849212750000000,44,0x36,0x1F
0.849218125000000,44,0x3D,0x0F
0.849225625000000,45,0x0A,0x0F
0.849232625000000,45,0xB0,0x0F
0.849241000000000,46,0x36,0x0F
0.849246500000000,46,0x3D,0x0F
0.849252125000000,46,0x3B,0x0F
0.849258000000000,47,0x35,0x0F
0.849263250000000,47,0x7F,0x5F
0.849269125000000,47,0x10,0x5F
0.849279125000000,47,0xDC,0x4F
0.849289250000000,47,0xCC,0x4F
0.849299250000000,47,0x00,0x4F
0.849309250000000,47,0x9F,0x4F
0.849319250000000,47,0xD9,0x4F
0.849329250000000,47,0xA3,0x4F
0.849339250000000,47,0x68,0x4F
0.849349250000000,47,0x0D,0x4F
0.849359250000000,47,0x91,0x4F
0.849369250000000,47,0xBE,0x4F
0.849379250000000,47,0xEE,0x4F
0.849389250000000,47,0xBE,0x4F
0.849399375000000,47,0xA3,0x4F
0.849409625000000,47,0x3A,0x4F
0.849419875000000,47,0x16,0x4F
0.849430125000000,47,0x17,0x4F
0.854407375000000,48,0x23,0x2F
0.854414375000000,48,0x89,0x0F
0.855885625000000,49,0x36,0x0F
0.855891000000000,49,0x3D,0x0F
0.855898500000000,50,0x0A,0x0F
0.855905500000000,50,0x6F,0x0F
0.855914125000000,51,0x36,0x0F
0.855919625000000,51,0x3D,0x0F
0.855925250000000,51,0x3B,0x0F
0.855931125000000,52,0x35,0x0F
0.855936375000000,52,0x7F,0x5F
0.855942375000000,52,0x10,0x5F
0.855952375000000,52,0xDC,0x4F
0.855962375000000,52,0xCC,0x4F
0.855972375000000,52,0x00,0x4F
0.855982375000000,52,0x9F,0x4F
0.855992375000000,52,0xD9,0x4F
0.856002375000000,52,0xA3,0x4F
0.856012375000000,52,0x68,0x4F
0.856022375000000,52,0x0D,0x4F
0.856032375000000,52,0x91,0x4F
0.856042375000000,52,0xBE,0x4F
0.856052375000000,52,0xEE,0x4F
0.856062375000000,52,0xBE,0x4F
0.856072500000000,52,0x23,0x4F
0.856082750000000,52,0xBA,0x4F
0.856093000000000,52,0x16,0x4F
0.856103250000000,52,0x17,0x5F
0.862557875000000,53,0x36,0x0F
0.862563375000000,53,0x3D,0x0F
0.862570875000000,54,0x0A,0x0F
0.862577875000000,54,0x1D,0x0F
0.862586375000000,55,0x36,0x0F
0.862591875000000,55,0x3D,0x0F
0.862597500000000,55,0x3B,0x0F
0.862603375000000,56,0x35,0x0F
0.862608625000000,56,0x7F,0x5F
0.862614500000000,56,0x10,0x5F
0.862624500000000,56,0xDC,0x4F
0.862634500000000,56,0xCC,0x4F
0.862644625000000,56,0x00,0x4F
0.862654625000000,56,0x9F,0x4F
0.862664625000000,56,0xD9,0x4F
0.862674625000000,56,0xA3,0x4F
0.862684625000000,56,0x68,0x4F
0.862694625000000,56,0x0D,0x4F
0.862704625000000,56,0x91,0x4F
0.862714625000000,56,0xBE,0x4F
0.862724625000000,56,0xEE,0x4F
0.862734625000000,56,0xBE,0x4F
0.862744750000000,56,0x23,0x4F
0.862755000000000,56,0x3A,0x4F
0.862765250000000,56,0x96,0x4F
0.862775500000000,56,0x17,0x5F
0.869230500000000,57,0x36,0x0F
0.869235875000000,57,0x3D,0x0F
0.869243375000000,58,0x0A,0x0F
0.869250375000000,58,0xB4,0x0F
0.869258875000000,59,0x36,0x0F
0.869264250000000,59,0x3D,0x0F
0.869270000000000,59,0x3B,0x0F
0.869275875000000,60,0x35,0x0F
0.869281125000000,60,0x7F,0x5F
0.869287000000000,60,0x10,0x5F
0.869297000000000,60,0xDC,0x4F
0.869307000000000,60,0xCC,0x4F
0.869317000000000,60,0x00,0x4F
0.869327000000000,60,0x9F,0x4F
0.869337000000000,60,0xD9,0x4F
0.869347000000000,60,0xA3,0x4F
0.869357125000000,60,0x68,0x4F
0.869367125000000,60,0x0D,0x4F
0.869377125000000,60,0x91,0x4F
0.869387125000000,60,0xBE,0x4F
0.869397125000000,60,0xEE,0x4F
0.869407125000000,60,0xBE,0x4F
0.869417125000000,60,0xAD,0x4F
0.869427375000000,60,0x09,0x4F
0.869437625000000,60,0x20,0x4F
0.869447875000000,60,0x17,0x5F
0.875903000000000,61,0x36,0x0F
0.875908500000000,61,0x3D,0x0F
0.875916000000000,62,0x0A,0x0F
0.875923000000000,62,0x74,0x0F
0.875931375000000,63,0x36,0x0F
0.875936875000000,63,0x3D,0x0F
0.875942500000000,63,0x3B,0x0F
0.875948375000000,64,0x35,0x0F
0.875953625000000,64,0x7F,0x5F
0.875959625000000,64,0x10,0x5F
0.875969625000000,64,0xDC,0x4F
0.875979625000000,64,0xCC,0x4F
0.875989625000000,64,0x00,0x4F
0.875999625000000,64,0x9F,0x4F
0.876009625000000,64,0xD9,0x4F
0.876019625000000,64,0xA3,0x4F
0.876029625000000,64,0x68,0x4F
0.876039625000000,64,0x0D,0x4F
0.876049625000000,64,0x91,0x4F
0.876059625000000,64,0xBE,0x4F
0.876069625000000,64,0xEE,0x4F
0.876079625000000,64,0xBE,0x4F
0.876089750000000,64,0x2D,0x4F
0.876100000000000,64,0x89,0x4F
0.876110250000000,64,0x20,0x4F
0.876120500000000,64,0x17,0x5F
0.882575375000000,65,0x36,0x0F
0.882580875000000,65,0x3D,0x0F
0.882588375000000,66,0x0A,0x0F
0.882595375000000,66,0x20,0x0F
0.882603750000000,67,0x36,0x0F
0.882609250000000,67,0x3D,0x0F
0.882614875000000,67,0x3B,0x0F
0.882620750000000,68,0x35,0x0F
0.882626000000000,68,0x7F,0x5F
0.882632000000000,68,0x10,0x5F
0.882642000000000,68,0xDC,0x4F
0.882652000000000,68,0xCC,0x4F
0.882662000000000,68,0x00,0x4F
0.882672000000000,68,0x9F,0x4F
0.882682000000000,68,0xD9,0x4F
0.882692000000000,68,0xA3,0x4F
0.882702000000000,68,0x68,0x4F
0.882712000000000,68,0x0D,0x4F
0.882722000000000,68,0x91,0x4F
0.882732000000000,68,0xBE,0x4F
0.882742000000000,68,0xEE,0x4F
0.882752000000000,68,0xBE,0x4F
0.882762125000000,68,0x2D,0x4F
0.882772375000000,68,0x09,0x4F
0.882782625000000,68,0xA0,0x4F
0.882792875000000,68,0x17,0x5F
0.889248125000000,69,0x36,0x0F
0.889253625000000,69,0x3D,0x0F
0.889261125000000,70,0x0A,0x0F
0.889268125000000,70,0xB8,0x0F
0.889276625000000,71,0x36,0x0F
0.889282000000000,71,0x3D,0x0F
0.889287625000000,71,0x3B,0x0F
0.889293500000000,72,0x35,0x0F
0.889298750000000,72,0x7F,0x5F
0.889304750000000,72,0x10,0x5F
0.889314750000000,72,0xDC,0x4F
0.889324750000000,72,0xCC,0x4F
0.889334750000000,72,0x00,0x4F
0.889344750000000,72,0x9F,0x4F
0.889354750000000,72,0xE9,0x4F
0.889364750000000,72,0xA3,0x4F
0.889374750000000,72,0x68,0x4F
0.889384750000000,72,0x0D,0x4F
0.889394750000000,72,0x91,0x4F
0.889404750000000,72,0xBE,0x4F
0.889414750000000,72,0xEE,0x4F
0.889424750000000,72,0xBE,0x4F
0.889434875000000,72,0xB7,0x4F
0.889445125000000,72,0x13,0x4F
0.889455375000000,72,0x2A,0x4F
0.889465625000000,72,0x17,0x5F
0.895920875000000,73,0x36,0x0F
0.895926375000000,73,0x3D,0x0F
0.895933875000000,74,0x0A,0x0F
0.895940875000000,74,0xD8,0x0F
0.895949250000000,75,0x36,0x0F
0.895954625000000,75,0x3D,0x0F
0.895960250000000,75,0x3B,0x0F
0.895966125000000,76,0x35,0x0F
0.895971500000000,76,0x7F,0x5F
0.895977375000000,76,0x10,0x5F
0.895987375000000,76,0xDC,0x4F
0.895997375000000,76,0xCC,0x4F
0.896007375000000,76,0x00,0x4F
0.896017375000000,76,0x9F,0x4F
0.896027375000000,76,0xE9,0x4F
0.896037375000000,76,0xA3,0x4F
0.896047375000000,76,0x68,0x4F
0.896057375000000,76,0x0D,0x4F
0.896067500000000,76,0x91,0x4F
0.896077500000000,76,0xBE,0x4F
0.896087500000000,76,0xEE,0x4F
0.896097500000000,76,0xBE,0x4F
0.896107500000000,76,0x37,0x4F
0.896117750000000,76,0x93,0x4F
0.896128000000000,76,0x2A,0x4F
0.896138250000000,76,0x17,0x5F
0.902592500000000,77,0x36,0x0F
0.902597875000000,77,0x3D,0x0F
0.902605375000000,78,0x0A,0x0F
0.902612375000000,78,0x24,0x0F
0.902620875000000,79,0x36,0x0F
0.902626375000000,79,0x3D,0x0F
0.902632000000000,79,0x3B,0x0F
0.902637875000000,80,0x35,0x0F
0.902643125000000,80,0x7F,0x5F
0.902649000000000,80,0x10,0x5F
0.902659000000000,80,0xDC,0x4F
0.902669000000000,80,0xCC,0x4F
0.902679125000000,80,0x00,0x4F
0.902689125000000,80,0x9F,0x4F
0.902699125000000,80,0xE9,0x4F
0.902709125000000,80,0xA3,0x4F
0.902719125000000,80,0x68,0x4F
0.902729125000000,80,0x0D,0x4F
0.902739125000000,80,0x91,0x4F
0.902749125000000,80,0xBE,0x4F
0.902759125000000,80,0xEE,0x4F
0.902769125000000,80,0xBE,0x4F
0.902779250000000,80,0x37,0x4F
0.902789500000000,80,0x13,0x4F
0.902799750000000,80,0xAA,0x4F
0.902810000000000,80,0x17,0x5F
0.909264750000000,81,0x36,0x0F
0.909270125000000,81,0x3D,0x0F
0.909277625000000,82,0x0A,0x0F
0.909284625000000,82,0xBC,0x0F
0.909293125000000,83,0x36,0x0F
0.909298625000000,83,0x3D,0x0F
0.909304250000000,83,0x3B,0x0F
0.909310125000000,84,0x35,0x0F
0.909315375000000,84,0x7F,0x5F
0.909321375000000,84,0x10,0x5F
0.909331375000000,84,0xDC,0x4F
0.909341375000000,84,0xCC,0x4F
0.909351375000000,84,0x00,0x4F
0.909361375000000,84,0x9F,0x4F
0.909371375000000,84,0xF9,0x4F
0.909381375000000,84,0xA3,0x4F
0.909391375000000,84,0x68,0x4F
0.909401375000000,84,0x0D,0x4F
0.909411375000000,84,0x91,0x4F
0.909421375000000,84,0xBE,0x4F
0.909431375000000,84,0xEE,0x4F
0.909441375000000,84,0xBE,0x4F
0.909451500000000,84,0x86,0x4F
0.909461750000000,84,0x1D,0x4F
0.909472000000000,84,0x34,0x4F
0.909482250000000,84,0x17,0x5F
0.915938000000000,85,0x36,0x0F
0.915943500000000,85,0x3D,0x0F
0.915951000000000,86,0x0A,0x0F
0.915958000000000,86,0xDC,0x0F
0.915966375000000,87,0x36,0x0F
0.915971875000000,87,0x3D,0x0F
0.915977500000000,87,0x3B,0x0F
0.915983375000000,88,0x35,0x0F
0.915988625000000,88,0x7F,0x5F
0.915994625000000,88,0x10,0x5F
0.916004625000000,88,0xDC,0x4F
0.916014625000000,88,0xCC,0x4F
0.916024625000000,88,0x00,0x4F
0.916034625000000,88,0x9F,0x4F
0.916044625000000,88,0xF9,0x4F
0.916054625000000,88,0xA3,0x4F
0.916064625000000,88,0x68,0x4F
0.916074625000000,88,0x0D,0x4F
0.916084625000000,88,0x91,0x4F
0.916094625000000,88,0xBE,0x4F
0.916104625000000,88,0xEE,0x4F
0.916114750000000,88,0xBE,0x4F
0.916124750000000,88,0x06,0x4F
0.916135000000000,88,0x9D,0x4F
0.916145250000000,88,0x34,0x4F
0.916155500000000,88,0x17,0x5F
0.922610625000000,89,0x36,0x0F
0.922616125000000,89,0x3D,0x0F
0.922623625000000,90,0x0A,0x0F
0.922630625000000,90,0x28,0x0F
0.922639125000000,91,0x36,0x0F
0.922644500000000,91,0x3D,0x0F
0.922650125000000,91,0x3B,0x0F
0.922656000000000,92,0x35,0x0F
0.922661375000000,92,0x7F,0x5F
0.922667250000000,92,0x10,0x5F
0.922677250000000,92,0xDC,0x4F
0.922687250000000,92,0xCC,0x4F
0.922697250000000,92,0x00,0x4F
0.922707250000000,92,0x9F,0x4F
0.922717250000000,92,0xF9,0x4F
0.922727250000000,92,0xA3,0x4F
0.922737375000000,92,0x68,0x4F
0.922747375000000,92,0x0D,0x4F
0.922757375000000,92,0x91,0x4F
0.922767375000000,92,0xBE,0x4F
0.922777375000000,92,0xEE,0x4F
0.922787375000000,92,0xBE,0x4F
0.922797375000000,92,0x06,0x4F
0.922807625000000,92,0x1D,0x4F
0.922817875000000,92,0xB4,0x4F
0.922828250000000,92,0x17,0x5F
0.929283625000000,93,0x36,0x0F
0.929289125000000,93,0x3D,0x0F
0.929296625000000,94,0x0A,0x0F
0.929303625000000,94,0x48,0x0F
0.929312000000000,95,0x36,0x0F
0.929317500000000,95,0x3D,0x0F
0.929323125000000,95,0x3B,0x0F
0.929329000000000,96,0x35,0x0F
0.929334250000000,96,0x7F,0x5F
0.929340125000000,96,0x10,0x5F
0.929350125000000,96,0xDC,0x4F
0.929360125000000,96,0xCC,0x4F
0.929370125000000,96,0x00,0x4F
0.929380125000000,96,0x9F,0x4F
0.929390250000000,96,0xF8,0x4F
0.929400250000000,96,0xA3,0x4F
0.929410250000000,96,0x68,0x4F
0.929420250000000,96,0x0D,0x4F
0.929430250000000,96,0x91,0x4F
0.929440250000000,96,0xBE,0x4F
0.929450250000000,96,0xEE,0x4F
0.929460250000000,96,0xBE,0x4F
0.929470250000000,96,0x90,0x4F
0.929480625000000,96,0x27,0x4F
0.929490875000000,96,0x03,0x4F
0.929501125000000,96,0x17,0x5F
0.935956000000000,97,0x36,0x0F
0.935961375000000,97,0x3D,0x0F
0.935968875000000,98,0x0A,0x0F
0.935975875000000,98,0xE0,0x0F
0.935984250000000,99,0x36,0x0F
0.935989750000000,99,0x3D,0x0F
0.935995375000000,99,0x3B,0x0F
0.936001250000000,100,0x35,0x0F
0.936006500000000,100,0x7F,0x5F
0.936012500000000,100,0x10,0x5F
0.936022500000000,100,0xDC,0x4F
0.936032500000000,100,0xCC,0x4F
0.936042500000000,100,0x00,0x4F
0.936052500000000,100,0x9F,0x4F
0.936062500000000,100,0xF8,0x4F
0.936072500000000,100,0xA3,0x4F
0.936082500000000,100,0x68,0x4F
0.936092500000000,100,0x0D,0x4F
0.936102500000000,100,0x91,0x4F
0.936112500000000,100,0xBE,0x4F
0.936122500000000,100,0xEE,0x4F
0.936132500000000,100,0xBE,0x4F
0.936142625000000,100,0x10,0x4F
0.936152875000000,100,0xA7,0x4F
0.936163125000000,100,0x03,0x4F
0.936173375000000,100,0x17,0x5F
0.942628875000000,101,0x36,0x0F
0.942634250000000,101,0x3D,0x0F
0.942641750000000,102,0x0A,0x0F
0.942648750000000,102,0x2C,0x0F
0.942657375000000,103,0x36,0x0F
0.942662750000000,103,0x3D,0x0F
0.942668375000000,103,0x3B,0x0F
0.942674375000000,104,0x35,0x0F
0.942679625000000,104,0x7F,0x5F
0.942685500000000,104,0x10,0x5F
0.942695500000000,104,0xDC,0x4F
0.942705500000000,104,0xCC,0x4F
0.942715500000000,104,0x00,0x4F
0.942725500000000,104,0x9F,0x4F
0.942735500000000,104,0xF8,0x4F
0.942745625000000,104,0xA3,0x4F
0.942755625000000,104,0x68,0x4F
0.942765625000000,104,0x0D,0x4F
0.942775625000000,104,0x91,0x4F
0.942785625000000,104,0xBE,0x4F
0.942795625000000,104,0xEE,0x4F
0.942805625000000,104,0xBE,0x4F
0.942815750000000,104,0x10,0x4F
0.942826000000000,104,0x27,0x4F
0.942836250000000,104,0x83,0x4F
0.942846500000000,104,0x17,0x5F
0.949302500000000,105,0x36,0x0F
0.949308000000000,105,0x3D,0x0F
0.949315500000000,106,0x0A,0x0F
0.949322500000000,106,0x4C,0x0F
0.949331000000000,107,0x36,0x0F
0.949336375000000,107,0x3D,0x0F
0.949342000000000,107,0x3B,0x0F
0.949347875000000,108,0x35,0x0F
0.949353125000000,108,0x7F,0x5F
0.949359125000000,108,0x10,0x5F
0.949369125000000,108,0xDC,0x4F
0.949379125000000,108,0xCC,0x4F
0.949389125000000,108,0x00,0x4F
0.949399125000000,108,0x9F,0x4F
0.949409125000000,108,0xF6,0x4F
0.949419125000000,108,0xA3,0x4F
0.949429125000000,108,0x68,0x4F
0.949439125000000,108,0x0E,0x4F
0.949449125000000,108,0x91,0x4F
0.949459250000000,108,0xBE,0x4F
0.949469250000000,108,0xEE,0x4F
0.949479250000000,108,0xBE,0x4F
0.949489250000000,108,0x9A,0x4F
0.949499500000000,108,0x31,0x4F
0.949509750000000,108,0x0D,0x4F
0.949520125000000,108,0x17,0x5F
0.955976375000000,109,0x36,0x0F
0.955981875000000,109,0x3D,0x0F
0.955989375000000,110,0x0A,0x0F
0.955996375000000,110,0xE4,0x0F
0.956004750000000,111,0x36,0x0F
0.956010250000000,111,0x3D,0x0F
0.956015875000000,111,0x3B,0x0F
0.956021750000000,112,0x35,0x0F
0.956027000000000,112,0x7F,0x5F
0.956032875000000,112,0x10,0x5F
0.956042875000000,112,0xDC,0x4F
0.956053000000000,112,0xCC,0x4F
0.956063000000000,112,0x00,0x4F
0.956073000000000,112,0x9F,0x4F
0.956083000000000,112,0xF6,0x4F
0.956093000000000,112,0xA3,0x4F
0.956103000000000,112,0x68,0x4F
0.956113000000000,112,0x0E,0x4F
0.956123000000000,112,0x91,0x4F
0.956133000000000,112,0xBE,0x4F
0.956143000000000,112,0xEE,0x4F
0.956153000000000,112,0xBE,0x4F
0.956163125000000,112,0x1A,0x4F
0.956173375000000,112,0xB1,0x4F
0.956183625000000,112,0x0D,0x4F
0.956193875000000,112,0x17,0x5F
0.962650000000000,113,0x36,0x0F
0.962655500000000,113,0x3D,0x0F
0.962663000000000,114,0x0A,0x0F
0.962670000000000,114,0x90,0x0F
0.962678375000000,115,0x36,0x0F
0.962683750000000,115,0x3D,0x0F
0.962689375000000,115,0x3B,0x0F
0.962695250000000,116,0x35,0x0F
0.962700500000000,116,0x7F,0x5F
0.962706500000000,116,0x10,0x5F
0.962716500000000,116,0xDC,0x4F
0.962726500000000,116,0xCC,0x4F
0.962736500000000,116,0x00,0x4F
0.962746500000000,116,0x9F,0x4F
0.962756500000000,116,0xF6,0x4F
0.962766500000000,116,0xA3,0x4F
0.962776500000000,116,0x68,0x4F
0.962786500000000,116,0x0E,0x4F
0.962796500000000,116,0x91,0x4F
0.962806500000000,116,0xBE,0x4F
0.962816625000000,116,0xEE,0x4F
0.962826625000000,116,0xBE,0x4F
0.962836625000000,116,0x1A,0x4F
0.962846875000000,116,0x31,0x4F
0.962857125000000,116,0x8D,0x4F
0.962867375000000,116,0x17,0x5F
0.969322875000000,117,0x36,0x0F
0.969328250000000,117,0x3D,0x0F
0.969335750000000,118,0x0A,0x0F
0.969342875000000,118,0x50,0x0F
0.969351125000000,119,0x36,0x0F
0.969356625000000,119,0x3D,0x0F
0.969362250000000,119,0x3B,0x0F
0.969368125000000,120,0x35,0x0F
0.969373375000000,120,0x7F,0x5F
0.969379250000000,120,0x10,0x5F
0.969389250000000,120,0xDC,0x4F
0.969399250000000,120,0xCC,0x4F
0.969409250000000,120,0x00,0x4F
0.969419250000000,120,0xA0,0x4F
0.969429375000000,120,0x27,0x4F
0.969439375000000,120,0xA3,0x4F
0.969449375000000,120,0x68,0x4F
0.969459375000000,120,0x0D,0x4F
0.969469375000000,120,0x91,0x4F
0.969479375000000,120,0xBE,0x4F
0.969489375000000,120,0xEE,0x4F
0.969499375000000,120,0xBE,0x4F
0.969509500000000,120,0xA4,0x4F
0.969519750000000,120,0x3B,0x4F
0.969530000000000,120,0x00,0x4F
0.969540250000000,120,0x17,0x5F
0.975996500000000,121,0x36,0x0F
0.976001875000000,121,0x3D,0x0F
0.976009375000000,122,0x0A,0x0F
0.976016375000000,122,0xE8,0x0F
0.976024875000000,123,0x36,0x0F
0.976030375000000,123,0x3D,0x0F
0.976036000000000,123,0x3B,0x0F
0.976041875000000,124,0x35,0x0F
0.976047125000000,124,0x7F,0x5F
0.976053000000000,124,0x10,0x5F
0.976063000000000,124,0xDC,0x4F
0.976073000000000,124,0xCC,0x4F
0.976083000000000,124,0x00,0x4F
0.976093000000000,124,0xA0,0x4F
0.976103125000000,124,0x27,0x4F
0.976113125000000,124,0xA3,0x4F
0.976123125000000,124,0x68,0x4F
0.976133125000000,124,0x0D,0x4F
0.976143125000000,124,0x91,0x4F
0.976153125000000,124,0xBE,0x4F
0.976163125000000,124,0xEE,0x4F
0.976173125000000,124,0xBE,0x4F
0.976183250000000,124,0x24,0x4F
0.976193500000000,124,0xBB,0x4F
0.976203750000000,124,0x00,0x4F
0.976214000000000,124,0x17,0x5F
0.982668625000000,125,0x36,0x0F
0.982674125000000,125,0x3D,0x0F
0.982681625000000,126,0x0A,0x0F
0.982688625000000,126,0x94,0x0F
0.982697000000000,127,0x36,0x0F
0.982702500000000,127,0x3D,0x0F
0.982708125000000,127,0x3B,0x0F
0.982714000000000,128,0x35,0x0F
0.982719250000000,128,0x7F,0x5F
0.982725125000000,128,0x10,0x5F
0.982735125000000,128,0xDC,0x4F
0.982745125000000,128,0xCC,0x4F
0.982755250000000,128,0x00,0x4F
0.982765250000000,128,0xA0,0x4F
0.982775250000000,128,0x27,0x4F
0.982785250000000,128,0xA3,0x4F
0.982795250000000,128,0x68,0x4F
0.982805250000000,128,0x0D,0x4F
0.982815250000000,128,0x91,0x4F
0.982825250000000,128,0xBE,0x4F
0.982835250000000,128,0xEE,0x4F
0.982845250000000,128,0xBE,0x4F
0.982855375000000,128,0x24,0x4F
0.982865625000000,128,0x3B,0x4F
0.982875875000000,128,0x80,0x4F
0.982886125000000,128,0x17,0x5F
0.989341625000000,129,0x36,0x0F
0.989347000000000,129,0x3D,0x0F
