Time [s],Packet ID,MOSI,MISO
0.003016750000000,0,0x30,0x0F
0.003059500000000,1,0x0B,0x0F
0.003066625000000,1,0x06,0x0F
0.003075000000000,2,0x0C,0x0F
0.003082000000000,2,0x00,0x0F
0.003090375000000,3,0x0D,0x0F
0.003097375000000,3,0x5C,0x0F
0.003105750000000,4,0x0E,0x0F
0.003112875000000,4,0xB1,0x0F
0.003121250000000,5,0x0F,0x0F
0.003128375000000,5,0x3B,0x0F
0.003137000000000,6,0x10,0x0F
0.003143875000000,6,0x6A,0x0F
0.003152375000000,7,0x11,0x0F
0.003159250000000,7,0xF8,0x0F
0.003167750000000,8,0x12,0x0F
0.003174625000000,8,0x03,0x0F
0.003183125000000,9,0x13,0x0F
0.003190125000000,9,0x23,0x0F
0.003198500000000,10,0x14,0x0F
0.003205500000000,10,0x7A,0x0F
0.003213125000000,11,0x15,0x0F
0.003218625000000,11,0x44,0x0F
0.003226875000000,12,0x22,0x0F
0.003233875000000,12,0x10,0x0F
0.003242125000000,13,0x21,0x0F
0.003249125000000,13,0x56,0x0F
0.003257500000000,14,0x18,0x0F
0.003264500000000,14,0x18,0x0F
0.003272750000000,15,0x19,0x0F
0.003279750000000,15,0x16,0x0F
0.003288250000000,16,0x1A,0x0F
0.003295250000000,16,0x6C,0x0F
0.003313625000000,17,0x1B,0x0F
0.003320625000000,17,0x43,0x0F
0.003329000000000,18,0x1C,0x0F
0.003336000000000,18,0x40,0x0F
0.003344375000000,19,0x1D,0x0F
0.003351500000000,19,0x91,0x0F
0.003359875000000,20,0x23,0x0F
0.003367000000000,20,0xA9,0x0F
0.003375375000000,21,0x24,0x0F
0.003382375000000,21,0x0A,0x0F
0.003390750000000,22,0x25,0x0F
0.003397750000000,22,0x00,0x0F
0.003406000000000,23,0x26,0x0F
0.003413125000000,23,0x11,0x0F
0.003421500000000,24,0x00,0x0F
0.003428375000000,24,0x06,0x0F
0.003436875000000,25,0x01,0x0F
0.003443750000000,25,0x2E,0x0F
0.003452250000000,26,0x02,0x0F
0.003459250000000,26,0x2E,0x0F
0.003467750000000,27,0x07,0x0F
0.003474750000000,27,0x04,0x0F
0.003483125000000,28,0x08,0x0F
0.003490125000000,28,0x05,0x0F
0.003498500000000,29,0x06,0x0F
0.003505625000000,29,0x30,0x0F
0.003513875000000,30,0x04,0x0F
0.003520875000000,30,0x5A,0x0F
0.003529250000000,31,0x05,0x0F
0.003536250000000,31,0x60,0x0F
0.003544625000000,32,0x09,0x0F
0.003551625000000,32,0x00,0x0F
0.003559750000000,33,0x0A,0x0F
0.003566750000000,33,0x00,0x0F
0.003574375000000,34,0x7E,0x0F
0.003579875000000,34,0xFF,0x0F
0.003585750000000,34,0xFF,0x0F
0.003591500000000,34,0xFF,0x0F
0.003597250000000,34,0xFF,0x0F
0.003603000000000,34,0xFF,0x0F
0.003608750000000,34,0xFF,0x0F
0.003614500000000,34,0xFF,0x0F
0.003620250000000,34,0xFF,0x0F
0.003626875000000,35,0x36,0x0F
0.003632250000000,35,0x3D,0x0F
0.003639375000000,36,0x3A,0x0F
0.003647500000000,37,0x3B,0x0F
0.004483125000000,38,0x36,0x0F
0.004488500000000,38,0x3D,0x0F
0.004495500000000,39,0x3A,0x0F
0.004503750000000,40,0x34,0x0F
0.406133500000000,41,0x36,0x1F
0.406139000000000,41,0x3D,0x0F
0.406146000000000,42,0x3A,0x0F
0.406154250000000,43,0x34,0x0F
0.849256375000000,44,0x36,0x1F
0.849261750000000,44,0x3D,0x0F
0.849269250000000,45,0x0A,0x0F
0.849276375000000,45,0x8C,0x0F
0.849284750000000,46,0x36,0x0F
0.849290250000000,46,0x3D,0x0F
0.849295875000000,46,0x3B,0x0F
0.849301750000000,47,0x35,0x0F
0.849307000000000,47,0x7F,0x5F
0.849312875000000,47,0x10,0x5F
0.849322875000000,47,0xDC,0x4F
0.849332875000000,47,0xCC,0x4F
0.849342875000000,47,0x00,0x4F
0.849353000000000,47,0x9F,0x4F
0.849363000000000,47,0xF8,0x4F
0.849373000000000,47,0xA0,0x4F
0.849383000000000,47,0x68,0x4F
0.849393000000000,47,0x2A,0x4F
0.849403000000000,47,0x90,0x4F
0.849413000000000,47,0xBE,0x4F
0.849423000000000,47,0xEE,0x4F
0.849433000000000,47,0xBE,0x4F
0.849443125000000,47,0x9F,0x4F
0.849453375000000,47,0x2C,0x4F
0.849463625000000,47,0x39,0x4F
0.849473875000000,47,0x0D,0x4F
0.854453625000000,48,0x23,0x0F
0.854460625000000,48,0x89,0x0F
0.855929125000000,49,0x36,0x0F
0.855934500000000,49,0x3D,0x0F
0.855942000000000,50,0x0A,0x0F
0.855949125000000,50,0xA8,0x0F
0.855957500000000,51,0x36,0x0F
0.855963000000000,51,0x3D,0x0F
0.855968625000000,51,0x3B,0x0F
0.855974500000000,52,0x35,0x0F
0.855979750000000,52,0x7F,0x5F
0.855985625000000,52,0x10,0x5F
0.855995625000000,52,0xDC,0x4F
0.856005625000000,52,0xCC,0x4F
0.856015625000000,52,0x00,0x4F
0.856025750000000,52,0x9F,0x4F
0.856035750000000,52,0xF8,0x4F
0.856045750000000,52,0xA0,0x4F
0.856055750000000,52,0x68,0x4F
0.856065750000000,52,0x2A,0x4F
0.856075750000000,52,0x90,0x4F
0.856085750000000,52,0xBE,0x4F
0.856095750000000,52,0xEE,0x4F
0.856105750000000,52,0xBE,0x4F
0.856115875000000,52,0x1F,0x4F
0.856126125000000,52,0xAC,0x4F
0.856136375000000,52,0x39,0x4F
0.856146625000000,52,0x0D,0x5F
0.862601875000000,53,0x36,0x0F
0.862607250000000,53,0x3D,0x0F
0.862614750000000,54,0x0A,0x0F
0.862621875000000,54,0x64,0x0F
0.862630375000000,55,0x36,0x0F
0.862635750000000,55,0x3D,0x0F
0.862641375000000,55,0x3B,0x0F
0.862647250000000,56,0x35,0x0F
0.862652500000000,56,0x7F,0x5F
0.862658500000000,56,0x10,0x5F
0.862668500000000,56,0xDC,0x4F
0.862678500000000,56,0xCC,0x4F
0.862688500000000,56,0x00,0x4F
0.862698500000000,56,0x9F,0x4F
0.862708500000000,56,0xF8,0x4F
0.862718500000000,56,0xA0,0x4F
0.862728500000000,56,0x68,0x4F
0.862738500000000,56,0x2A,0x4F
0.862748500000000,56,0x90,0x4F
0.862758500000000,56,0xBE,0x4F
0.862768625000000,56,0xEE,0x4F
0.862778625000000,56,0xBE,0x4F
0.862788625000000,56,0x1F,0x4F
0.862798875000000,56,0x2C,0x4F
0.862809125000000,56,0xB9,0x4F
0.862819375000000,56,0x0D,0x5F
0.869274500000000,57,0x36,0x0F
0.869280000000000,57,0x3D,0x0F
0.869287500000000,58,0x0A,0x0F
0.869294500000000,58,0x84,0x0F
0.869302875000000,59,0x36,0x0F
0.869308250000000,59,0x3D,0x0F
0.869313875000000,59,0x3B,0x0F
0.869319750000000,60,0x35,0x0F
0.869325000000000,60,0x7F,0x5F
0.869331000000000,60,0x10,0x5F
0.869341000000000,60,0xDC,0x4F
0.869351000000000,60,0xCC,0x4F
0.869361000000000,60,0x00,0x4F
0.869371000000000,60,0x9F,0x4F
0.869381000000000,60,0xF8,0x4F
0.869391000000000,60,0xA0,0x4F
0.869401000000000,60,0x68,0x4F
0.869411000000000,60,0x1A,0x4F
0.869421000000000,60,0x90,0x4F
0.869431000000000,60,0xBE,0x4F
0.869441000000000,60,0xEE,0x4F
0.869451000000000,60,0xBE,0x4F
0.869461125000000,60,0x8B,0x4F
0.869471375000000,60,0x18,0x4F
0.869481625000000,60,0x25,0x4F
0.869491875000000,60,0x0D,0x5F
0.875947750000000,61,0x36,0x0F
0.875953250000000,61,0x3D,0x0F
0.875960750000000,62,0x0A,0x0F
0.875967750000000,62,0x40,0x0F
0.875976125000000,63,0x36,0x0F
0.875981500000000,63,0x3D,0x0F
0.875987125000000,63,0x3B,0x0F
0.875993000000000,64,0x35,0x0F
0.875998250000000,64,0x7F,0x5F
0.876004250000000,64,0x10,0x5F
0.876014250000000,64,0xDC,0x4F
0.876024250000000,64,0xCC,0x4F
0.876034250000000,64,0x00,0x4F
0.876044250000000,64,0x9F,0x4F
0.876054250000000,64,0xF8,0x4F
0.876064250000000,64,0xA0,0x4F
0.876074250000000,64,0x68,0x4F
0.876084250000000,64,0x1A,0x4F
0.876094250000000,64,0x90,0x4F
0.876104375000000,64,0xBE,0x4F
0.876114375000000,64,0xEE,0x4F
0.876124375000000,64,0xBE,0x4F
0.876134375000000,64,0x0B,0x4F
0.876144625000000,64,0x98,0x4F
0.876154875000000,64,0x25,0x4F
0.876165125000000,64,0x0D,0x5F
0.882620125000000,65,0x36,0x0F
0.882625500000000,65,0x3D,0x0F
0.882633000000000,66,0x0A,0x0F
0.882640000000000,66,0xD4,0x0F
0.882648500000000,67,0x36,0x0F
0.882654000000000,67,0x3D,0x0F
0.882659625000000,67,0x3B,0x0F
0.882665500000000,68,0x35,0x0F
0.882670750000000,68,0x7F,0x5F
0.882676625000000,68,0x10,0x5F
0.882686625000000,68,0xDC,0x4F
0.882696625000000,68,0xCC,0x4F
0.882706625000000,68,0x00,0x4F
0.882716625000000,68,0x9F,0x4F
0.882726625000000,68,0xF8,0x4F
0.882736625000000,68,0xA0,0x4F
0.882746750000000,68,0x68,0x4F
0.882756750000000,68,0x1A,0x4F
0.882766750000000,68,0x90,0x4F
0.882776750000000,68,0xBE,0x4F
0.882786750000000,68,0xEE,0x4F
0.882796750000000,68,0xBE,0x4F
0.882806750000000,68,0x0B,0x4F
0.882817000000000,68,0x18,0x4F
0.882827375000000,68,0xA5,0x4F
0.882837625000000,68,0x0D,0x5F
0.889293625000000,69,0x36,0x0F
0.889299000000000,69,0x3D,0x0F
0.889306500000000,70,0x0A,0x0F
0.889313500000000,70,0x7C,0x0F
0.889322000000000,71,0x36,0x0F
0.889327500000000,71,0x3D,0x0F
0.889333125000000,71,0x3B,0x0F
0.889339000000000,72,0x35,0x0F
0.889344250000000,72,0x7F,0x5F
0.889350250000000,72,0x10,0x5F
0.889360250000000,72,0xDC,0x4F
0.889370250000000,72,0xCC,0x4F
0.889380250000000,72,0x00,0x4F
0.889390250000000,72,0x9F,0x4F
0.889400250000000,72,0xF8,0x4F
0.889410250000000,72,0xA0,0x4F
0.889420250000000,72,0x68,0x4F
0.889430250000000,72,0x19,0x4F
0.889440250000000,72,0x90,0x4F
0.889450250000000,72,0xBE,0x4F
0.889460250000000,72,0xEE,0x4F
0.889470375000000,72,0xBE,0x4F
0.889480375000000,72,0xB2,0x4F
0.889490625000000,72,0x04,0x4F
0.889500875000000,72,0x11,0x4F
0.889511125000000,72,0x0D,0x5F
0.895967000000000,73,0x36,0x0F
0.895972500000000,73,0x3D,0x0F
0.895980000000000,74,0x0A,0x0F
0.895987000000000,74,0x38,0x0F
0.895995375000000,75,0x36,0x0F
0.896000875000000,75,0x3D,0x0F
0.896006500000000,75,0x3B,0x0F
0.896012375000000,76,0x35,0x0F
0.896017625000000,76,0x7F,0x5F
0.896023500000000,76,0x10,0x5F
0.896033500000000,76,0xDC,0x4F
0.896043625000000,76,0xCC,0x4F
0.896053625000000,76,0x00,0x4F
0.896063625000000,76,0x9F,0x4F
0.896073625000000,76,0xF8,0x4F
0.896083625000000,76,0xA0,0x4F
0.896093625000000,76,0x68,0x4F
0.896103625000000,76,0x19,0x4F
0.896113625000000,76,0x90,0x4F
0.896123625000000,76,0xBE,0x4F
0.896133625000000,76,0xEE,0x4F
0.896143625000000,76,0xBE,0x4F
0.896153750000000,76,0x32,0x4F
0.896164000000000,76,0x84,0x4F
0.896174250000000,76,0x11,0x4F
0.896184500000000,76,0x0D,0x5F
0.902639500000000,77,0x36,0x0F
0.902645000000000,77,0x3D,0x0F
0.902652500000000,78,0x0A,0x0F
0.902659500000000,78,0xCC,0x0F
0.902668000000000,79,0x36,0x0F
0.902673375000000,79,0x3D,0x0F
0.902679000000000,79,0x3B,0x0F
0.902684875000000,80,0x35,0x0F
0.902690125000000,80,0x7F,0x5F
0.902696125000000,80,0x10,0x5F
0.902706125000000,80,0xDC,0x4F
0.902716125000000,80,0xCC,0x4F
0.902726125000000,80,0x00,0x4F
0.902736125000000,80,0x9F,0x4F
0.902746125000000,80,0xF8,0x4F
0.902756125000000,80,0xA0,0x4F
0.902766125000000,80,0x68,0x4F
0.902776125000000,80,0x19,0x4F
0.902786125000000,80,0x90,0x4F
0.902796125000000,80,0xBE,0x4F
0.902806125000000,80,0xEE,0x4F
0.902816250000000,80,0xBE,0x4F
0.902826250000000,80,0x32,0x4F
0.902836500000000,80,0x04,0x4F
0.902846750000000,80,0x91,0x4F
0.902857000000000,80,0x0D,0x5F
0.909313250000000,81,0x36,0x0F
0.909318750000000,81,0x3D,0x0F
0.909326250000000,82,0x0A,0x0F
0.909333250000000,82,0x14,0x0F
0.909341625000000,83,0x36,0x0F
0.909347125000000,83,0x3D,0x0F
0.909352750000000,83,0x3B,0x0F
0.909358625000000,84,0x35,0x0F
0.909363875000000,84,0x7F,0x5F
0.909369750000000,84,0x10,0x5F
0.909379750000000,84,0xDC,0x4F
0.909389750000000,84,0xCC,0x4F
0.909399875000000,84,0x00,0x4F
0.909409875000000,84,0x9F,0x4F
0.909419875000000,84,0xF8,0x4F
0.909429875000000,84,0xA0,0x4F
0.909439875000000,84,0x68,0x4F
0.909449875000000,84,0x1A,0x4F
0.909459875000000,84,0x90,0x4F
0.909469875000000,84,0xBE,0x4F
0.909479875000000,84,0xEE,0x4F
0.909489875000000,84,0xBE,0x4F
0.909500000000000,84,0x9E,0x4F
0.909510250000000,84,0x2B,0x4F
0.909520500000000,84,0x38,0x4F
0.909530750000000,84,0x0D,0x5F
0.915986750000000,85,0x36,0x0F
0.915992125000000,85,0x3D,0x0F
0.915999625000000,86,0x0A,0x0F
0.916006625000000,86,0x30,0x0F
0.916015000000000,87,0x36,0x0F
0.916020500000000,87,0x3D,0x0F
0.916026125000000,87,0x3B,0x0F
0.916032000000000,88,0x35,0x0F
0.916037250000000,88,0x7F,0x5F
0.916043125000000,88,0x10,0x5F
0.916053250000000,88,0xDC,0x4F
0.916063250000000,88,0xCC,0x4F
0.916073250000000,88,0x00,0x4F
0.916083250000000,88,0x9F,0x4F
0.916093250000000,88,0xF8,0x4F
0.916103250000000,88,0xA0,0x4F
0.916113250000000,88,0x68,0x4F
0.916123250000000,88,0x1A,0x4F
0.916133250000000,88,0x90,0x4F
0.916143250000000,88,0xBE,0x4F
0.916153250000000,88,0xEE,0x4F
0.916163250000000,88,0xBE,0x4F
0.916173375000000,88,0x1E,0x4F
0.916183625000000,88,0xAB,0x4F
0.916193875000000,88,0x38,0x4F
0.916204125000000,88,0x0D,0x5F
0.922660625000000,89,0x36,0x0F
0.922666000000000,89,0x3D,0x0F
0.922673500000000,90,0x0A,0x0F
0.922680500000000,90,0xC3,0x0F
0.922689125000000,91,0x36,0x0F
0.922694500000000,91,0x3D,0x0F
0.922700125000000,91,0x3B,0x0F
0.922706000000000,92,0x35,0x0F
0.922711250000000,92,0x7F,0x5F
0.922717250000000,92,0x10,0x5F
0.922727250000000,92,0xDC,0x4F
0.922737250000000,92,0xCC,0x4F
0.922747250000000,92,0x00,0x4F
0.922757250000000,92,0x9F,0x4F
0.922767250000000,92,0xF8,0x4F
0.922777250000000,92,0xA0,0x4F
0.922787250000000,92,0x68,0x4F
0.922797250000000,92,0x1A,0x4F
0.922807250000000,92,0x90,0x4F
0.922817250000000,92,0xBE,0x4F
0.922827250000000,92,0xEE,0x4F
0.922837375000000,92,0xBE,0x4F
0.922847375000000,92,0x1E,0x4F
0.922857625000000,92,0x2B,0x4F
0.922867875000000,92,0xB8,0x4F
0.922878125000000,92,0x0D,0x5F
0.929333875000000,93,0x36,0x0F
0.929339375000000,93,0x3D,0x0F
0.929346875000000,94,0x0A,0x0F
0.929353875000000,94,0x0C,0x0F
0.929362375000000,95,0x36,0x0F
0.929367750000000,95,0x3D,0x0F
0.929373375000000,95,0x3B,0x0F
0.929379250000000,96,0x35,0x0F
0.929384500000000,96,0x7F,0x5F
0.929390500000000,96,0x10,0x5F
0.929400500000000,96,0xDC,0x4F
0.929410500000000,96,0xCC,0x4F
0.929420500000000,96,0x00,0x4F
0.929430500000000,96,0x9F,0x4F
0.929440500000000,96,0xF8,0x4F
0.929450500000000,96,0xA0,0x4F
0.929460500000000,96,0x68,0x4F
0.929470500000000,96,0x29,0x4F
0.929480500000000,96,0x90,0x4F
0.929490500000000,96,0xBE,0x4F
0.929500625000000,96,0xEE,0x4F
0.929510625000000,96,0xBE,0x4F
0.929520625000000,96,0x8A,0x4F
0.929530875000000,96,0x17,0x4F
0.929541125000000,96,0x24,0x4F
0.929551375000000,96,0x0D,0x5F
0.936007375000000,97,0x36,0x0F
0.936012875000000,97,0x3D,0x0F
0.936020375000000,98,0x0A,0x0F
0.936027375000000,98,0xA0,0x0F
0.936035750000000,99,0x36,0x0F
0.936041250000000,99,0x3D,0x0F
0.936046875000000,99,0x3B,0x0F
0.936052750000000,100,0x35,0x0F
0.936058000000000,100,0x7F,0x5F
0.936063875000000,100,0x10,0x5F
0.936073875000000,100,0xDC,0x4F
0.936083875000000,100,0xCC,0x4F
0.936093875000000,100,0x00,0x4F
0.936103875000000,100,0x9F,0x4F
0.936114000000000,100,0xF8,0x4F
0.936124000000000,100,0xA0,0x4F
0.936134000000000,100,0x68,0x4F
0.936144000000000,100,0x29,0x4F
0.936154000000000,100,0x90,0x4F
0.936164000000000,100,0xBE,0x4F
0.936174000000000,100,0xEE,0x4F
0.936184000000000,100,0xBE,0x4F
0.936194125000000,100,0x0A,0x4F
0.936204375000000,100,0x97,0x4F
0.936214625000000,100,0x24,0x4F
0.936224875000000,100,0x0D,0x5F
0.942680625000000,101,0x36,0x0F
0.942686000000000,101,0x3D,0x0F
0.942693500000000,102,0x0A,0x0F
0.942700500000000,102,0x5C,0x0F
0.942709000000000,103,0x36,0x0F
0.942714500000000,103,0x3D,0x0F
0.942720125000000,103,0x3B,0x0F
0.942726000000000,104,0x35,0x0F
0.942731250000000,104,0x7F,0x5F
0.942737250000000,104,0x10,0x5F
0.942747250000000,104,0xDC,0x4F
0.942757250000000,104,0xCC,0x4F
0.942767250000000,104,0x00,0x4F
0.942777250000000,104,0x9F,0x4F
0.942787250000000,104,0xF8,0x4F
0.942797250000000,104,0xA0,0x4F
0.942807250000000,104,0x68,0x4F
0.942817250000000,104,0x29,0x4F
0.942827250000000,104,0x90,0x4F
0.942837250000000,104,0xBE,0x4F
0.942847250000000,104,0xEE,0x4F
0.942857250000000,104,0xBE,0x4F
0.942867375000000,104,0x0A,0x4F
0.942877625000000,104,0x17,0x4F
0.942887875000000,104,0xA4,0x4F
0.942898125000000,104,0x0D,0x5F
0.949354000000000,105,0x36,0x0F
0.949359375000000,105,0x3D,0x0F
0.949366875000000,106,0x0A,0x0F
0.949373875000000,106,0x04,0x0F
0.949382375000000,107,0x36,0x0F
0.949387750000000,107,0x3D,0x0F
0.949393375000000,107,0x3B,0x0F
0.949399250000000,108,0x35,0x0F
0.949404500000000,108,0x7F,0x5F
0.949410500000000,108,0x10,0x5F
0.949420500000000,108,0xDC,0x4F
0.949430500000000,108,0xCC,0x4F
0.949440500000000,108,0x00,0x4F
0.949450500000000,108,0x9F,0x4F
0.949460500000000,108,0xF8,0x4F
0.949470500000000,108,0xA0,0x4F
0.949480500000000,108,0x68,0x4F
0.949490500000000,108,0x29,0x4F
0.949500500000000,108,0x90,0x4F
0.949510500000000,108,0xBE,0x4F
0.949520625000000,108,0xEE,0x4F
0.949530625000000,108,0xBE,0x4F
0.949540625000000,108,0xB1,0x4F
0.949550875000000,108,0x03,0x4F
0.949561125000000,108,0x10,0x4F
0.949571375000000,108,0x0D,0x5F
0.956027125000000,109,0x36,0x0F
0.956032500000000,109,0x3D,0x0F
0.956040000000000,110,0x0A,0x0F
0.956047000000000,110,0x98,0x0F
0.956055375000000,111,0x36,0x0F
0.956060875000000,111,0x3D,0x0F
0.956066500000000,111,0x3B,0x0F
0.956072375000000,112,0x35,0x0F
0.956077625000000,112,0x7F,0x5F
0.956083500000000,112,0x10,0x5F
0.956093625000000,112,0xDC,0x4F
0.956103625000000,112,0xCC,0x4F
0.956113625000000,112,0x00,0x4F
0.956123625000000,112,0x9F,0x4F
0.956133625000000,112,0xF8,0x4F
0.956143625000000,112,0xA0,0x4F
0.956153625000000,112,0x68,0x4F
0.956163625000000,112,0x29,0x4F
0.956173625000000,112,0x90,0x4F
0.956183625000000,112,0xBE,0x4F
0.956193625000000,112,0xEE,0x4F
0.956203625000000,112,0xBE,0x4F
0.956213750000000,112,0x31,0x4F
0.956224000000000,112,0x83,0x4F
0.956234250000000,112,0x10,0x4F
0.956244500000000,112,0x0D,0x5F
0.962700500000000,113,0x36,0x0F
0.962706000000000,113,0x3D,0x0F
0.962713500000000,114,0x0A,0x0F
0.962720500000000,114,0x54,0x0F
0.962728875000000,115,0x36,0x0F
0.962734375000000,115,0x3D,0x0F
0.962740000000000,115,0x3B,0x0F
0.962745875000000,116,0x35,0x0F
0.962751125000000,116,0x7F,0x5F
0.962757125000000,116,0x10,0x5F
0.962767125000000,116,0xDC,0x4F
0.962777125000000,116,0xCC,0x4F
0.962787125000000,116,0x00,0x4F
0.962797125000000,116,0x9F,0x4F
0.962807125000000,116,0xF8,0x4F
0.962817125000000,116,0xA0,0x4F
0.962827125000000,116,0x68,0x4F
0.962837125000000,116,0x29,0x4F
0.962847125000000,116,0x90,0x4F
0.962857125000000,116,0xBE,0x4F
0.962867125000000,116,0xEE,0x4F
0.962877125000000,116,0xBE,0x4F
0.962887250000000,116,0x31,0x4F
0.962897500000000,116,0x03,0x4F
0.962907750000000,116,0x90,0x4F
0.962918000000000,116,0x0D,0x5F
0.969373750000000,117,0x36,0x0F
0.969379250000000,117,0x3D,0x0F
0.969386750000000,118,0x0A,0x0F
0.969393750000000,118,0xE8,0x0F
0.969402125000000,119,0x36,0x0F
0.969407625000000,119,0x3D,0x0F
0.969413250000000,119,0x3B,0x0F
0.969419125000000,120,0x35,0x0F
0.969424375000000,120,0x7F,0x5F
0.969430375000000,120,0x10,0x5F
0.969440375000000,120,0xDC,0x4F
0.969450375000000,120,0xCC,0x4F
0.969460375000000,120,0x00,0x4F
0.969470375000000,120,0x9F,0x4F
0.969480375000000,120,0xF8,0x4F
0.969490375000000,120,0xA0,0x4F
0.969500375000000,120,0x68,0x4F
0.969510375000000,120,0x19,0x4F
0.969520375000000,120,0x90,0x4F
0.969530375000000,120,0xBE,0x4F
0.969540375000000,120,0xEE,0x4F
0.969550375000000,120,0xBE,0x4F
0.969560500000000,120,0x9D,0x4F
0.969570750000000,120,0x2A,0x4F
0.969581000000000,120,0x37,0x4F
0.969591250000000,120,0x0D,0x5F
0.976047000000000,121,0x36,0x0F
0.976052500000000,121,0x3D,0x0F
0.976060000000000,122,0x0A,0x0F
0.976067000000000,122,0x90,0x0F
0.976075250000000,123,0x36,0x0F
0.976080750000000,123,0x3D,0x0F
0.976086375000000,123,0x3B,0x0F
0.976092250000000,124,0x35,0x0F
0.976097500000000,124,0x7F,0x5F
0.976103375000000,124,0x10,0x5F
0.976113500000000,124,0xDC,0x4F
0.976123500000000,124,0xCC,0x4F
0.976133500000000,124,0x00,0x4F
0.976143500000000,124,0x9F,0x4F
0.976153500000000,124,0xF8,0x4F
0.976163500000000,124,0xA0,0x4F
0.976173500000000,124,0x68,0x4F
0.976183500000000,124,0x19,0x4F
0.976193500000000,124,0x90,0x4F
0.976203500000000,124,0xBE,0x4F
0.976213500000000,124,0xEE,0x4F
0.976223500000000,124,0xBE,0x4F
0.976233625000000,124,0x1D,0x4F
0.976243875000000,124,0xAA,0x4F
0.976254125000000,124,0x37,0x4F
0.976264375000000,124,0x0D,0x5F
0.982719500000000,125,0x36,0x0F
0.982725000000000,125,0x3D,0x0F
0.982732500000000,126,0x0A,0x0F
0.982739500000000,126,0x4C,0x0F
0.982748000000000,127,0x36,0x0F
0.982753375000000,127,0x3D,0x0F
0.982759000000000,127,0x3B,0x0F
0.982765000000000,128,0x35,0x0F
0.982770250000000,128,0x7F,0x5F
0.982776125000000,128,0x10,0x5F
0.982786125000000,128,0xDC,0x4F
0.982796125000000,128,0xCC,0x4F
0.982806125000000,128,0x00,0x4F
0.982816125000000,128,0x9F,0x4F
0.982826125000000,128,0xF8,0x4F
0.982836125000000,128,0xA0,0x4F
0.982846250000000,128,0x68,0x4F
0.982856250000000,128,0x19,0x4F
0.982866250000000,128,0x90,0x4F
0.982876250000000,128,0xBE,0x4F
0.982886250000000,128,0xEE,0x4F
0.982896250000000,128,0xBE,0x4F
0.982906250000000,128,0x1D,0x4F
0.982916625000000,128,0x2A,0x4F
0.982926875000000,128,0xB7,0x4F
0.982937125000000,128,0x0D,0x5F
0.989393375000000,129,0x36,0x0F
0.989398875000000,129,0x3D,0x0F
