Time [s],Packet ID,MOSI,MISO
0.000000000000000,0,0x36,0x0F
0.000005375000000,0,0x3D,0x0F
0.000013000000000,1,0x0A,0x0F
0.000020000000000,1,0x90,0x0F
0.000028250000000,2,0x36,0x0F
0.000033750000000,2,0x3D,0x0F
0.000039375000000,2,0x3B,0x0F
0.000045250000000,3,0x35,0x0F
0.000050500000000,3,0x7F,0x5F
0.000056375000000,3,0x10,0x5F
0.000066375000000,3,0xDC,0x4F
0.000076375000000,3,0xCC,0x4F
0.000086375000000,3,0x00,0x4F
0.000096375000000,3,0xA0,0x4F
0.000106375000000,3,0x27,0x4F
0.000116500000000,3,0xA0,0x4F
0.000126500000000,3,0x68,0x4F
0.000136500000000,3,0x1B,0x4F
0.000146500000000,3,0x90,0x4F
0.000156500000000,3,0xBE,0x4F
0.000166500000000,3,0xEE,0x4F
0.000176500000000,3,0xBE,0x4F
0.000186500000000,3,0x31,0x4F
0.000196750000000,3,0x8D,0x4F
0.000207000000000,3,0x24,0x4F
0.000217250000000,3,0x17,0x5F
0.006670625000000,4,0x36,0x0F
0.006676000000000,4,0x3D,0x0F
0.006683500000000,5,0x0A,0x0F
0.006690500000000,5,0x50,0x0F
0.006698875000000,6,0x36,0x0F
0.006704375000000,6,0x3D,0x0F
0.006710000000000,6,0x3B,0x0F
0.006715875000000,7,0x35,0x0F
0.006721125000000,7,0x7F,0x5F
0.006727125000000,7,0x10,0x5F
0.006737125000000,7,0xDC,0x4F
0.006747125000000,7,0xCC,0x4F
0.006757125000000,7,0x00,0x4F
0.006767125000000,7,0xA0,0x4F
0.006777125000000,7,0x27,0x4F
0.006787125000000,7,0xA0,0x4F
0.006797125000000,7,0x68,0x4F
0.006807125000000,7,0x1B,0x4F
0.006817125000000,7,0x90,0x4F
0.006827125000000,7,0xBE,0x4F
0.006837125000000,7,0xEE,0x4F
0.006847125000000,7,0xBE,0x4F
0.006857250000000,7,0x31,0x4F
0.006867500000000,7,0x0D,0x4F
0.006877750000000,7,0xA4,0x4F
0.006888000000000,7,0x17,0x5F
0.013341125000000,8,0x36,0x0F
0.013346500000000,8,0x3D,0x0F
0.013354000000000,9,0x0A,0x0F
0.013361000000000,9,0xE8,0x0F
0.013369500000000,10,0x36,0x0F
0.013374875000000,10,0x3D,0x0F
0.013380500000000,10,0x3B,0x0F
0.013386375000000,11,0x35,0x0F
0.013391625000000,11,0x7F,0x5F
0.013397625000000,11,0x10,0x5F
0.013407625000000,11,0xDC,0x4F
0.013417625000000,11,0xCC,0x4F
0.013427625000000,11,0x00,0x4F
0.013437625000000,11,0xA0,0x4F
0.013447625000000,11,0x27,0x4F
0.013457625000000,11,0xA0,0x4F
0.013467625000000,11,0x68,0x4F
0.013477625000000,11,0x1A,0x4F
0.013487625000000,11,0x90,0x4F
0.013497625000000,11,0xBE,0x4F
0.013507625000000,11,0xEE,0x4F
0.013517625000000,11,0xBE,0x4F
0.013527750000000,11,0xBB,0x4F
0.013538000000000,11,0x00,0x4F
0.013548250000000,11,0x17,0x4F
0.013558500000000,11,0x17,0x5F
0.020011000000000,12,0x36,0x0F
0.020016375000000,12,0x3D,0x0F
0.020023875000000,13,0x0A,0x0F
0.020030875000000,13,0x94,0x0F
0.020039375000000,14,0x36,0x0F
0.020044750000000,14,0x3D,0x0F
0.020050375000000,14,0x3B,0x0F
0.020056250000000,15,0x35,0x0F
0.020061500000000,15,0x7F,0x5F
0.020067500000000,15,0x10,0x5F
0.020077500000000,15,0xDC,0x4F
0.020087500000000,15,0xCC,0x4F
0.020097500000000,15,0x00,0x4F
0.020107500000000,15,0xA0,0x4F
0.020117500000000,15,0x27,0x4F
0.020127500000000,15,0xA0,0x4F
0.020137500000000,15,0x68,0x4F
0.020147500000000,15,0x1A,0x4F
0.020157500000000,15,0x90,0x4F
0.020167500000000,15,0xBE,0x4F
0.020177500000000,15,0xEE,0x4F
0.020187500000000,15,0xBE,0x4F
0.020197500000000,15,0x3B,0x4F
0.020207750000000,15,0x80,0x4F
0.020218000000000,15,0x17,0x4F
0.020228250000000,15,0x17,0x5F
0.026680500000000,16,0x36,0x0F
0.026686000000000,16,0x3D,0x0F
0.026693500000000,17,0x0A,0x0F
0.026700500000000,17,0x54,0x0F
0.026709000000000,18,0x36,0x0F
0.026714375000000,18,0x3D,0x0F
0.026720000000000,18,0x3B,0x0F
0.026725875000000,19,0x35,0x0F
0.026731125000000,19,0x7F,0x5F
0.026737125000000,19,0x10,0x5F
0.026747125000000,19,0xDC,0x4F
0.026757125000000,19,0xCC,0x4F
0.026767125000000,19,0x00,0x4F
0.026777125000000,19,0xA0,0x4F
0.026787125000000,19,0x27,0x4F
0.026797125000000,19,0xA0,0x4F
0.026807125000000,19,0x68,0x4F
0.026817125000000,19,0x1A,0x4F
0.026827125000000,19,0x90,0x4F
0.026837125000000,19,0xBE,0x4F
0.026847125000000,19,0xEE,0x4F
0.026857125000000,19,0xBE,0x4F
0.026867250000000,19,0x3B,0x4F
0.026877500000000,19,0x00,0x4F
0.026887750000000,19,0x97,0x4F
0.026898000000000,19,0x17,0x5F
0.033350750000000,20,0x36,0x0F
0.033356250000000,20,0x3D,0x0F
0.033363750000000,21,0x0A,0x0F
0.033370750000000,21,0xEC,0x0F
0.033379250000000,22,0x36,0x0F
0.033384625000000,22,0x3D,0x0F
0.033390250000000,22,0x3B,0x0F
0.033396125000000,23,0x35,0x0F
0.033401375000000,23,0x7F,0x5F
0.033407375000000,23,0x10,0x5F
0.033417375000000,23,0xDC,0x4F
0.033427375000000,23,0xCC,0x4F
0.033437375000000,23,0x00,0x4F
0.033447375000000,23,0xA0,0x4F
0.033457375000000,23,0x27,0x4F
0.033467375000000,23,0xA0,0x4F
0.033477375000000,23,0x68,0x4F
0.033487375000000,23,0x1A,0x4F
0.033497375000000,23,0x90,0x4F
0.033507375000000,23,0xBE,0x4F
0.033517375000000,23,0xEE,0x4F
0.033527375000000,23,0xBE,0x4F
0.033537500000000,23,0xAE,0x4F
0.033547750000000,23,0x0A,0x4F
0.033558000000000,23,0x21,0x4F
0.033568250000000,23,0x17,0x5F
0.040021625000000,24,0x36,0x0F
0.040027125000000,24,0x3D,0x0F
0.040034625000000,25,0x0A,0x0F
0.040041625000000,25,0x00,0x0F
0.040050000000000,26,0x36,0x0F
0.040055375000000,26,0x3D,0x0F
0.040061000000000,26,0x3B,0x0F
0.040066875000000,27,0x35,0x0F
0.040072125000000,27,0x7F,0x5F
0.040078125000000,27,0x10,0x5F
0.040088125000000,27,0xDC,0x4F
0.040098125000000,27,0xCC,0x4F
0.040108125000000,27,0x00,0x4F
0.040118125000000,27,0xA0,0x4F
0.040128125000000,27,0x27,0x4F
0.040138125000000,27,0xA0,0x4F
0.040148125000000,27,0x68,0x4F
0.040158125000000,27,0x1A,0x4F
0.040168125000000,27,0x90,0x4F
0.040178125000000,27,0xBE,0x4F
0.040188125000000,27,0xEE,0x4F
0.040198125000000,27,0xBE,0x4F
0.040208250000000,27,0x2E,0x4F
0.040218500000000,27,0x8A,0x4F
0.040228750000000,27,0x21,0x4F
0.040239000000000,27,0x17,0x5F
0.046691125000000,28,0x36,0x0F
0.046696500000000,28,0x3D,0x0F
0.046704000000000,29,0x0A,0x0F
0.046711000000000,29,0x98,0x0F
0.046719500000000,30,0x36,0x0F
0.046724875000000,30,0x3D,0x0F
0.046730500000000,30,0x3B,0x0F
0.046736375000000,31,0x35,0x0F
0.046741625000000,31,0x7F,0x5F
0.046747625000000,31,0x10,0x5F
0.046757625000000,31,0xDC,0x4F
0.046767625000000,31,0xCC,0x4F
0.046777625000000,31,0x00,0x4F
0.046787625000000,31,0xA0,0x4F
0.046797625000000,31,0x27,0x4F
0.046807625000000,31,0xA0,0x4F
0.046817625000000,31,0x68,0x4F
0.046827625000000,31,0x1A,0x4F
0.046837625000000,31,0x90,0x4F
0.046847625000000,31,0xBE,0x4F
0.046857625000000,31,0xEE,0x4F
0.046867625000000,31,0xBE,0x4F
0.046877750000000,31,0x2E,0x4F
0.046888000000000,31,0x0A,0x4F
0.046898250000000,31,0xA1,0x4F
0.046908500000000,31,0x17,0x5F
0.053362250000000,32,0x36,0x0F
0.053367750000000,32,0x3D,0x0F
0.053375250000000,33,0x0A,0x0F
0.053382250000000,33,0x58,0x0F
0.053390625000000,34,0x36,0x0F
0.053396125000000,34,0x3D,0x0F
0.053401750000000,34,0x3B,0x0F
0.053407625000000,35,0x35,0x0F
0.053412875000000,35,0x7F,0x5F
0.053418750000000,35,0x10,0x5F
0.053428750000000,35,0xDC,0x4F
0.053438750000000,35,0xCC,0x4F
0.053448750000000,35,0x00,0x4F
0.053458750000000,35,0xA0,0x4F
0.053468750000000,35,0x27,0x4F
0.053478750000000,35,0xA0,0x4F
0.053488750000000,35,0x68,0x4F
0.053498750000000,35,0x0B,0x4F
0.053508875000000,35,0x90,0x4F
0.053518875000000,35,0xBE,0x4F
0.053528875000000,35,0xEE,0x4F
0.053538875000000,35,0xBE,0x4F
0.053548875000000,35,0xB8,0x4F
0.053559125000000,35,0x14,0x4F
0.053569375000000,35,0x2B,0x4F
0.053579625000000,35,0x17,0x5F
0.060033500000000,36,0x36,0x0F
0.060038875000000,36,0x3D,0x0F
0.060046375000000,37,0x0A,0x0F
0.060053375000000,37,0x04,0x0F
0.060061750000000,38,0x36,0x0F
0.060067250000000,38,0x3D,0x0F
0.060072875000000,38,0x3B,0x0F
0.060078750000000,39,0x35,0x0F
0.060084000000000,39,0x7F,0x5F
0.060089875000000,39,0x10,0x5F
0.060099875000000,39,0xDC,0x4F
0.060109875000000,39,0xCC,0x4F
0.060119875000000,39,0x00,0x4F
0.060130000000000,39,0xA0,0x4F
0.060140000000000,39,0x27,0x4F
0.060150000000000,39,0xA0,0x4F
0.060160000000000,39,0x68,0x4F
0.060170000000000,39,0x0B,0x4F
0.060180000000000,39,0x90,0x4F
0.060190000000000,39,0xBE,0x4F
0.060200000000000,39,0xEE,0x4F
0.060210000000000,39,0xBE,0x4F
0.060220000000000,39,0x38,0x4F
0.060230250000000,39,0x94,0x4F
0.060240500000000,39,0x2B,0x4F
0.060250750000000,39,0x17,0x5F
0.066703750000000,40,0x36,0x0F
0.066709250000000,40,0x3D,0x0F
0.066716750000000,41,0x0A,0x0F
0.066723750000000,41,0x9B,0x0F
0.066732250000000,42,0x36,0x0F
0.066737750000000,42,0x3D,0x0F
0.066743375000000,42,0x3B,0x0F
0.066749250000000,43,0x35,0x0F
0.066754500000000,43,0x7F,0x5F
0.066760500000000,43,0x10,0x5F
0.066770500000000,43,0xDC,0x4F
0.066780500000000,43,0xCC,0x4F
0.066790500000000,43,0x00,0x4F
0.066800500000000,43,0xA0,0x4F
0.066810500000000,43,0x27,0x4F
0.066820500000000,43,0xA0,0x4F
0.066830500000000,43,0x68,0x4F
0.066840500000000,43,0x0B,0x4F
0.066850500000000,43,0x90,0x4F
0.066860500000000,43,0xBE,0x4F
0.066870500000000,43,0xEE,0x4F
0.066880500000000,43,0xBE,0x4F
0.066890625000000,43,0x38,0x4F
0.066900875000000,43,0x14,0x4F
0.066911125000000,43,0xAB,0x4F
0.066921375000000,43,0x17,0x5F
0.073375750000000,44,0x36,0x0F
0.073381125000000,44,0x3D,0x0F
0.073388625000000,45,0x0A,0x0F
0.073395625000000,45,0x5C,0x0F
0.073404125000000,46,0x36,0x0F
0.073409500000000,46,0x3D,0x0F
0.073415125000000,46,0x3B,0x0F
0.073421000000000,47,0x35,0x0F
0.073426250000000,47,0x7F,0x5F
0.073432250000000,47,0x10,0x5F
0.073442250000000,47,0xDC,0x4F
0.073452250000000,47,0xCC,0x4F
0.073462250000000,47,0x00,0x4F
0.073472250000000,47,0xA0,0x4F
0.073482250000000,47,0x27,0x4F
0.073492250000000,47,0xA0,0x4F
0.073502250000000,47,0x68,0x4F
0.073512250000000,47,0x1A,0x4F
0.073522250000000,47,0x90,0x4F
0.073532250000000,47,0xBE,0x4F
0.073542250000000,47,0xEE,0x4F
0.073552250000000,47,0xBE,0x4F
0.073562375000000,47,0x87,0x4F
0.073572625000000,47,0x1E,0x4F
0.073582875000000,47,0x35,0x4F
0.073593125000000,47,0x17,0x5F
0.080046750000000,48,0x36,0x0F
0.080052250000000,48,0x3D,0x0F
0.080059750000000,49,0x0A,0x0F
0.080066750000000,49,0x08,0x0F
0.080075125000000,50,0x36,0x0F
0.080080500000000,50,0x3D,0x0F
0.080086125000000,50,0x3B,0x0F
0.080092000000000,51,0x35,0x0F
0.080097250000000,51,0x7F,0x5F
0.080103250000000,51,0x10,0x5F
0.080113250000000,51,0xDC,0x4F
0.080123250000000,51,0xCC,0x4F
0.080133250000000,51,0x00,0x4F
0.080143250000000,51,0xA0,0x4F
0.080153250000000,51,0x27,0x4F
0.080163250000000,51,0xA0,0x4F
0.080173250000000,51,0x68,0x4F
0.080183250000000,51,0x1A,0x4F
0.080193250000000,51,0x90,0x4F
0.080203250000000,51,0xBE,0x4F
0.080213250000000,51,0xEE,0x4F
0.080223250000000,51,0xBE,0x4F
0.080233375000000,51,0x07,0x4F
0.080243625000000,51,0x9E,0x4F
0.080253875000000,51,0x35,0x4F
0.080264125000000,51,0x17,0x5F
0.086717375000000,52,0x36,0x0F
0.086722750000000,52,0x3D,0x0F
0.086730250000000,53,0x0A,0x0F
0.086737250000000,53,0xA0,0x0F
0.086745750000000,54,0x36,0x0F
0.086751125000000,54,0x3D,0x0F
0.086756875000000,54,0x3B,0x0F
0.086762750000000,55,0x35,0x0F
0.086768000000000,55,0x7F,0x5F
0.086773875000000,55,0x10,0x5F
0.086783875000000,55,0xDC,0x4F
0.086793875000000,55,0xCC,0x4F
0.086803875000000,55,0x00,0x4F
0.086813875000000,55,0xA0,0x4F
0.086823875000000,55,0x27,0x4F
0.086833875000000,55,0xA0,0x4F
0.086843875000000,55,0x68,0x4F
0.086853875000000,55,0x1A,0x4F
0.086863875000000,55,0x90,0x4F
0.086873875000000,55,0xBE,0x4F
0.086883875000000,55,0xEE,0x4F
0.086893875000000,55,0xBE,0x4F
0.086904000000000,55,0x07,0x4F
0.086914250000000,55,0x1E,0x4F
0.086924500000000,55,0xB5,0x4F
0.086934750000000,55,0x17,0x5F
0.093386625000000,56,0x36,0x0F
0.093392125000000,56,0x3D,0x0F
0.093399625000000,57,0x0A,0x0F
0.093406625000000,57,0xC0,0x0F
0.093414875000000,58,0x36,0x0F
0.093420375000000,58,0x3D,0x0F
0.093426000000000,58,0x3B,0x0F
0.093431875000000,59,0x35,0x0F
0.093437125000000,59,0x7F,0x5F
0.093443000000000,59,0x10,0x5F
0.093453000000000,59,0xDC,0x4F
0.093463000000000,59,0xCC,0x4F
0.093473000000000,59,0x00,0x4F
0.093483000000000,59,0xA0,0x4F
0.093493000000000,59,0x27,0x4F
0.093503000000000,59,0xA0,0x4F
0.093513000000000,59,0x68,0x4F
0.093523000000000,59,0x2A,0x4F
0.093533000000000,59,0x90,0x4F
0.093543000000000,59,0xBE,0x4F
0.093553000000000,59,0xEE,0x4F
0.093563125000000,59,0xBE,0x4F
0.093573125000000,59,0x91,0x4F
0.093583375000000,59,0x28,0x4F
0.093593625000000,59,0x04,0x4F
0.093603875000000,59,0x17,0x5F
0.100056750000000,60,0x36,0x0F
0.100062250000000,60,0x3D,0x0F
0.100069750000000,61,0x0A,0x0F
0.100076750000000,61,0x0C,0x0F
0.100085125000000,62,0x36,0x0F
0.100090625000000,62,0x3D,0x0F
0.100096250000000,62,0x3B,0x0F
0.100102125000000,63,0x35,0x0F
0.100107375000000,63,0x7F,0x5F
0.100113250000000,63,0x10,0x5F
0.100123250000000,63,0xDC,0x4F
0.100133250000000,63,0xCC,0x4F
0.100143250000000,63,0x00,0x4F
0.100153250000000,63,0xA0,0x4F
0.100163250000000,63,0x27,0x4F
0.100173250000000,63,0xA0,0x4F
0.100183250000000,63,0x68,0x4F
0.100193250000000,63,0x2A,0x4F
0.100203250000000,63,0x90,0x4F
0.100213250000000,63,0xBE,0x4F
0.100223250000000,63,0xEE,0x4F
0.100233250000000,63,0xBE,0x4F
0.100243375000000,63,0x11,0x4F
0.100253625000000,63,0xA8,0x4F
0.100263875000000,63,0x04,0x4F
0.100274125000000,63,0x17,0x5F
0.106725750000000,64,0x36,0x0F
0.106731250000000,64,0x3D,0x0F
0.106738750000000,65,0x0A,0x0F
0.106745750000000,65,0xA4,0x0F
0.106754250000000,66,0x36,0x0F
0.106759625000000,66,0x3D,0x0F
0.106765250000000,66,0x3B,0x0F
0.106771125000000,67,0x35,0x0F
0.106776375000000,67,0x7F,0x5F
0.106782375000000,67,0x10,0x5F
0.106792375000000,67,0xDC,0x4F
0.106802375000000,67,0xCC,0x4F
0.106812375000000,67,0x00,0x4F
0.106822375000000,67,0xA0,0x4F
0.106832375000000,67,0x27,0x4F
0.106842375000000,67,0xA0,0x4F
0.106852375000000,67,0x68,0x4F
0.106862375000000,67,0x2A,0x4F
0.106872375000000,67,0x90,0x4F
0.106882375000000,67,0xBE,0x4F
0.106892375000000,67,0xEE,0x4F
0.106902375000000,67,0xBE,0x4F
0.106912375000000,67,0x11,0x4F
0.106922625000000,67,0x28,0x4F
0.106932875000000,67,0x84,0x4F
0.106943125000000,67,0x17,0x5F
0.113396000000000,68,0x36,0x0F
0.113401500000000,68,0x3D,0x0F
0.113409000000000,69,0x0A,0x0F
0.113416000000000,69,0xC3,0x0F
0.113424375000000,70,0x36,0x0F
0.113429875000000,70,0x3D,0x0F
0.113435500000000,70,0x3B,0x0F
0.113441375000000,71,0x35,0x0F
0.113446625000000,71,0x7F,0x5F
0.113452500000000,71,0x10,0x5F
0.113462500000000,71,0xDC,0x4F
0.113472500000000,71,0xCC,0x4F
0.113482500000000,71,0x00,0x4F
0.113492500000000,71,0xA0,0x4F
0.113502500000000,71,0x27,0x4F
0.113512500000000,71,0xA0,0x4F
0.113522500000000,71,0x68,0x4F
0.113532500000000,71,0x1A,0x4F
0.113542500000000,71,0x90,0x4F
0.113552625000000,71,0xBE,0x4F
0.113562625000000,71,0xEE,0x4F
0.113572625000000,71,0xBE,0x4F
0.113582625000000,71,0x9B,0x4F
0.113592875000000,71,0x32,0x4F
0.113603125000000,71,0x0E,0x4F
0.113613375000000,71,0x17,0x5F
0.120066125000000,72,0x36,0x0F
0.120071625000000,72,0x3D,0x0F
0.120079125000000,73,0x0A,0x0F
0.120086125000000,73,0x10,0x0F
0.120094375000000,74,0x36,0x0F
0.120099875000000,74,0x3D,0x0F
0.120105500000000,74,0x3B,0x0F
0.120111375000000,75,0x35,0x0F
0.120116625000000,75,0x7F,0x5F
0.120122500000000,75,0x10,0x5F
0.120132625000000,75,0xDC,0x4F
0.120142625000000,75,0xCC,0x4F
0.120152625000000,75,0x00,0x4F
0.120162625000000,75,0xA0,0x4F
0.120172625000000,75,0x27,0x4F
0.120182625000000,75,0xA0,0x4F
0.120192625000000,75,0x68,0x4F
0.120202625000000,75,0x1A,0x4F
0.120212625000000,75,0x90,0x4F
0.120222625000000,75,0xBE,0x4F
0.120232625000000,75,0xEE,0x4F
0.120242625000000,75,0xBE,0x4F
0.120252625000000,75,0x1B,0x4F
0.120262875000000,75,0xB2,0x4F
0.120273125000000,75,0x0E,0x4F
0.120283500000000,75,0x17,0x5F
0.126735125000000,76,0x36,0x0F
0.126740625000000,76,0x3D,0x0F
0.126748125000000,77,0x0A,0x0F
0.126755125000000,77,0x30,0x0F
0.126763500000000,78,0x36,0x0F
0.126769000000000,78,0x3D,0x0F
0.126774625000000,78,0x3B,0x0F
0.126780500000000,79,0x35,0x0F
0.126785750000000,79,0x7F,0x5F
0.126791625000000,79,0x10,0x5F
0.126801625000000,79,0xDC,0x4F
0.126811625000000,79,0xCC,0x4F
0.126821625000000,79,0x00,0x4F
0.126831625000000,79,0xA0,0x4F
0.126841625000000,79,0x27,0x4F
0.126851625000000,79,0xA0,0x4F
0.126861625000000,79,0x68,0x4F
0.126871625000000,79,0x1A,0x4F
0.126881625000000,79,0x90,0x4F
0.126891625000000,79,0xBE,0x4F
0.126901750000000,79,0xEE,0x4F
0.126911750000000,79,0xBE,0x4F
0.126921750000000,79,0x1B,0x4F
0.126932000000000,79,0x32,0x4F
0.126942250000000,79,0x8E,0x4F
0.126952500000000,79,0x17,0x5F
0.133406000000000,80,0x36,0x0F
0.133411375000000,80,0x3D,0x0F
0.133418875000000,81,0x0A,0x0F
0.133425875000000,81,0xC6,0x0F
0.133434375000000,82,0x36,0x0F
0.133439750000000,82,0x3D,0x0F
0.133445375000000,82,0x3B,0x0F
0.133451250000000,83,0x35,0x0F
0.133456500000000,83,0x7F,0x5F
0.133462500000000,83,0x10,0x5F
0.133472500000000,83,0xDC,0x4F
0.133482500000000,83,0xCC,0x4F
0.133492500000000,83,0x00,0x4F
0.133502500000000,83,0xA0,0x4F
0.133512500000000,83,0x27,0x4F
0.133522500000000,83,0xA0,0x4F
0.133532500000000,83,0x68,0x4F
0.133542500000000,83,0x1B,0x4F
0.133552500000000,83,0x90,0x4F
0.133562500000000,83,0xBE,0x4F
0.133572500000000,83,0xEE,0x4F
0.133582500000000,83,0xBE,0x4F
0.133592500000000,83,0xA5,0x4F
0.133602750000000,83,0x01,0x4F
0.133613125000000,83,0x18,0x4F
0.133623375000000,83,0x17,0x5F
0.140077000000000,84,0x36,0x0F
0.140082500000000,84,0x3D,0x0F
0.140090000000000,85,0x0A,0x0F
0.140097000000000,85,0x14,0x0F
0.140105375000000,86,0x36,0x0F
0.140110750000000,86,0x3D,0x0F
0.140116375000000,86,0x3B,0x0F
0.140122250000000,87,0x35,0x0F
0.140127500000000,87,0x7F,0x5F
0.140133500000000,87,0x10,0x5F
0.140143500000000,87,0xDC,0x4F
0.140153500000000,87,0xCC,0x4F
0.140163500000000,87,0x00,0x4F
0.140173500000000,87,0xA0,0x4F
0.140183500000000,87,0x27,0x4F
0.140193500000000,87,0xA0,0x4F
0.140203500000000,87,0x68,0x4F
0.140213500000000,87,0x1B,0x4F
0.140223500000000,87,0x90,0x4F
0.140233500000000,87,0xBE,0x4F
0.140243500000000,87,0xEE,0x4F
0.140253500000000,87,0xBE,0x4F
0.140263625000000,87,0x25,0x4F
0.140273875000000,87,0x81,0x4F
0.140284125000000,87,0x18,0x4F
0.140294375000000,87,0x17,0x5F
0.146746625000000,88,0x36,0x0F
0.146752000000000,88,0x3D,0x0F
0.146759500000000,89,0x0A,0x0F
0.146766500000000,89,0x34,0x0F
0.146775000000000,90,0x36,0x0F
0.146780500000000,90,0x3D,0x0F
0.146786125000000,90,0x3B,0x0F
0.146792000000000,91,0x35,0x0F
0.146797250000000,91,0x7F,0x5F
0.146803125000000,91,0x10,0x5F
0.146813125000000,91,0xDC,0x4F
0.146823125000000,91,0xCC,0x4F
0.146833125000000,91,0x00,0x4F
0.146843125000000,91,0xA0,0x4F
0.146853125000000,91,0x27,0x4F
0.146863125000000,91,0xA0,0x4F
0.146873125000000,91,0x68,0x4F
0.146883250000000,91,0x1B,0x4F
0.146893250000000,91,0x90,0x4F
0.146903250000000,91,0xBE,0x4F
0.146913250000000,91,0xEE,0x4F
0.146923250000000,91,0xBE,0x4F
0.146933250000000,91,0x25,0x4F
0.146943500000000,91,0x01,0x4F
0.146953750000000,91,0x98,0x4F
0.146964000000000,91,0x17,0x5F
0.153417000000000,92,0x36,0x0F
0.153422375000000,92,0x3D,0x0F
0.153429875000000,93,0x0A,0x0F
0.153436875000000,93,0xCC,0x0F
0.153445375000000,94,0x36,0x0F
0.153450750000000,94,0x3D,0x0F
0.153456375000000,94,0x3B,0x0F
0.153462250000000,95,0x35,0x0F
0.153467500000000,95,0x7F,0x5F
0.153473500000000,95,0x10,0x5F
0.153483500000000,95,0xDC,0x4F
0.153493500000000,95,0xCC,0x4F
0.153503500000000,95,0x00,0x4F
0.153513500000000,95,0xA0,0x4F
0.153523500000000,95,0x27,0x4F
0.153533500000000,95,0xA0,0x4F
0.153543500000000,95,0x68,0x4F
0.153553500000000,95,0x1B,0x4F
0.153563500000000,95,0x90,0x4F
0.153573500000000,95,0xBE,0x4F
0.153583500000000,95,0xEE,0x4F
0.153593500000000,95,0xBE,0x4F
0.153603500000000,95,0xAF,0x4F
0.153613750000000,95,0x0B,0x4F
0.153624000000000,95,0x22,0x4F
0.153634250000000,95,0x17,0x5F
0.160087750000000,96,0x36,0x0F
0.160093250000000,96,0x3D,0x0F
0.160100750000000,97,0x0A,0x0F
0.160107750000000,97,0x78,0x0F
0.160116125000000,98,0x36,0x0F
0.160121625000000,98,0x3D,0x0F
0.160127250000000,98,0x3B,0x0F
0.160133125000000,99,0x35,0x0F
0.160138375000000,99,0x7F,0x5F
0.160144250000000,99,0x10,0x5F
0.160154250000000,99,0xDC,0x4F
0.160164250000000,99,0xCC,0x4F
0.160174250000000,99,0x00,0x4F
0.160184375000000,99,0xA0,0x4F
0.160194375000000,99,0x27,0x4F
0.160204375000000,99,0xA0,0x4F
0.160214375000000,99,0x68,0x4F
0.160224375000000,99,0x1B,0x4F
0.160234375000000,99,0x90,0x4F
0.160244375000000,99,0xBE,0x4F
0.160254375000000,99,0xEE,0x4F
0.160264375000000,99,0xBE,0x4F
