Time [s],Packet ID,MOSI,MISO
0.000000000000000,0,0x36,0x0F
0.000005375000000,0,0x3D,0x0F
0.000012875000000,1,0x0A,0x0F
0.000019875000000,1,0xA4,0x0F
0.000028375000000,2,0x36,0x0F
0.000033750000000,2,0x3D,0x0F
0.000039375000000,2,0x3B,0x0F
0.000045250000000,3,0x35,0x0F
0.000050500000000,3,0x7F,0x5F
0.000056500000000,3,0x10,0x5F
0.000066500000000,3,0xDC,0x4F
0.000076500000000,3,0xCC,0x4F
0.000086500000000,3,0x00,0x4F
0.000096500000000,3,0x9F,0x4F
0.000106500000000,3,0xF7,0x4F
0.000116500000000,3,0xA0,0x4F
0.000126500000000,3,0x68,0x4F
0.000136500000000,3,0x29,0x4F
0.000146500000000,3,0x90,0x4F
0.000156500000000,3,0xBE,0x4F
0.000166500000000,3,0xEE,0x4F
0.000176500000000,3,0xBE,0x4F
0.000186625000000,3,0x11,0x4F
0.000196875000000,3,0xBA,0x4F
0.000207125000000,3,0x28,0x4F
0.000217375000000,3,0x29,0x5F
0.006668000000000,4,0x36,0x0F
0.006673375000000,4,0x3D,0x0F
0.006680875000000,5,0x0A,0x0F
0.006688000000000,5,0xB4,0x0F
0.006696500000000,6,0x36,0x0F
0.006701875000000,6,0x3D,0x0F
0.006707500000000,6,0x3B,0x0F
0.006713375000000,7,0x35,0x0F
0.006718625000000,7,0x7F,0x5F
0.006724625000000,7,0x10,0x5F
0.006734625000000,7,0xDC,0x4F
0.006744625000000,7,0xCC,0x4F
0.006754625000000,7,0x00,0x4F
0.006764625000000,7,0x9F,0x4F
0.006774625000000,7,0xF7,0x4F
0.006784625000000,7,0xA0,0x4F
0.006794625000000,7,0x68,0x4F
0.006804625000000,7,0x29,0x4F
0.006814625000000,7,0x90,0x4F
0.006824625000000,7,0xBE,0x4F
0.006834625000000,7,0xEE,0x4F
0.006844625000000,7,0xBE,0x4F
0.006854625000000,7,0x11,0x4F
0.006864875000000,7,0x3A,0x4F
0.006875125000000,7,0xA8,0x4F
0.006885375000000,7,0x29,0x5F
0.013336250000000,8,0x36,0x0F
0.013341625000000,8,0x3D,0x0F
0.013349125000000,9,0x0A,0x0F
0.013356125000000,9,0xC3,0x0F
0.013364625000000,10,0x36,0x0F
0.013370000000000,10,0x3D,0x0F
0.013375625000000,10,0x3B,0x0F
0.013381500000000,11,0x35,0x0F
0.013386750000000,11,0x7F,0x5F
0.013392750000000,11,0x10,0x5F
0.013402750000000,11,0xDC,0x4F
0.013412750000000,11,0xCC,0x4F
0.013422750000000,11,0x00,0x4F
0.013432750000000,11,0x9F,0x4F
0.013442750000000,11,0xF8,0x4F
0.013452750000000,11,0xA0,0x4F
0.013462750000000,11,0x68,0x4F
0.013472750000000,11,0x29,0x4F
0.013482750000000,11,0x90,0x4F
0.013492750000000,11,0xBE,0x4F
0.013502750000000,11,0xEE,0x4F
0.013512750000000,11,0xBE,0x4F
0.013522750000000,11,0x96,0x4F
0.013533000000000,11,0x04,0x4F
0.013543250000000,11,0x2D,0x4F
0.013553500000000,11,0x29,0x5F
0.020005375000000,12,0x36,0x0F
0.020010750000000,12,0x3D,0x0F
0.020018250000000,13,0x0A,0x0F
0.020025250000000,13,0x74,0x0F
0.020033750000000,14,0x36,0x0F
0.020039125000000,14,0x3D,0x0F
0.020044750000000,14,0x3B,0x0F
0.020050625000000,15,0x35,0x0F
0.020055875000000,15,0x7F,0x5F
0.020061875000000,15,0x10,0x5F
0.020071875000000,15,0xDC,0x4F
0.020081875000000,15,0xCC,0x4F
0.020091875000000,15,0x00,0x4F
0.020101875000000,15,0x9F,0x4F
0.020111875000000,15,0xF8,0x4F
0.020121875000000,15,0xA0,0x4F
0.020131875000000,15,0x68,0x4F
0.020141875000000,15,0x29,0x4F
0.020151875000000,15,0x90,0x4F
0.020161875000000,15,0xBE,0x4F
0.020171875000000,15,0xEE,0x4F
0.020181875000000,15,0xBE,0x4F
0.020191875000000,15,0x16,0x4F
0.020202250000000,15,0x84,0x4F
0.020212500000000,15,0x2D,0x4F
0.020222750000000,15,0x29,0x5F
0.026673375000000,16,0x36,0x0F
0.026678875000000,16,0x3D,0x0F
0.026686375000000,17,0x0A,0x0F
0.026693375000000,17,0x10,0x0F
0.026701750000000,18,0x36,0x0F
0.026707125000000,18,0x3D,0x0F
0.026712750000000,18,0x3B,0x0F
0.026718625000000,19,0x35,0x0F
0.026723875000000,19,0x7F,0x5F
0.026729875000000,19,0x10,0x5F
0.026739875000000,19,0xDC,0x4F
0.026749875000000,19,0xCC,0x4F
0.026759875000000,19,0x00,0x4F
0.026769875000000,19,0x9F,0x4F
0.026779875000000,19,0xF8,0x4F
0.026789875000000,19,0xA0,0x4F
0.026799875000000,19,0x68,0x4F
0.026809875000000,19,0x29,0x4F
0.026819875000000,19,0x90,0x4F
0.026829875000000,19,0xBE,0x4F
0.026839875000000,19,0xEE,0x4F
0.026849875000000,19,0xBE,0x4F
0.026859875000000,19,0x16,0x4F
0.026870125000000,19,0x04,0x4F
0.026880375000000,19,0xAD,0x4F
0.026890625000000,19,0x29,0x5F
0.033342125000000,20,0x36,0x0F
0.033347500000000,20,0x3D,0x0F
0.033355000000000,21,0x0A,0x0F
0.033362000000000,21,0x20,0x0F
0.033370375000000,22,0x36,0x0F
0.033375875000000,22,0x3D,0x0F
0.033381500000000,22,0x3B,0x0F
0.033387375000000,23,0x35,0x0F
0.033392625000000,23,0x7F,0x5F
0.033398500000000,23,0x10,0x5F
0.033408500000000,23,0xDC,0x4F
0.033418500000000,23,0xCC,0x4F
0.033428500000000,23,0x00,0x4F
0.033438500000000,23,0xA0,0x4F
0.033448500000000,23,0x08,0x4F
0.033458500000000,23,0xA0,0x4F
0.033468500000000,23,0x68,0x4F
0.033478500000000,23,0x19,0x4F
0.033488500000000,23,0x90,0x4F
0.033498500000000,23,0xBE,0x4F
0.033508500000000,23,0xEE,0x4F
0.033518500000000,23,0xBE,0x4F
0.033528625000000,23,0x9B,0x4F
0.033538875000000,23,0x09,0x4F
0.033549125000000,23,0x32,0x4F
0.033559375000000,23,0x29,0x5F
0.040011375000000,24,0x36,0x0F
0.040016750000000,24,0x3D,0x0F
0.040024250000000,25,0x0A,0x0F
0.040031250000000,25,0x30,0x0F
0.040039625000000,26,0x36,0x0F
0.040045125000000,26,0x3D,0x0F
0.040050750000000,26,0x3B,0x0F
0.040056625000000,27,0x35,0x0F
0.040061875000000,27,0x7F,0x5F
0.040067750000000,27,0x10,0x5F
0.040077750000000,27,0xDC,0x4F
0.040087750000000,27,0xCC,0x4F
0.040097750000000,27,0x00,0x4F
0.040107750000000,27,0xA0,0x4F
0.040117750000000,27,0x08,0x4F
0.040127875000000,27,0xA0,0x4F
0.040137875000000,27,0x68,0x4F
0.040147875000000,27,0x19,0x4F
0.040157875000000,27,0x90,0x4F
0.040167875000000,27,0xBE,0x4F
0.040177875000000,27,0xEE,0x4F
0.040187875000000,27,0xBE,0x4F
0.040197875000000,27,0x1B,0x4F
0.040208125000000,27,0x89,0x4F
0.040218375000000,27,0x32,0x4F
0.040228625000000,27,0x29,0x5F
0.046679625000000,28,0x36,0x0F
0.046685000000000,28,0x3D,0x0F
0.046692500000000,29,0x0A,0x0F
0.046699500000000,29,0xB8,0x0F
0.046708000000000,30,0x36,0x0F
0.046713500000000,30,0x3D,0x0F
0.046719125000000,30,0x3B,0x0F
0.046725000000000,31,0x35,0x0F
0.046730250000000,31,0x7F,0x5F
0.046736125000000,31,0x10,0x5F
0.046746125000000,31,0xDC,0x4F
0.046756125000000,31,0xCC,0x4F
0.046766125000000,31,0x00,0x4F
0.046776125000000,31,0xA0,0x4F
0.046786125000000,31,0x08,0x4F
0.046796125000000,31,0xA0,0x4F
0.046806125000000,31,0x68,0x4F
0.046816125000000,31,0x19,0x4F
0.046826125000000,31,0x90,0x4F
0.046836125000000,31,0xBE,0x4F
0.046846250000000,31,0xEE,0x4F
0.046856250000000,31,0xBE,0x4F
0.046866250000000,31,0x1B,0x4F
0.046876500000000,31,0x09,0x4F
0.046886750000000,31,0xB2,0x4F
0.046897000000000,31,0x29,0x5F
0.053349000000000,32,0x36,0x0F
0.053354375000000,32,0x3D,0x0F
0.053361875000000,33,0x0A,0x0F
0.053368875000000,33,0xC6,0x0F
0.053377375000000,34,0x36,0x0F
0.053382750000000,34,0x3D,0x0F
0.053388375000000,34,0x3B,0x0F
0.053394250000000,35,0x35,0x0F
0.053399500000000,35,0x7F,0x5F
0.053405500000000,35,0x10,0x5F
0.053415500000000,35,0xDC,0x4F
0.053425500000000,35,0xCC,0x4F
0.053435500000000,35,0x00,0x4F
0.053445500000000,35,0x9F,0x4F
0.053455500000000,35,0xF7,0x4F
0.053465500000000,35,0xA0,0x4F
0.053475500000000,35,0x68,0x4F
0.053485500000000,35,0x1A,0x4F
0.053495500000000,35,0x90,0x4F
0.053505500000000,35,0xBE,0x4F
0.053515500000000,35,0xEE,0x4F
0.053525500000000,35,0xBE,0x4F
0.053535625000000,35,0xA0,0x4F
0.053545875000000,35,0x0E,0x4F
0.053556125000000,35,0x37,0x4F
0.053566375000000,35,0x29,0x5F
0.060017625000000,36,0x36,0x0F
0.060023000000000,36,0x3D,0x0F
0.060030500000000,37,0x0A,0x0F
0.060037500000000,37,0xD8,0x0F
0.060045875000000,38,0x36,0x0F
0.060051375000000,38,0x3D,0x0F
0.060057000000000,38,0x3B,0x0F
0.060062875000000,39,0x35,0x0F
0.060068125000000,39,0x7F,0x5F
0.060074000000000,39,0x10,0x5F
0.060084000000000,39,0xDC,0x4F
0.060094000000000,39,0xCC,0x4F
0.060104000000000,39,0x00,0x4F
0.060114125000000,39,0x9F,0x4F
0.060124125000000,39,0xF7,0x4F
0.060134125000000,39,0xA0,0x4F
0.060144125000000,39,0x68,0x4F
0.060154125000000,39,0x1A,0x4F
0.060164125000000,39,0x90,0x4F
0.060174125000000,39,0xBE,0x4F
0.060184125000000,39,0xEE,0x4F
0.060194125000000,39,0xBE,0x4F
0.060204125000000,39,0x20,0x4F
0.060214375000000,39,0x8E,0x4F
0.060224625000000,39,0x37,0x4F
0.060234875000000,39,0x29,0x5F
0.066686500000000,40,0x36,0x0F
0.066691875000000,40,0x3D,0x0F
0.066699375000000,41,0x0A,0x0F
0.066706375000000,41,0x14,0x0F
0.066714875000000,42,0x36,0x0F
0.066720250000000,42,0x3D,0x0F
0.066725875000000,42,0x3B,0x0F
0.066731750000000,43,0x35,0x0F
0.066737000000000,43,0x7F,0x5F
0.066743000000000,43,0x10,0x5F
0.066753000000000,43,0xDC,0x4F
0.066763000000000,43,0xCC,0x4F
0.066773000000000,43,0x00,0x4F
0.066783000000000,43,0x9F,0x4F
0.066793000000000,43,0xF7,0x4F
0.066803000000000,43,0xA0,0x4F
0.066813000000000,43,0x68,0x4F
0.066823000000000,43,0x1A,0x4F
0.066833000000000,43,0x90,0x4F
0.066843000000000,43,0xBE,0x4F
0.066853000000000,43,0xEE,0x4F
0.066863000000000,43,0xBE,0x4F
0.066873000000000,43,0x20,0x4F
0.066883250000000,43,0x0E,0x4F
0.066893500000000,43,0xB7,0x4F
0.066903750000000,43,0x29,0x5F
0.073356000000000,44,0x36,0x0F
0.073361375000000,44,0x3D,0x0F
0.073368875000000,45,0x0A,0x0F
0.073375875000000,45,0x24,0x0F
0.073384375000000,46,0x36,0x0F
0.073389750000000,46,0x3D,0x0F
0.073395375000000,46,0x3B,0x0F
0.073401250000000,47,0x35,0x0F
0.073406500000000,47,0x7F,0x5F
0.073412500000000,47,0x10,0x5F
0.073422500000000,47,0xDC,0x4F
0.073432500000000,47,0xCC,0x4F
0.073442500000000,47,0x00,0x4F
0.073452500000000,47,0x9F,0x4F
0.073462500000000,47,0xF7,0x4F
0.073472500000000,47,0xA0,0x4F
0.073482500000000,47,0x68,0x4F
0.073492500000000,47,0x1A,0x4F
0.073502500000000,47,0x90,0x4F
0.073512500000000,47,0xBE,0x4F
0.073522500000000,47,0xEE,0x4F
0.073532500000000,47,0xBE,0x4F
0.073542625000000,47,0xA5,0x4F
0.073552875000000,47,0x13,0x4F
0.073563125000000,47,0x01,0x4F
0.073573375000000,47,0x29,0x5F
0.080024375000000,48,0x36,0x0F
0.080029875000000,48,0x3D,0x0F
0.080037375000000,49,0x0A,0x0F
0.080044375000000,49,0x34,0x0F
0.080052750000000,50,0x36,0x0F
0.080058250000000,50,0x3D,0x0F
0.080063875000000,50,0x3B,0x0F
0.080069750000000,51,0x35,0x0F
0.080075000000000,51,0x7F,0x5F
0.080080875000000,51,0x10,0x5F
0.080090875000000,51,0xDC,0x4F
0.080100875000000,51,0xCC,0x4F
0.080110875000000,51,0x00,0x4F
0.080120875000000,51,0x9F,0x4F
0.080130875000000,51,0xF7,0x4F
0.080140875000000,51,0xA0,0x4F
0.080150875000000,51,0x68,0x4F
0.080160875000000,51,0x1A,0x4F
0.080170875000000,51,0x90,0x4F
0.080180875000000,51,0xBE,0x4F
0.080191000000000,51,0xEE,0x4F
0.080201000000000,51,0xBE,0x4F
0.080211000000000,51,0x25,0x4F
0.080221250000000,51,0x93,0x4F
0.080231500000000,51,0x01,0x4F
0.080241750000000,51,0x29,0x5F
0.086693375000000,52,0x36,0x0F
0.086698750000000,52,0x3D,0x0F
0.086706250000000,53,0x0A,0x0F
0.086713250000000,53,0xBC,0x0F
0.086721875000000,54,0x36,0x0F
0.086727250000000,54,0x3D,0x0F
0.086732875000000,54,0x3B,0x0F
0.086738750000000,55,0x35,0x0F
0.086744000000000,55,0x7F,0x5F
0.086750000000000,55,0x10,0x5F
0.086760000000000,55,0xDC,0x4F
0.086770000000000,55,0xCC,0x4F
0.086780000000000,55,0x00,0x4F
0.086790000000000,55,0x9F,0x4F
0.086800000000000,55,0xF7,0x4F
0.086810000000000,55,0xA0,0x4F
0.086820000000000,55,0x68,0x4F
0.086830000000000,55,0x1A,0x4F
0.086840000000000,55,0x90,0x4F
0.086850000000000,55,0xBE,0x4F
0.086860000000000,55,0xEE,0x4F
0.086870000000000,55,0xBE,0x4F
0.086880000000000,55,0x25,0x4F
0.086890250000000,55,0x13,0x4F
0.086900500000000,55,0x81,0x4F
0.086910750000000,55,0x29,0x5F
0.093363250000000,56,0x36,0x0F
0.093368750000000,56,0x3D,0x0F
0.093376250000000,57,0x0A,0x0F
0.093383250000000,57,0xCC,0x0F
0.093391625000000,58,0x36,0x0F
0.093397125000000,58,0x3D,0x0F
0.093402750000000,58,0x3B,0x0F
0.093408625000000,59,0x35,0x0F
0.093413875000000,59,0x7F,0x5F
0.093419750000000,59,0x10,0x5F
0.093429750000000,59,0xDC,0x4F
0.093439750000000,59,0xCC,0x4F
0.093449750000000,59,0x00,0x4F
0.093459750000000,59,0x9F,0x4F
0.093469750000000,59,0xF7,0x4F
0.093479750000000,59,0xA0,0x4F
0.093489750000000,59,0x68,0x4F
0.093499750000000,59,0x0A,0x4F
0.093509750000000,59,0x90,0x4F
0.093519750000000,59,0xBE,0x4F
0.093529750000000,59,0xEE,0x4F
0.093539875000000,59,0xBE,0x4F
0.093549875000000,59,0xAA,0x4F
0.093560125000000,59,0x18,0x4F
0.093570375000000,59,0x06,0x4F
0.093580625000000,59,0x29,0x5F
0.100032375000000,60,0x36,0x0F
0.100037875000000,60,0x3D,0x0F
0.100045375000000,61,0x0A,0x0F
0.100052375000000,61,0xDC,0x0F
0.100060750000000,62,0x36,0x0F
0.100066250000000,62,0x3D,0x0F
0.100071875000000,62,0x3B,0x0F
0.100077750000000,63,0x35,0x0F
0.100083000000000,63,0x7F,0x5F
0.100088875000000,63,0x10,0x5F
0.100098875000000,63,0xDC,0x4F
0.100108875000000,63,0xCC,0x4F
0.100119000000000,63,0x00,0x4F
0.100129000000000,63,0x9F,0x4F
0.100139000000000,63,0xF7,0x4F
0.100149000000000,63,0xA0,0x4F
0.100159000000000,63,0x68,0x4F
0.100169000000000,63,0x0A,0x4F
0.100179000000000,63,0x90,0x4F
0.100189000000000,63,0xBE,0x4F
0.100199000000000,63,0xEE,0x4F
0.100209000000000,63,0xBE,0x4F
0.100219000000000,63,0x2A,0x4F
0.100229250000000,63,0x98,0x4F
0.100239500000000,63,0x06,0x4F
0.100249750000000,63,0x29,0x5F
0.106700250000000,64,0x36,0x0F
0.106705625000000,64,0x3D,0x0F
0.106713125000000,65,0x0A,0x0F
0.106720125000000,65,0x78,0x0F
0.106728750000000,66,0x36,0x0F
0.106734125000000,66,0x3D,0x0F
0.106739750000000,66,0x3B,0x0F
0.106745625000000,67,0x35,0x0F
0.106750875000000,67,0x7F,0x5F
0.106756875000000,67,0x10,0x5F
0.106766875000000,67,0xDC,0x4F
0.106776875000000,67,0xCC,0x4F
0.106786875000000,67,0x00,0x4F
0.106796875000000,67,0x9F,0x4F
0.106806875000000,67,0xF7,0x4F
0.106816875000000,67,0xA0,0x4F
0.106826875000000,67,0x68,0x4F
0.106836875000000,67,0x0A,0x4F
0.106846875000000,67,0x90,0x4F
0.106856875000000,67,0xBE,0x4F
0.106866875000000,67,0xEE,0x4F
0.106876875000000,67,0xBE,0x4F
0.106886875000000,67,0x2A,0x4F
0.106897125000000,67,0x18,0x4F
0.106907375000000,67,0x86,0x4F
0.106917625000000,67,0x29,0x5F
0.113369250000000,68,0x36,0x0F
0.113374750000000,68,0x3D,0x0F
0.113382250000000,69,0x0A,0x0F
0.113389250000000,69,0x28,0x0F
0.113397625000000,70,0x36,0x0F
0.113403125000000,70,0x3D,0x0F
0.113408750000000,70,0x3B,0x0F
0.113414625000000,71,0x35,0x0F
0.113419875000000,71,0x7F,0x5F
0.113425750000000,71,0x10,0x5F
0.113435750000000,71,0xDC,0x4F
0.113445750000000,71,0xCC,0x4F
0.113455750000000,71,0x00,0x4F
0.113465750000000,71,0x9F,0x4F
0.113475750000000,71,0xF8,0x4F
0.113485750000000,71,0xA0,0x4F
0.113495750000000,71,0x68,0x4F
0.113505750000000,71,0x0A,0x4F
0.113515750000000,71,0x90,0x4F
0.113525750000000,71,0xBE,0x4F
0.113535750000000,71,0xEE,0x4F
0.113545875000000,71,0xBE,0x4F
0.113555875000000,71,0xAF,0x4F
0.113566125000000,71,0x1D,0x4F
0.113576375000000,71,0x0B,0x4F
0.113586625000000,71,0x29,0x5F
0.120038250000000,72,0x36,0x0F
0.120043625000000,72,0x3D,0x0F
0.120051125000000,73,0x0A,0x0F
0.120058125000000,73,0x38,0x0F
0.120066625000000,74,0x36,0x0F
0.120072000000000,74,0x3D,0x0F
0.120077625000000,74,0x3B,0x0F
0.120083500000000,75,0x35,0x0F
0.120088750000000,75,0x7F,0x5F
0.120094750000000,75,0x10,0x5F
0.120104750000000,75,0xDC,0x4F
0.120114750000000,75,0xCC,0x4F
0.120124750000000,75,0x00,0x4F
0.120134750000000,75,0x9F,0x4F
0.120144750000000,75,0xF8,0x4F
0.120154750000000,75,0xA0,0x4F
0.120164750000000,75,0x68,0x4F
0.120174750000000,75,0x0A,0x4F
0.120184750000000,75,0x90,0x4F
0.120194750000000,75,0xBE,0x4F
0.120204750000000,75,0xEE,0x4F
0.120214750000000,75,0xBE,0x4F
0.120224750000000,75,0x2F,0x4F
0.120235000000000,75,0x9D,0x4F
0.120245250000000,75,0x0B,0x4F
0.120255500000000,75,0x29,0x5F
0.126706250000000,76,0x36,0x0F
0.126711625000000,76,0x3D,0x0F
0.126719125000000,77,0x0A,0x0F
0.126726125000000,77,0x48,0x0F
0.126734625000000,78,0x36,0x0F
0.126740000000000,78,0x3D,0x0F
0.126745625000000,78,0x3B,0x0F
0.126751500000000,79,0x35,0x0F
0.126756750000000,79,0x7F,0x5F
0.126762750000000,79,0x10,0x5F
0.126772750000000,79,0xDC,0x4F
0.126782750000000,79,0xCC,0x4F
0.126792750000000,79,0x00,0x4F
0.126802750000000,79,0x9F,0x4F
0.126812750000000,79,0xF8,0x4F
0.126822750000000,79,0xA0,0x4F
0.126832750000000,79,0x68,0x4F
0.126842750000000,79,0x0A,0x4F
0.126852750000000,79,0x90,0x4F
0.126862750000000,79,0xBE,0x4F
0.126872750000000,79,0xEE,0x4F
0.126882750000000,79,0xBE,0x4F
0.126892875000000,79,0x2F,0x4F
0.126903125000000,79,0x1D,0x4F
0.126913375000000,79,0x8B,0x4F
0.126923625000000,79,0x29,0x5F
0.133375250000000,80,0x36,0x0F
0.133380750000000,80,0x3D,0x0F
0.133388250000000,81,0x0A,0x0F
0.133395250000000,81,0xD0,0x0F
0.133403500000000,82,0x36,0x0F
0.133409000000000,82,0x3D,0x0F
0.133414625000000,82,0x3B,0x0F
0.133420500000000,83,0x35,0x0F
0.133425750000000,83,0x7F,0x5F
0.133431625000000,83,0x10,0x5F
0.133441625000000,83,0xDC,0x4F
0.133451625000000,83,0xCC,0x4F
0.133461625000000,83,0x00,0x4F
0.133471625000000,83,0x9F,0x4F
0.133481625000000,83,0xF7,0x4F
0.133491750000000,83,0xA0,0x4F
0.133501750000000,83,0x68,0x4F
0.133511750000000,83,0x1A,0x4F
0.133521750000000,83,0x90,0x4F
0.133531750000000,83,0xBE,0x4F
0.133541750000000,83,0xEE,0x4F
0.133551750000000,83,0xBE,0x4F
0.133561750000000,83,0xB4,0x4F
0.133572000000000,83,0x22,0x4F
0.133582250000000,83,0x10,0x4F
0.133592500000000,83,0x29,0x5F
0.140044500000000,84,0x36,0x0F
0.140050000000000,84,0x3D,0x0F
0.140057500000000,85,0x0A,0x0F
0.140064500000000,85,0xE0,0x0F
0.140072875000000,86,0x36,0x0F
0.140078375000000,86,0x3D,0x0F
0.140084000000000,86,0x3B,0x0F
0.140089875000000,87,0x35,0x0F
0.140095125000000,87,0x7F,0x5F
0.140101000000000,87,0x10,0x5F
0.140111000000000,87,0xDC,0x4F
0.140121000000000,87,0xCC,0x4F
0.140131000000000,87,0x00,0x4F
0.140141000000000,87,0x9F,0x4F
0.140151000000000,87,0xF7,0x4F
0.140161000000000,87,0xA0,0x4F
0.140171000000000,87,0x68,0x4F
0.140181000000000,87,0x1A,0x4F
0.140191000000000,87,0x90,0x4F
0.140201000000000,87,0xBE,0x4F
0.140211000000000,87,0xEE,0x4F
0.140221000000000,87,0xBE,0x4F
0.140231125000000,87,0x34,0x4F
0.140241375000000,87,0xA2,0x4F
0.140251625000000,87,0x10,0x4F
0.140261875000000,87,0x29,0x5F
0.146712625000000,88,0x36,0x0F
0.146718125000000,88,0x3D,0x0F
0.146725625000000,89,0x0A,0x0F
0.146732625000000,89,0x7C,0x0F
0.146741125000000,90,0x36,0x0F
0.146746625000000,90,0x3D,0x0F
0.146752250000000,90,0x3B,0x0F
0.146758125000000,91,0x35,0x0F
0.146763375000000,91,0x7F,0x5F
0.146769250000000,91,0x10,0x5F
0.146779250000000,91,0xDC,0x4F
0.146789250000000,91,0xCC,0x4F
0.146799250000000,91,0x00,0x4F
0.146809250000000,91,0x9F,0x4F
0.146819250000000,91,0xF7,0x4F
0.146829250000000,91,0xA0,0x4F
0.146839250000000,91,0x68,0x4F
0.146849250000000,91,0x1A,0x4F
0.146859375000000,91,0x90,0x4F
0.146869375000000,91,0xBE,0x4F
0.146879375000000,91,0xEE,0x4F
0.146889375000000,91,0xBE,0x4F
0.146899375000000,91,0x34,0x4F
0.146909625000000,91,0x22,0x4F
0.146919875000000,91,0x90,0x4F
0.146930125000000,91,0x29,0x5F
0.153381500000000,92,0x36,0x0F
0.153387000000000,92,0x3D,0x0F
0.153394500000000,93,0x0A,0x0F
0.153401500000000,93,0x2C,0x0F
0.153410000000000,94,0x36,0x0F
0.153415375000000,94,0x3D,0x0F
0.153421000000000,94,0x3B,0x0F
0.153426875000000,95,0x35,0x0F
0.153432125000000,95,0x7F,0x5F
0.153438125000000,95,0x10,0x5F
0.153448125000000,95,0xDC,0x4F
0.153458125000000,95,0xCC,0x4F
0.153468125000000,95,0x00,0x4F
0.153478125000000,95,0x9F,0x4F
0.153488125000000,95,0xF8,0x4F
0.153498125000000,95,0xA0,0x4F
0.153508125000000,95,0x68,0x4F
0.153518125000000,95,0x29,0x4F
0.153528125000000,95,0x90,0x4F
0.153538125000000,95,0xBE,0x4F
0.153548125000000,95,0xEE,0x4F
0.153558125000000,95,0xBE,0x4F
0.153568250000000,95,0xB9,0x4F
0.153578500000000,95,0x27,0x4F
0.153588750000000,95,0x15,0x4F
0.153599000000000,95,0x29,0x5F
0.160051500000000,96,0x36,0x0F
0.160057000000000,96,0x3D,0x0F
0.160064500000000,97,0x0A,0x0F
0.160071500000000,97,0x3C,0x0F
0.160080000000000,98,0x36,0x0F
0.160085375000000,98,0x3D,0x0F
0.160091000000000,98,0x3B,0x0F
0.160096875000000,99,0x35,0x0F
0.160102125000000,99,0x7F,0x5F
0.160108125000000,99,0x10,0x5F
0.160118125000000,99,0xDC,0x4F
0.160128125000000,99,0xCC,0x4F
0.160138125000000,99,0x00,0x4F
0.160148125000000,99,0x9F,0x4F
0.160158125000000,99,0xF8,0x4F
0.160168125000000,99,0xA0,0x4F
0.160178125000000,99,0x68,0x4F
0.160188125000000,99,0x29,0x4F
0.160198125000000,99,0x90,0x4F
0.160208125000000,99,0xBE,0x4F
0.160218125000000,99,0xEE,0x4F
0.160228125000000,99,0xBE,0x4F
