Time [s],Packet ID,MOSI,MISO
0.000000000000000,0,0x36,0x0F
0.000005500000000,0,0x3D,0x0F
0.000013000000000,1,0x0A,0x0F
0.000020000000000,1,0xB8,0x0F
0.000028375000000,2,0x36,0x0F
0.000033875000000,2,0x3D,0x0F
0.000039500000000,2,0x3B,0x0F
0.000045375000000,3,0x35,0x0F
0.000050625000000,3,0x7F,0x5F
0.000056500000000,3,0x10,0x5F
0.000066500000000,3,0xDC,0x4F
0.000076500000000,3,0xCC,0x4F
0.000086500000000,3,0x00,0x4F
0.000096500000000,3,0x9F,0x4F
0.000106500000000,3,0xF7,0x4F
0.000116500000000,3,0xA0,0x4F
0.000126500000000,3,0x67,0x4F
0.000136500000000,3,0xFB,0x4F
0.000146625000000,3,0x90,0x4F
0.000156625000000,3,0xBE,0x4F
0.000166625000000,3,0xEE,0x4F
0.000176625000000,3,0xBE,0x4F
0.000186625000000,3,0xB7,0x4F
0.000196875000000,3,0x13,0x4F
0.000207125000000,3,0x2A,0x4F
0.000217375000000,3,0x17,0x5F
0.006668375000000,4,0x36,0x0F
0.006673875000000,4,0x3D,0x0F
0.006681375000000,5,0x0A,0x0F
0.006688375000000,5,0xD8,0x0F
0.006696750000000,6,0x36,0x0F
0.006702125000000,6,0x3D,0x0F
0.006707750000000,6,0x3B,0x0F
0.006713625000000,7,0x35,0x0F
0.006718875000000,7,0x7F,0x5F
0.006724875000000,7,0x10,0x5F
0.006734875000000,7,0xDC,0x4F
0.006744875000000,7,0xCC,0x4F
0.006754875000000,7,0x00,0x4F
0.006764875000000,7,0x9F,0x4F
0.006774875000000,7,0xF7,0x4F
0.006784875000000,7,0xA0,0x4F
0.006794875000000,7,0x67,0x4F
0.006804875000000,7,0xFB,0x4F
0.006814875000000,7,0x90,0x4F
0.006824875000000,7,0xBE,0x4F
0.006834875000000,7,0xEE,0x4F
0.006844875000000,7,0xBE,0x4F
0.006854875000000,7,0x37,0x4F
0.006865125000000,7,0x93,0x4F
0.006875375000000,7,0x2A,0x4F
0.006885625000000,7,0x17,0x5F
0.013336375000000,8,0x36,0x0F
0.013341750000000,8,0x3D,0x0F
0.013349250000000,9,0x0A,0x0F
0.013356250000000,9,0x24,0x0F
0.013364750000000,10,0x36,0x0F
0.013370250000000,10,0x3D,0x0F
0.013375875000000,10,0x3B,0x0F
0.013381750000000,11,0x35,0x0F
0.013387000000000,11,0x7F,0x5F
0.013393000000000,11,0x10,0x5F
0.013403000000000,11,0xDC,0x4F
0.013413000000000,11,0xCC,0x4F
0.013423000000000,11,0x00,0x4F
0.013433000000000,11,0x9F,0x4F
0.013443000000000,11,0xF7,0x4F
0.013453000000000,11,0xA0,0x4F
0.013463000000000,11,0x67,0x4F
0.013473000000000,11,0xFB,0x4F
0.013483000000000,11,0x90,0x4F
0.013493000000000,11,0xBE,0x4F
0.013503000000000,11,0xEE,0x4F
0.013513000000000,11,0xBE,0x4F
0.013523000000000,11,0x37,0x4F
0.013533250000000,11,0x13,0x4F
0.013543500000000,11,0xAA,0x4F
0.013553750000000,11,0x17,0x5F
0.020005000000000,12,0x36,0x0F
0.020010500000000,12,0x3D,0x0F
0.020018000000000,13,0x0A,0x0F
0.020025000000000,13,0xBC,0x0F
0.020033500000000,14,0x36,0x0F
0.020038875000000,14,0x3D,0x0F
0.020044500000000,14,0x3B,0x0F
0.020050375000000,15,0x35,0x0F
0.020055625000000,15,0x7F,0x5F
0.020061625000000,15,0x10,0x5F
0.020071625000000,15,0xDC,0x4F
0.020081625000000,15,0xCC,0x4F
0.020091625000000,15,0x00,0x4F
0.020101625000000,15,0x9F,0x4F
0.020111625000000,15,0xF7,0x4F
0.020121625000000,15,0xA0,0x4F
0.020131625000000,15,0x67,0x4F
0.020141625000000,15,0xFC,0x4F
0.020151625000000,15,0x90,0x4F
0.020161625000000,15,0xBE,0x4F
0.020171625000000,15,0xEE,0x4F
0.020181625000000,15,0xBE,0x4F
0.020191750000000,15,0x86,0x4F
0.020202000000000,15,0x1D,0x4F
0.020212250000000,15,0x34,0x4F
0.020222500000000,15,0x17,0x5F
0.026674000000000,16,0x36,0x0F
0.026679375000000,16,0x3D,0x0F
0.026686875000000,17,0x0A,0x0F
0.026694000000000,17,0xDC,0x0F
0.026702375000000,18,0x36,0x0F
0.026707875000000,18,0x3D,0x0F
0.026713500000000,18,0x3B,0x0F
0.026719375000000,19,0x35,0x0F
0.026724625000000,19,0x7F,0x5F
0.026730500000000,19,0x10,0x5F
0.026740500000000,19,0xDC,0x4F
0.026750500000000,19,0xCC,0x4F
0.026760500000000,19,0x00,0x4F
0.026770500000000,19,0x9F,0x4F
0.026780500000000,19,0xF7,0x4F
0.026790500000000,19,0xA0,0x4F
0.026800500000000,19,0x67,0x4F
0.026810500000000,19,0xFC,0x4F
0.026820500000000,19,0x90,0x4F
0.026830500000000,19,0xBE,0x4F
0.026840500000000,19,0xEE,0x4F
0.026850500000000,19,0xBE,0x4F
0.026860625000000,19,0x06,0x4F
0.026870875000000,19,0x9D,0x4F
0.026881125000000,19,0x34,0x4F
0.026891375000000,19,0x17,0x5F
0.033342375000000,20,0x36,0x0F
0.033347875000000,20,0x3D,0x0F
0.033355375000000,21,0x0A,0x0F
0.033362375000000,21,0x28,0x0F
0.033370875000000,22,0x36,0x0F
0.033376250000000,22,0x3D,0x0F
0.033381875000000,22,0x3B,0x0F
0.033387750000000,23,0x35,0x0F
0.033393000000000,23,0x7F,0x5F
0.033399000000000,23,0x10,0x5F
0.033409000000000,23,0xDC,0x4F
0.033419000000000,23,0xCC,0x4F
0.033429000000000,23,0x00,0x4F
0.033439000000000,23,0x9F,0x4F
0.033449000000000,23,0xF7,0x4F
0.033459000000000,23,0xA0,0x4F
0.033469000000000,23,0x67,0x4F
0.033479000000000,23,0xFC,0x4F
0.033489000000000,23,0x90,0x4F
0.033499000000000,23,0xBE,0x4F
0.033509000000000,23,0xEE,0x4F
0.033519000000000,23,0xBE,0x4F
0.033529000000000,23,0x06,0x4F
0.033539250000000,23,0x1D,0x4F
0.033549500000000,23,0xB4,0x4F
0.033559750000000,23,0x17,0x5F
0.040011250000000,24,0x36,0x0F
0.040016625000000,24,0x3D,0x0F
0.040024125000000,25,0x0A,0x0F
0.040031125000000,25,0x48,0x0F
0.040039500000000,26,0x36,0x0F
0.040045000000000,26,0x3D,0x0F
0.040050625000000,26,0x3B,0x0F
0.040056500000000,27,0x35,0x0F
0.040061750000000,27,0x7F,0x5F
0.040067750000000,27,0x10,0x5F
0.040077750000000,27,0xDC,0x4F
0.040087750000000,27,0xCC,0x4F
0.040097750000000,27,0x00,0x4F
0.040107750000000,27,0x9F,0x4F
0.040117750000000,27,0xF7,0x4F
0.040127750000000,27,0xA0,0x4F
0.040137750000000,27,0x67,0x4F
0.040147750000000,27,0xFB,0x4F
0.040157750000000,27,0x90,0x4F
0.040167750000000,27,0xBE,0x4F
0.040177750000000,27,0xEE,0x4F
0.040187750000000,27,0xBE,0x4F
0.040197750000000,27,0x90,0x4F
0.040208000000000,27,0x27,0x4F
0.040218250000000,27,0x03,0x4F
0.040228500000000,27,0x17,0x5F
0.046680875000000,28,0x36,0x0F
0.046686375000000,28,0x3D,0x0F
0.046693875000000,29,0x0A,0x0F
0.046700875000000,29,0xE0,0x0F
0.046709250000000,30,0x36,0x0F
0.046714625000000,30,0x3D,0x0F
0.046720250000000,30,0x3B,0x0F
0.046726125000000,31,0x35,0x0F
0.046731375000000,31,0x7F,0x5F
0.046737375000000,31,0x10,0x5F
0.046747375000000,31,0xDC,0x4F
0.046757375000000,31,0xCC,0x4F
0.046767375000000,31,0x00,0x4F
0.046777375000000,31,0x9F,0x4F
0.046787375000000,31,0xF7,0x4F
0.046797375000000,31,0xA0,0x4F
0.046807375000000,31,0x67,0x4F
0.046817375000000,31,0xFB,0x4F
0.046827375000000,31,0x90,0x4F
0.046837375000000,31,0xBE,0x4F
0.046847375000000,31,0xEE,0x4F
0.046857375000000,31,0xBE,0x4F
0.046867500000000,31,0x10,0x4F
0.046877750000000,31,0xA7,0x4F
0.046888000000000,31,0x03,0x4F
0.046898250000000,31,0x17,0x5F
0.053349875000000,32,0x36,0x0F
0.053355250000000,32,0x3D,0x0F
0.053362750000000,33,0x0A,0x0F
0.053369750000000,33,0x2C,0x0F
0.053378375000000,34,0x36,0x0F
0.053383750000000,34,0x3D,0x0F
0.053389375000000,34,0x3B,0x0F
0.053395250000000,35,0x35,0x0F
0.053400625000000,35,0x7F,0x5F
0.053406500000000,35,0x10,0x5F
0.053416500000000,35,0xDC,0x4F
0.053426500000000,35,0xCC,0x4F
0.053436500000000,35,0x00,0x4F
0.053446500000000,35,0x9F,0x4F
0.053456500000000,35,0xF7,0x4F
0.053466500000000,35,0xA0,0x4F
0.053476500000000,35,0x67,0x4F
0.053486500000000,35,0xFB,0x4F
0.053496500000000,35,0x90,0x4F
0.053506500000000,35,0xBE,0x4F
0.053516500000000,35,0xEE,0x4F
0.053526500000000,35,0xBE,0x4F
0.053536625000000,35,0x10,0x4F
0.053546875000000,35,0x27,0x4F
0.053557125000000,35,0x83,0x4F
0.053567375000000,35,0x17,0x5F
0.060019000000000,36,0x36,0x0F
0.060024500000000,36,0x3D,0x0F
0.060032000000000,37,0x0A,0x0F
0.060039000000000,37,0x4C,0x0F
0.060047375000000,38,0x36,0x0F
0.060052875000000,38,0x3D,0x0F
0.060058500000000,38,0x3B,0x0F
0.060064375000000,39,0x35,0x0F
0.060069625000000,39,0x7F,0x5F
0.060075500000000,39,0x10,0x5F
0.060085500000000,39,0xDC,0x4F
0.060095500000000,39,0xCC,0x4F
0.060105500000000,39,0x00,0x4F
0.060115500000000,39,0x9F,0x4F
0.060125500000000,39,0xF7,0x4F
0.060135500000000,39,0xA0,0x4F
0.060145500000000,39,0x67,0x4F
0.060155500000000,39,0xEB,0x4F
0.060165500000000,39,0x90,0x4F
0.060175500000000,39,0xBE,0x4F
0.060185500000000,39,0xEE,0x4F
0.060195500000000,39,0xBE,0x4F
0.060205625000000,39,0x9A,0x4F
0.060215875000000,39,0x31,0x4F
0.060226125000000,39,0x0D,0x4F
0.060236375000000,39,0x17,0x5F
0.066688125000000,40,0x36,0x0F
0.066693500000000,40,0x3D,0x0F
0.066701000000000,41,0x0A,0x0F
0.066708000000000,41,0xE4,0x0F
0.066716500000000,42,0x36,0x0F
0.066721875000000,42,0x3D,0x0F
0.066727500000000,42,0x3B,0x0F
0.066733375000000,43,0x35,0x0F
0.066738625000000,43,0x7F,0x5F
0.066744625000000,43,0x10,0x5F
0.066754625000000,43,0xDC,0x4F
0.066764625000000,43,0xCC,0x4F
0.066774625000000,43,0x00,0x4F
0.066784625000000,43,0x9F,0x4F
0.066794625000000,43,0xF7,0x4F
0.066804625000000,43,0xA0,0x4F
0.066814625000000,43,0x67,0x4F
0.066824625000000,43,0xEB,0x4F
0.066834625000000,43,0x90,0x4F
0.066844625000000,43,0xBE,0x4F
0.066854625000000,43,0xEE,0x4F
0.066864625000000,43,0xBE,0x4F
0.066874750000000,43,0x1A,0x4F
0.066885000000000,43,0xB1,0x4F
0.066895250000000,43,0x0D,0x4F
0.066905500000000,43,0x17,0x5F
0.073355625000000,44,0x36,0x0F
0.073361125000000,44,0x3D,0x0F
0.073368625000000,45,0x0A,0x0F
0.073375625000000,45,0x90,0x0F
0.073384000000000,46,0x36,0x0F
0.073389375000000,46,0x3D,0x0F
0.073395000000000,46,0x3B,0x0F
0.073400875000000,47,0x35,0x0F
0.073406125000000,47,0x7F,0x5F
0.073412125000000,47,0x10,0x5F
0.073422125000000,47,0xDC,0x4F
0.073432125000000,47,0xCC,0x4F
0.073442125000000,47,0x00,0x4F
0.073452125000000,47,0x9F,0x4F
0.073462125000000,47,0xF7,0x4F
0.073472125000000,47,0xA0,0x4F
0.073482125000000,47,0x67,0x4F
0.073492125000000,47,0xEB,0x4F
0.073502125000000,47,0x90,0x4F
0.073512125000000,47,0xBE,0x4F
0.073522125000000,47,0xEE,0x4F
0.073532125000000,47,0xBE,0x4F
0.073542250000000,47,0x1A,0x4F
0.073552500000000,47,0x31,0x4F
0.073562750000000,47,0x8D,0x4F
0.073573000000000,47,0x17,0x5F
0.080024250000000,48,0x36,0x0F
0.080029750000000,48,0x3D,0x0F
0.080037250000000,49,0x0A,0x0F
0.080044250000000,49,0x50,0x0F
0.080052625000000,50,0x36,0x0F
0.080058000000000,50,0x3D,0x0F
0.080063625000000,50,0x3B,0x0F
0.080069500000000,51,0x35,0x0F
0.080074750000000,51,0x7F,0x5F
0.080080750000000,51,0x10,0x5F
0.080090625000000,51,0xDC,0x4F
0.080100625000000,51,0xCC,0x4F
0.080110625000000,51,0x00,0x4F
0.080120625000000,51,0x9F,0x4F
0.080130625000000,51,0xF7,0x4F
0.080140625000000,51,0xA0,0x4F
0.080150625000000,51,0x67,0x4F
0.080160625000000,51,0xFC,0x4F
0.080170625000000,51,0x90,0x4F
0.080180625000000,51,0xBE,0x4F
0.080190625000000,51,0xEE,0x4F
0.080200625000000,51,0xBE,0x4F
0.080210750000000,51,0xA4,0x4F
0.080221000000000,51,0x3B,0x4F
0.080231250000000,51,0x00,0x4F
0.080241500000000,51,0x17,0x5F
0.086692750000000,52,0x36,0x0F
0.086698250000000,52,0x3D,0x0F
0.086705750000000,53,0x0A,0x0F
0.086712750000000,53,0xE8,0x0F
0.086721125000000,54,0x36,0x0F
0.086726625000000,54,0x3D,0x0F
0.086732250000000,54,0x3B,0x0F
0.086738125000000,55,0x35,0x0F
0.086743375000000,55,0x7F,0x5F
0.086749250000000,55,0x10,0x5F
0.086759250000000,55,0xDC,0x4F
0.086769250000000,55,0xCC,0x4F
0.086779375000000,55,0x00,0x4F
0.086789375000000,55,0x9F,0x4F
0.086799375000000,55,0xF7,0x4F
0.086809375000000,55,0xA0,0x4F
0.086819375000000,55,0x67,0x4F
0.086829375000000,55,0xFC,0x4F
0.086839375000000,55,0x90,0x4F
0.086849375000000,55,0xBE,0x4F
0.086859375000000,55,0xEE,0x4F
0.086869375000000,55,0xBE,0x4F
0.086879375000000,55,0x24,0x4F
0.086889625000000,55,0xBB,0x4F
0.086899875000000,55,0x00,0x4F
0.086910125000000,55,0x17,0x5F
0.093360625000000,56,0x36,0x0F
0.093366125000000,56,0x3D,0x0F
0.093373625000000,57,0x0A,0x0F
0.093380625000000,57,0x94,0x0F
0.093389000000000,58,0x36,0x0F
0.093394500000000,58,0x3D,0x0F
0.093400125000000,58,0x3B,0x0F
0.093406000000000,59,0x35,0x0F
0.093411250000000,59,0x7F,0x5F
0.093417125000000,59,0x10,0x5F
0.093427125000000,59,0xDC,0x4F
0.093437125000000,59,0xCC,0x4F
0.093447125000000,59,0x00,0x4F
0.093457125000000,59,0x9F,0x4F
0.093467125000000,59,0xF7,0x4F
0.093477125000000,59,0xA0,0x4F
0.093487125000000,59,0x67,0x4F
0.093497125000000,59,0xFC,0x4F
0.093507125000000,59,0x90,0x4F
0.093517125000000,59,0xBE,0x4F
0.093527125000000,59,0xEE,0x4F
0.093537125000000,59,0xBE,0x4F
0.093547250000000,59,0x24,0x4F
0.093557500000000,59,0x3B,0x4F
0.093567750000000,59,0x80,0x4F
0.093578000000000,59,0x17,0x5F
0.100029250000000,60,0x36,0x0F
0.100034750000000,60,0x3D,0x0F
0.100042250000000,61,0x0A,0x0F
0.100049250000000,61,0x54,0x0F
0.100057625000000,62,0x36,0x0F
0.100063000000000,62,0x3D,0x0F
0.100068625000000,62,0x3B,0x0F
0.100074500000000,63,0x35,0x0F
0.100079750000000,63,0x7F,0x5F
0.100085750000000,63,0x10,0x5F
0.100095750000000,63,0xDC,0x4F
0.100105750000000,63,0xCC,0x4F
0.100115750000000,63,0x00,0x4F
0.100125750000000,63,0x9F,0x4F
0.100135750000000,63,0xF7,0x4F
0.100145750000000,63,0xA0,0x4F
0.100155750000000,63,0x67,0x4F
0.100165750000000,63,0xFC,0x4F
0.100175750000000,63,0x90,0x4F
0.100185750000000,63,0xBE,0x4F
0.100195750000000,63,0xEE,0x4F
0.100205750000000,63,0xBE,0x4F
0.100215750000000,63,0x97,0x4F
0.100226000000000,63,0x2E,0x4F
0.100236250000000,63,0x0A,0x4F
0.100246500000000,63,0x17,0x5F
0.106698125000000,64,0x36,0x0F
0.106703500000000,64,0x3D,0x0F
0.106711000000000,65,0x0A,0x0F
0.106718000000000,65,0xEC,0x0F
0.106726500000000,66,0x36,0x0F
0.106732000000000,66,0x3D,0x0F
0.106737625000000,66,0x3B,0x0F
0.106743500000000,67,0x35,0x0F
0.106748750000000,67,0x7F,0x5F
0.106754625000000,67,0x10,0x5F
0.106764625000000,67,0xDC,0x4F
0.106774625000000,67,0xCC,0x4F
0.106784625000000,67,0x00,0x4F
0.106794625000000,67,0x9F,0x4F
0.106804625000000,67,0xF7,0x4F
0.106814625000000,67,0xA0,0x4F
0.106824625000000,67,0x67,0x4F
0.106834625000000,67,0xFC,0x4F
0.106844625000000,67,0x90,0x4F
0.106854625000000,67,0xBE,0x4F
0.106864625000000,67,0xEE,0x4F
0.106874625000000,67,0xBE,0x4F
0.106884750000000,67,0x17,0x4F
0.106895000000000,67,0xAE,0x4F
0.106905250000000,67,0x0A,0x4F
0.106915500000000,67,0x17,0x5F
0.113365875000000,68,0x36,0x0F
0.113371250000000,68,0x3D,0x0F
0.113378750000000,69,0x0A,0x0F
0.113385750000000,69,0x00,0x0F
0.113394125000000,70,0x36,0x0F
0.113399625000000,70,0x3D,0x0F
0.113405250000000,70,0x3B,0x0F
0.113411125000000,71,0x35,0x0F
0.113416375000000,71,0x7F,0x5F
0.113422250000000,71,0x10,0x5F
0.113432250000000,71,0xDC,0x4F
0.113442250000000,71,0xCC,0x4F
0.113452250000000,71,0x00,0x4F
0.113462375000000,71,0x9F,0x4F
0.113472375000000,71,0xF7,0x4F
0.113482375000000,71,0xA0,0x4F
0.113492375000000,71,0x67,0x4F
0.113502375000000,71,0xFC,0x4F
0.113512375000000,71,0x90,0x4F
0.113522375000000,71,0xBE,0x4F
0.113532375000000,71,0xEE,0x4F
0.113542375000000,71,0xBE,0x4F
0.113552375000000,71,0x17,0x4F
0.113562625000000,71,0x2E,0x4F
0.113572875000000,71,0x8A,0x4F
0.113583125000000,71,0x17,0x5F
0.120035000000000,72,0x36,0x0F
0.120040375000000,72,0x3D,0x0F
0.120047875000000,73,0x0A,0x0F
0.120054875000000,73,0x98,0x0F
0.120063250000000,74,0x36,0x0F
0.120068750000000,74,0x3D,0x0F
0.120074375000000,74,0x3B,0x0F
0.120080250000000,75,0x35,0x0F
0.120085500000000,75,0x7F,0x5F
0.120091375000000,75,0x10,0x5F
0.120101375000000,75,0xDC,0x4F
0.120111375000000,75,0xCC,0x4F
0.120121375000000,75,0x00,0x4F
0.120131375000000,75,0x9F,0x4F
0.120141375000000,75,0xF7,0x4F
0.120151375000000,75,0xA0,0x4F
0.120161375000000,75,0x67,0x4F
0.120171375000000,75,0xFB,0x4F
0.120181375000000,75,0x90,0x4F
0.120191375000000,75,0xBE,0x4F
0.120201375000000,75,0xEE,0x4F
0.120211375000000,75,0xBE,0x4F
0.120221500000000,75,0xA1,0x4F
0.120231750000000,75,0x38,0x4F
0.120242000000000,75,0x14,0x4F
0.120252250000000,75,0x17,0x5F
0.126703750000000,76,0x36,0x0F
0.126709125000000,76,0x3D,0x0F
0.126716625000000,77,0x0A,0x0F
0.126723625000000,77,0x58,0x0F
0.126732000000000,78,0x36,0x0F
0.126737500000000,78,0x3D,0x0F
0.126743125000000,78,0x3B,0x0F
0.126749000000000,79,0x35,0x0F
0.126754250000000,79,0x7F,0x5F
0.126760125000000,79,0x10,0x5F
0.126770125000000,79,0xDC,0x4F
0.126780125000000,79,0xCC,0x4F
0.126790125000000,79,0x00,0x4F
0.126800250000000,79,0x9F,0x4F
0.126810250000000,79,0xF7,0x4F
0.126820250000000,79,0xA0,0x4F
0.126830250000000,79,0x67,0x4F
0.126840250000000,79,0xFB,0x4F
0.126850250000000,79,0x90,0x4F
0.126860125000000,79,0xBE,0x4F
0.126870125000000,79,0xEE,0x4F
0.126880250000000,79,0xBE,0x4F
0.126890250000000,79,0x21,0x4F
0.126900500000000,79,0xB8,0x4F
0.126910750000000,79,0x14,0x4F
0.126921000000000,79,0x17,0x5F
0.133371500000000,80,0x36,0x0F
0.133376875000000,80,0x3D,0x0F
0.133384375000000,81,0x0A,0x0F
0.133391375000000,81,0x04,0x0F
0.133399875000000,82,0x36,0x0F
0.133405250000000,82,0x3D,0x0F
0.133410875000000,82,0x3B,0x0F
0.133416750000000,83,0x35,0x0F
0.133422000000000,83,0x7F,0x5F
0.133428000000000,83,0x10,0x5F
0.133438000000000,83,0xDC,0x4F
0.133448000000000,83,0xCC,0x4F
0.133458000000000,83,0x00,0x4F
0.133468000000000,83,0x9F,0x4F
0.133478000000000,83,0xF7,0x4F
0.133488000000000,83,0xA0,0x4F
0.133498000000000,83,0x67,0x4F
0.133508000000000,83,0xFB,0x4F
0.133518000000000,83,0x90,0x4F
0.133528000000000,83,0xBE,0x4F
0.133538000000000,83,0xEE,0x4F
0.133548000000000,83,0xBE,0x4F
0.133558000000000,83,0x21,0x4F
0.133568250000000,83,0x38,0x4F
0.133578500000000,83,0x94,0x4F
0.133588750000000,83,0x17,0x5F
0.140040625000000,84,0x36,0x0F
0.140046000000000,84,0x3D,0x0F
0.140053500000000,85,0x0A,0x0F
0.140060500000000,85,0x9B,0x0F
0.140069000000000,86,0x36,0x0F
0.140074500000000,86,0x3D,0x0F
0.140080125000000,86,0x3B,0x0F
0.140086000000000,87,0x35,0x0F
0.140091250000000,87,0x7F,0x5F
0.140097125000000,87,0x10,0x5F
0.140107125000000,87,0xDC,0x4F
0.140117125000000,87,0xCC,0x4F
0.140127125000000,87,0x00,0x4F
0.140137125000000,87,0x9F,0x4F
0.140147125000000,87,0xF7,0x4F
0.140157125000000,87,0xA0,0x4F
0.140167125000000,87,0x67,0x4F
0.140177250000000,87,0xEB,0x4F
0.140187250000000,87,0x90,0x4F
0.140197250000000,87,0xBE,0x4F
0.140207250000000,87,0xEE,0x4F
0.140217250000000,87,0xBE,0x4F
0.140227250000000,87,0xAB,0x4F
0.140237500000000,87,0x07,0x4F
0.140247750000000,87,0x1E,0x4F
0.140258000000000,87,0x17,0x5F
0.146709500000000,88,0x36,0x0F
0.146714875000000,88,0x3D,0x0F
0.146722375000000,89,0x0A,0x0F
0.146729375000000,89,0x5C,0x0F
0.146737875000000,90,0x36,0x0F
0.146743250000000,90,0x3D,0x0F
0.146748875000000,90,0x3B,0x0F
0.146754750000000,91,0x35,0x0F
0.146760000000000,91,0x7F,0x5F
0.146766000000000,91,0x10,0x5F
0.146776000000000,91,0xDC,0x4F
0.146786000000000,91,0xCC,0x4F
0.146796000000000,91,0x00,0x4F
0.146806000000000,91,0x9F,0x4F
0.146816000000000,91,0xF7,0x4F
0.146826000000000,91,0xA0,0x4F
0.146836000000000,91,0x67,0x4F
0.146846000000000,91,0xEB,0x4F
0.146856000000000,91,0x90,0x4F
0.146866000000000,91,0xBE,0x4F
0.146876000000000,91,0xEE,0x4F
0.146886000000000,91,0xBE,0x4F
0.146896000000000,91,0x2B,0x4F
0.146906250000000,91,0x87,0x4F
0.146916500000000,91,0x1E,0x4F
0.146926750000000,91,0x17,0x5F
0.153377000000000,92,0x36,0x0F
0.153382500000000,92,0x3D,0x0F
0.153390000000000,93,0x0A,0x0F
0.153397000000000,93,0x08,0x0F
0.153405375000000,94,0x36,0x0F
0.153410875000000,94,0x3D,0x0F
0.153416500000000,94,0x3B,0x0F
0.153422375000000,95,0x35,0x0F
0.153427625000000,95,0x7F,0x5F
0.153433500000000,95,0x10,0x5F
0.153443500000000,95,0xDC,0x4F
0.153453500000000,95,0xCC,0x4F
0.153463500000000,95,0x00,0x4F
0.153473500000000,95,0x9F,0x4F
0.153483500000000,95,0xF7,0x4F
0.153493500000000,95,0xA0,0x4F
0.153503500000000,95,0x67,0x4F
0.153513500000000,95,0xEB,0x4F
0.153523500000000,95,0x90,0x4F
0.153533500000000,95,0xBE,0x4F
0.153543500000000,95,0xEE,0x4F
0.153553500000000,95,0xBE,0x4F
0.153563625000000,95,0x2B,0x4F
0.153573875000000,95,0x07,0x4F
0.153584125000000,95,0x9E,0x4F
0.153594375000000,95,0x17,0x5F
0.160045125000000,96,0x36,0x0F
0.160050500000000,96,0x3D,0x0F
0.160058000000000,97,0x0A,0x0F
0.160065000000000,97,0xA0,0x0F
0.160073375000000,98,0x36,0x0F
0.160078875000000,98,0x3D,0x0F
0.160084500000000,98,0x3B,0x0F
0.160090375000000,99,0x35,0x0F
0.160095625000000,99,0x7F,0x5F
0.160101500000000,99,0x10,0x5F
0.160111500000000,99,0xDC,0x4F
0.160121500000000,99,0xCC,0x4F
0.160131625000000,99,0x00,0x4F
0.160141625000000,99,0x9F,0x4F
0.160151625000000,99,0xF7,0x4F
0.160161625000000,99,0xA0,0x4F
0.160171625000000,99,0x67,0x4F
0.160181625000000,99,0xFC,0x4F
0.160191625000000,99,0x90,0x4F
0.160201625000000,99,0xBE,0x4F
0.160211625000000,99,0xEE,0x4F
0.160221625000000,99,0xBE,0x4F
