Time [s],Packet ID,MOSI,MISO
0.000000000000000,0,0x36,0x0F
0.000005500000000,0,0x3D,0x0F
0.000013000000000,1,0x0A,0x0F
0.000020000000000,1,0xB4,0x0F
0.000028375000000,2,0x36,0x0F
0.000033875000000,2,0x3D,0x0F
0.000039500000000,2,0x3B,0x0F
0.000045375000000,3,0x35,0x0F
0.000050625000000,3,0x7F,0x5F
0.000056500000000,3,0x10,0x5F
0.000066500000000,3,0xDC,0x4F
0.000076500000000,3,0xCC,0x4F
0.000086500000000,3,0x00,0x4F
0.000096500000000,3,0xA0,0x4F
0.000106500000000,3,0x07,0x4F
0.000116500000000,3,0xA0,0x4F
0.000126500000000,3,0x68,0x4F
0.000136500000000,3,0x00,0x4F
0.000146500000000,3,0x91,0x4F
0.000156625000000,3,0xBE,0x4F
0.000166625000000,3,0xEE,0x4F
0.000176625000000,3,0xBE,0x4F
0.000186625000000,3,0xAD,0x4F
0.000196875000000,3,0x09,0x4F
0.000207125000000,3,0x20,0x4F
0.000217375000000,3,0x17,0x5F
0.006668875000000,4,0x36,0x0F
0.006674375000000,4,0x3D,0x0F
0.006681875000000,5,0x0A,0x0F
0.006688875000000,5,0x74,0x0F
0.006697250000000,6,0x36,0x0F
0.006702750000000,6,0x3D,0x0F
0.006708375000000,6,0x3B,0x0F
0.006714250000000,7,0x35,0x0F
0.006719500000000,7,0x7F,0x5F
0.006725375000000,7,0x10,0x5F
0.006735375000000,7,0xDC,0x4F
0.006745375000000,7,0xCC,0x4F
0.006755375000000,7,0x00,0x4F
0.006765375000000,7,0xA0,0x4F
0.006775375000000,7,0x07,0x4F
0.006785375000000,7,0xA0,0x4F
0.006795375000000,7,0x68,0x4F
0.006805375000000,7,0x00,0x4F
0.006815375000000,7,0x91,0x4F
0.006825375000000,7,0xBE,0x4F
0.006835375000000,7,0xEE,0x4F
0.006845375000000,7,0xBE,0x4F
0.006855500000000,7,0x2D,0x4F
0.006865750000000,7,0x89,0x4F
0.006876000000000,7,0x20,0x4F
0.006886250000000,7,0x17,0x5F
0.013337750000000,8,0x36,0x0F
0.013343125000000,8,0x3D,0x0F
0.013350625000000,9,0x0A,0x0F
0.013357625000000,9,0x20,0x0F
0.013366125000000,10,0x36,0x0F
0.013371625000000,10,0x3D,0x0F
0.013377250000000,10,0x3B,0x0F
0.013383125000000,11,0x35,0x0F
0.013388375000000,11,0x7F,0x5F
0.013394250000000,11,0x10,0x5F
0.013404250000000,11,0xDC,0x4F
0.013414250000000,11,0xCC,0x4F
0.013424250000000,11,0x00,0x4F
0.013434250000000,11,0xA0,0x4F
0.013444250000000,11,0x07,0x4F
0.013454250000000,11,0xA0,0x4F
0.013464250000000,11,0x68,0x4F
0.013474250000000,11,0x00,0x4F
0.013484250000000,11,0x91,0x4F
0.013494250000000,11,0xBE,0x4F
0.013504250000000,11,0xEE,0x4F
0.013514250000000,11,0xBE,0x4F
0.013524375000000,11,0x2D,0x4F
0.013534625000000,11,0x09,0x4F
0.013544875000000,11,0xA0,0x4F
0.013555125000000,11,0x17,0x5F
0.020007625000000,12,0x36,0x0F
0.020013125000000,12,0x3D,0x0F
0.020020625000000,13,0x0A,0x0F
0.020027625000000,13,0xB8,0x0F
0.020036000000000,14,0x36,0x0F
0.020041500000000,14,0x3D,0x0F
0.020047125000000,14,0x3B,0x0F
0.020053000000000,15,0x35,0x0F
0.020058250000000,15,0x7F,0x5F
0.020064250000000,15,0x10,0x5F
0.020074250000000,15,0xDC,0x4F
0.020084250000000,15,0xCC,0x4F
0.020094250000000,15,0x00,0x4F
0.020104250000000,15,0x9F,0x4F
0.020114250000000,15,0xF7,0x4F
0.020124250000000,15,0xA0,0x4F
0.020134250000000,15,0x68,0x4F
0.020144250000000,15,0x00,0x4F
0.020154250000000,15,0x91,0x4F
0.020164250000000,15,0xBE,0x4F
0.020174250000000,15,0xEE,0x4F
0.020184250000000,15,0xBE,0x4F
0.020194250000000,15,0xB7,0x4F
0.020204500000000,15,0x13,0x4F
0.020214750000000,15,0x2A,0x4F
0.020225000000000,15,0x17,0x5F
0.026678625000000,16,0x36,0x0F
0.026684000000000,16,0x3D,0x0F
0.026691500000000,17,0x0A,0x0F
0.026698500000000,17,0xD8,0x0F
0.026706875000000,18,0x36,0x0F
0.026712375000000,18,0x3D,0x0F
0.026718000000000,18,0x3B,0x0F
0.026723875000000,19,0x35,0x0F
0.026729125000000,19,0x7F,0x5F
0.026735000000000,19,0x10,0x5F
0.026745000000000,19,0xDC,0x4F
0.026755000000000,19,0xCC,0x4F
0.026765000000000,19,0x00,0x4F
0.026775000000000,19,0x9F,0x4F
0.026785000000000,19,0xF7,0x4F
0.026795000000000,19,0xA0,0x4F
0.026805000000000,19,0x68,0x4F
0.026815000000000,19,0x00,0x4F
0.026825125000000,19,0x91,0x4F
0.026835125000000,19,0xBE,0x4F
0.026845125000000,19,0xEE,0x4F
0.026855125000000,19,0xBE,0x4F
0.026865125000000,19,0x37,0x4F
0.026875375000000,19,0x93,0x4F
0.026885625000000,19,0x2A,0x4F
0.026895875000000,19,0x17,0x5F
0.033348375000000,20,0x36,0x0F
0.033353875000000,20,0x3D,0x0F
0.033361375000000,21,0x0A,0x0F
0.033368375000000,21,0x24,0x0F
0.033376875000000,22,0x36,0x0F
0.033382250000000,22,0x3D,0x0F
0.033387875000000,22,0x3B,0x0F
0.033393750000000,23,0x35,0x0F
0.033399125000000,23,0x7F,0x5F
0.033405000000000,23,0x10,0x5F
0.033415000000000,23,0xDC,0x4F
0.033425000000000,23,0xCC,0x4F
0.033435000000000,23,0x00,0x4F
0.033445000000000,23,0x9F,0x4F
0.033455000000000,23,0xF7,0x4F
0.033465000000000,23,0xA0,0x4F
0.033475000000000,23,0x68,0x4F
0.033485000000000,23,0x00,0x4F
0.033495000000000,23,0x91,0x4F
0.033505000000000,23,0xBE,0x4F
0.033515000000000,23,0xEE,0x4F
0.033525000000000,23,0xBE,0x4F
0.033535125000000,23,0x37,0x4F
0.033545375000000,23,0x13,0x4F
0.033555625000000,23,0xAA,0x4F
0.033565875000000,23,0x17,0x5F
0.040017750000000,24,0x36,0x0F
0.040023125000000,24,0x3D,0x0F
0.040030625000000,25,0x0A,0x0F
0.040037625000000,25,0xBC,0x0F
0.040046250000000,26,0x36,0x0F
0.040051625000000,26,0x3D,0x0F
0.040057250000000,26,0x3B,0x0F
0.040063125000000,27,0x35,0x0F
0.040068375000000,27,0x7F,0x5F
0.040074375000000,27,0x10,0x5F
0.040084375000000,27,0xDC,0x4F
0.040094375000000,27,0xCC,0x4F
0.040104375000000,27,0x00,0x4F
0.040114375000000,27,0x9F,0x4F
0.040124375000000,27,0xF7,0x4F
0.040134375000000,27,0xA0,0x4F
0.040144375000000,27,0x68,0x4F
0.040154375000000,27,0x00,0x4F
0.040164375000000,27,0x91,0x4F
0.040174375000000,27,0xBE,0x4F
0.040184375000000,27,0xEE,0x4F
0.040194375000000,27,0xBE,0x4F
0.040204375000000,27,0x86,0x4F
0.040214625000000,27,0x1D,0x4F
0.040224875000000,27,0x34,0x4F
0.040235125000000,27,0x17,0x5F
0.046687125000000,28,0x36,0x0F
0.046692500000000,28,0x3D,0x0F
0.046700000000000,29,0x0A,0x0F
0.046707000000000,29,0xDC,0x0F
0.046715500000000,30,0x36,0x0F
0.046720875000000,30,0x3D,0x0F
0.046726500000000,30,0x3B,0x0F
0.046732375000000,31,0x35,0x0F
0.046737625000000,31,0x7F,0x5F
0.046743625000000,31,0x10,0x5F
0.046753625000000,31,0xDC,0x4F
0.046763625000000,31,0xCC,0x4F
0.046773625000000,31,0x00,0x4F
0.046783625000000,31,0x9F,0x4F
0.046793625000000,31,0xF7,0x4F
0.046803625000000,31,0xA0,0x4F
0.046813625000000,31,0x68,0x4F
0.046823625000000,31,0x00,0x4F
0.046833625000000,31,0x91,0x4F
0.046843625000000,31,0xBE,0x4F
0.046853625000000,31,0xEE,0x4F
0.046863625000000,31,0xBE,0x4F
0.046873625000000,31,0x06,0x4F
0.046883875000000,31,0x9D,0x4F
0.046894125000000,31,0x34,0x4F
0.046904375000000,31,0x17,0x5F
0.053356250000000,32,0x36,0x0F
0.053361625000000,32,0x3D,0x0F
0.053369125000000,33,0x0A,0x0F
0.053376125000000,33,0x28,0x0F
0.053384625000000,34,0x36,0x0F
0.053390125000000,34,0x3D,0x0F
0.053395750000000,34,0x3B,0x0F
0.053401625000000,35,0x35,0x0F
0.053406875000000,35,0x7F,0x5F
0.053412750000000,35,0x10,0x5F
0.053422750000000,35,0xDC,0x4F
0.053432750000000,35,0xCC,0x4F
0.053442750000000,35,0x00,0x4F
0.053452750000000,35,0x9F,0x4F
0.053462750000000,35,0xF7,0x4F
0.053472750000000,35,0xA0,0x4F
0.053482750000000,35,0x68,0x4F
0.053492750000000,35,0x00,0x4F
0.053502750000000,35,0x91,0x4F
0.053512750000000,35,0xBE,0x4F
0.053522750000000,35,0xEE,0x4F
0.053532750000000,35,0xBE,0x4F
0.053542875000000,35,0x06,0x4F
0.053553125000000,35,0x1D,0x4F
0.053563375000000,35,0xB4,0x4F
0.053573625000000,35,0x17,0x5F
0.060026250000000,36,0x36,0x0F
0.060031750000000,36,0x3D,0x0F
0.060039250000000,37,0x0A,0x0F
0.060046250000000,37,0x48,0x0F
0.060054625000000,38,0x36,0x0F
0.060060125000000,38,0x3D,0x0F
0.060065750000000,38,0x3B,0x0F
0.060071625000000,39,0x35,0x0F
0.060076875000000,39,0x7F,0x5F
0.060082750000000,39,0x10,0x5F
0.060092750000000,39,0xDC,0x4F
0.060102750000000,39,0xCC,0x4F
0.060112750000000,39,0x00,0x4F
0.060122750000000,39,0x9F,0x4F
0.060132750000000,39,0xF7,0x4F
0.060142750000000,39,0xA0,0x4F
0.060152750000000,39,0x68,0x4F
0.060162750000000,39,0x00,0x4F
0.060172750000000,39,0x91,0x4F
0.060182750000000,39,0xBE,0x4F
0.060192750000000,39,0xEE,0x4F
0.060202750000000,39,0xBE,0x4F
0.060212875000000,39,0x90,0x4F
0.060223125000000,39,0x27,0x4F
0.060233375000000,39,0x03,0x4F
0.060243625000000,39,0x17,0x5F
0.066696125000000,40,0x36,0x0F
0.066701625000000,40,0x3D,0x0F
0.066709125000000,41,0x0A,0x0F
0.066716125000000,41,0xE0,0x0F
0.066724500000000,42,0x36,0x0F
0.066729875000000,42,0x3D,0x0F
0.066735500000000,42,0x3B,0x0F
0.066741375000000,43,0x35,0x0F
0.066746625000000,43,0x7F,0x5F
0.066752625000000,43,0x10,0x5F
0.066762625000000,43,0xDC,0x4F
0.066772625000000,43,0xCC,0x4F
0.066782625000000,43,0x00,0x4F
0.066792625000000,43,0x9F,0x4F
0.066802625000000,43,0xF7,0x4F
0.066812625000000,43,0xA0,0x4F
0.066822625000000,43,0x68,0x4F
0.066832625000000,43,0x00,0x4F
0.066842625000000,43,0x91,0x4F
0.066852625000000,43,0xBE,0x4F
0.066862625000000,43,0xEE,0x4F
0.066872625000000,43,0xBE,0x4F
0.066882750000000,43,0x10,0x4F
0.066893000000000,43,0xA7,0x4F
0.066903250000000,43,0x03,0x4F
0.066913500000000,43,0x17,0x5F
0.073364875000000,44,0x36,0x0F
0.073370250000000,44,0x3D,0x0F
0.073377750000000,45,0x0A,0x0F
0.073384750000000,45,0x2C,0x0F
0.073393375000000,46,0x36,0x0F
0.073398750000000,46,0x3D,0x0F
0.073404375000000,46,0x3B,0x0F
0.073410375000000,47,0x35,0x0F
0.073415625000000,47,0x7F,0x5F
0.073421500000000,47,0x10,0x5F
0.073431500000000,47,0xDC,0x4F
0.073441500000000,47,0xCC,0x4F
0.073451500000000,47,0x00,0x4F
0.073461500000000,47,0x9F,0x4F
0.073471500000000,47,0xF7,0x4F
0.073481500000000,47,0xA0,0x4F
0.073491500000000,47,0x68,0x4F
0.073501500000000,47,0x00,0x4F
0.073511500000000,47,0x91,0x4F
0.073521500000000,47,0xBE,0x4F
0.073531500000000,47,0xEE,0x4F
0.073541500000000,47,0xBE,0x4F
0.073551625000000,47,0x10,0x4F
0.073561875000000,47,0x27,0x4F
0.073572125000000,47,0x83,0x4F
0.073582375000000,47,0x17,0x5F
0.080034625000000,48,0x36,0x0F
0.080040125000000,48,0x3D,0x0F
0.080047625000000,49,0x0A,0x0F
0.080054625000000,49,0x4C,0x0F
0.080063125000000,50,0x36,0x0F
0.080068500000000,50,0x3D,0x0F
0.080074125000000,50,0x3B,0x0F
0.080080000000000,51,0x35,0x0F
0.080085250000000,51,0x7F,0x5F
0.080091250000000,51,0x10,0x5F
0.080101250000000,51,0xDC,0x4F
0.080111250000000,51,0xCC,0x4F
0.080121250000000,51,0x00,0x4F
0.080131250000000,51,0xA0,0x4F
0.080141250000000,51,0x07,0x4F
0.080151250000000,51,0xA0,0x4F
0.080161250000000,51,0x68,0x4F
0.080171250000000,51,0x00,0x4F
0.080181250000000,51,0x91,0x4F
0.080191250000000,51,0xBE,0x4F
0.080201250000000,51,0xEE,0x4F
0.080211250000000,51,0xBE,0x4F
0.080221250000000,51,0x9A,0x4F
0.080231500000000,51,0x31,0x4F
0.080241750000000,51,0x0D,0x4F
0.080252000000000,51,0x17,0x5F
0.086703000000000,52,0x36,0x0F
0.086708375000000,52,0x3D,0x0F
0.086715875000000,53,0x0A,0x0F
0.086722875000000,53,0xE4,0x0F
0.086731375000000,54,0x36,0x0F
0.086736750000000,54,0x3D,0x0F
0.086742375000000,54,0x3B,0x0F
0.086748250000000,55,0x35,0x0F
0.086753500000000,55,0x7F,0x5F
0.086759500000000,55,0x10,0x5F
0.086769500000000,55,0xDC,0x4F
0.086779500000000,55,0xCC,0x4F
0.086789500000000,55,0x00,0x4F
0.086799500000000,55,0xA0,0x4F
0.086809500000000,55,0x07,0x4F
0.086819500000000,55,0xA0,0x4F
0.086829500000000,55,0x68,0x4F
0.086839500000000,55,0x00,0x4F
0.086849500000000,55,0x91,0x4F
0.086859500000000,55,0xBE,0x4F
0.086869500000000,55,0xEE,0x4F
0.086879500000000,55,0xBE,0x4F
0.086889625000000,55,0x1A,0x4F
0.086899875000000,55,0xB1,0x4F
0.086910125000000,55,0x0D,0x4F
0.086920375000000,55,0x17,0x5F
0.093372375000000,56,0x36,0x0F
0.093377875000000,56,0x3D,0x0F
0.093385375000000,57,0x0A,0x0F
0.093392375000000,57,0x90,0x0F
0.093400750000000,58,0x36,0x0F
0.093406125000000,58,0x3D,0x0F
0.093411750000000,58,0x3B,0x0F
0.093417625000000,59,0x35,0x0F
0.093422875000000,59,0x7F,0x5F
0.093428875000000,59,0x10,0x5F
0.093438875000000,59,0xDC,0x4F
0.093448875000000,59,0xCC,0x4F
0.093458875000000,59,0x00,0x4F
0.093468875000000,59,0xA0,0x4F
0.093478875000000,59,0x07,0x4F
0.093488875000000,59,0xA0,0x4F
0.093498875000000,59,0x68,0x4F
0.093508875000000,59,0x00,0x4F
0.093518875000000,59,0x91,0x4F
0.093528875000000,59,0xBE,0x4F
0.093538875000000,59,0xEE,0x4F
0.093548875000000,59,0xBE,0x4F
0.093559000000000,59,0x1A,0x4F
0.093569250000000,59,0x31,0x4F
0.093579500000000,59,0x8D,0x4F
0.093589750000000,59,0x17,0x5F
0.100042625000000,60,0x36,0x0F
0.100048125000000,60,0x3D,0x0F
0.100055625000000,61,0x0A,0x0F
0.100062625000000,61,0x50,0x0F
0.100070875000000,62,0x36,0x0F
0.100076375000000,62,0x3D,0x0F
0.100082000000000,62,0x3B,0x0F
0.100087875000000,63,0x35,0x0F
0.100093125000000,63,0x7F,0x5F
0.100099000000000,63,0x10,0x5F
0.100109000000000,63,0xDC,0x4F
0.100119000000000,63,0xCC,0x4F
0.100129125000000,63,0x00,0x4F
0.100139125000000,63,0xA0,0x4F
0.100149125000000,63,0x07,0x4F
0.100159125000000,63,0xA0,0x4F
0.100169125000000,63,0x68,0x4F
0.100179125000000,63,0x00,0x4F
0.100189125000000,63,0x91,0x4F
0.100199125000000,63,0xBE,0x4F
0.100209125000000,63,0xEE,0x4F
0.100219125000000,63,0xBE,0x4F
0.100229125000000,63,0xA4,0x4F
0.100239375000000,63,0x3B,0x4F
0.100249625000000,63,0x00,0x4F
0.100259875000000,63,0x17,0x5F
0.106712625000000,64,0x36,0x0F
0.106718000000000,64,0x3D,0x0F
0.106725500000000,65,0x0A,0x0F
0.106732500000000,65,0xE8,0x0F
0.106741000000000,66,0x36,0x0F
0.106746375000000,66,0x3D,0x0F
0.106752000000000,66,0x3B,0x0F
0.106757875000000,67,0x35,0x0F
0.106763125000000,67,0x7F,0x5F
0.106769125000000,67,0x10,0x5F
0.106779125000000,67,0xDC,0x4F
0.106789125000000,67,0xCC,0x4F
0.106799125000000,67,0x00,0x4F
0.106809125000000,67,0xA0,0x4F
0.106819125000000,67,0x07,0x4F
0.106829125000000,67,0xA0,0x4F
0.106839125000000,67,0x68,0x4F
0.106849125000000,67,0x00,0x4F
0.106859125000000,67,0x91,0x4F
0.106869125000000,67,0xBE,0x4F
0.106879125000000,67,0xEE,0x4F
0.106889125000000,67,0xBE,0x4F
0.106899125000000,67,0x24,0x4F
0.106909375000000,67,0xBB,0x4F
0.106919625000000,67,0x00,0x4F
0.106929875000000,67,0x17,0x5F
0.113381375000000,68,0x36,0x0F
0.113386875000000,68,0x3D,0x0F
0.113394375000000,69,0x0A,0x0F
0.113401375000000,69,0x94,0x0F
0.113409750000000,70,0x36,0x0F
0.113415250000000,70,0x3D,0x0F
0.113420875000000,70,0x3B,0x0F
0.113426750000000,71,0x35,0x0F
0.113432000000000,71,0x7F,0x5F
0.113437875000000,71,0x10,0x5F
0.113447875000000,71,0xDC,0x4F
0.113457875000000,71,0xCC,0x4F
0.113468000000000,71,0x00,0x4F
0.113478000000000,71,0xA0,0x4F
0.113488000000000,71,0x07,0x4F
0.113498000000000,71,0xA0,0x4F
0.113508000000000,71,0x68,0x4F
0.113518000000000,71,0x00,0x4F
0.113528000000000,71,0x91,0x4F
0.113538000000000,71,0xBE,0x4F
0.113548000000000,71,0xEE,0x4F
0.113558000000000,71,0xBE,0x4F
0.113568000000000,71,0x24,0x4F
0.113578250000000,71,0x3B,0x4F
0.113588500000000,71,0x80,0x4F
0.113598750000000,71,0x17,0x5F
0.120050750000000,72,0x36,0x0F
0.120056125000000,72,0x3D,0x0F
0.120063625000000,73,0x0A,0x0F
0.120070625000000,73,0x54,0x0F
0.120079000000000,74,0x36,0x0F
0.120084500000000,74,0x3D,0x0F
0.120090125000000,74,0x3B,0x0F
0.120096000000000,75,0x35,0x0F
0.120101250000000,75,0x7F,0x5F
0.120107125000000,75,0x10,0x5F
0.120117125000000,75,0xDC,0x4F
0.120127125000000,75,0xCC,0x4F
0.120137125000000,75,0x00,0x4F
0.120147125000000,75,0xA0,0x4F
0.120157250000000,75,0x07,0x4F
0.120167250000000,75,0xA0,0x4F
0.120177250000000,75,0x68,0x4F
0.120187250000000,75,0x00,0x4F
0.120197250000000,75,0x91,0x4F
0.120207250000000,75,0xBE,0x4F
0.120217250000000,75,0xEE,0x4F
0.120227250000000,75,0xBE,0x4F
0.120237250000000,75,0x97,0x4F
0.120247500000000,75,0x2E,0x4F
0.120257750000000,75,0x0A,0x4F
0.120268000000000,75,0x17,0x5F
0.126720500000000,76,0x36,0x0F
0.126725875000000,76,0x3D,0x0F
0.126733375000000,77,0x0A,0x0F
0.126740375000000,77,0xEC,0x0F
0.126748875000000,78,0x36,0x0F
0.126754375000000,78,0x3D,0x0F
0.126760000000000,78,0x3B,0x0F
0.126765875000000,79,0x35,0x0F
0.126771125000000,79,0x7F,0x5F
0.126777000000000,79,0x10,0x5F
0.126787000000000,79,0xDC,0x4F
0.126797000000000,79,0xCC,0x4F
0.126807000000000,79,0x00,0x4F
0.126817000000000,79,0xA0,0x4F
0.126827000000000,79,0x07,0x4F
0.126837000000000,79,0xA0,0x4F
0.126847000000000,79,0x68,0x4F
0.126857000000000,79,0x00,0x4F
0.126867000000000,79,0x91,0x4F
0.126877000000000,79,0xBE,0x4F
0.126887000000000,79,0xEE,0x4F
0.126897000000000,79,0xBE,0x4F
0.126907125000000,79,0x17,0x4F
0.126917375000000,79,0xAE,0x4F
0.126927625000000,79,0x0A,0x4F
0.126937875000000,79,0x17,0x5F
0.133389625000000,80,0x36,0x0F
0.133395125000000,80,0x3D,0x0F
0.133402625000000,81,0x0A,0x0F
0.133409625000000,81,0x00,0x0F
0.133418000000000,82,0x36,0x0F
0.133423375000000,82,0x3D,0x0F
0.133429125000000,82,0x3B,0x0F
0.133435000000000,83,0x35,0x0F
0.133440250000000,83,0x7F,0x5F
0.133446125000000,83,0x10,0x5F
0.133456125000000,83,0xDC,0x4F
0.133466125000000,83,0xCC,0x4F
0.133476125000000,83,0x00,0x4F
0.133486125000000,83,0xA0,0x4F
0.133496125000000,83,0x07,0x4F
0.133506125000000,83,0xA0,0x4F
0.133516125000000,83,0x68,0x4F
0.133526125000000,83,0x00,0x4F
0.133536125000000,83,0x91,0x4F
0.133546125000000,83,0xBE,0x4F
0.133556125000000,83,0xEE,0x4F
0.133566125000000,83,0xBE,0x4F
0.133576250000000,83,0x17,0x4F
0.133586500000000,83,0x2E,0x4F
0.133596750000000,83,0x8A,0x4F
0.133607000000000,83,0x17,0x5F
0.140059000000000,84,0x36,0x0F
0.140064500000000,84,0x3D,0x0F
0.140072000000000,85,0x0A,0x0F
0.140079000000000,85,0x98,0x0F
0.140087375000000,86,0x36,0x0F
0.140092750000000,86,0x3D,0x0F
0.140098375000000,86,0x3B,0x0F
0.140104250000000,87,0x35,0x0F
0.140109500000000,87,0x7F,0x5F
0.140115500000000,87,0x10,0x5F
0.140125500000000,87,0xDC,0x4F
0.140135500000000,87,0xCC,0x4F
0.140145500000000,87,0x00,0x4F
0.140155500000000,87,0xA0,0x4F
0.140165500000000,87,0x07,0x4F
0.140175500000000,87,0xA0,0x4F
0.140185500000000,87,0x68,0x4F
0.140195500000000,87,0x00,0x4F
0.140205500000000,87,0x91,0x4F
0.140215500000000,87,0xBE,0x4F
0.140225500000000,87,0xEE,0x4F
0.140235500000000,87,0xBE,0x4F
0.140245500000000,87,0xA1,0x4F
0.140255750000000,87,0x38,0x4F
0.140266000000000,87,0x14,0x4F
0.140276250000000,87,0x17,0x5F
0.146728375000000,88,0x36,0x0F
0.146733750000000,88,0x3D,0x0F
0.146741250000000,89,0x0A,0x0F
0.146748250000000,89,0x58,0x0F
0.146756625000000,90,0x36,0x0F
0.146762125000000,90,0x3D,0x0F
0.146767750000000,90,0x3B,0x0F
0.146773625000000,91,0x35,0x0F
0.146778875000000,91,0x7F,0x5F
0.146784750000000,91,0x10,0x5F
0.146794750000000,91,0xDC,0x4F
0.146804750000000,91,0xCC,0x4F
0.146814750000000,91,0x00,0x4F
0.146824750000000,91,0xA0,0x4F
0.146834750000000,91,0x07,0x4F
0.146844750000000,91,0xA0,0x4F
0.146854750000000,91,0x68,0x4F
0.146864750000000,91,0x00,0x4F
0.146874750000000,91,0x91,0x4F
0.146884750000000,91,0xBE,0x4F
0.146894750000000,91,0xEE,0x4F
0.146904750000000,91,0xBE,0x4F
0.146914875000000,91,0x21,0x4F
0.146925125000000,91,0xB8,0x4F
0.146935375000000,91,0x14,0x4F
0.146945625000000,91,0x17,0x5F
0.153397250000000,92,0x36,0x0F
0.153402625000000,92,0x3D,0x0F
0.153410125000000,93,0x0A,0x0F
0.153417125000000,93,0x04,0x0F
0.153425625000000,94,0x36,0x0F
0.153431000000000,94,0x3D,0x0F
0.153436625000000,94,0x3B,0x0F
0.153442500000000,95,0x35,0x0F
0.153447750000000,95,0x7F,0x5F
0.153453750000000,95,0x10,0x5F
0.153463750000000,95,0xDC,0x4F
0.153473750000000,95,0xCC,0x4F
0.153483750000000,95,0x00,0x4F
0.153493750000000,95,0xA0,0x4F
0.153503750000000,95,0x07,0x4F
0.153513750000000,95,0xA0,0x4F
0.153523750000000,95,0x68,0x4F
0.153533750000000,95,0x00,0x4F
0.153543750000000,95,0x91,0x4F
0.153553750000000,95,0xBE,0x4F
0.153563750000000,95,0xEE,0x4F
0.153573750000000,95,0xBE,0x4F
0.153583875000000,95,0x21,0x4F
0.153594125000000,95,0x38,0x4F
0.153604375000000,95,0x94,0x4F
0.153614625000000,95,0x17,0x5F
0.160066625000000,96,0x36,0x0F
0.160072125000000,96,0x3D,0x0F
0.160079625000000,97,0x0A,0x0F
0.160086625000000,97,0x9B,0x0F
0.160095125000000,98,0x36,0x0F
0.160100500000000,98,0x3D,0x0F
0.160106125000000,98,0x3B,0x0F
0.160112000000000,99,0x35,0x0F
0.160117250000000,99,0x7F,0x5F
0.160123250000000,99,0x10,0x5F
0.160133250000000,99,0xDC,0x4F
0.160143250000000,99,0xCC,0x4F
0.160153250000000,99,0x00,0x4F
0.160163250000000,99,0xA0,0x4F
0.160173250000000,99,0x07,0x4F
0.160183250000000,99,0xA0,0x4F
0.160193250000000,99,0x68,0x4F
0.160203250000000,99,0x00,0x4F
0.160213250000000,99,0x91,0x4F
0.160223250000000,99,0xBE,0x4F
0.160233250000000,99,0xEE,0x4F
0.160243250000000,99,0xBE,0x4F
