Time [s],Packet ID,MOSI,MISO
0.000000000000000,0,0x36,0x0F
0.000005500000000,0,0x3D,0x0F
0.000013000000000,1,0x0A,0x0F
0.000020000000000,1,0xEC,0x0F
0.000028500000000,2,0x36,0x0F
0.000033875000000,2,0x3D,0x0F
0.000039500000000,2,0x3B,0x0F
0.000045375000000,3,0x35,0x0F
0.000050625000000,3,0x7F,0x5F
0.000056625000000,3,0x10,0x5F
0.000066625000000,3,0xDC,0x4F
0.000076625000000,3,0xCC,0x4F
0.000086625000000,3,0x00,0x4F
0.000096625000000,3,0x9F,0x4F
0.000106625000000,3,0xF7,0x4F
0.000116625000000,3,0xA0,0x4F
0.000126625000000,3,0x68,0x4F
0.000136625000000,3,0x21,0x4F
0.000146625000000,3,0x91,0x4F
0.000156625000000,3,0xBE,0x4F
0.000166625000000,3,0xEE,0x4F
0.000176625000000,3,0xBE,0x4F
0.000186625000000,3,0x17,0x4F
0.000196875000000,3,0xAE,0x4F
0.000207125000000,3,0x0A,0x4F
0.000217375000000,3,0x17,0x5F
0.006668000000000,4,0x36,0x0F
0.006673500000000,4,0x3D,0x0F
0.006681000000000,5,0x0A,0x0F
0.006688000000000,5,0x00,0x0F
0.006696375000000,6,0x36,0x0F
0.006701750000000,6,0x3D,0x0F
0.006707375000000,6,0x3B,0x0F
0.006713250000000,7,0x35,0x0F
0.006718500000000,7,0x7F,0x5F
0.006724500000000,7,0x10,0x5F
0.006734500000000,7,0xDC,0x4F
0.006744500000000,7,0xCC,0x4F
0.006754500000000,7,0x00,0x4F
0.006764500000000,7,0x9F,0x4F
0.006774500000000,7,0xF7,0x4F
0.006784500000000,7,0xA0,0x4F
0.006794500000000,7,0x68,0x4F
0.006804500000000,7,0x21,0x4F
0.006814500000000,7,0x91,0x4F
0.006824500000000,7,0xBE,0x4F
0.006834500000000,7,0xEE,0x4F
0.006844500000000,7,0xBE,0x4F
0.006854625000000,7,0x17,0x4F
0.006864875000000,7,0x2E,0x4F
0.006875125000000,7,0x8A,0x4F
0.006885375000000,7,0x17,0x5F
0.013336875000000,8,0x36,0x0F
0.013342250000000,8,0x3D,0x0F
0.013349750000000,9,0x0A,0x0F
0.013356750000000,9,0x98,0x0F
0.013365125000000,10,0x36,0x0F
0.013370625000000,10,0x3D,0x0F
0.013376250000000,10,0x3B,0x0F
0.013382125000000,11,0x35,0x0F
0.013387375000000,11,0x7F,0x5F
0.013393250000000,11,0x10,0x5F
0.013403250000000,11,0xDC,0x4F
0.013413250000000,11,0xCC,0x4F
0.013423250000000,11,0x00,0x4F
0.013433375000000,11,0x9F,0x4F
0.013443375000000,11,0xF8,0x4F
0.013453375000000,11,0xA0,0x4F
0.013463375000000,11,0x68,0x4F
0.013473375000000,11,0x20,0x4F
0.013483375000000,11,0x91,0x4F
0.013493375000000,11,0xBE,0x4F
0.013503375000000,11,0xEE,0x4F
0.013513375000000,11,0xBE,0x4F
0.013523375000000,11,0xA1,0x4F
0.013533625000000,11,0x38,0x4F
0.013543875000000,11,0x14,0x4F
0.013554125000000,11,0x17,0x5F
0.020005875000000,12,0x36,0x0F
0.020011375000000,12,0x3D,0x0F
0.020018875000000,13,0x0A,0x0F
0.020025875000000,13,0x58,0x0F
0.020034250000000,14,0x36,0x0F
0.020039625000000,14,0x3D,0x0F
0.020045250000000,14,0x3B,0x0F
0.020051125000000,15,0x35,0x0F
0.020056375000000,15,0x7F,0x5F
0.020062375000000,15,0x10,0x5F
0.020072375000000,15,0xDC,0x4F
0.020082375000000,15,0xCC,0x4F
0.020092375000000,15,0x00,0x4F
0.020102375000000,15,0x9F,0x4F
0.020112375000000,15,0xF8,0x4F
0.020122375000000,15,0xA0,0x4F
0.020132375000000,15,0x68,0x4F
0.020142375000000,15,0x20,0x4F
0.020152375000000,15,0x91,0x4F
0.020162375000000,15,0xBE,0x4F
0.020172375000000,15,0xEE,0x4F
0.020182375000000,15,0xBE,0x4F
0.020192375000000,15,0x21,0x4F
0.020202625000000,15,0xB8,0x4F
0.020212875000000,15,0x14,0x4F
0.020223125000000,15,0x17,0x5F
0.026674000000000,16,0x36,0x0F
0.026679375000000,16,0x3D,0x0F
0.026686875000000,17,0x0A,0x0F
0.026693875000000,17,0x04,0x0F
0.026702375000000,18,0x36,0x0F
0.026707750000000,18,0x3D,0x0F
0.026713375000000,18,0x3B,0x0F
0.026719250000000,19,0x35,0x0F
0.026724500000000,19,0x7F,0x5F
0.026730500000000,19,0x10,0x5F
0.026740500000000,19,0xDC,0x4F
0.026750500000000,19,0xCC,0x4F
0.026760500000000,19,0x00,0x4F
0.026770500000000,19,0x9F,0x4F
0.026780500000000,19,0xF8,0x4F
0.026790500000000,19,0xA0,0x4F
0.026800500000000,19,0x68,0x4F
0.026810500000000,19,0x20,0x4F
0.026820500000000,19,0x91,0x4F
0.026830500000000,19,0xBE,0x4F
0.026840500000000,19,0xEE,0x4F
0.026850500000000,19,0xBE,0x4F
0.026860500000000,19,0x21,0x4F
0.026870750000000,19,0x38,0x4F
0.026881000000000,19,0x94,0x4F
0.026891250000000,19,0x17,0x5F
0.033342625000000,20,0x36,0x0F
0.033348000000000,20,0x3D,0x0F
0.033355500000000,21,0x0A,0x0F
0.033362500000000,21,0x9B,0x0F
0.033371000000000,22,0x36,0x0F
0.033376500000000,22,0x3D,0x0F
0.033382125000000,22,0x3B,0x0F
0.033388000000000,23,0x35,0x0F
0.033393250000000,23,0x7F,0x5F
0.033399250000000,23,0x10,0x5F
0.033409250000000,23,0xDC,0x4F
0.033419250000000,23,0xCC,0x4F
0.033429250000000,23,0x00,0x4F
0.033439250000000,23,0x9F,0x4F
0.033449250000000,23,0xF7,0x4F
0.033459250000000,23,0xA0,0x4F
0.033469250000000,23,0x68,0x4F
0.033479250000000,23,0x20,0x4F
0.033489250000000,23,0x91,0x4F
0.033499250000000,23,0xBE,0x4F
0.033509250000000,23,0xEE,0x4F
0.033519250000000,23,0xBE,0x4F
0.033529250000000,23,0xAB,0x4F
0.033539500000000,23,0x07,0x4F
0.033549750000000,23,0x1E,0x4F
0.033560000000000,23,0x17,0x5F
0.040012000000000,24,0x36,0x0F
0.040017375000000,24,0x3D,0x0F
0.040024875000000,25,0x0A,0x0F
0.040031875000000,25,0x5C,0x0F
0.040040375000000,26,0x36,0x0F
0.040045750000000,26,0x3D,0x0F
0.040051375000000,26,0x3B,0x0F
0.040057250000000,27,0x35,0x0F
0.040062500000000,27,0x7F,0x5F
0.040068500000000,27,0x10,0x5F
0.040078500000000,27,0xDC,0x4F
0.040088500000000,27,0xCC,0x4F
0.040098500000000,27,0x00,0x4F
0.040108500000000,27,0x9F,0x4F
0.040118500000000,27,0xF7,0x4F
0.040128500000000,27,0xA0,0x4F
0.040138500000000,27,0x68,0x4F
0.040148500000000,27,0x20,0x4F
0.040158500000000,27,0x91,0x4F
0.040168500000000,27,0xBE,0x4F
0.040178500000000,27,0xEE,0x4F
0.040188500000000,27,0xBE,0x4F
0.040198625000000,27,0x2B,0x4F
0.040208875000000,27,0x87,0x4F
0.040219125000000,27,0x1E,0x4F
0.040229375000000,27,0x17,0x5F
0.046681125000000,28,0x36,0x0F
0.046686500000000,28,0x3D,0x0F
0.046694000000000,29,0x0A,0x0F
0.046701000000000,29,0x08,0x0F
0.046709500000000,30,0x36,0x0F
0.046714875000000,30,0x3D,0x0F
0.046720500000000,30,0x3B,0x0F
0.046726375000000,31,0x35,0x0F
0.046731625000000,31,0x7F,0x5F
0.046737625000000,31,0x10,0x5F
0.046747625000000,31,0xDC,0x4F
0.046757625000000,31,0xCC,0x4F
0.046767625000000,31,0x00,0x4F
0.046777625000000,31,0x9F,0x4F
0.046787625000000,31,0xF7,0x4F
0.046797625000000,31,0xA0,0x4F
0.046807625000000,31,0x68,0x4F
0.046817625000000,31,0x20,0x4F
0.046827625000000,31,0x91,0x4F
0.046837625000000,31,0xBE,0x4F
0.046847625000000,31,0xEE,0x4F
0.046857625000000,31,0xBE,0x4F
0.046867625000000,31,0x2B,0x4F
0.046877875000000,31,0x07,0x4F
0.046888125000000,31,0x9E,0x4F
0.046898375000000,31,0x17,0x5F
0.053350125000000,32,0x36,0x0F
0.053355500000000,32,0x3D,0x0F
0.053363000000000,33,0x0A,0x0F
0.053370000000000,33,0xA0,0x0F
0.053378375000000,34,0x36,0x0F
0.053383875000000,34,0x3D,0x0F
0.053389500000000,34,0x3B,0x0F
0.053395375000000,35,0x35,0x0F
0.053400625000000,35,0x7F,0x5F
0.053406625000000,35,0x10,0x5F
0.053416625000000,35,0xDC,0x4F
0.053426625000000,35,0xCC,0x4F
0.053436625000000,35,0x00,0x4F
0.053446625000000,35,0x9F,0x4F
0.053456625000000,35,0xF8,0x4F
0.053466625000000,35,0xA0,0x4F
0.053476625000000,35,0x68,0x4F
0.053486625000000,35,0x20,0x4F
0.053496625000000,35,0x91,0x4F
0.053506625000000,35,0xBE,0x4F
0.053516625000000,35,0xEE,0x4F
0.053526625000000,35,0xBE,0x4F
0.053536625000000,35,0xB5,0x4F
0.053546875000000,35,0x11,0x4F
0.053557250000000,35,0x28,0x4F
0.053567500000000,35,0x17,0x5F
0.060020125000000,36,0x36,0x0F
0.060025500000000,36,0x3D,0x0F
0.060033000000000,37,0x0A,0x0F
0.060040000000000,37,0xC0,0x0F
0.060048375000000,38,0x36,0x0F
0.060053750000000,38,0x3D,0x0F
0.060059500000000,38,0x3B,0x0F
0.060065375000000,39,0x35,0x0F
0.060070625000000,39,0x7F,0x5F
0.060076500000000,39,0x10,0x5F
0.060086500000000,39,0xDC,0x4F
0.060096500000000,39,0xCC,0x4F
0.060106500000000,39,0x00,0x4F
0.060116500000000,39,0x9F,0x4F
0.060126500000000,39,0xF8,0x4F
0.060136500000000,39,0xA0,0x4F
0.060146500000000,39,0x68,0x4F
0.060156500000000,39,0x20,0x4F
0.060166500000000,39,0x91,0x4F
0.060176500000000,39,0xBE,0x4F
0.060186500000000,39,0xEE,0x4F
0.060196500000000,39,0xBE,0x4F
0.060206625000000,39,0x35,0x4F
0.060216875000000,39,0x91,0x4F
0.060227125000000,39,0x28,0x4F
0.060237375000000,39,0x17,0x5F
0.066689375000000,40,0x36,0x0F
0.066694875000000,40,0x3D,0x0F
0.066702375000000,41,0x0A,0x0F
0.066709375000000,41,0x0C,0x0F
0.066717875000000,42,0x36,0x0F
0.066723250000000,42,0x3D,0x0F
0.066728875000000,42,0x3B,0x0F
0.066734750000000,43,0x35,0x0F
0.066740000000000,43,0x7F,0x5F
0.066746000000000,43,0x10,0x5F
0.066756000000000,43,0xDC,0x4F
0.066766000000000,43,0xCC,0x4F
0.066776000000000,43,0x00,0x4F
0.066786000000000,43,0x9F,0x4F
0.066796000000000,43,0xF8,0x4F
0.066806000000000,43,0xA0,0x4F
0.066816000000000,43,0x68,0x4F
0.066826000000000,43,0x20,0x4F
0.066836000000000,43,0x91,0x4F
0.066846000000000,43,0xBE,0x4F
0.066856000000000,43,0xEE,0x4F
0.066866000000000,43,0xBE,0x4F
0.066876125000000,43,0x35,0x4F
0.066886375000000,43,0x11,0x4F
0.066896625000000,43,0xA8,0x4F
0.066906875000000,43,0x17,0x5F
0.073357875000000,44,0x36,0x0F
0.073363250000000,44,0x3D,0x0F
0.073370750000000,45,0x0A,0x0F
0.073377750000000,45,0xA4,0x0F
0.073386250000000,46,0x36,0x0F
0.073391625000000,46,0x3D,0x0F
0.073397250000000,46,0x3B,0x0F
0.073403125000000,47,0x35,0x0F
0.073408375000000,47,0x7F,0x5F
0.073414375000000,47,0x10,0x5F
0.073424375000000,47,0xDC,0x4F
0.073434375000000,47,0xCC,0x4F
0.073444375000000,47,0x00,0x4F
0.073454375000000,47,0x9F,0x4F
0.073464375000000,47,0xF8,0x4F
0.073474375000000,47,0xA0,0x4F
0.073484375000000,47,0x68,0x4F
0.073494375000000,47,0x22,0x4F
0.073504375000000,47,0x91,0x4F
0.073514375000000,47,0xBE,0x4F
0.073524375000000,47,0xEE,0x4F
0.073534375000000,47,0xBE,0x4F
0.073544375000000,47,0x84,0x4F
0.073554625000000,47,0x1B,0x4F
0.073564875000000,47,0x32,0x4F
0.073575125000000,47,0x17,0x5F
0.080026500000000,48,0x36,0x0F
0.080032000000000,48,0x3D,0x0F
0.080039500000000,49,0x0A,0x0F
0.080046500000000,49,0xC3,0x0F
0.080054875000000,50,0x36,0x0F
0.080060375000000,50,0x3D,0x0F
0.080066000000000,50,0x3B,0x0F
0.080071875000000,51,0x35,0x0F
0.080077125000000,51,0x7F,0x5F
0.080083000000000,51,0x10,0x5F
0.080093000000000,51,0xDC,0x4F
0.080103000000000,51,0xCC,0x4F
0.080113000000000,51,0x00,0x4F
0.080123125000000,51,0x9F,0x4F
0.080133125000000,51,0xF8,0x4F
0.080143125000000,51,0xA0,0x4F
0.080153125000000,51,0x68,0x4F
0.080163125000000,51,0x22,0x4F
0.080173125000000,51,0x91,0x4F
0.080183125000000,51,0xBE,0x4F
0.080193125000000,51,0xEE,0x4F
0.080203125000000,51,0xBE,0x4F
0.080213125000000,51,0x04,0x4F
0.080223375000000,51,0x9B,0x4F
0.080233625000000,51,0x32,0x4F
0.080243875000000,51,0x17,0x5F
0.086695125000000,52,0x36,0x0F
0.086700500000000,52,0x3D,0x0F
0.086708000000000,53,0x0A,0x0F
0.086715000000000,53,0x10,0x0F
0.086723375000000,54,0x36,0x0F
0.086728875000000,54,0x3D,0x0F
0.086734500000000,54,0x3B,0x0F
0.086740375000000,55,0x35,0x0F
0.086745625000000,55,0x7F,0x5F
0.086751500000000,55,0x10,0x5F
0.086761500000000,55,0xDC,0x4F
0.086771500000000,55,0xCC,0x4F
0.086781500000000,55,0x00,0x4F
0.086791500000000,55,0x9F,0x4F
0.086801500000000,55,0xF8,0x4F
0.086811500000000,55,0xA0,0x4F
0.086821500000000,55,0x68,0x4F
0.086831500000000,55,0x22,0x4F
0.086841500000000,55,0x91,0x4F
0.086851500000000,55,0xBE,0x4F
0.086861500000000,55,0xEE,0x4F
0.086871500000000,55,0xBE,0x4F
0.086881625000000,55,0x04,0x4F
0.086891875000000,55,0x1B,0x4F
0.086902125000000,55,0xB2,0x4F
0.086912375000000,55,0x17,0x5F
0.093363375000000,56,0x36,0x0F
0.093368875000000,56,0x3D,0x0F
0.093376375000000,57,0x0A,0x0F
0.093383375000000,57,0x30,0x0F
0.093391750000000,58,0x36,0x0F
0.093397125000000,58,0x3D,0x0F
0.093402750000000,58,0x3B,0x0F
0.093408625000000,59,0x35,0x0F
0.093413875000000,59,0x7F,0x5F
0.093419875000000,59,0x10,0x5F
0.093429875000000,59,0xDC,0x4F
0.093439875000000,59,0xCC,0x4F
0.093449875000000,59,0x00,0x4F
0.093459875000000,59,0x9F,0x4F
0.093469875000000,59,0xF8,0x4F
0.093479875000000,59,0xA0,0x4F
0.093489875000000,59,0x68,0x4F
0.093499875000000,59,0x22,0x4F
0.093509875000000,59,0x91,0x4F
0.093519875000000,59,0xBE,0x4F
0.093529875000000,59,0xEE,0x4F
0.093539875000000,59,0xBE,0x4F
0.093549875000000,59,0x8E,0x4F
0.093560125000000,59,0x25,0x4F
0.093570375000000,59,0x01,0x4F
0.093580625000000,59,0x17,0x5F
0.100032000000000,60,0x36,0x0F
0.100037500000000,60,0x3D,0x0F
0.100045000000000,61,0x0A,0x0F
0.100052000000000,61,0xC6,0x0F
0.100060375000000,62,0x36,0x0F
0.100065875000000,62,0x3D,0x0F
0.100071500000000,62,0x3B,0x0F
0.100077375000000,63,0x35,0x0F
0.100082625000000,63,0x7F,0x5F
0.100088500000000,63,0x10,0x5F
0.100098500000000,63,0xDC,0x4F
0.100108500000000,63,0xCC,0x4F
0.100118500000000,63,0x00,0x4F
0.100128500000000,63,0x9F,0x4F
0.100138500000000,63,0xF8,0x4F
0.100148500000000,63,0xA0,0x4F
0.100158500000000,63,0x68,0x4F
0.100168500000000,63,0x22,0x4F
0.100178500000000,63,0x91,0x4F
0.100188500000000,63,0xBE,0x4F
0.100198500000000,63,0xEE,0x4F
0.100208500000000,63,0xBE,0x4F
0.100218625000000,63,0x0E,0x4F
0.100228875000000,63,0xA5,0x4F
0.100239125000000,63,0x01,0x4F
0.100249375000000,63,0x17,0x5F
0.106700375000000,64,0x36,0x0F
0.106705875000000,64,0x3D,0x0F
0.106713375000000,65,0x0A,0x0F
0.106720375000000,65,0x14,0x0F
0.106728750000000,66,0x36,0x0F
0.106734250000000,66,0x3D,0x0F
0.106739875000000,66,0x3B,0x0F
0.106745750000000,67,0x35,0x0F
0.106751000000000,67,0x7F,0x5F
0.106756875000000,67,0x10,0x5F
0.106766875000000,67,0xDC,0x4F
0.106776875000000,67,0xCC,0x4F
0.106786875000000,67,0x00,0x4F
0.106796875000000,67,0x9F,0x4F
0.106806875000000,67,0xF8,0x4F
0.106816875000000,67,0xA0,0x4F
0.106826875000000,67,0x68,0x4F
0.106836875000000,67,0x22,0x4F
0.106846875000000,67,0x91,0x4F
0.106856875000000,67,0xBE,0x4F
0.106866875000000,67,0xEE,0x4F
0.106876875000000,67,0xBE,0x4F
0.106887000000000,67,0x0E,0x4F
0.106897250000000,67,0x25,0x4F
0.106907500000000,67,0x81,0x4F
0.106917750000000,67,0x17,0x5F
0.113368875000000,68,0x36,0x0F
0.113374250000000,68,0x3D,0x0F
0.113381750000000,69,0x0A,0x0F
0.113388750000000,69,0x34,0x0F
0.113397250000000,70,0x36,0x0F
0.113402625000000,70,0x3D,0x0F
0.113408250000000,70,0x3B,0x0F
0.113414125000000,71,0x35,0x0F
0.113419375000000,71,0x7F,0x5F
0.113425375000000,71,0x10,0x5F
0.113435375000000,71,0xDC,0x4F
0.113445375000000,71,0xCC,0x4F
0.113455375000000,71,0x00,0x4F
0.113465375000000,71,0x9F,0x4F
0.113475375000000,71,0xF8,0x4F
0.113485375000000,71,0xA0,0x4F
0.113495375000000,71,0x68,0x4F
0.113505375000000,71,0x22,0x4F
0.113515375000000,71,0x91,0x4F
0.113525375000000,71,0xBE,0x4F
0.113535375000000,71,0xEE,0x4F
0.113545375000000,71,0xBE,0x4F
0.113555375000000,71,0x98,0x4F
0.113565625000000,71,0x2F,0x4F
0.113575875000000,71,0x0B,0x4F
0.113586125000000,71,0x17,0x5F
0.120037750000000,72,0x36,0x0F
0.120043250000000,72,0x3D,0x0F
0.120050750000000,73,0x0A,0x0F
0.120057750000000,73,0xCC,0x0F
0.120066125000000,74,0x36,0x0F
0.120071625000000,74,0x3D,0x0F
0.120077250000000,74,0x3B,0x0F
0.120083125000000,75,0x35,0x0F
0.120088375000000,75,0x7F,0x5F
0.120094250000000,75,0x10,0x5F
0.120104250000000,75,0xDC,0x4F
0.120114250000000,75,0xCC,0x4F
0.120124250000000,75,0x00,0x4F
0.120134250000000,75,0x9F,0x4F
0.120144250000000,75,0xF8,0x4F
0.120154250000000,75,0xA0,0x4F
0.120164250000000,75,0x68,0x4F
0.120174250000000,75,0x22,0x4F
0.120184250000000,75,0x91,0x4F
0.120194250000000,75,0xBE,0x4F
0.120204375000000,75,0xEE,0x4F
0.120214375000000,75,0xBE,0x4F
0.120224375000000,75,0x18,0x4F
0.120234625000000,75,0xAF,0x4F
0.120244875000000,75,0x0B,0x4F
0.120255125000000,75,0x17,0x5F
0.126705875000000,76,0x36,0x0F
0.126711375000000,76,0x3D,0x0F
0.126718875000000,77,0x0A,0x0F
0.126725875000000,77,0x78,0x0F
0.126734375000000,78,0x36,0x0F
0.126739750000000,78,0x3D,0x0F
0.126745375000000,78,0x3B,0x0F
0.126751250000000,79,0x35,0x0F
0.126756500000000,79,0x7F,0x5F
0.126762500000000,79,0x10,0x5F
0.126772500000000,79,0xDC,0x4F
0.126782500000000,79,0xCC,0x4F
0.126792500000000,79,0x00,0x4F
0.126802500000000,79,0x9F,0x4F
0.126812500000000,79,0xF8,0x4F
0.126822500000000,79,0xA0,0x4F
0.126832500000000,79,0x68,0x4F
0.126842500000000,79,0x22,0x4F
0.126852500000000,79,0x91,0x4F
0.126862500000000,79,0xBE,0x4F
0.126872500000000,79,0xEE,0x4F
0.126882500000000,79,0xBE,0x4F
0.126892500000000,79,0x18,0x4F
0.126902750000000,79,0x2F,0x4F
0.126913000000000,79,0x8B,0x4F
0.126923250000000,79,0x17,0x5F
0.133374625000000,80,0x36,0x0F
0.133380125000000,80,0x3D,0x0F
0.133387625000000,81,0x0A,0x0F
0.133394625000000,81,0x38,0x0F
0.133403000000000,82,0x36,0x0F
0.133408500000000,82,0x3D,0x0F
0.133414125000000,82,0x3B,0x0F
0.133420000000000,83,0x35,0x0F
0.133425250000000,83,0x7F,0x5F
0.133431125000000,83,0x10,0x5F
0.133441125000000,83,0xDC,0x4F
0.133451125000000,83,0xCC,0x4F
0.133461125000000,83,0x00,0x4F
0.133471125000000,83,0x9F,0x4F
0.133481125000000,83,0xF8,0x4F
0.133491125000000,83,0xA0,0x4F
0.133501250000000,83,0x68,0x4F
0.133511250000000,83,0x22,0x4F
0.133521250000000,83,0x91,0x4F
0.133531250000000,83,0xBE,0x4F
0.133541250000000,83,0xEE,0x4F
0.133551250000000,83,0xBE,0x4F
0.133561250000000,83,0xA2,0x4F
0.133571500000000,83,0x39,0x4F
0.133581750000000,83,0x15,0x4F
0.133592000000000,83,0x17,0x5F
0.140043375000000,84,0x36,0x0F
0.140048750000000,84,0x3D,0x0F
0.140056250000000,85,0x0A,0x0F
0.140063250000000,85,0xD0,0x0F
0.140071625000000,86,0x36,0x0F
0.140077000000000,86,0x3D,0x0F
0.140082625000000,86,0x3B,0x0F
0.140088500000000,87,0x35,0x0F
0.140093750000000,87,0x7F,0x5F
0.140099750000000,87,0x10,0x5F
0.140109750000000,87,0xDC,0x4F
0.140119750000000,87,0xCC,0x4F
0.140129750000000,87,0x00,0x4F
0.140139750000000,87,0x9F,0x4F
0.140149750000000,87,0xF8,0x4F
0.140159750000000,87,0xA0,0x4F
0.140169750000000,87,0x68,0x4F
0.140179750000000,87,0x22,0x4F
0.140189750000000,87,0x91,0x4F
0.140199750000000,87,0xBE,0x4F
0.140209750000000,87,0xEE,0x4F
0.140219750000000,87,0xBE,0x4F
0.140229875000000,87,0x22,0x4F
0.140240125000000,87,0xB9,0x4F
0.140250375000000,87,0x15,0x4F
0.140260625000000,87,0x17,0x5F
0.146711625000000,88,0x36,0x0F
0.146717125000000,88,0x3D,0x0F
0.146724625000000,89,0x0A,0x0F
0.146731625000000,89,0x7C,0x0F
0.146740125000000,90,0x36,0x0F
0.146745625000000,90,0x3D,0x0F
0.146751250000000,90,0x3B,0x0F
0.146757125000000,91,0x35,0x0F
0.146762375000000,91,0x7F,0x5F
0.146768250000000,91,0x10,0x5F
0.146778250000000,91,0xDC,0x4F
0.146788250000000,91,0xCC,0x4F
0.146798250000000,91,0x00,0x4F
0.146808250000000,91,0x9F,0x4F
0.146818250000000,91,0xF8,0x4F
0.146828250000000,91,0xA0,0x4F
0.146838250000000,91,0x68,0x4F
0.146848250000000,91,0x22,0x4F
0.146858250000000,91,0x91,0x4F
0.146868250000000,91,0xBE,0x4F
0.146878250000000,91,0xEE,0x4F
0.146888250000000,91,0xBE,0x4F
0.146898375000000,91,0x22,0x4F
0.146908625000000,91,0x39,0x4F
0.146918875000000,91,0x95,0x4F
0.146929125000000,91,0x17,0x5F
0.153380625000000,92,0x36,0x0F
0.153386000000000,92,0x3D,0x0F
0.153393500000000,93,0x0A,0x0F
0.153400500000000,93,0x3C,0x0F
0.153409000000000,94,0x36,0x0F
0.153414500000000,94,0x3D,0x0F
0.153420125000000,94,0x3B,0x0F
0.153426000000000,95,0x35,0x0F
0.153431250000000,95,0x7F,0x5F
0.153437125000000,95,0x10,0x5F
0.153447125000000,95,0xDC,0x4F
0.153457125000000,95,0xCC,0x4F
0.153467125000000,95,0x00,0x4F
0.153477125000000,95,0x9F,0x4F
0.153487125000000,95,0xF7,0x4F
0.153497125000000,95,0xA0,0x4F
0.153507250000000,95,0x68,0x4F
0.153517250000000,95,0x20,0x4F
0.153527250000000,95,0x91,0x4F
0.153537250000000,95,0xBE,0x4F
0.153547250000000,95,0xEE,0x4F
0.153557250000000,95,0xBE,0x4F
0.153567250000000,95,0xAC,0x4F
0.153577500000000,95,0x08,0x4F
0.153587750000000,95,0x1F,0x4F
0.153598000000000,95,0x17,0x5F
0.160049875000000,96,0x36,0x0F
0.160055250000000,96,0x3D,0x0F
0.160062750000000,97,0x0A,0x0F
0.160069750000000,97,0xD4,0x0F
0.160078125000000,98,0x36,0x0F
0.160083625000000,98,0x3D,0x0F
0.160089250000000,98,0x3B,0x0F
0.160095125000000,99,0x35,0x0F
0.160100375000000,99,0x7F,0x5F
0.160106250000000,99,0x10,0x5F
0.160116250000000,99,0xDC,0x4F
0.160126250000000,99,0xCC,0x4F
0.160136250000000,99,0x00,0x4F
0.160146250000000,99,0x9F,0x4F
0.160156375000000,99,0xF7,0x4F
0.160166375000000,99,0xA0,0x4F
0.160176375000000,99,0x68,0x4F
0.160186375000000,99,0x20,0x4F
0.160196375000000,99,0x91,0x4F
0.160206375000000,99,0xBE,0x4F
0.160216375000000,99,0xEE,0x4F
0.160226375000000,99,0xBE,0x4F
