Time [s],Packet ID,MOSI,MISO
0.000000000000000,0,0x36,0x0F
0.000005500000000,0,0x3D,0x0F
0.000013000000000,1,0x0A,0x0F
0.000020000000000,1,0x30,0x0F
0.000028375000000,2,0x36,0x0F
0.000033875000000,2,0x3D,0x0F
0.000039500000000,2,0x3B,0x0F
0.000045375000000,3,0x35,0x0F
0.000050625000000,3,0x7F,0x5F
0.000056500000000,3,0x10,0x5F
0.000066500000000,3,0xDC,0x4F
0.000076500000000,3,0xCC,0x4F
0.000086500000000,3,0x00,0x4F
0.000096500000000,3,0x9F,0x4F
0.000106500000000,3,0xF7,0x4F
0.000116500000000,3,0xA0,0x4F
0.000126500000000,3,0x68,0x4F
0.000136500000000,3,0x22,0x4F
0.000146500000000,3,0x91,0x4F
0.000156500000000,3,0xBE,0x4F
0.000166500000000,3,0xEE,0x4F
0.000176500000000,3,0xBE,0x4F
0.000186500000000,3,0x11,0x4F
0.000196750000000,3,0x1E,0x4F
0.000207000000000,3,0xAB,0x4F
0.000217250000000,3,0x0D,0x5F
0.006668375000000,4,0x36,0x0F
0.006673750000000,4,0x3D,0x0F
0.006681250000000,5,0x0A,0x0F
0.006688375000000,5,0xC3,0x0F
0.006696750000000,6,0x36,0x0F
0.006702250000000,6,0x3D,0x0F
0.006707875000000,6,0x3B,0x0F
0.006713750000000,7,0x35,0x0F
0.006719000000000,7,0x7F,0x5F
0.006724875000000,7,0x10,0x5F
0.006734875000000,7,0xDC,0x4F
0.006744875000000,7,0xCC,0x4F
0.006754875000000,7,0x00,0x4F
0.006764875000000,7,0x9F,0x4F
0.006774875000000,7,0xF7,0x4F
0.006784875000000,7,0xA0,0x4F
0.006794875000000,7,0x68,0x4F
0.006804875000000,7,0x21,0x4F
0.006814875000000,7,0x91,0x4F
0.006824875000000,7,0xBE,0x4F
0.006834875000000,7,0xEE,0x4F
0.006844875000000,7,0xBE,0x4F
0.006855000000000,7,0xB8,0x4F
0.006865250000000,7,0x0A,0x4F
0.006875500000000,7,0x17,0x4F
0.006885750000000,7,0x0D,0x5F
0.013336125000000,8,0x36,0x0F
0.013341500000000,8,0x3D,0x0F
0.013349000000000,9,0x0A,0x0F
0.013356000000000,9,0x0C,0x0F
0.013364500000000,10,0x36,0x0F
0.013369875000000,10,0x3D,0x0F
0.013375500000000,10,0x3B,0x0F
0.013381375000000,11,0x35,0x0F
0.013386625000000,11,0x7F,0x5F
0.013392625000000,11,0x10,0x5F
0.013402625000000,11,0xDC,0x4F
0.013412625000000,11,0xCC,0x4F
0.013422625000000,11,0x00,0x4F
0.013432625000000,11,0x9F,0x4F
0.013442625000000,11,0xF7,0x4F
0.013452625000000,11,0xA0,0x4F
0.013462625000000,11,0x68,0x4F
0.013472625000000,11,0x21,0x4F
0.013482625000000,11,0x91,0x4F
0.013492625000000,11,0xBE,0x4F
0.013502625000000,11,0xEE,0x4F
0.013512625000000,11,0xBE,0x4F
0.013522625000000,11,0x38,0x4F
0.013532875000000,11,0x8A,0x4F
0.013543125000000,11,0x17,0x4F
0.013553375000000,11,0x0D,0x5F
0.020002750000000,12,0x36,0x0F
0.020008125000000,12,0x3D,0x0F
0.020015625000000,13,0x0A,0x0F
0.020022625000000,13,0xA0,0x0F
0.020031125000000,14,0x36,0x0F
0.020036500000000,14,0x3D,0x0F
0.020042125000000,14,0x3B,0x0F
0.020048000000000,15,0x35,0x0F
0.020053250000000,15,0x7F,0x5F
0.020059250000000,15,0x10,0x5F
0.020069250000000,15,0xDC,0x4F
0.020079250000000,15,0xCC,0x4F
0.020089250000000,15,0x00,0x4F
0.020099250000000,15,0x9F,0x4F
0.020109250000000,15,0xF7,0x4F
0.020119250000000,15,0xA0,0x4F
0.020129250000000,15,0x68,0x4F
0.020139250000000,15,0x21,0x4F
0.020149125000000,15,0x91,0x4F
0.020159125000000,15,0xBE,0x4F
0.020169125000000,15,0xEE,0x4F
0.020179125000000,15,0xBE,0x4F
0.020189250000000,15,0x38,0x4F
0.020199500000000,15,0x0A,0x4F
0.020209750000000,15,0x97,0x4F
0.020220000000000,15,0x0D,0x5F
0.026670125000000,16,0x36,0x0F
0.026675500000000,16,0x3D,0x0F
0.026683000000000,17,0x0A,0x0F
0.026690000000000,17,0x5C,0x0F
0.026698500000000,18,0x36,0x0F
0.026703875000000,18,0x3D,0x0F
0.026709500000000,18,0x3B,0x0F
0.026715375000000,19,0x35,0x0F
0.026720625000000,19,0x7F,0x5F
0.026726625000000,19,0x10,0x5F
0.026736500000000,19,0xDC,0x4F
0.026746500000000,19,0xCC,0x4F
0.026756500000000,19,0x00,0x4F
0.026766500000000,19,0x9F,0x4F
0.026776500000000,19,0xF7,0x4F
0.026786500000000,19,0xA0,0x4F
0.026796500000000,19,0x68,0x4F
0.026806500000000,19,0x22,0x4F
0.026816500000000,19,0x91,0x4F
0.026826500000000,19,0xBE,0x4F
0.026836500000000,19,0xEE,0x4F
0.026846500000000,19,0xBE,0x4F
0.026856625000000,19,0xA4,0x4F
0.026866875000000,19,0x31,0x4F
0.026877125000000,19,0x03,0x4F
0.026887375000000,19,0x0D,0x5F
0.033336875000000,20,0x36,0x0F
0.033342250000000,20,0x3D,0x0F
0.033349750000000,21,0x0A,0x0F
0.033356750000000,21,0x04,0x0F
0.033365125000000,22,0x36,0x0F
0.033370625000000,22,0x3D,0x0F
0.033376125000000,22,0x3B,0x0F
0.033382000000000,23,0x35,0x0F
0.033387375000000,23,0x7F,0x5F
0.033393250000000,23,0x10,0x5F
0.033403250000000,23,0xDC,0x4F
0.033413250000000,23,0xCC,0x4F
0.033423250000000,23,0x00,0x4F
0.033433250000000,23,0x9F,0x4F
0.033443250000000,23,0xF7,0x4F
0.033453250000000,23,0xA0,0x4F
0.033463250000000,23,0x68,0x4F
0.033473250000000,23,0x22,0x4F
0.033483250000000,23,0x91,0x4F
0.033493250000000,23,0xBE,0x4F
0.033503250000000,23,0xEE,0x4F
0.033513250000000,23,0xBE,0x4F
0.033523375000000,23,0x24,0x4F
0.033533625000000,23,0xB1,0x4F
0.033543875000000,23,0x03,0x4F
0.033554125000000,23,0x0D,0x5F
0.040003250000000,24,0x36,0x0F
0.040008625000000,24,0x3D,0x0F
0.040016125000000,25,0x0A,0x0F
0.040023125000000,25,0x98,0x0F
0.040031625000000,26,0x36,0x0F
0.040037000000000,26,0x3D,0x0F
0.040042625000000,26,0x3B,0x0F
0.040048500000000,27,0x35,0x0F
0.040053750000000,27,0x7F,0x5F
0.040059750000000,27,0x10,0x5F
0.040069750000000,27,0xDC,0x4F
0.040079750000000,27,0xCC,0x4F
0.040089750000000,27,0x00,0x4F
0.040099750000000,27,0x9F,0x4F
0.040109750000000,27,0xF7,0x4F
0.040119750000000,27,0xA0,0x4F
0.040129750000000,27,0x68,0x4F
0.040139750000000,27,0x22,0x4F
0.040149750000000,27,0x91,0x4F
0.040159750000000,27,0xBE,0x4F
0.040169750000000,27,0xEE,0x4F
0.040179750000000,27,0xBE,0x4F
0.040189750000000,27,0x24,0x4F
0.040200000000000,27,0x31,0x4F
0.040210250000000,27,0x83,0x4F
0.040220500000000,27,0x0D,0x5F
0.046670875000000,28,0x36,0x0F
0.046676250000000,28,0x3D,0x0F
0.046683750000000,29,0x0A,0x0F
0.046690750000000,29,0x54,0x0F
0.046699125000000,30,0x36,0x0F
0.046704625000000,30,0x3D,0x0F
0.046710250000000,30,0x3B,0x0F
0.046716125000000,31,0x35,0x0F
0.046721375000000,31,0x7F,0x5F
0.046727250000000,31,0x10,0x5F
0.046737250000000,31,0xDC,0x4F
0.046747250000000,31,0xCC,0x4F
0.046757250000000,31,0x00,0x4F
0.046767250000000,31,0x9F,0x4F
0.046777250000000,31,0xF7,0x4F
0.046787250000000,31,0xA0,0x4F
0.046797250000000,31,0x68,0x4F
0.046807250000000,31,0x22,0x4F
0.046817250000000,31,0x91,0x4F
0.046827250000000,31,0xBE,0x4F
0.046837250000000,31,0xEE,0x4F
0.046847250000000,31,0xBE,0x4F
0.046857375000000,31,0x90,0x4F
0.046867625000000,31,0x1D,0x4F
0.046877875000000,31,0x2A,0x4F
0.046888125000000,31,0x0D,0x5F
0.053338500000000,32,0x36,0x0F
0.053344000000000,32,0x3D,0x0F
0.053351500000000,33,0x0A,0x0F
0.053358500000000,33,0xE8,0x0F
0.053366875000000,34,0x36,0x0F
0.053372375000000,34,0x3D,0x0F
0.053378000000000,34,0x3B,0x0F
0.053383875000000,35,0x35,0x0F
0.053389125000000,35,0x7F,0x5F
0.053395000000000,35,0x10,0x5F
0.053405000000000,35,0xDC,0x4F
0.053415000000000,35,0xCC,0x4F
0.053425000000000,35,0x00,0x4F
0.053435000000000,35,0x9F,0x4F
0.053445000000000,35,0xF7,0x4F
0.053455000000000,35,0xA0,0x4F
0.053465000000000,35,0x68,0x4F
0.053475000000000,35,0x22,0x4F
0.053485000000000,35,0x91,0x4F
0.053495000000000,35,0xBE,0x4F
0.053505000000000,35,0xEE,0x4F
0.053515000000000,35,0xBE,0x4F
0.053525125000000,35,0x10,0x4F
0.053535375000000,35,0x9D,0x4F
0.053545625000000,35,0x2A,0x4F
0.053555875000000,35,0x0D,0x5F
0.060005375000000,36,0x36,0x0F
0.060010875000000,36,0x3D,0x0F
0.060018375000000,37,0x0A,0x0F
0.060025375000000,37,0x90,0x0F
0.060033750000000,38,0x36,0x0F
0.060039125000000,38,0x3D,0x0F
0.060044750000000,38,0x3B,0x0F
0.060050625000000,39,0x35,0x0F
0.060055875000000,39,0x7F,0x5F
0.060061875000000,39,0x10,0x5F
0.060071875000000,39,0xDC,0x4F
0.060081875000000,39,0xCC,0x4F
0.060091875000000,39,0x00,0x4F
0.060101875000000,39,0x9F,0x4F
0.060111875000000,39,0xF7,0x4F
0.060121875000000,39,0xA0,0x4F
0.060131875000000,39,0x68,0x4F
0.060141875000000,39,0x22,0x4F
0.060151875000000,39,0x91,0x4F
0.060161875000000,39,0xBE,0x4F
0.060171875000000,39,0xEE,0x4F
0.060181875000000,39,0xBE,0x4F
0.060191875000000,39,0x10,0x4F
0.060202125000000,39,0x1D,0x4F
0.060212375000000,39,0xAA,0x4F
0.060222625000000,39,0x0D,0x5F
0.066672375000000,40,0x36,0x0F
0.066677875000000,40,0x3D,0x0F
0.066685375000000,41,0x0A,0x0F
0.066692375000000,41,0x4C,0x0F
0.066700750000000,42,0x36,0x0F
0.066706250000000,42,0x3D,0x0F
0.066711875000000,42,0x3B,0x0F
0.066717750000000,43,0x35,0x0F
0.066723000000000,43,0x7F,0x5F
0.066728875000000,43,0x10,0x5F
0.066738875000000,43,0xDC,0x4F
0.066748875000000,43,0xCC,0x4F
0.066758875000000,43,0x00,0x4F
0.066768875000000,43,0x9F,0x4F
0.066778875000000,43,0xF7,0x4F
0.066788875000000,43,0xA0,0x4F
0.066798875000000,43,0x68,0x4F
0.066808875000000,43,0x22,0x4F
0.066818875000000,43,0x91,0x4F
0.066828875000000,43,0xBE,0x4F
0.066838875000000,43,0xEE,0x4F
0.066848875000000,43,0xBE,0x4F
0.066859000000000,43,0xB7,0x4F
0.066869250000000,43,0x09,0x4F
0.066879500000000,43,0x16,0x4F
0.066889750000000,43,0x0D,0x5F
0.073339875000000,44,0x36,0x0F
0.073345375000000,44,0x3D,0x0F
0.073352875000000,45,0x0A,0x0F
0.073359875000000,45,0xE0,0x0F
0.073368250000000,46,0x36,0x0F
0.073373625000000,46,0x3D,0x0F
0.073379250000000,46,0x3B,0x0F
0.073385125000000,47,0x35,0x0F
0.073390375000000,47,0x7F,0x5F
0.073396375000000,47,0x10,0x5F
0.073406375000000,47,0xDC,0x4F
0.073416375000000,47,0xCC,0x4F
0.073426375000000,47,0x00,0x4F
0.073436375000000,47,0x9F,0x4F
0.073446375000000,47,0xF7,0x4F
0.073456375000000,47,0xA0,0x4F
0.073466375000000,47,0x68,0x4F
0.073476375000000,47,0x22,0x4F
0.073486375000000,47,0x91,0x4F
0.073496375000000,47,0xBE,0x4F
0.073506375000000,47,0xEE,0x4F
0.073516375000000,47,0xBE,0x4F
0.073526375000000,47,0x37,0x4F
0.073536625000000,47,0x89,0x4F
0.073546875000000,47,0x16,0x4F
0.073557125000000,47,0x0D,0x5F
0.080006625000000,48,0x36,0x0F
0.080012000000000,48,0x3D,0x0F
0.080019500000000,49,0x0A,0x0F
0.080026500000000,49,0x28,0x0F
0.080035000000000,50,0x36,0x0F
0.080040500000000,50,0x3D,0x0F
0.080046125000000,50,0x3B,0x0F
0.080052000000000,51,0x35,0x0F
0.080057250000000,51,0x7F,0x5F
0.080063125000000,51,0x10,0x5F
0.080073125000000,51,0xDC,0x4F
0.080083125000000,51,0xCC,0x4F
0.080093125000000,51,0x00,0x4F
0.080103125000000,51,0x9F,0x4F
0.080113125000000,51,0xF7,0x4F
0.080123125000000,51,0xA0,0x4F
0.080133125000000,51,0x68,0x4F
0.080143125000000,51,0x22,0x4F
0.080153125000000,51,0x91,0x4F
0.080163125000000,51,0xBE,0x4F
0.080173125000000,51,0xEE,0x4F
0.080183125000000,51,0xBE,0x4F
0.080193125000000,51,0x37,0x4F
0.080203375000000,51,0x09,0x4F
0.080213625000000,51,0x96,0x4F
0.080223875000000,51,0x0D,0x5F
0.086674625000000,52,0x36,0x0F
0.086680125000000,52,0x3D,0x0F
0.086687625000000,53,0x0A,0x0F
0.086694625000000,53,0xBC,0x0F
0.086703125000000,54,0x36,0x0F
0.086708500000000,54,0x3D,0x0F
0.086714125000000,54,0x3B,0x0F
0.086720000000000,55,0x35,0x0F
0.086725250000000,55,0x7F,0x5F
0.086731250000000,55,0x10,0x5F
0.086741250000000,55,0xDC,0x4F
0.086751250000000,55,0xCC,0x4F
0.086761250000000,55,0x00,0x4F
0.086771250000000,55,0x9F,0x4F
0.086781250000000,55,0xF7,0x4F
0.086791250000000,55,0xA0,0x4F
0.086801250000000,55,0x68,0x4F
0.086811250000000,55,0x22,0x4F
0.086821250000000,55,0x91,0x4F
0.086831250000000,55,0xBE,0x4F
0.086841250000000,55,0xEE,0x4F
0.086851250000000,55,0xBE,0x4F
0.086861250000000,55,0xA3,0x4F
0.086871500000000,55,0x30,0x4F
0.086881750000000,55,0x02,0x4F
0.086892000000000,55,0x0D,0x5F
0.093342375000000,56,0x36,0x0F
0.093347875000000,56,0x3D,0x0F
0.093355375000000,57,0x0A,0x0F
0.093362375000000,57,0xD8,0x0F
0.093370750000000,58,0x36,0x0F
0.093376125000000,58,0x3D,0x0F
0.093381750000000,58,0x3B,0x0F
0.093387625000000,59,0x35,0x0F
0.093392875000000,59,0x7F,0x5F
0.093398875000000,59,0x10,0x5F
0.093408875000000,59,0xDC,0x4F
0.093418875000000,59,0xCC,0x4F
0.093428875000000,59,0x00,0x4F
0.093438875000000,59,0x9F,0x4F
0.093448875000000,59,0xF7,0x4F
0.093458875000000,59,0xA0,0x4F
0.093468875000000,59,0x68,0x4F
0.093478875000000,59,0x22,0x4F
0.093488875000000,59,0x91,0x4F
0.093498875000000,59,0xBE,0x4F
0.093508875000000,59,0xEE,0x4F
0.093518875000000,59,0xBE,0x4F
0.093528875000000,59,0x23,0x4F
0.093539125000000,59,0xB0,0x4F
0.093549375000000,59,0x02,0x4F
0.093559625000000,59,0x0D,0x5F
0.100009375000000,60,0x36,0x0F
0.100014875000000,60,0x3D,0x0F
0.100022375000000,61,0x0A,0x0F
0.100029375000000,61,0x20,0x0F
0.100037750000000,62,0x36,0x0F
0.100043250000000,62,0x3D,0x0F
0.100048875000000,62,0x3B,0x0F
0.100054750000000,63,0x35,0x0F
0.100060000000000,63,0x7F,0x5F
0.100065875000000,63,0x10,0x5F
0.100075875000000,63,0xDC,0x4F
0.100085875000000,63,0xCC,0x4F
0.100095875000000,63,0x00,0x4F
0.100105875000000,63,0x9F,0x4F
0.100115875000000,63,0xF7,0x4F
0.100125875000000,63,0xA0,0x4F
0.100135875000000,63,0x68,0x4F
0.100145875000000,63,0x22,0x4F
0.100155875000000,63,0x91,0x4F
0.100165875000000,63,0xBE,0x4F
0.100175875000000,63,0xEE,0x4F
0.100185875000000,63,0xBE,0x4F
0.100196000000000,63,0x23,0x4F
0.100206250000000,63,0x30,0x4F
0.100216500000000,63,0x82,0x4F
0.100226750000000,63,0x0D,0x5F
0.106677375000000,64,0x36,0x0F
0.106682750000000,64,0x3D,0x0F
0.106690250000000,65,0x0A,0x0F
0.106697250000000,65,0xB4,0x0F
0.106705750000000,66,0x36,0x0F
0.106711125000000,66,0x3D,0x0F
0.106716750000000,66,0x3B,0x0F
0.106722625000000,67,0x35,0x0F
0.106727875000000,67,0x7F,0x5F
0.106733875000000,67,0x10,0x5F
0.106743875000000,67,0xDC,0x4F
0.106753875000000,67,0xCC,0x4F
0.106763875000000,67,0x00,0x4F
0.106773875000000,67,0x9F,0x4F
0.106783875000000,67,0xF7,0x4F
0.106793875000000,67,0xA0,0x4F
0.106803875000000,67,0x68,0x4F
0.106813875000000,67,0x22,0x4F
0.106823875000000,67,0x91,0x4F
0.106833875000000,67,0xBE,0x4F
0.106843875000000,67,0xEE,0x4F
0.106853875000000,67,0xBE,0x4F
0.106863875000000,67,0x8F,0x4F
0.106874125000000,67,0x1C,0x4F
0.106884375000000,67,0x29,0x4F
0.106894625000000,67,0x0D,0x5F
0.113345375000000,68,0x36,0x0F
0.113350875000000,68,0x3D,0x0F
0.113358375000000,69,0x0A,0x0F
0.113365375000000,69,0x6F,0x0F
0.113374000000000,70,0x36,0x0F
0.113379375000000,70,0x3D,0x0F
0.113385000000000,70,0x3B,0x0F
0.113390875000000,71,0x35,0x0F
0.113396125000000,71,0x7F,0x5F
0.113402125000000,71,0x10,0x5F
0.113412125000000,71,0xDC,0x4F
0.113422125000000,71,0xCC,0x4F
0.113432125000000,71,0x00,0x4F
0.113442125000000,71,0x9F,0x4F
0.113452125000000,71,0xF7,0x4F
0.113462125000000,71,0xA0,0x4F
0.113472125000000,71,0x68,0x4F
0.113482125000000,71,0x22,0x4F
0.113492125000000,71,0x91,0x4F
0.113502125000000,71,0xBE,0x4F
0.113512125000000,71,0xEE,0x4F
0.113522125000000,71,0xBE,0x4F
0.113532125000000,71,0x0F,0x4F
0.113542375000000,71,0x9C,0x4F
0.113552625000000,71,0x29,0x4F
0.113562875000000,71,0x0D,0x5F
0.120012625000000,72,0x36,0x0F
0.120018125000000,72,0x3D,0x0F
0.120025625000000,73,0x0A,0x0F
0.120032625000000,73,0x18,0x0F
0.120041000000000,74,0x36,0x0F
0.120046500000000,74,0x3D,0x0F
0.120052125000000,74,0x3B,0x0F
0.120058000000000,75,0x35,0x0F
0.120063250000000,75,0x7F,0x5F
0.120069125000000,75,0x10,0x5F
0.120079125000000,75,0xDC,0x4F
0.120089125000000,75,0xCC,0x4F
0.120099125000000,75,0x00,0x4F
0.120109125000000,75,0x9F,0x4F
0.120119125000000,75,0xF7,0x4F
0.120129125000000,75,0xA0,0x4F
0.120139125000000,75,0x68,0x4F
0.120149125000000,75,0x22,0x4F
0.120159125000000,75,0x91,0x4F
0.120169125000000,75,0xBE,0x4F
0.120179125000000,75,0xEE,0x4F
0.120189125000000,75,0xBE,0x4F
0.120199250000000,75,0x0F,0x4F
0.120209500000000,75,0x1C,0x4F
0.120219750000000,75,0xA9,0x4F
0.120230000000000,75,0x0D,0x5F
0.126679625000000,76,0x36,0x0F
0.126685000000000,76,0x3D,0x0F
0.126692500000000,77,0x0A,0x0F
0.126699500000000,77,0xAC,0x0F
0.126708000000000,78,0x36,0x0F
0.126713500000000,78,0x3D,0x0F
0.126719125000000,78,0x3B,0x0F
0.126725000000000,79,0x35,0x0F
0.126730250000000,79,0x7F,0x5F
0.126736125000000,79,0x10,0x5F
0.126746125000000,79,0xDC,0x4F
0.126756125000000,79,0xCC,0x4F
0.126766125000000,79,0x00,0x4F
0.126776125000000,79,0x9F,0x4F
0.126786125000000,79,0xF7,0x4F
0.126796125000000,79,0xA0,0x4F
0.126806125000000,79,0x68,0x4F
0.126816125000000,79,0x21,0x4F
0.126826125000000,79,0x91,0x4F
0.126836125000000,79,0xBE,0x4F
0.126846125000000,79,0xEE,0x4F
0.126856125000000,79,0xBE,0x4F
0.126866250000000,79,0xB6,0x4F
0.126876500000000,79,0x08,0x4F
0.126886750000000,79,0x15,0x4F
0.126897000000000,79,0x0D,0x5F
0.133347000000000,80,0x36,0x0F
0.133352500000000,80,0x3D,0x0F
0.133360000000000,81,0x0A,0x0F
0.133367000000000,81,0x68,0x0F
0.133375500000000,82,0x36,0x0F
0.133380875000000,82,0x3D,0x0F
0.133386500000000,82,0x3B,0x0F
0.133392375000000,83,0x35,0x0F
0.133397625000000,83,0x7F,0x5F
0.133403500000000,83,0x10,0x5F
0.133413500000000,83,0xDC,0x4F
0.133423500000000,83,0xCC,0x4F
0.133433625000000,83,0x00,0x4F
0.133443625000000,83,0x9F,0x4F
0.133453625000000,83,0xF7,0x4F
0.133463625000000,83,0xA0,0x4F
0.133473625000000,83,0x68,0x4F
0.133483625000000,83,0x21,0x4F
0.133493625000000,83,0x91,0x4F
0.133503625000000,83,0xBE,0x4F
0.133513625000000,83,0xEE,0x4F
0.133523625000000,83,0xBE,0x4F
0.133533625000000,83,0x36,0x4F
0.133543875000000,83,0x88,0x4F
0.133554125000000,83,0x15,0x4F
0.133564375000000,83,0x0D,0x5F
0.140014250000000,84,0x36,0x0F
0.140019625000000,84,0x3D,0x0F
0.140027125000000,85,0x0A,0x0F
0.140034125000000,85,0x88,0x0F
0.140042625000000,86,0x36,0x0F
0.140048000000000,86,0x3D,0x0F
0.140053625000000,86,0x3B,0x0F
0.140059500000000,87,0x35,0x0F
0.140064750000000,87,0x7F,0x5F
0.140070750000000,87,0x10,0x5F
0.140080750000000,87,0xDC,0x4F
0.140090750000000,87,0xCC,0x4F
0.140100750000000,87,0x00,0x4F
0.140110750000000,87,0x9F,0x4F
0.140120750000000,87,0xF7,0x4F
0.140130750000000,87,0xA0,0x4F
0.140140750000000,87,0x68,0x4F
0.140150750000000,87,0x21,0x4F
0.140160750000000,87,0x91,0x4F
0.140170750000000,87,0xBE,0x4F
0.140180750000000,87,0xEE,0x4F
0.140190750000000,87,0xBE,0x4F
0.140200750000000,87,0x36,0x4F
0.140211000000000,87,0x08,0x4F
0.140221250000000,87,0x95,0x4F
0.140231500000000,87,0x0D,0x5F
0.146681625000000,88,0x36,0x0F
0.146687000000000,88,0x3D,0x0F
0.146694500000000,89,0x0A,0x0F
0.146701500000000,89,0x44,0x0F
0.146709875000000,90,0x36,0x0F
0.146715375000000,90,0x3D,0x0F
0.146720875000000,90,0x3B,0x0F
0.146726750000000,91,0x35,0x0F
0.146732000000000,91,0x7F,0x5F
0.146738000000000,91,0x10,0x5F
0.146748000000000,91,0xDC,0x4F
0.146758000000000,91,0xCC,0x4F
0.146768000000000,91,0x00,0x4F
0.146778000000000,91,0x9F,0x4F
0.146788000000000,91,0xF7,0x4F
0.146798000000000,91,0xA0,0x4F
0.146808000000000,91,0x68,0x4F
0.146818000000000,91,0x22,0x4F
0.146828000000000,91,0x91,0x4F
0.146838000000000,91,0xBE,0x4F
0.146848000000000,91,0xEE,0x4F
0.146858000000000,91,0xBE,0x4F
0.146868000000000,91,0xA2,0x4F
0.146878250000000,91,0x2F,0x4F
0.146888500000000,91,0x01,0x4F
0.146898750000000,91,0x0D,0x5F
0.153349500000000,92,0x36,0x0F
0.153354875000000,92,0x3D,0x0F
0.153362375000000,93,0x0A,0x0F
0.153369375000000,93,0x60,0x0F
0.153377750000000,94,0x36,0x0F
0.153383250000000,94,0x3D,0x0F
0.153388875000000,94,0x3B,0x0F
0.153394750000000,95,0x35,0x0F
0.153400000000000,95,0x7F,0x5F
0.153405875000000,95,0x10,0x5F
0.153415875000000,95,0xDC,0x4F
0.153425875000000,95,0xCC,0x4F
0.153435875000000,95,0x00,0x4F
0.153445875000000,95,0x9F,0x4F
0.153455875000000,95,0xF7,0x4F
0.153465875000000,95,0xA0,0x4F
0.153475875000000,95,0x68,0x4F
0.153485875000000,95,0x22,0x4F
0.153495875000000,95,0x91,0x4F
0.153505875000000,95,0xBE,0x4F
0.153515875000000,95,0xEE,0x4F
0.153525875000000,95,0xBE,0x4F
0.153535875000000,95,0x22,0x4F
0.153546125000000,95,0xAF,0x4F
0.153556375000000,95,0x01,0x4F
0.153566625000000,95,0x0D,0x5F
0.160016125000000,96,0x36,0x0F
0.160021500000000,96,0x3D,0x0F
0.160029000000000,97,0x0A,0x0F
0.160036000000000,97,0x80,0x0F
0.160044375000000,98,0x36,0x0F
0.160049875000000,98,0x3D,0x0F
0.160055500000000,98,0x3B,0x0F
0.160061375000000,99,0x35,0x0F
0.160066625000000,99,0x7F,0x5F
0.160072500000000,99,0x10,0x5F
0.160082500000000,99,0xDC,0x4F
0.160092500000000,99,0xCC,0x4F
0.160102500000000,99,0x00,0x4F
0.160112500000000,99,0x9F,0x4F
0.160122500000000,99,0xF7,0x4F
0.160132500000000,99,0xA0,0x4F
0.160142500000000,99,0x68,0x4F
0.160152500000000,99,0x22,0x4F
0.160162500000000,99,0x91,0x4F
0.160172500000000,99,0xBE,0x4F
0.160182500000000,99,0xEE,0x4F
0.160192500000000,99,0xBE,0x4F
