Time [s],Packet ID,MOSI,MISO
0.056555000000000,0,0x23,0x0E
0.056558625000000,0,0x03,0x00
0.056580625000000,1,0x2A,0x0E
0.056584250000000,1,0x12,0x00
0.056587750000000,1,0x34,0x00
0.056591375000000,1,0x56,0x00
0.056594875000000,1,0x78,0x00
0.056598500000000,1,0x9A,0x00
0.056630250000000,2,0x0A,0x0E
0.056633750000000,2,0xFF,0x12
0.056637375000000,2,0xFF,0x34
0.056640875000000,2,0xFF,0x56
0.056644500000000,2,0xFF,0x78
0.056648000000000,2,0xFF,0x9A
0.060234750000000,3,0x22,0x0E
0.060238375000000,3,0x00,0x00
0.060256250000000,4,0x27,0x0E
0.060259875000000,4,0x70,0x00
0.060287250000000,5,0x2A,0x0E
0.060290875000000,5,0xE7,0x00
0.060294375000000,5,0xE7,0x00
0.060298000000000,5,0xE7,0x00
0.060301500000000,5,0xE7,0x00
0.060305000000000,5,0xE7,0x00
0.060337500000000,6,0x2B,0x0E
0.060341000000000,6,0xC2,0x00
0.060344625000000,6,0xC2,0x00
0.060348125000000,6,0xC2,0x00
0.060351750000000,6,0xC2,0x00
0.060355250000000,6,0xC2,0x00
0.060383625000000,7,0x2B,0x0E
0.060387250000000,7,0xC3,0x00
0.060405250000000,8,0x2D,0x0E
0.060408750000000,8,0xC4,0x00
0.060436125000000,9,0x2E,0x0E
0.060439625000000,9,0xC5,0x00
0.060457500000000,10,0x2F,0x0E
0.060461125000000,10,0xC6,0x00
0.060488125000000,11,0x31,0x0E
0.060491750000000,11,0x00,0x00
0.060509750000000,12,0x32,0x0E
0.060513250000000,12,0x00,0x00
0.060539000000000,13,0x33,0x0E
0.060542625000000,13,0x00,0x00
0.060560625000000,14,0x34,0x0E
0.060564125000000,14,0x00,0x00
0.060590000000000,15,0x35,0x0E
0.060593625000000,15,0x00,0x00
0.060611625000000,16,0x36,0x0E
0.060615125000000,16,0x00,0x00
0.060641000000000,17,0x3C,0x0E
0.060644625000000,17,0x00,0x00
0.060662625000000,18,0x3D,0x0E
0.060666125000000,18,0x01,0x00
0.060692125000000,19,0x20,0x0E
0.060695625000000,19,0x5E,0x00
0.060713625000000,20,0x21,0x0E
0.060717250000000,20,0x00,0x00
0.060743000000000,21,0x23,0x0E
0.060746625000000,21,0x02,0x00
0.060764500000000,22,0x24,0x0E
0.060768000000000,22,0x00,0x00
0.060794000000000,23,0x26,0x0E
0.060797625000000,23,0x20,0x00
0.111441625000000,24,0x30,0x0E
0.111445125000000,24,0x7E,0x00
0.111448625000000,24,0xB8,0x00
0.111452250000000,24,0x63,0x00
0.111455750000000,24,0xA9,0x00
0.111474875000000,25,0x26,0x0E
0.111478500000000,25,0x20,0x00
0.111500375000000,26,0x25,0x0E
0.111503875000000,26,0x50,0x00
0.111521875000000,27,0xE1,0x0E
0.111551250000000,28,0x27,0x0E
0.111554875000000,28,0x70,0x00
0.111574875000000,29,0x27,0x0E
0.111578500000000,29,0x70,0x00
0.111605000000000,30,0xA0,0x0E
0.111608625000000,30,0x47,0x00
0.111612125000000,30,0x01,0x00
0.111615625000000,30,0x9A,0x00
0.111619250000000,30,0xAA,0x00
0.111683625000000,31,0x21,0x0E
0.111687250000000,31,0x00,0x00
0.111705250000000,32,0x24,0x0E
0.111708750000000,32,0x00,0x00
0.111726875000000,33,0x20,0x0E
0.111730375000000,33,0x5E,0x00
0.111748375000000,34,0x26,0x0E
0.111751875000000,34,0x22,0x00
0.111773750000000,35,0x30,0x0E
0.111777375000000,35,0x47,0x00
0.111780875000000,35,0x01,0x00
0.111784375000000,35,0x9A,0x00
0.111788000000000,35,0xAA,0x00
0.111807125000000,36,0x26,0x0E
0.111810750000000,36,0x22,0x00
0.111828375000000,37,0xE1,0x0E
0.111850375000000,38,0x25,0x0E
0.111853875000000,38,0x14,0x00
0.113579250000000,39,0x27,0x0E
0.113582750000000,39,0x70,0x00
0.113603750000000,40,0xA0,0x0E
0.113607250000000,40,0x00,0x00
0.113610875000000,40,0x00,0x00
0.113614375000000,40,0x00,0x00
0.113618000000000,40,0x00,0x00
0.113621500000000,40,0x00,0x00
0.113625125000000,40,0x00,0x00
0.113628625000000,40,0x00,0x00
0.115211625000000,41,0x27,0x2E
0.115215250000000,41,0x70,0x00
0.115236375000000,42,0xA0,0x0E
0.115239875000000,42,0x00,0x00
0.115243500000000,42,0x00,0x00
0.115247000000000,42,0x00,0x00
0.115250625000000,42,0x00,0x00
0.115254125000000,42,0x00,0x00
0.115257750000000,42,0x00,0x00
0.115261250000000,42,0x00,0x00
0.117810500000000,43,0x21,0x2E
0.117814125000000,43,0x00,0x00
0.117832125000000,44,0x24,0x2E
0.117835625000000,44,0x00,0x00
0.117853750000000,45,0x20,0x2E
0.117857250000000,45,0x5E,0x00
0.117875250000000,46,0x26,0x2E
0.117878750000000,46,0x22,0x00
0.117900625000000,47,0x30,0x2E
0.117904125000000,47,0x41,0x00
0.117907750000000,47,0x01,0x00
0.117911250000000,47,0x9A,0x00
0.117914875000000,47,0xAA,0x00
0.117934000000000,48,0x26,0x2E
0.117937625000000,48,0x22,0x00
0.117955250000000,49,0xE1,0x2E
0.117977125000000,50,0x25,0x2E
0.117980625000000,50,0x04,0x00
0.119547625000000,51,0x27,0x2E
0.119551250000000,51,0x70,0x00
0.119572125000000,52,0xA0,0x0E
0.119575625000000,52,0x01,0x00
0.119579250000000,52,0x07,0x00
0.119582750000000,52,0x01,0x00
0.119586375000000,52,0x0A,0x00
0.119589875000000,52,0xAA,0x00
0.119593500000000,52,0xD0,0x00
0.121180125000000,53,0x27,0x2E
0.121183750000000,53,0x70,0x00
0.121204750000000,54,0xA0,0x0E
0.121208250000000,54,0x01,0x00
0.121211875000000,54,0x07,0x00
0.121215375000000,54,0x01,0x00
0.121219000000000,54,0x0A,0x00
0.121222500000000,54,0xAA,0x00
0.121226125000000,54,0xD0,0x00
0.123830000000000,55,0x21,0x2E
0.123833625000000,55,0x00,0x00
0.123851500000000,56,0x24,0x2E
0.123855000000000,56,0x00,0x00
0.123873125000000,57,0x20,0x2E
0.123876625000000,57,0x5E,0x00
0.123894625000000,58,0x26,0x2E
0.123898125000000,58,0x22,0x00
0.123920000000000,59,0x30,0x2E
0.123923500000000,59,0x4E,0x00
0.123927125000000,59,0x01,0x00
0.123930625000000,59,0x9A,0x00
0.123934250000000,59,0xAA,0x00
0.123953375000000,60,0x26,0x2E
0.123957000000000,60,0x22,0x00
0.123974625000000,61,0xE1,0x2E
0.123996500000000,62,0x25,0x2E
0.124000000000000,62,0x2B,0x00
0.125567125000000,63,0x27,0x2E
0.125570625000000,63,0x70,0x00
0.125591625000000,64,0xA0,0x0E
0.125595125000000,64,0x01,0x00
0.125598750000000,64,0x07,0x00
0.125602250000000,64,0x01,0x00
0.125605875000000,64,0x0A,0x00
0.125609375000000,64,0xAA,0x00
0.127199625000000,65,0x27,0x2E
0.127203250000000,65,0x70,0x00
0.127224125000000,66,0xA0,0x0E
0.127227625000000,66,0x01,0x00
0.127231250000000,66,0x07,0x00
0.127234750000000,66,0x01,0x00
0.127238375000000,66,0x0A,0x00
0.127241875000000,66,0xAA,0x00
0.129798625000000,67,0x21,0x2E
0.129802125000000,67,0x00,0x00
0.129820000000000,68,0x24,0x2E
0.129823500000000,68,0x00,0x00
0.129841500000000,69,0x20,0x2E
0.129845000000000,69,0x5E,0x00
0.129863000000000,70,0x26,0x2E
0.129866500000000,70,0x22,0x00
0.129888375000000,71,0x30,0x2E
0.129891875000000,71,0x47,0x00
0.129895500000000,71,0x01,0x00
0.129899000000000,71,0x9A,0x00
0.129902625000000,71,0xAA,0x00
0.129921750000000,72,0x26,0x2E
0.129925375000000,72,0x22,0x00
0.129943000000000,73,0xE1,0x2E
0.129964875000000,74,0x25,0x2E
0.129968375000000,74,0x17,0x00
0.131535625000000,75,0x27,0x2E
0.131539250000000,75,0x70,0x00
0.131560125000000,76,0xA0,0x0E
0.131563750000000,76,0x01,0x00
0.131567250000000,76,0x07,0x00
0.131570875000000,76,0x01,0x00
0.131574375000000,76,0x0A,0x00
0.131578000000000,76,0xAA,0x00
0.131581500000000,76,0xD0,0x00
0.131585125000000,76,0xD0,0x00
0.133219125000000,77,0x27,0x2E
0.133222750000000,77,0x70,0x00
0.133243875000000,78,0xA0,0x0E
0.133247375000000,78,0x01,0x00
0.133250875000000,78,0x07,0x00
0.133254500000000,78,0x01,0x00
0.133258000000000,78,0x0A,0x00
0.133261625000000,78,0xAA,0x00
0.133265125000000,78,0xD0,0x00
0.133268750000000,78,0xD0,0x00
0.135869000000000,79,0x21,0x2E
0.135872500000000,79,0x00,0x00
0.135890375000000,80,0x24,0x2E
0.135894000000000,80,0x00,0x00
0.135911875000000,81,0x20,0x2E
0.135915375000000,81,0x5E,0x00
0.135933375000000,82,0x26,0x2E
0.135936875000000,82,0x22,0x00
0.135958625000000,83,0x30,0x2E
0.135962250000000,83,0x41,0x00
0.135965750000000,83,0x01,0x00
0.135969250000000,83,0x9A,0x00
0.135972875000000,83,0xAA,0x00
0.135992125000000,84,0x26,0x2E
0.135995625000000,84,0x22,0x00
0.136013250000000,85,0xE1,0x2E
0.136035125000000,86,0x25,0x2E
0.136038625000000,86,0x03,0x00
0.137606125000000,87,0x27,0x2E
0.137609750000000,87,0x70,0x00
0.137630625000000,88,0xA0,0x0E
0.137634125000000,88,0x01,0x00
0.137637625000000,88,0x07,0x00
0.137641250000000,88,0x01,0x00
0.137644750000000,88,0x0A,0x00
0.137648375000000,88,0xAA,0x00
0.137651875000000,88,0xD0,0x00
0.139238625000000,89,0x27,0x2E
0.139242250000000,89,0x70,0x00
0.139263125000000,90,0xA0,0x0E
0.139266625000000,90,0x01,0x00
0.139270250000000,90,0x07,0x00
0.139273750000000,90,0x01,0x00
0.139277250000000,90,0x0A,0x00
0.139280875000000,90,0xAA,0x00
0.139284375000000,90,0xD0,0x00
0.141837500000000,91,0x21,0x2E
0.141841000000000,91,0x00,0x00
0.141859000000000,92,0x24,0x2E
0.141862625000000,92,0x00,0x00
0.141880625000000,93,0x20,0x2E
0.141884250000000,93,0x5E,0x00
0.141902125000000,94,0x26,0x2E
0.141905750000000,94,0x22,0x00
0.141927500000000,95,0x30,0x2E
0.141931125000000,95,0x4E,0x00
0.141934625000000,95,0x01,0x00
0.141938250000000,95,0x9A,0x00
0.141941750000000,95,0xAA,0x00
0.141961000000000,96,0x26,0x2E
0.141964500000000,96,0x22,0x00
0.141982250000000,97,0xE1,0x2E
0.142004000000000,98,0x25,0x2E
0.142007625000000,98,0x2A,0x00
0.143574625000000,99,0x27,0x2E
0.143578250000000,99,0x70,0x00
0.143599000000000,100,0xA0,0x0E
0.143602500000000,100,0x01,0x00
0.143606125000000,100,0x07,0x00
0.143609625000000,100,0x01,0x00
0.143613250000000,100,0x0A,0x00
0.143616750000000,100,0xAA,0x00
0.145258125000000,101,0x27,0x2E
0.145261750000000,101,0x70,0x00
0.145282500000000,102,0xA0,0x0E
0.145286000000000,102,0x01,0x00
0.145289625000000,102,0x07,0x00
0.145293125000000,102,0x01,0x00
0.145296625000000,102,0x0A,0x00
0.145300250000000,102,0xAA,0x00
0.147857000000000,103,0x21,0x2E
0.147860625000000,103,0x00,0x00
0.147878625000000,104,0x24,0x2E
0.147882125000000,104,0x00,0x00
0.147900250000000,105,0x20,0x2E
0.147903750000000,105,0x5E,0x00
0.147921750000000,106,0x26,0x2E
0.147925250000000,106,0x22,0x00
0.147947125000000,107,0x30,0x2E
0.147950750000000,107,0x47,0x00
0.147954250000000,107,0x01,0x00
0.147957875000000,107,0x9A,0x00
0.147961375000000,107,0xAA,0x00
0.147980625000000,108,0x26,0x2E
0.147984125000000,108,0x22,0x00
0.148001750000000,109,0xE1,0x2E
0.148023750000000,110,0x25,0x2E
0.148027375000000,110,0x08,0x00
0.149594125000000,111,0x27,0x2E
0.149597625000000,111,0x70,0x00
0.149618625000000,112,0xA0,0x0E
0.149622250000000,112,0x01,0x00
0.149625750000000,112,0x07,0x00
0.149629375000000,112,0x00,0x00
0.149632875000000,112,0x0A,0x00
0.149636375000000,112,0xAA,0x00
0.149640000000000,112,0xD0,0x00
0.149643500000000,112,0xD0,0x00
0.151226625000000,113,0x27,0x2E
0.151230125000000,113,0x70,0x00
0.151251250000000,114,0xA0,0x0E
0.151254875000000,114,0x01,0x00
0.151258375000000,114,0x07,0x00
0.151262000000000,114,0x00,0x00
0.151265500000000,114,0x0A,0x00
0.151269000000000,114,0xAA,0x00
0.151272625000000,114,0xD0,0x00
0.151276125000000,114,0xD0,0x00
0.153825375000000,115,0x21,0x2E
0.153829000000000,115,0x00,0x00
0.153846875000000,116,0x24,0x2E
0.153850375000000,116,0x00,0x00
0.153868250000000,117,0x20,0x2E
0.153871875000000,117,0x5E,0x00
0.153889750000000,118,0x26,0x2E
0.153893375000000,118,0x22,0x00
0.153915125000000,119,0x30,0x2E
0.153918625000000,119,0x41,0x00
0.153922250000000,119,0x01,0x00
0.153925750000000,119,0x9A,0x00
0.153929250000000,119,0xAA,0x00
0.153948500000000,120,0x26,0x2E
0.153952000000000,120,0x22,0x00
0.153969750000000,121,0xE1,0x2E
0.153991500000000,122,0x25,0x2E
0.153995125000000,122,0x23,0x00
0.155613625000000,123,0x27,0x2E
0.155617125000000,123,0x70,0x00
0.155638000000000,124,0xA0,0x0E
0.155641625000000,124,0x01,0x00
0.155645125000000,124,0x07,0x00
0.155648750000000,124,0x00,0x00
0.155652250000000,124,0x0A,0x00
0.155655750000000,124,0xAA,0x00
0.155659375000000,124,0xD0,0x00
0.157246125000000,125,0x27,0x2E
0.157249625000000,125,0x70,0x00
0.157270625000000,126,0xA0,0x0E
0.157274250000000,126,0x01,0x00
0.157277750000000,126,0x07,0x00
0.157281375000000,126,0x00,0x00
0.157284875000000,126,0x0A,0x00
0.157288375000000,126,0xAA,0x00
0.157292000000000,126,0xD0,0x00
0.159844875000000,127,0x21,0x2E
0.159848375000000,127,0x00,0x00
0.159866250000000,128,0x24,0x2E
0.159869875000000,128,0x00,0x00
0.159887750000000,129,0x20,0x2E
0.159891250000000,129,0x5E,0x00
0.159909250000000,130,0x26,0x2E
0.159912875000000,130,0x22,0x00
0.159934625000000,131,0x30,0x2E
0.159938250000000,131,0x4E,0x00
0.159941750000000,131,0x01,0x00
0.159945375000000,131,0x9A,0x00
0.159948875000000,131,0xAA,0x00
0.159968125000000,132,0x26,0x2E
0.159971625000000,132,0x22,0x00
0.159989375000000,133,0xE1,0x2E
0.160011125000000,134,0x25,0x2E
0.160014750000000,134,0x36,0x00
0.161582125000000,135,0x27,0x2E
0.161585625000000,135,0x70,0x00
0.161606375000000,136,0xA0,0x0E
0.161610000000000,136,0x01,0x00
0.161613500000000,136,0x07,0x00
0.161617125000000,136,0x00,0x00
0.161620625000000,136,0x0A,0x00
0.161624250000000,136,0xAA,0x00
0.163214500000000,137,0x27,0x2E
0.163218125000000,137,0x70,0x00
0.163239000000000,138,0xA0,0x0E
0.163242625000000,138,0x01,0x00
0.163246125000000,138,0x07,0x00
0.163249625000000,138,0x00,0x00
0.163253250000000,138,0x0A,0x00
0.163256750000000,138,0xAA,0x00
0.165864500000000,139,0x21,0x2E
0.165868000000000,139,0x00,0x00
0.165885875000000,140,0x24,0x2E
0.165889500000000,140,0x00,0x00
0.165907375000000,141,0x20,0x2E
0.165910875000000,141,0x5E,0x00
0.165928875000000,142,0x26,0x2E
0.165932375000000,142,0x22,0x00
0.165954250000000,143,0x30,0x2E
0.165957875000000,143,0x47,0x00
0.165961375000000,143,0x01,0x00
0.165964875000000,143,0x9A,0x00
0.165968500000000,143,0xAA,0x00
0.165987750000000,144,0x26,0x2E
0.165991250000000,144,0x22,0x00
0.166008875000000,145,0xE1,0x2E
0.166030875000000,146,0x25,0x2E
0.166034500000000,146,0x04,0x00
0.167601500000000,147,0x27,0x2E
0.167605125000000,147,0x70,0x00
0.167626125000000,148,0xA0,0x0E
0.167629625000000,148,0x01,0x00
0.167633250000000,148,0x07,0x00
0.167636750000000,148,0x00,0x00
0.167640375000000,148,0x0A,0x00
0.167643875000000,148,0xAA,0x00
0.167647375000000,148,0xD0,0x00
0.167651000000000,148,0xD0,0x00
0.169234000000000,149,0x27,0x2E
0.169237625000000,149,0x70,0x00
0.169258750000000,150,0xA0,0x0E
0.169262250000000,150,0x01,0x00
0.169265875000000,150,0x07,0x00
0.169269375000000,150,0x00,0x00
0.169273000000000,150,0x0A,0x00
0.169276500000000,150,0xAA,0x00
0.169280000000000,150,0xD0,0x00
0.169283625000000,150,0xD0,0x00
0.171832875000000,151,0x21,0x2E
0.171836375000000,151,0x00,0x00
0.171854250000000,152,0x24,0x2E
0.171857875000000,152,0x00,0x00
0.171875750000000,153,0x20,0x2E
0.171879250000000,153,0x5E,0x00
0.171897250000000,154,0x26,0x2E
0.171900875000000,154,0x22,0x00
0.171922500000000,155,0x30,0x2E
0.171926125000000,155,0x41,0x00
0.171929625000000,155,0x01,0x00
0.171933250000000,155,0x9A,0x00
0.171936750000000,155,0xAA,0x00
0.171956000000000,156,0x26,0x2E
0.171959500000000,156,0x22,0x00
0.171977125000000,157,0xE1,0x2E
0.171999000000000,158,0x25,0x2E
0.172002625000000,158,0x2B,0x00
0.173570000000000,159,0x27,0x2E
0.173573625000000,159,0x70,0x00
0.173594500000000,160,0xA0,0x0E
0.173598000000000,160,0x01,0x00
0.173601625000000,160,0x07,0x00
0.173605125000000,160,0x00,0x00
0.173608625000000,160,0x0A,0x00
0.173612250000000,160,0xAA,0x00
0.173615750000000,160,0xD0,0x00
0.175202500000000,161,0x27,0x2E
0.175206125000000,161,0x70,0x00
0.175227125000000,162,0xA0,0x0E
0.175230625000000,162,0x01,0x00
0.175234250000000,162,0x07,0x00
0.175237750000000,162,0x00,0x00
0.175241250000000,162,0x0A,0x00
0.175244875000000,162,0xAA,0x00
0.175248375000000,162,0xD0,0x00
0.177852375000000,163,0x21,0x2E
0.177855875000000,163,0x00,0x00
0.177873750000000,164,0x24,0x2E
0.177877375000000,164,0x00,0x00
0.177895250000000,165,0x20,0x2E
0.177898750000000,165,0x5E,0x00
0.177916750000000,166,0x26,0x2E
0.177920250000000,166,0x22,0x00
0.177942000000000,167,0x30,0x2E
0.177945625000000,167,0x4E,0x00
0.177949125000000,167,0x01,0x00
0.177952750000000,167,0x9A,0x00
0.177956250000000,167,0xAA,0x00
0.177975500000000,168,0x26,0x2E
0.177979000000000,168,0x22,0x00
0.177996625000000,169,0xE1,0x2E
0.178018500000000,170,0x25,0x2E
0.178022000000000,170,0x39,0x00
0.179589500000000,171,0x27,0x2E
0.179593125000000,171,0x70,0x00
0.179613875000000,172,0xA0,0x0E
0.179617375000000,172,0x01,0x00
0.179621000000000,172,0x07,0x00
0.179624500000000,172,0x00,0x00
0.179628000000000,172,0x0A,0x00
0.179631625000000,172,0xAA,0x00
0.181222000000000,173,0x27,0x2E
0.181225625000000,173,0x70,0x00
0.181246375000000,174,0xA0,0x0E
0.181249875000000,174,0x01,0x00
0.181253500000000,174,0x07,0x00
0.181257000000000,174,0x00,0x00
0.181260625000000,174,0x0A,0x00
0.181264125000000,174,0xAA,0x00
0.183820875000000,175,0x21,0x2E
0.183824500000000,175,0x00,0x00
0.183842375000000,176,0x24,0x2E
0.183845875000000,176,0x00,0x00
0.183863750000000,177,0x20,0x2E
0.183867375000000,177,0x5E,0x00
0.183885375000000,178,0x26,0x2E
0.183888875000000,178,0x22,0x00
0.183910750000000,179,0x30,0x2E
0.183914250000000,179,0x47,0x00
0.183917875000000,179,0x01,0x00
0.183921375000000,179,0x9A,0x00
0.183925000000000,179,0xAA,0x00
0.183944125000000,180,0x26,0x2E
0.183947750000000,180,0x22,0x00
0.183965375000000,181,0xE1,0x2E
0.183987250000000,182,0x25,0x2E
0.183990750000000,182,0x03,0x00
0.185558000000000,183,0x27,0x2E
0.185561625000000,183,0x70,0x00
0.185582500000000,184,0xA0,0x0E
0.185586125000000,184,0x01,0x00
0.185589625000000,184,0x07,0x00
0.185593250000000,184,0x00,0x00
0.185596750000000,184,0x0A,0x00
0.185600375000000,184,0xAA,0x00
0.185603875000000,184,0xD0,0x00
0.185607500000000,184,0xD0,0x00
0.187241500000000,185,0x27,0x2E
0.187245000000000,185,0x70,0x00
0.187266125000000,186,0xA0,0x0E
0.187269750000000,186,0x01,0x00
0.187273250000000,186,0x07,0x00
0.187276875000000,186,0x00,0x00
0.187280375000000,186,0x0A,0x00
0.187284000000000,186,0xAA,0x00
0.187287500000000,186,0xD0,0x00
0.187291125000000,186,0xD0,0x00
0.189840250000000,187,0x21,0x2E
0.189843875000000,187,0x00,0x00
0.189861750000000,188,0x24,0x2E
0.189865250000000,188,0x00,0x00
0.189883250000000,189,0x20,0x2E
0.189886750000000,189,0x5E,0x00
0.189904750000000,190,0x26,0x2E
0.189908250000000,190,0x22,0x00
0.189930000000000,191,0x30,0x2E
0.189933500000000,191,0x41,0x00
0.189937125000000,191,0x01,0x00
0.189940625000000,191,0x9A,0x00
0.189944250000000,191,0xAA,0x00
0.189963375000000,192,0x26,0x2E
0.189967000000000,192,0x22,0x00
0.189984625000000,193,0xE1,0x2E
0.190006500000000,194,0x25,0x2E
0.190010000000000,194,0x2A,0x00
0.191577500000000,195,0x27,0x2E
0.191581000000000,195,0x70,0x00
0.191601875000000,196,0xA0,0x0E
0.191605500000000,196,0x01,0x00
0.191609000000000,196,0x07,0x00
0.191612625000000,196,0x00,0x00
0.191616125000000,196,0x0A,0x00
0.191619750000000,196,0xAA,0x00
0.191623250000000,196,0xD0,0x00
0.193210000000000,197,0x27,0x2E
0.193213625000000,197,0x70,0x00
0.193234500000000,198,0xA0,0x0E
0.193238000000000,198,0x01,0x00
0.193241625000000,198,0x07,0x00
0.193245125000000,198,0x00,0x00
0.193248625000000,198,0x0A,0x00
0.193252250000000,198,0xAA,0x00
0.193255750000000,198,0xD0,0x00
0.195808750000000,199,0x21,0x2E
0.195812375000000,199,0x00,0x00
0.195830375000000,200,0x24,0x2E
0.195834000000000,200,0x00,0x00
0.195852000000000,201,0x20,0x2E
0.195855500000000,201,0x5E,0x00
0.195873500000000,202,0x26,0x2E
0.195877000000000,202,0x22,0x00
0.195898875000000,203,0x30,0x2E
0.195902500000000,203,0x4E,0x00
0.195906000000000,203,0x01,0x00
0.195909625000000,203,0x9A,0x00
0.195913125000000,203,0xAA,0x00
0.195932375000000,204,0x26,0x2E
0.195935875000000,204,0x22,0x00
0.195953500000000,205,0xE1,0x2E
0.195975375000000,206,0x25,0x2E
0.195979000000000,206,0x3A,0x00
0.197546000000000,207,0x27,0x2E
0.197549500000000,207,0x70,0x00
0.197570250000000,208,0xA0,0x0E
0.197573875000000,208,0x01,0x00
0.197577375000000,208,0x07,0x00
0.197581000000000,208,0x00,0x00
0.197584500000000,208,0x0A,0x00
