Time [s],Packet ID,MOSI,MISO
0.056429500000000,0,0x23,0x0E
0.056433000000000,0,0x03,0x00
0.056462125000000,1,0x2A,0x0E
0.056465625000000,1,0x12,0x00
0.056469250000000,1,0x34,0x00
0.056472750000000,1,0x56,0x00
0.056476375000000,1,0x78,0x00
0.056479875000000,1,0x9A,0x00
0.056513750000000,2,0x0A,0x0E
0.056517375000000,2,0xFF,0x12
0.056520875000000,2,0xFF,0x34
0.056524500000000,2,0xFF,0x56
0.056528000000000,2,0xFF,0x78
0.056531625000000,2,0xFF,0x9A
0.060135625000000,3,0x22,0x0E
0.060139125000000,3,0x00,0x00
0.060157250000000,4,0x27,0x0E
0.060160750000000,4,0x70,0x00
0.060185750000000,5,0x2A,0x0E
0.060189250000000,5,0xE7,0x00
0.060192750000000,5,0xE7,0x00
0.060196375000000,5,0xE7,0x00
0.060199875000000,5,0xE7,0x00
0.060203500000000,5,0xE7,0x00
0.060235875000000,6,0x2B,0x0E
0.060239375000000,6,0xC2,0x00
0.060243000000000,6,0xC2,0x00
0.060246500000000,6,0xC2,0x00
0.060250125000000,6,0xC2,0x00
0.060253625000000,6,0xC2,0x00
0.060281875000000,7,0x2B,0x0E
0.060285500000000,7,0xC3,0x00
0.060303375000000,8,0x2D,0x0E
0.060306875000000,8,0xC4,0x00
0.060334000000000,9,0x2E,0x0E
0.060337500000000,9,0xC5,0x00
0.060355500000000,10,0x2F,0x0E
0.060359125000000,10,0xC6,0x00
0.060386250000000,11,0x31,0x0E
0.060389750000000,11,0x00,0x00
0.060407750000000,12,0x32,0x0E
0.060411375000000,12,0x00,0x00
0.060437250000000,13,0x33,0x0E
0.060440750000000,13,0x00,0x00
0.060458750000000,14,0x34,0x0E
0.060462375000000,14,0x00,0x00
0.060488125000000,15,0x35,0x0E
0.060491625000000,15,0x00,0x00
0.060509500000000,16,0x36,0x0E
0.060513125000000,16,0x00,0x00
0.060539125000000,17,0x3C,0x0E
0.060542625000000,17,0x00,0x00
0.060560500000000,18,0x3D,0x0E
0.060564125000000,18,0x01,0x00
0.060590125000000,19,0x20,0x0E
0.060593625000000,19,0x5E,0x00
0.060611500000000,20,0x21,0x0E
0.060615125000000,20,0x00,0x00
0.060641125000000,21,0x23,0x0E
0.060644625000000,21,0x02,0x00
0.060662500000000,22,0x24,0x0E
0.060666125000000,22,0x00,0x00
0.060692250000000,23,0x26,0x0E
0.060695750000000,23,0x20,0x00
0.111303000000000,24,0x30,0x0E
0.111306625000000,24,0x7E,0x00
0.111310125000000,24,0xB8,0x00
0.111313750000000,24,0x63,0x00
0.111317250000000,24,0xA9,0x00
0.111345250000000,25,0x26,0x0E
0.111348875000000,25,0x20,0x00
0.111367000000000,26,0x25,0x0E
0.111370625000000,26,0x50,0x00
0.111397375000000,27,0xE1,0x0E
0.111418875000000,28,0x27,0x0E
0.111422500000000,28,0x70,0x00
0.111451375000000,29,0x27,0x0E
0.111455000000000,29,0x70,0x00
0.111475625000000,30,0xA0,0x0E
0.111479250000000,30,0x47,0x00
0.111482750000000,30,0x01,0x00
0.111486250000000,30,0x9A,0x00
0.111489875000000,30,0xAA,0x00
0.111565125000000,31,0x21,0x0E
0.111568750000000,31,0x00,0x00
0.111586625000000,32,0x24,0x0E
0.111590125000000,32,0x00,0x00
0.111608000000000,33,0x20,0x0E
0.111611625000000,33,0x5E,0x00
0.111629500000000,34,0x26,0x0E
0.111633125000000,34,0x22,0x00
0.111655000000000,35,0x30,0x0E
0.111658500000000,35,0x47,0x00
0.111662125000000,35,0x01,0x00
0.111665625000000,35,0x9A,0x00
0.111669250000000,35,0xAA,0x00
0.111688375000000,36,0x26,0x0E
0.111692000000000,36,0x22,0x00
0.111709625000000,37,0xE1,0x0E
0.111731500000000,38,0x25,0x0E
0.111735000000000,38,0x14,0x00
0.113456000000000,39,0x27,0x0E
0.113459500000000,39,0x70,0x00
0.113480625000000,40,0xA0,0x0E
0.113484250000000,40,0x00,0x00
0.113487750000000,40,0x00,0x00
0.113491375000000,40,0x00,0x00
0.113494875000000,40,0x00,0x00
0.113498500000000,40,0x00,0x00
0.113502000000000,40,0x00,0x00
0.113505625000000,40,0x00,0x00
0.115088500000000,41,0x27,0x2E
0.115092125000000,41,0x70,0x00
0.115113250000000,42,0xA0,0x0E
0.115116750000000,42,0x00,0x00
0.115120375000000,42,0x00,0x00
0.115123875000000,42,0x00,0x00
0.115127500000000,42,0x00,0x00
0.115131000000000,42,0x00,0x00
0.115134500000000,42,0x00,0x00
0.115138125000000,42,0x00,0x00
0.117687375000000,43,0x21,0x2E
0.117690875000000,43,0x00,0x00
0.117708750000000,44,0x24,0x2E
0.117712375000000,44,0x00,0x00
0.117730250000000,45,0x20,0x2E
0.117733750000000,45,0x5E,0x00
0.117751750000000,46,0x26,0x2E
0.117755250000000,46,0x22,0x00
0.117777125000000,47,0x30,0x2E
0.117780750000000,47,0x41,0x00
0.117784250000000,47,0x01,0x00
0.117787750000000,47,0x9A,0x00
0.117791375000000,47,0xAA,0x00
0.117810500000000,48,0x26,0x2E
0.117814125000000,48,0x22,0x00
0.117831750000000,49,0xE1,0x2E
0.117853625000000,50,0x25,0x2E
0.117857125000000,50,0x04,0x00
0.119424500000000,51,0x27,0x2E
0.119428000000000,51,0x70,0x00
0.119449000000000,52,0xA0,0x0E
0.119452625000000,52,0x01,0x00
0.119456125000000,52,0x07,0x00
0.119459750000000,52,0xBA,0x00
0.119463250000000,52,0x09,0x00
0.119466875000000,52,0x8A,0x00
0.119470375000000,52,0xD0,0x00
0.121057000000000,53,0x27,0x2E
0.121060500000000,53,0x70,0x00
0.121081500000000,54,0xA0,0x0E
0.121085125000000,54,0x01,0x00
0.121088625000000,54,0x07,0x00
0.121092250000000,54,0xBA,0x00
0.121095750000000,54,0x09,0x00
0.121099375000000,54,0x8A,0x00
0.121102875000000,54,0xD0,0x00
0.123706875000000,55,0x21,0x2E
0.123710375000000,55,0x00,0x00
0.123728250000000,56,0x24,0x2E
0.123731875000000,56,0x00,0x00
0.123749750000000,57,0x20,0x2E
0.123753250000000,57,0x5E,0x00
0.123771250000000,58,0x26,0x2E
0.123774750000000,58,0x22,0x00
0.123796500000000,59,0x30,0x2E
0.123800125000000,59,0x4E,0x00
0.123803625000000,59,0x01,0x00
0.123807125000000,59,0x9A,0x00
0.123810750000000,59,0xAA,0x00
0.123829875000000,60,0x26,0x2E
0.123833500000000,60,0x22,0x00
0.123851125000000,61,0xE1,0x2E
0.123873000000000,62,0x25,0x2E
0.123876500000000,62,0x2B,0x00
0.125444000000000,63,0x27,0x2E
0.125447500000000,63,0x70,0x00
0.125468375000000,64,0xA0,0x0E
0.125471875000000,64,0x01,0x00
0.125475500000000,64,0x07,0x00
0.125479000000000,64,0xBA,0x00
0.125482500000000,64,0x09,0x00
0.125486125000000,64,0x8A,0x00
0.127076500000000,65,0x27,0x2E
0.127080000000000,65,0x70,0x00
0.127100875000000,66,0xA0,0x0E
0.127104500000000,66,0x01,0x00
0.127108000000000,66,0x07,0x00
0.127111625000000,66,0xBA,0x00
0.127115125000000,66,0x09,0x00
0.127118750000000,66,0x8A,0x00
0.129675375000000,67,0x21,0x2E
0.129679000000000,67,0x00,0x00
0.129696875000000,68,0x24,0x2E
0.129700375000000,68,0x00,0x00
0.129718250000000,69,0x20,0x2E
0.129721875000000,69,0x5E,0x00
0.129739750000000,70,0x26,0x2E
0.129743375000000,70,0x22,0x00
0.129765250000000,71,0x30,0x2E
0.129768750000000,71,0x47,0x00
0.129772250000000,71,0x01,0x00
0.129775875000000,71,0x9A,0x00
0.129779375000000,71,0xAA,0x00
0.129798625000000,72,0x26,0x2E
0.129802125000000,72,0x22,0x00
0.129819875000000,73,0xE1,0x2E
0.129841750000000,74,0x25,0x2E
0.129845375000000,74,0x17,0x00
0.131412375000000,75,0x27,0x2E
0.131416000000000,75,0x70,0x00
0.131437125000000,76,0xA0,0x0E
0.131440625000000,76,0x01,0x00
0.131444250000000,76,0x07,0x00
0.131447750000000,76,0xBA,0x00
0.131451375000000,76,0x09,0x00
0.131454875000000,76,0x8A,0x00
0.131458500000000,76,0xD0,0x00
0.131462000000000,76,0x30,0x00
0.133045000000000,77,0x27,0x2E
0.133048500000000,77,0x70,0x00
0.133069625000000,78,0xA0,0x0E
0.133073250000000,78,0x01,0x00
0.133076750000000,78,0x07,0x00
0.133080375000000,78,0xBA,0x00
0.133083875000000,78,0x09,0x00
0.133087375000000,78,0x8A,0x00
0.133091000000000,78,0xD0,0x00
0.133094500000000,78,0x30,0x00
0.135694750000000,79,0x21,0x2E
0.135698375000000,79,0x00,0x00
0.135716250000000,80,0x24,0x2E
0.135719750000000,80,0x00,0x00
0.135737625000000,81,0x20,0x2E
0.135741250000000,81,0x5E,0x00
0.135759250000000,82,0x26,0x2E
0.135762750000000,82,0x22,0x00
0.135784500000000,83,0x30,0x2E
0.135788000000000,83,0x41,0x00
0.135791625000000,83,0x01,0x00
0.135795125000000,83,0x9A,0x00
0.135798750000000,83,0xAA,0x00
0.135817875000000,84,0x26,0x2E
0.135821500000000,84,0x22,0x00
0.135839125000000,85,0xE1,0x2E
0.135861000000000,86,0x25,0x2E
0.135864500000000,86,0x03,0x00
0.137432000000000,87,0x27,0x2E
0.137435500000000,87,0x70,0x00
0.137456500000000,88,0xA0,0x0E
0.137460125000000,88,0x01,0x00
0.137463625000000,88,0x07,0x00
0.137467125000000,88,0xBA,0x00
0.137470750000000,88,0x09,0x00
0.137474250000000,88,0x8A,0x00
0.137477875000000,88,0xD0,0x00
0.139064375000000,89,0x27,0x2E
0.139068000000000,89,0x70,0x00
0.139089000000000,90,0xA0,0x0E
0.139092500000000,90,0x01,0x00
0.139096125000000,90,0x07,0x00
0.139099625000000,90,0xBA,0x00
0.139103250000000,90,0x09,0x00
0.139106750000000,90,0x8A,0x00
0.139110375000000,90,0xD0,0x00
0.141663250000000,91,0x21,0x2E
0.141666875000000,91,0x00,0x00
0.141684750000000,92,0x24,0x2E
0.141688250000000,92,0x00,0x00
0.141706125000000,93,0x20,0x2E
0.141709750000000,93,0x5E,0x00
0.141727625000000,94,0x26,0x2E
0.141731250000000,94,0x22,0x00
0.141753000000000,95,0x30,0x2E
0.141756500000000,95,0x4E,0x00
0.141760125000000,95,0x01,0x00
0.141763625000000,95,0x9A,0x00
0.141767125000000,95,0xAA,0x00
0.141786375000000,96,0x26,0x2E
0.141789875000000,96,0x22,0x00
0.141807625000000,97,0xE1,0x2E
0.141829375000000,98,0x25,0x2E
0.141833000000000,98,0x2A,0x00
0.143400375000000,99,0x27,0x2E
0.143404000000000,99,0x70,0x00
0.143424875000000,100,0xA0,0x0E
0.143428375000000,100,0x01,0x00
0.143432000000000,100,0x07,0x00
0.143435500000000,100,0xBA,0x00
0.143439125000000,100,0x09,0x00
0.143442625000000,100,0x8A,0x00
0.145083875000000,101,0x27,0x2E
0.145087500000000,101,0x70,0x00
0.145108375000000,102,0xA0,0x0E
0.145111875000000,102,0x01,0x00
0.145115500000000,102,0x07,0x00
0.145119000000000,102,0xBA,0x00
0.145122625000000,102,0x09,0x00
0.145126125000000,102,0x8A,0x00
0.147682875000000,103,0x21,0x2E
0.147686375000000,103,0x00,0x00
0.147704250000000,104,0x24,0x2E
0.147707875000000,104,0x00,0x00
0.147725750000000,105,0x20,0x2E
0.147729250000000,105,0x5E,0x00
0.147747250000000,106,0x26,0x2E
0.147750875000000,106,0x22,0x00
0.147772625000000,107,0x30,0x2E
0.147776250000000,107,0x47,0x00
0.147779750000000,107,0x01,0x00
0.147783375000000,107,0x9A,0x00
0.147786875000000,107,0xAA,0x00
0.147806125000000,108,0x26,0x2E
0.147809625000000,108,0x22,0x00
0.147827375000000,109,0xE1,0x2E
0.147849125000000,110,0x25,0x2E
0.147852750000000,110,0x08,0x00
0.149419875000000,111,0x27,0x2E
0.149423500000000,111,0x70,0x00
0.149444625000000,112,0xA0,0x0E
0.149448125000000,112,0x01,0x00
0.149451750000000,112,0x07,0x00
0.149455250000000,112,0xBA,0x00
0.149458875000000,112,0x09,0x00
0.149462375000000,112,0x8A,0x00
0.149465875000000,112,0xD0,0x00
0.149469500000000,112,0x30,0x00
0.151052375000000,113,0x27,0x2E
0.151056000000000,113,0x70,0x00
0.151077125000000,114,0xA0,0x0E
0.151080625000000,114,0x01,0x00
0.151084250000000,114,0x07,0x00
0.151087750000000,114,0xBA,0x00
0.151091250000000,114,0x09,0x00
0.151094875000000,114,0x8A,0x00
0.151098375000000,114,0xD0,0x00
0.151102000000000,114,0x30,0x00
0.153651250000000,115,0x21,0x2E
0.153654750000000,115,0x00,0x00
0.153672625000000,116,0x24,0x2E
0.153676250000000,116,0x00,0x00
0.153694125000000,117,0x20,0x2E
0.153697625000000,117,0x5E,0x00
0.153715625000000,118,0x26,0x2E
0.153719125000000,118,0x22,0x00
0.153741000000000,119,0x30,0x2E
0.153744625000000,119,0x41,0x00
0.153748125000000,119,0x01,0x00
0.153751750000000,119,0x9A,0x00
0.153755250000000,119,0xAA,0x00
0.153774500000000,120,0x26,0x2E
0.153778000000000,120,0x22,0x00
0.153795625000000,121,0xE1,0x2E
0.153817500000000,122,0x25,0x2E
0.153821000000000,122,0x23,0x00
0.155439375000000,123,0x27,0x2E
0.155443000000000,123,0x70,0x00
0.155463875000000,124,0xA0,0x0E
0.155467375000000,124,0x01,0x00
0.155471000000000,124,0x07,0x00
0.155474500000000,124,0xBA,0x00
0.155478125000000,124,0x09,0x00
0.155481625000000,124,0x8A,0x00
0.155485250000000,124,0xD0,0x00
0.157071875000000,125,0x27,0x2E
0.157075375000000,125,0x70,0x00
0.157096250000000,126,0xA0,0x0E
0.157099875000000,126,0x01,0x00
0.157103375000000,126,0x07,0x00
0.157107000000000,126,0xBA,0x00
0.157110500000000,126,0x09,0x00
0.157114125000000,126,0x8A,0x00
0.157117625000000,126,0xD0,0x00
0.159670625000000,127,0x21,0x2E
0.159674250000000,127,0x00,0x00
0.159692125000000,128,0x24,0x2E
0.159695625000000,128,0x00,0x00
0.159713750000000,129,0x20,0x2E
0.159717250000000,129,0x5E,0x00
0.159735250000000,130,0x26,0x2E
0.159738750000000,130,0x22,0x00
0.159760625000000,131,0x30,0x2E
0.159764125000000,131,0x4E,0x00
0.159767750000000,131,0x01,0x00
0.159771250000000,131,0x9A,0x00
0.159774875000000,131,0xAA,0x00
0.159794000000000,132,0x26,0x2E
0.159797625000000,132,0x22,0x00
0.159815250000000,133,0xE1,0x2E
0.159837125000000,134,0x25,0x2E
0.159840625000000,134,0x36,0x00
0.161407875000000,135,0x27,0x2E
0.161411500000000,135,0x70,0x00
0.161432250000000,136,0xA0,0x0E
0.161435750000000,136,0x01,0x00
0.161439375000000,136,0x07,0x00
0.161442875000000,136,0xBA,0x00
0.161446500000000,136,0x09,0x00
0.161450000000000,136,0x8A,0x00
0.163040375000000,137,0x27,0x2E
0.163044000000000,137,0x70,0x00
0.163064875000000,138,0xA0,0x0E
0.163068375000000,138,0x01,0x00
0.163072000000000,138,0x07,0x00
0.163075500000000,138,0xBA,0x00
0.163079125000000,138,0x09,0x00
0.163082625000000,138,0x8A,0x00
0.165693875000000,139,0x21,0x2E
0.165697500000000,139,0x00,0x00
0.165715500000000,140,0x24,0x2E
0.165719000000000,140,0x00,0x00
0.165737000000000,141,0x20,0x2E
0.165740625000000,141,0x5E,0x00
0.165758625000000,142,0x26,0x2E
0.165762125000000,142,0x22,0x00
0.165784000000000,143,0x30,0x2E
0.165787500000000,143,0x47,0x00
0.165791125000000,143,0x01,0x00
0.165794625000000,143,0x9A,0x00
0.165798250000000,143,0xAA,0x00
0.165817375000000,144,0x26,0x2E
0.165821000000000,144,0x22,0x00
0.165838625000000,145,0xE1,0x2E
0.165860625000000,146,0x25,0x2E
0.165864125000000,146,0x04,0x00
0.167427375000000,147,0x27,0x2E
0.167431000000000,147,0x70,0x00
0.167451875000000,148,0xA0,0x0E
0.167455500000000,148,0x01,0x00
0.167459000000000,148,0x07,0x00
0.167462625000000,148,0xBA,0x00
0.167466125000000,148,0x09,0x00
0.167469750000000,148,0x8A,0x00
0.167473250000000,148,0xD0,0x00
0.167476875000000,148,0x30,0x00
0.169059875000000,149,0x27,0x2E
0.169063375000000,149,0x70,0x00
0.169084500000000,150,0xA0,0x0E
0.169088125000000,150,0x01,0x00
0.169091625000000,150,0x07,0x00
0.169095250000000,150,0xBA,0x00
0.169098750000000,150,0x09,0x00
0.169102250000000,150,0x8A,0x00
0.169105875000000,150,0xD0,0x00
0.169109375000000,150,0x30,0x00
0.171658625000000,151,0x21,0x2E
0.171662250000000,151,0x00,0x00
0.171680125000000,152,0x24,0x2E
0.171683625000000,152,0x00,0x00
0.171701500000000,153,0x20,0x2E
0.171705125000000,153,0x5E,0x00
0.171723125000000,154,0x26,0x2E
0.171726625000000,154,0x22,0x00
0.171748500000000,155,0x30,0x2E
0.171752000000000,155,0x41,0x00
0.171755625000000,155,0x01,0x00
0.171759125000000,155,0x9A,0x00
0.171762750000000,155,0xAA,0x00
0.171781875000000,156,0x26,0x2E
0.171785500000000,156,0x22,0x00
0.171803125000000,157,0xE1,0x2E
0.171825000000000,158,0x25,0x2E
0.171828500000000,158,0x2B,0x00
0.173395875000000,159,0x27,0x2E
0.173399375000000,159,0x70,0x00
0.173420250000000,160,0xA0,0x0E
0.173423875000000,160,0x01,0x00
0.173427375000000,160,0x07,0x00
0.173431000000000,160,0xBA,0x00
0.173434500000000,160,0x09,0x00
0.173438125000000,160,0x8A,0x00
0.173441625000000,160,0xD0,0x00
0.175028375000000,161,0x27,0x2E
0.175031875000000,161,0x70,0x00
0.175052750000000,162,0xA0,0x0E
0.175056375000000,162,0x01,0x00
0.175059875000000,162,0x07,0x00
0.175063500000000,162,0xBA,0x00
0.175067000000000,162,0x09,0x00
0.175070625000000,162,0x8A,0x00
0.175074125000000,162,0xD0,0x00
0.177680750000000,163,0x21,0x2E
0.177684375000000,163,0x00,0x00
0.177702375000000,164,0x24,0x2E
0.177705875000000,164,0x00,0x00
0.177723875000000,165,0x20,0x2E
0.177727500000000,165,0x5E,0x00
0.177745500000000,166,0x26,0x2E
0.177749000000000,166,0x22,0x00
0.177770875000000,167,0x30,0x2E
0.177774375000000,167,0x4E,0x00
0.177778000000000,167,0x01,0x00
0.177781500000000,167,0x9A,0x00
0.177785125000000,167,0xAA,0x00
0.177804250000000,168,0x26,0x2E
0.177807875000000,168,0x22,0x00
0.177825500000000,169,0xE1,0x2E
0.177847375000000,170,0x25,0x2E
0.177850875000000,170,0x39,0x00
0.179415375000000,171,0x27,0x2E
0.179418875000000,171,0x70,0x00
0.179439625000000,172,0xA0,0x0E
0.179443250000000,172,0x01,0x00
0.179446750000000,172,0x07,0x00
0.179450375000000,172,0xBA,0x00
0.179453875000000,172,0x09,0x00
0.179457500000000,172,0x8A,0x00
0.181047750000000,173,0x27,0x2E
0.181051375000000,173,0x70,0x00
0.181072125000000,174,0xA0,0x0E
0.181075625000000,174,0x01,0x00
0.181079250000000,174,0x07,0x00
0.181082750000000,174,0xBA,0x00
0.181086375000000,174,0x09,0x00
0.181089875000000,174,0x8A,0x00
0.183646750000000,175,0x21,0x2E
0.183650250000000,175,0x00,0x00
0.183668250000000,176,0x24,0x2E
0.183671875000000,176,0x00,0x00
0.183689750000000,177,0x20,0x2E
0.183693250000000,177,0x5E,0x00
0.183711250000000,178,0x26,0x2E
0.183714750000000,178,0x22,0x00
0.183736625000000,179,0x30,0x2E
0.183740250000000,179,0x47,0x00
0.183743750000000,179,0x01,0x00
0.183747375000000,179,0x9A,0x00
0.183750875000000,179,0xAA,0x00
0.183770125000000,180,0x26,0x2E
0.183773625000000,180,0x22,0x00
0.183791250000000,181,0xE1,0x2E
0.183813250000000,182,0x25,0x2E
0.183816875000000,182,0x03,0x00
0.185383750000000,183,0x27,0x2E
0.185387375000000,183,0x70,0x00
0.185408500000000,184,0xA0,0x0E
0.185412000000000,184,0x01,0x00
0.185415625000000,184,0x07,0x00
0.185419125000000,184,0xBA,0x00
0.185422750000000,184,0x09,0x00
0.185426250000000,184,0x8A,0x00
0.185429875000000,184,0xD0,0x00
0.185433375000000,184,0x30,0x00
0.187067250000000,185,0x27,0x2E
0.187070875000000,185,0x70,0x00
0.187092000000000,186,0xA0,0x0E
0.187095500000000,186,0x01,0x00
0.187099125000000,186,0x07,0x00
0.187102625000000,186,0xBA,0x00
0.187106250000000,186,0x09,0x00
0.187109750000000,186,0x8A,0x00
0.187113375000000,186,0xD0,0x00
0.187116875000000,186,0x30,0x00
0.189667750000000,187,0x21,0x2E
0.189671250000000,187,0x00,0x00
0.189689125000000,188,0x24,0x2E
0.189692750000000,188,0x00,0x00
0.189710625000000,189,0x20,0x2E
0.189714125000000,189,0x5E,0x00
0.189732125000000,190,0x26,0x2E
0.189735625000000,190,0x22,0x00
0.189757375000000,191,0x30,0x2E
0.189760875000000,191,0x41,0x00
0.189764500000000,191,0x01,0x00
0.189768000000000,191,0x9A,0x00
0.189771625000000,191,0xAA,0x00
0.189790750000000,192,0x26,0x2E
0.189794375000000,192,0x22,0x00
0.189812000000000,193,0xE1,0x2E
0.189833875000000,194,0x25,0x2E
0.189837375000000,194,0x2A,0x00
0.191403250000000,195,0x27,0x2E
0.191406875000000,195,0x70,0x00
0.191427875000000,196,0xA0,0x0E
0.191431375000000,196,0x01,0x00
0.191435000000000,196,0x07,0x00
0.191438500000000,196,0xBA,0x00
0.191442125000000,196,0x09,0x00
0.191445625000000,196,0x8A,0x00
0.191449250000000,196,0xD0,0x00
0.193035750000000,197,0x27,0x2E
0.193039375000000,197,0x70,0x00
0.193060375000000,198,0xA0,0x0E
0.193063875000000,198,0x01,0x00
0.193067500000000,198,0x07,0x00
0.193071000000000,198,0xBA,0x00
0.193074625000000,198,0x09,0x00
0.193078125000000,198,0x8A,0x00
0.193081625000000,198,0xD0,0x00
0.195634625000000,199,0x21,0x2E
0.195638125000000,199,0x00,0x00
0.195656000000000,200,0x24,0x2E
0.195659625000000,200,0x00,0x00
0.195677500000000,201,0x20,0x2E
0.195681125000000,201,0x5E,0x00
0.195699000000000,202,0x26,0x2E
0.195702625000000,202,0x22,0x00
0.195724250000000,203,0x30,0x2E
0.195727875000000,203,0x4E,0x00
0.195731375000000,203,0x01,0x00
0.195735000000000,203,0x9A,0x00
0.195738500000000,203,0xAA,0x00
0.195757750000000,204,0x26,0x2E
0.195761250000000,204,0x22,0x00
0.195778875000000,205,0xE1,0x2E
0.195800750000000,206,0x25,0x2E
0.195804375000000,206,0x3A,0x00
0.197422750000000,207,0x27,0x2E
0.197426375000000,207,0x70,0x00
0.197447125000000,208,0xA0,0x0E
0.197450625000000,208,0x01,0x00
0.197454250000000,208,0x07,0x00
0.197457750000000,208,0xBA,0x00
0.197461375000000,208,0x09,0x00
