Time [s],Packet ID,MOSI,MISO
0.056555000000000,0,0x23,0x0E
0.056558625000000,0,0x03,0x00
0.056580500000000,1,0x2A,0x0E
0.056584125000000,1,0x12,0x00
0.056587625000000,1,0x34,0x00
0.056591250000000,1,0x56,0x00
0.056594750000000,1,0x78,0x00
0.056598375000000,1,0x9A,0x00
0.056630125000000,2,0x0A,0x0E
0.056633750000000,2,0xFF,0x12
0.056637250000000,2,0xFF,0x34
0.056640875000000,2,0xFF,0x56
0.056644375000000,2,0xFF,0x78
0.056647875000000,2,0xFF,0x9A
0.060234750000000,3,0x22,0x0E
0.060238375000000,3,0x00,0x00
0.060256375000000,4,0x27,0x0E
0.060260000000000,4,0x70,0x00
0.060287250000000,5,0x2A,0x0E
0.060290875000000,5,0xE7,0x00
0.060294375000000,5,0xE7,0x00
0.060298000000000,5,0xE7,0x00
0.060301500000000,5,0xE7,0x00
0.060305000000000,5,0xE7,0x00
0.060337250000000,6,0x2B,0x0E
0.060340875000000,6,0xC2,0x00
0.060344375000000,6,0xC2,0x00
0.060348000000000,6,0xC2,0x00
0.060351500000000,6,0xC2,0x00
0.060355125000000,6,0xC2,0x00
0.060383375000000,7,0x2B,0x0E
0.060386875000000,7,0xC3,0x00
0.060404750000000,8,0x2D,0x0E
0.060408375000000,8,0xC4,0x00
0.060435625000000,9,0x2E,0x0E
0.060439250000000,9,0xC5,0x00
0.060457125000000,10,0x2F,0x0E
0.060460625000000,10,0xC6,0x00
0.060488125000000,11,0x31,0x0E
0.060491625000000,11,0x00,0x00
0.060509500000000,12,0x32,0x0E
0.060513000000000,12,0x00,0x00
0.060539125000000,13,0x33,0x0E
0.060542750000000,13,0x00,0x00
0.060560625000000,14,0x34,0x0E
0.060564125000000,14,0x00,0x00
0.060590000000000,15,0x35,0x0E
0.060593625000000,15,0x00,0x00
0.060611500000000,16,0x36,0x0E
0.060615000000000,16,0x00,0x00
0.060641125000000,17,0x3C,0x0E
0.060644625000000,17,0x00,0x00
0.060662500000000,18,0x3D,0x0E
0.060666125000000,18,0x01,0x00
0.060692125000000,19,0x20,0x0E
0.060695625000000,19,0x5E,0x00
0.060713500000000,20,0x21,0x0E
0.060717125000000,20,0x00,0x00
0.060743000000000,21,0x23,0x0E
0.060746625000000,21,0x02,0x00
0.060764625000000,22,0x24,0x0E
0.060768250000000,22,0x00,0x00
0.060794000000000,23,0x26,0x0E
0.060797625000000,23,0x20,0x00
0.111441500000000,24,0x30,0x0E
0.111445125000000,24,0x7E,0x00
0.111448625000000,24,0xB8,0x00
0.111452250000000,24,0x63,0x00
0.111455750000000,24,0xA9,0x00
0.111475000000000,25,0x26,0x0E
0.111478625000000,25,0x20,0x00
0.111500375000000,26,0x25,0x0E
0.111503875000000,26,0x50,0x00
0.111522000000000,27,0xE1,0x0E
0.111551250000000,28,0x27,0x0E
0.111554875000000,28,0x70,0x00
0.111574875000000,29,0x27,0x0E
0.111578500000000,29,0x70,0x00
0.111605000000000,30,0xA0,0x0E
0.111608500000000,30,0x47,0x00
0.111612125000000,30,0x01,0x00
0.111615625000000,30,0x9A,0x00
0.111619250000000,30,0xAA,0x00
0.111683500000000,31,0x21,0x0E
0.111687125000000,31,0x00,0x00
0.111705000000000,32,0x24,0x0E
0.111708500000000,32,0x00,0x00
0.111726375000000,33,0x20,0x0E
0.111730000000000,33,0x5E,0x00
0.111748000000000,34,0x26,0x0E
0.111751500000000,34,0x22,0x00
0.111773375000000,35,0x30,0x0E
0.111776875000000,35,0x47,0x00
0.111780500000000,35,0x01,0x00
0.111784000000000,35,0x9A,0x00
0.111787625000000,35,0xAA,0x00
0.111806750000000,36,0x26,0x0E
0.111810375000000,36,0x22,0x00
0.111828000000000,37,0xE1,0x0E
0.111850000000000,38,0x25,0x0E
0.111853500000000,38,0x14,0x00
0.113578750000000,39,0x27,0x0E
0.113582375000000,39,0x70,0x00
0.113603500000000,40,0xA0,0x0E
0.113607000000000,40,0x00,0x00
0.113610625000000,40,0x00,0x00
0.113614125000000,40,0x00,0x00
0.113617625000000,40,0x00,0x00
0.113621250000000,40,0x00,0x00
0.113624750000000,40,0x00,0x00
0.113628375000000,40,0x00,0x00
0.115211250000000,41,0x27,0x2E
0.115214875000000,41,0x70,0x00
0.115236000000000,42,0xA0,0x0E
0.115239500000000,42,0x00,0x00
0.115243125000000,42,0x00,0x00
0.115246625000000,42,0x00,0x00
0.115250250000000,42,0x00,0x00
0.115253750000000,42,0x00,0x00
0.115257250000000,42,0x00,0x00
0.115260875000000,42,0x00,0x00
0.117810125000000,43,0x21,0x2E
0.117813750000000,43,0x00,0x00
0.117831750000000,44,0x24,0x2E
0.117835250000000,44,0x00,0x00
0.117853250000000,45,0x20,0x2E
0.117856875000000,45,0x5E,0x00
0.117874875000000,46,0x26,0x2E
0.117878375000000,46,0x22,0x00
0.117900250000000,47,0x30,0x2E
0.117903750000000,47,0x41,0x00
0.117907375000000,47,0x01,0x00
0.117910875000000,47,0x9A,0x00
0.117914500000000,47,0xAA,0x00
0.117933625000000,48,0x26,0x2E
0.117937250000000,48,0x22,0x00
0.117954875000000,49,0xE1,0x2E
0.117976750000000,50,0x25,0x2E
0.117980250000000,50,0x04,0x00
0.119547250000000,51,0x27,0x2E
0.119550875000000,51,0x70,0x00
0.119571750000000,52,0xA0,0x0E
0.119575250000000,52,0x01,0x00
0.119578875000000,52,0x08,0x00
0.119582375000000,52,0xF7,0x00
0.119585875000000,52,0x09,0x00
0.119589500000000,52,0x9A,0x00
0.119593000000000,52,0xD0,0x00
0.121179750000000,53,0x27,0x2E
0.121183375000000,53,0x70,0x00
0.121204250000000,54,0xA0,0x0E
0.121207750000000,54,0x01,0x00
0.121211375000000,54,0x08,0x00
0.121214875000000,54,0xF7,0x00
0.121218500000000,54,0x09,0x00
0.121222000000000,54,0x9A,0x00
0.121225500000000,54,0xD0,0x00
0.123829625000000,55,0x21,0x2E
0.123833125000000,55,0x00,0x00
0.123851000000000,56,0x24,0x2E
0.123854625000000,56,0x00,0x00
0.123872500000000,57,0x20,0x2E
0.123876000000000,57,0x5E,0x00
0.123894000000000,58,0x26,0x2E
0.123897500000000,58,0x22,0x00
0.123919250000000,59,0x30,0x2E
0.123922875000000,59,0x4E,0x00
0.123926375000000,59,0x01,0x00
0.123929875000000,59,0x9A,0x00
0.123933500000000,59,0xAA,0x00
0.123952750000000,60,0x26,0x2E
0.123956250000000,60,0x22,0x00
0.123973875000000,61,0xE1,0x2E
0.123995750000000,62,0x25,0x2E
0.123999250000000,62,0x2B,0x00
0.125566750000000,63,0x27,0x2E
0.125570375000000,63,0x70,0x00
0.125591125000000,64,0xA0,0x0E
0.125594625000000,64,0x01,0x00
0.125598250000000,64,0x07,0x00
0.125601750000000,64,0xF7,0x00
0.125605375000000,64,0x09,0x00
0.125608875000000,64,0x9A,0x00
0.127199250000000,65,0x27,0x2E
0.127202875000000,65,0x70,0x00
0.127223625000000,66,0xA0,0x0E
0.127227125000000,66,0x01,0x00
0.127230750000000,66,0x07,0x00
0.127234250000000,66,0xF7,0x00
0.127237875000000,66,0x09,0x00
0.127241375000000,66,0x9A,0x00
0.129798125000000,67,0x21,0x2E
0.129801750000000,67,0x00,0x00
0.129819625000000,68,0x24,0x2E
0.129823125000000,68,0x00,0x00
0.129841000000000,69,0x20,0x2E
0.129844625000000,69,0x5E,0x00
0.129862625000000,70,0x26,0x2E
0.129866125000000,70,0x22,0x00
0.129888000000000,71,0x30,0x2E
0.129891500000000,71,0x47,0x00
0.129895125000000,71,0x01,0x00
0.129898625000000,71,0x9A,0x00
0.129902250000000,71,0xAA,0x00
0.129921375000000,72,0x26,0x2E
0.129925000000000,72,0x22,0x00
0.129942625000000,73,0xE1,0x2E
0.129964500000000,74,0x25,0x2E
0.129968000000000,74,0x17,0x00
0.131535250000000,75,0x27,0x2E
0.131538750000000,75,0x70,0x00
0.131559875000000,76,0xA0,0x0E
0.131563500000000,76,0x01,0x00
0.131567000000000,76,0x07,0x00
0.131570500000000,76,0xF7,0x00
0.131574125000000,76,0x09,0x00
0.131577625000000,76,0x9A,0x00
0.131581250000000,76,0xD0,0x00
0.131584750000000,76,0xD0,0x00
0.133218750000000,77,0x27,0x2E
0.133222250000000,77,0x70,0x00
0.133243375000000,78,0xA0,0x0E
0.133247000000000,78,0x01,0x00
0.133250500000000,78,0x07,0x00
0.133254125000000,78,0xF7,0x00
0.133257625000000,78,0x09,0x00
0.133261250000000,78,0x9A,0x00
0.133264750000000,78,0xD0,0x00
0.133268250000000,78,0xD0,0x00
0.135868625000000,79,0x21,0x2E
0.135872125000000,79,0x00,0x00
0.135890000000000,80,0x24,0x2E
0.135893500000000,80,0x00,0x00
0.135911500000000,81,0x20,0x2E
0.135915000000000,81,0x5E,0x00
0.135933000000000,82,0x26,0x2E
0.135936500000000,82,0x22,0x00
0.135958250000000,83,0x30,0x2E
0.135961750000000,83,0x41,0x00
0.135965375000000,83,0x01,0x00
0.135968875000000,83,0x9A,0x00
0.135972500000000,83,0xAA,0x00
0.135991625000000,84,0x26,0x2E
0.135995250000000,84,0x22,0x00
0.136012875000000,85,0xE1,0x2E
0.136034750000000,86,0x25,0x2E
0.136038250000000,86,0x03,0x00
0.137605750000000,87,0x27,0x2E
0.137609375000000,87,0x70,0x00
0.137630250000000,88,0xA0,0x0E
0.137633750000000,88,0x01,0x00
0.137637250000000,88,0x07,0x00
0.137640875000000,88,0xF7,0x00
0.137644375000000,88,0x09,0x00
0.137648000000000,88,0x9A,0x00
0.137651500000000,88,0xD0,0x00
0.139238250000000,89,0x27,0x2E
0.139241750000000,89,0x70,0x00
0.139262750000000,90,0xA0,0x0E
0.139266375000000,90,0x01,0x00
0.139269875000000,90,0x07,0x00
0.139273500000000,90,0xF7,0x00
0.139277000000000,90,0x09,0x00
0.139280625000000,90,0x9A,0x00
0.139284125000000,90,0xD0,0x00
0.141837000000000,91,0x21,0x2E
0.141840625000000,91,0x00,0x00
0.141858500000000,92,0x24,0x2E
0.141862000000000,92,0x00,0x00
0.141879875000000,93,0x20,0x2E
0.141883500000000,93,0x5E,0x00
0.141901500000000,94,0x26,0x2E
0.141905000000000,94,0x22,0x00
0.141926750000000,95,0x30,0x2E
0.141930250000000,95,0x4E,0x00
0.141933875000000,95,0x01,0x00
0.141937375000000,95,0x9A,0x00
0.141941000000000,95,0xAA,0x00
0.141960125000000,96,0x26,0x2E
0.141963750000000,96,0x22,0x00
0.141981375000000,97,0xE1,0x2E
0.142003250000000,98,0x25,0x2E
0.142006750000000,98,0x2A,0x00
0.143574125000000,99,0x27,0x2E
0.143577750000000,99,0x70,0x00
0.143598625000000,100,0xA0,0x0E
0.143602250000000,100,0x01,0x00
0.143605750000000,100,0x07,0x00
0.143609250000000,100,0xF7,0x00
0.143612875000000,100,0x09,0x00
0.143616375000000,100,0x9A,0x00
0.145257625000000,101,0x27,0x2E
0.145261250000000,101,0x70,0x00
0.145282125000000,102,0xA0,0x0E
0.145285750000000,102,0x01,0x00
0.145289250000000,102,0x07,0x00
0.145292750000000,102,0xF7,0x00
0.145296375000000,102,0x09,0x00
0.145299875000000,102,0x9A,0x00
0.147856625000000,103,0x21,0x2E
0.147860125000000,103,0x00,0x00
0.147878000000000,104,0x24,0x2E
0.147881625000000,104,0x00,0x00
0.147899500000000,105,0x20,0x2E
0.147903125000000,105,0x5E,0x00
0.147921000000000,106,0x26,0x2E
0.147924625000000,106,0x22,0x00
0.147946375000000,107,0x30,0x2E
0.147950000000000,107,0x47,0x00
0.147953500000000,107,0x01,0x00
0.147957125000000,107,0x9A,0x00
0.147960625000000,107,0xAA,0x00
0.147979875000000,108,0x26,0x2E
0.147983375000000,108,0x22,0x00
0.148001125000000,109,0xE1,0x2E
0.148022875000000,110,0x25,0x2E
0.148026500000000,110,0x08,0x00
0.149593750000000,111,0x27,0x2E
0.149597250000000,111,0x70,0x00
0.149618250000000,112,0xA0,0x0E
0.149621750000000,112,0x01,0x00
0.149625375000000,112,0x07,0x00
0.149628875000000,112,0xF7,0x00
0.149632500000000,112,0x09,0x00
0.149636000000000,112,0x9A,0x00
0.149639625000000,112,0xD0,0x00
0.149643125000000,112,0xD0,0x00
0.151226125000000,113,0x27,0x2E
0.151229750000000,113,0x70,0x00
0.151250875000000,114,0xA0,0x0E
0.151254375000000,114,0x01,0x00
0.151258000000000,114,0x07,0x00
0.151261500000000,114,0xF7,0x00
0.151265125000000,114,0x09,0x00
0.151268625000000,114,0x9A,0x00
0.151272250000000,114,0xD0,0x00
0.151275750000000,114,0xD0,0x00
0.153825000000000,115,0x21,0x2E
0.153828500000000,115,0x00,0x00
0.153846375000000,116,0x24,0x2E
0.153850000000000,116,0x00,0x00
0.153867875000000,117,0x20,0x2E
0.153871375000000,117,0x5E,0x00
0.153889375000000,118,0x26,0x2E
0.153892875000000,118,0x22,0x00
0.153914750000000,119,0x30,0x2E
0.153918375000000,119,0x41,0x00
0.153921875000000,119,0x01,0x00
0.153925500000000,119,0x9A,0x00
0.153929000000000,119,0xAA,0x00
0.153948250000000,120,0x26,0x2E
0.153951750000000,120,0x22,0x00
0.153969375000000,121,0xE1,0x2E
0.153991250000000,122,0x25,0x2E
0.153994875000000,122,0x23,0x00
0.155613250000000,123,0x27,0x2E
0.155616750000000,123,0x70,0x00
0.155637750000000,124,0xA0,0x0E
0.155641375000000,124,0x01,0x00
0.155644875000000,124,0x07,0x00
0.155648500000000,124,0xF7,0x00
0.155652000000000,124,0x09,0x00
0.155655625000000,124,0x9A,0x00
0.155659125000000,124,0xD0,0x00
0.157245625000000,125,0x27,0x2E
0.157249250000000,125,0x70,0x00
0.157270250000000,126,0xA0,0x0E
0.157273750000000,126,0x01,0x00
0.157277375000000,126,0x07,0x00
0.157280875000000,126,0xF7,0x00
0.157284500000000,126,0x09,0x00
0.157288000000000,126,0x9A,0x00
0.157291625000000,126,0xD0,0x00
0.159844500000000,127,0x21,0x2E
0.159848125000000,127,0x00,0x00
0.159866125000000,128,0x24,0x2E
0.159869625000000,128,0x00,0x00
0.159887625000000,129,0x20,0x2E
0.159891250000000,129,0x5E,0x00
0.159909250000000,130,0x26,0x2E
0.159912750000000,130,0x22,0x00
0.159934625000000,131,0x30,0x2E
0.159938125000000,131,0x4E,0x00
0.159941750000000,131,0x01,0x00
0.159945250000000,131,0x9A,0x00
0.159948875000000,131,0xAA,0x00
0.159968000000000,132,0x26,0x2E
0.159971625000000,132,0x22,0x00
0.159989250000000,133,0xE1,0x2E
0.160011125000000,134,0x25,0x2E
0.160014625000000,134,0x36,0x00
0.161581625000000,135,0x27,0x2E
0.161585250000000,135,0x70,0x00
0.161606000000000,136,0xA0,0x0E
0.161609500000000,136,0x01,0x00
0.161613125000000,136,0x07,0x00
0.161616625000000,136,0xF7,0x00
0.161620250000000,136,0x09,0x00
0.161623750000000,136,0x9A,0x00
0.163214125000000,137,0x27,0x2E
0.163217750000000,137,0x70,0x00
0.163238625000000,138,0xA0,0x0E
0.163242125000000,138,0x01,0x00
0.163245750000000,138,0x07,0x00
0.163249250000000,138,0xF7,0x00
0.163252875000000,138,0x09,0x00
0.163256375000000,138,0x9A,0x00
0.165864125000000,139,0x21,0x2E
0.165867625000000,139,0x00,0x00
0.165885625000000,140,0x24,0x2E
0.165889250000000,140,0x00,0x00
0.165907250000000,141,0x20,0x2E
0.165910875000000,141,0x5E,0x00
0.165928750000000,142,0x26,0x2E
0.165932375000000,142,0x22,0x00
0.165954125000000,143,0x30,0x2E
0.165957750000000,143,0x47,0x00
0.165961250000000,143,0x01,0x00
0.165964875000000,143,0x9A,0x00
0.165968375000000,143,0xAA,0x00
0.165987625000000,144,0x26,0x2E
0.165991125000000,144,0x22,0x00
0.166008875000000,145,0xE1,0x2E
0.166030750000000,146,0x25,0x2E
0.166034375000000,146,0x04,0x00
0.167601125000000,147,0x27,0x2E
0.167604750000000,147,0x70,0x00
0.167625750000000,148,0xA0,0x0E
0.167629250000000,148,0x01,0x00
0.167632875000000,148,0x07,0x00
0.167636375000000,148,0xF7,0x00
0.167639875000000,148,0x09,0x00
0.167643500000000,148,0x9A,0x00
0.167647000000000,148,0xD0,0x00
0.167650625000000,148,0xD0,0x00
0.169233625000000,149,0x27,0x2E
0.169237125000000,149,0x70,0x00
0.169258250000000,150,0xA0,0x0E
0.169261875000000,150,0x01,0x00
0.169265375000000,150,0x07,0x00
0.169269000000000,150,0xF7,0x00
0.169272500000000,150,0x09,0x00
0.169276125000000,150,0x9A,0x00
0.169279625000000,150,0xD0,0x00
0.169283125000000,150,0xD0,0x00
0.171832500000000,151,0x21,0x2E
0.171836000000000,151,0x00,0x00
0.171854000000000,152,0x24,0x2E
0.171857625000000,152,0x00,0x00
0.171875625000000,153,0x20,0x2E
0.171879250000000,153,0x5E,0x00
0.171897125000000,154,0x26,0x2E
0.171900750000000,154,0x22,0x00
0.171922625000000,155,0x30,0x2E
0.171926125000000,155,0x41,0x00
0.171929625000000,155,0x01,0x00
0.171933250000000,155,0x9A,0x00
0.171936750000000,155,0xAA,0x00
0.171956000000000,156,0x26,0x2E
0.171959500000000,156,0x22,0x00
0.171977250000000,157,0xE1,0x2E
0.171999000000000,158,0x25,0x2E
0.172002625000000,158,0x2B,0x00
0.173569625000000,159,0x27,0x2E
0.173573125000000,159,0x70,0x00
0.173594000000000,160,0xA0,0x0E
0.173597625000000,160,0x01,0x00
0.173601125000000,160,0x07,0x00
0.173604750000000,160,0xF7,0x00
0.173608250000000,160,0x09,0x00
0.173611875000000,160,0x9A,0x00
0.173615375000000,160,0xD0,0x00
0.175202125000000,161,0x27,0x2E
0.175205625000000,161,0x70,0x00
0.175226500000000,162,0xA0,0x0E
0.175230125000000,162,0x01,0x00
0.175233625000000,162,0x07,0x00
0.175237250000000,162,0xF7,0x00
0.175240750000000,162,0x09,0x00
0.175244375000000,162,0x9A,0x00
0.175247875000000,162,0xD0,0x00
0.177851875000000,163,0x21,0x2E
0.177855500000000,163,0x00,0x00
0.177873375000000,164,0x24,0x2E
0.177876875000000,164,0x00,0x00
0.177894875000000,165,0x20,0x2E
0.177898375000000,165,0x5E,0x00
0.177916375000000,166,0x26,0x2E
0.177919875000000,166,0x22,0x00
0.177941625000000,167,0x30,0x2E
0.177945125000000,167,0x4E,0x00
0.177948750000000,167,0x01,0x00
0.177952250000000,167,0x9A,0x00
0.177955875000000,167,0xAA,0x00
0.177975000000000,168,0x26,0x2E
0.177978625000000,168,0x22,0x00
0.177996250000000,169,0xE1,0x2E
0.178018125000000,170,0x25,0x2E
0.178021625000000,170,0x39,0x00
0.179589125000000,171,0x27,0x2E
0.179592625000000,171,0x70,0x00
0.179613375000000,172,0xA0,0x0E
0.179617000000000,172,0x01,0x00
0.179620500000000,172,0x07,0x00
0.179624125000000,172,0xF7,0x00
0.179627625000000,172,0x09,0x00
0.179631250000000,172,0x9A,0x00
0.181221625000000,173,0x27,0x2E
0.181225125000000,173,0x70,0x00
0.181245875000000,174,0xA0,0x0E
0.181249500000000,174,0x01,0x00
0.181253000000000,174,0x07,0x00
0.181256625000000,174,0xF7,0x00
0.181260125000000,174,0x09,0x00
0.181263750000000,174,0x9A,0x00
0.183820500000000,175,0x21,0x2E
0.183824000000000,175,0x00,0x00
0.183841875000000,176,0x24,0x2E
0.183845500000000,176,0x00,0x00
0.183863375000000,177,0x20,0x2E
0.183867000000000,177,0x5E,0x00
0.183884875000000,178,0x26,0x2E
0.183888500000000,178,0x22,0x00
0.183910375000000,179,0x30,0x2E
0.183913875000000,179,0x47,0x00
0.183917375000000,179,0x01,0x00
0.183921000000000,179,0x9A,0x00
0.183924500000000,179,0xAA,0x00
0.183943750000000,180,0x26,0x2E
0.183947250000000,180,0x22,0x00
0.183965000000000,181,0xE1,0x2E
0.183986750000000,182,0x25,0x2E
0.183990375000000,182,0x03,0x00
0.185557625000000,183,0x27,0x2E
0.185561125000000,183,0x70,0x00
0.185582125000000,184,0xA0,0x0E
0.185585625000000,184,0x01,0x00
0.185589250000000,184,0x07,0x00
0.185592750000000,184,0xF7,0x00
0.185596375000000,184,0x09,0x00
0.185599875000000,184,0x9A,0x00
0.185603500000000,184,0xD0,0x00
0.185607000000000,184,0xD0,0x00
0.187241125000000,185,0x27,0x2E
0.187244625000000,185,0x70,0x00
0.187265750000000,186,0xA0,0x0E
0.187269250000000,186,0x01,0x00
0.187272875000000,186,0x07,0x00
0.187276375000000,186,0xF7,0x00
0.187280000000000,186,0x09,0x00
0.187283500000000,186,0x9A,0x00
0.187287125000000,186,0xD0,0x00
0.187290625000000,186,0xD0,0x00
0.189839875000000,187,0x21,0x2E
0.189843500000000,187,0x00,0x00
0.189861500000000,188,0x24,0x2E
0.189865000000000,188,0x00,0x00
0.189883125000000,189,0x20,0x2E
0.189886625000000,189,0x5E,0x00
0.189904625000000,190,0x26,0x2E
0.189908125000000,190,0x22,0x00
0.189930000000000,191,0x30,0x2E
0.189933625000000,191,0x41,0x00
0.189937125000000,191,0x01,0x00
0.189940625000000,191,0x9A,0x00
0.189944250000000,191,0xAA,0x00
0.189963375000000,192,0x26,0x2E
0.189967000000000,192,0x22,0x00
0.189984625000000,193,0xE1,0x2E
0.190006500000000,194,0x25,0x2E
0.190010000000000,194,0x2A,0x00
0.191577000000000,195,0x27,0x2E
0.191580625000000,195,0x70,0x00
0.191601500000000,196,0xA0,0x0E
0.191605000000000,196,0x01,0x00
0.191608625000000,196,0x07,0x00
0.191612125000000,196,0xF7,0x00
0.191615750000000,196,0x09,0x00
0.191619250000000,196,0x9A,0x00
0.191622875000000,196,0xD0,0x00
0.193209625000000,197,0x27,0x2E
0.193213125000000,197,0x70,0x00
0.193234000000000,198,0xA0,0x0E
0.193237625000000,198,0x01,0x00
0.193241125000000,198,0x07,0x00
0.193244625000000,198,0xF7,0x00
0.193248250000000,198,0x09,0x00
0.193251750000000,198,0x9A,0x00
0.193255375000000,198,0xD0,0x00
0.195808375000000,199,0x21,0x2E
0.195812000000000,199,0x00,0x00
0.195829875000000,200,0x24,0x2E
0.195833375000000,200,0x00,0x00
0.195851500000000,201,0x20,0x2E
0.195855000000000,201,0x5E,0x00
0.195873000000000,202,0x26,0x2E
0.195876500000000,202,0x22,0x00
0.195898375000000,203,0x30,0x2E
0.195901875000000,203,0x4E,0x00
0.195905500000000,203,0x01,0x00
0.195909000000000,203,0x9A,0x00
0.195912625000000,203,0xAA,0x00
0.195931750000000,204,0x26,0x2E
0.195935375000000,204,0x22,0x00
0.195953000000000,205,0xE1,0x2E
0.195974875000000,206,0x25,0x2E
0.195978375000000,206,0x3A,0x00
0.197545500000000,207,0x27,0x2E
0.197549125000000,207,0x70,0x00
0.197569875000000,208,0xA0,0x0E
0.197573375000000,208,0x01,0x00
0.197577000000000,208,0x07,0x00
0.197580500000000,208,0xF7,0x00
0.197584125000000,208,0x09,0x00
