Time [s],Packet ID,MOSI,MISO
0.056520500000000,0,0x23,0x0E
0.056524000000000,0,0x03,0x00
0.056555125000000,1,0x2A,0x0E
0.056558750000000,1,0x12,0x00
0.056562250000000,1,0x34,0x00
0.056565875000000,1,0x56,0x00
0.056569375000000,1,0x78,0x00
0.056573000000000,1,0x9A,0x00
0.056606875000000,2,0x0A,0x0E
0.056610500000000,2,0xFF,0x12
0.056614000000000,2,0xFF,0x34
0.056617625000000,2,0xFF,0x56
0.056621125000000,2,0xFF,0x78
0.056624750000000,2,0xFF,0x9A
0.060234875000000,3,0x22,0x0E
0.060238500000000,3,0x00,0x00
0.060256375000000,4,0x27,0x0E
0.060260000000000,4,0x70,0x00
0.060287375000000,5,0x2A,0x0E
0.060291000000000,5,0xE7,0x00
0.060294500000000,5,0xE7,0x00
0.060298125000000,5,0xE7,0x00
0.060301625000000,5,0xE7,0x00
0.060305250000000,5,0xE7,0x00
0.060337625000000,6,0x2B,0x0E
0.060341125000000,6,0xC2,0x00
0.060344750000000,6,0xC2,0x00
0.060348250000000,6,0xC2,0x00
0.060351875000000,6,0xC2,0x00
0.060355375000000,6,0xC2,0x00
0.060383625000000,7,0x2B,0x0E
0.060387250000000,7,0xC3,0x00
0.060405125000000,8,0x2D,0x0E
0.060408625000000,8,0xC4,0x00
0.060435750000000,9,0x2E,0x0E
0.060439250000000,9,0xC5,0x00
0.060457125000000,10,0x2F,0x0E
0.060460750000000,10,0xC6,0x00
0.060488000000000,11,0x31,0x0E
0.060491625000000,11,0x00,0x00
0.060509500000000,12,0x32,0x0E
0.060513000000000,12,0x00,0x00
0.060539000000000,13,0x33,0x0E
0.060542625000000,13,0x00,0x00
0.060560500000000,14,0x34,0x0E
0.060564000000000,14,0x00,0x00
0.060590000000000,15,0x35,0x0E
0.060593625000000,15,0x00,0x00
0.060611500000000,16,0x36,0x0E
0.060615000000000,16,0x00,0x00
0.060641125000000,17,0x3C,0x0E
0.060644625000000,17,0x00,0x00
0.060662500000000,18,0x3D,0x0E
0.060666125000000,18,0x01,0x00
0.060692125000000,19,0x20,0x0E
0.060695625000000,19,0x5E,0x00
0.060713500000000,20,0x21,0x0E
0.060717125000000,20,0x00,0x00
0.060743000000000,21,0x23,0x0E
0.060746625000000,21,0x02,0x00
0.060764500000000,22,0x24,0x0E
0.060768125000000,22,0x00,0x00
0.060794000000000,23,0x26,0x0E
0.060797625000000,23,0x20,0x00
0.111398000000000,24,0x30,0x0E
0.111401500000000,24,0x7E,0x00
0.111405000000000,24,0xB8,0x00
0.111408625000000,24,0x63,0x00
0.111412125000000,24,0xA9,0x00
0.111431250000000,25,0x26,0x0E
0.111434875000000,25,0x20,0x00
0.111461875000000,26,0x25,0x0E
0.111465375000000,26,0x50,0x00
0.111483375000000,27,0xE1,0x0E
0.111513500000000,28,0x27,0x0E
0.111517000000000,28,0x70,0x00
0.111550125000000,29,0x27,0x0E
0.111553750000000,29,0x70,0x00
0.111574375000000,30,0xA0,0x0E
0.111577875000000,30,0x47,0x00
0.111581500000000,30,0x01,0x00
0.111585000000000,30,0x9A,0x00
0.111588625000000,30,0xAA,0x00
0.111661750000000,31,0x21,0x0E
0.111665250000000,31,0x00,0x00
0.111683250000000,32,0x24,0x0E
0.111686875000000,32,0x00,0x00
0.111704750000000,33,0x20,0x0E
0.111708250000000,33,0x5E,0x00
0.111726250000000,34,0x26,0x0E
0.111729750000000,34,0x22,0x00
0.111751625000000,35,0x30,0x0E
0.111755250000000,35,0x47,0x00
0.111758750000000,35,0x01,0x00
0.111762375000000,35,0x9A,0x00
0.111765875000000,35,0xAA,0x00
0.111785125000000,36,0x26,0x0E
0.111788625000000,36,0x22,0x00
0.111806250000000,37,0xE1,0x0E
0.111828250000000,38,0x25,0x0E
0.111831875000000,38,0x14,0x00
0.113554375000000,39,0x27,0x0E
0.113557875000000,39,0x70,0x00
0.113579000000000,40,0xA0,0x0E
0.113582625000000,40,0x00,0x00
0.113586125000000,40,0x00,0x00
0.113589750000000,40,0x00,0x00
0.113593250000000,40,0x00,0x00
0.113596875000000,40,0x00,0x00
0.113600375000000,40,0x00,0x00
0.113604000000000,40,0x00,0x00
0.115185375000000,41,0x27,0x2E
0.115188875000000,41,0x70,0x00
0.115210000000000,42,0xA0,0x0E
0.115213625000000,42,0x00,0x00
0.115217125000000,42,0x00,0x00
0.115220625000000,42,0x00,0x00
0.115224250000000,42,0x00,0x00
0.115227750000000,42,0x00,0x00
0.115231375000000,42,0x00,0x00
0.115234875000000,42,0x00,0x00
0.117784125000000,43,0x21,0x2E
0.117787750000000,43,0x00,0x00
0.117805625000000,44,0x24,0x2E
0.117809125000000,44,0x00,0x00
0.117827000000000,45,0x20,0x2E
0.117830625000000,45,0x5E,0x00
0.117848500000000,46,0x26,0x2E
0.117852125000000,46,0x22,0x00
0.117874000000000,47,0x30,0x2E
0.117877500000000,47,0x41,0x00
0.117881125000000,47,0x01,0x00
0.117884625000000,47,0x9A,0x00
0.117888125000000,47,0xAA,0x00
0.117907375000000,48,0x26,0x2E
0.117911000000000,48,0x22,0x00
0.117928625000000,49,0xE1,0x2E
0.117950500000000,50,0x25,0x2E
0.117954000000000,50,0x04,0x00
0.119521250000000,51,0x27,0x2E
0.119524875000000,51,0x70,0x00
0.119545875000000,52,0xA0,0x0E
0.119549500000000,52,0x01,0x00
0.119553000000000,52,0x07,0x00
0.119556500000000,52,0xFA,0x00
0.119560125000000,52,0x09,0x00
0.119563625000000,52,0x9A,0x00
0.119567250000000,52,0xD0,0x00
0.121153750000000,53,0x27,0x2E
0.121157375000000,53,0x70,0x00
0.121178375000000,54,0xA0,0x0E
0.121181875000000,54,0x01,0x00
0.121185500000000,54,0x07,0x00
0.121189000000000,54,0xFA,0x00
0.121192625000000,54,0x09,0x00
0.121196125000000,54,0x9A,0x00
0.121199750000000,54,0xD0,0x00
0.123803625000000,55,0x21,0x2E
0.123807250000000,55,0x00,0x00
0.123825125000000,56,0x24,0x2E
0.123828625000000,56,0x00,0x00
0.123846500000000,57,0x20,0x2E
0.123850125000000,57,0x5E,0x00
0.123868000000000,58,0x26,0x2E
0.123871625000000,58,0x22,0x00
0.123893500000000,59,0x30,0x2E
0.123897000000000,59,0x4E,0x00
0.123900500000000,59,0x01,0x00
0.123904125000000,59,0x9A,0x00
0.123907625000000,59,0xAA,0x00
0.123926875000000,60,0x26,0x2E
0.123930375000000,60,0x22,0x00
0.123948125000000,61,0xE1,0x2E
0.123969875000000,62,0x25,0x2E
0.123973500000000,62,0x2B,0x00
0.125540875000000,63,0x27,0x2E
0.125544375000000,63,0x70,0x00
0.125565125000000,64,0xA0,0x0E
0.125568750000000,64,0x01,0x00
0.125572250000000,64,0x07,0x00
0.125575875000000,64,0xFA,0x00
0.125579375000000,64,0x09,0x00
0.125582875000000,64,0x9A,0x00
0.127173250000000,65,0x27,0x2E
0.127176875000000,65,0x70,0x00
0.127197750000000,66,0xA0,0x0E
0.127201375000000,66,0x01,0x00
0.127204875000000,66,0x07,0x00
0.127208500000000,66,0xFA,0x00
0.127212000000000,66,0x09,0x00
0.127215500000000,66,0x9A,0x00
0.129772250000000,67,0x21,0x2E
0.129775750000000,67,0x00,0x00
0.129793625000000,68,0x24,0x2E
0.129797250000000,68,0x00,0x00
0.129815125000000,69,0x20,0x2E
0.129818625000000,69,0x5E,0x00
0.129836625000000,70,0x26,0x2E
0.129840125000000,70,0x22,0x00
0.129862000000000,71,0x30,0x2E
0.129865625000000,71,0x47,0x00
0.129869125000000,71,0x01,0x00
0.129872625000000,71,0x9A,0x00
0.129876250000000,71,0xAA,0x00
0.129895500000000,72,0x26,0x2E
0.129899000000000,72,0x22,0x00
0.129916625000000,73,0xE1,0x2E
0.129938625000000,74,0x25,0x2E
0.129942250000000,74,0x17,0x00
0.131509250000000,75,0x27,0x2E
0.131512875000000,75,0x70,0x00
0.131534000000000,76,0xA0,0x0E
0.131537500000000,76,0x01,0x00
0.131541125000000,76,0x07,0x00
0.131544625000000,76,0xFA,0x00
0.131548125000000,76,0x09,0x00
0.131551750000000,76,0x9A,0x00
0.131555250000000,76,0xD0,0x00
0.131558875000000,76,0xD0,0x00
0.133192750000000,77,0x27,0x2E
0.133196375000000,77,0x70,0x00
0.133217500000000,78,0xA0,0x0E
0.133221000000000,78,0x01,0x00
0.133224625000000,78,0x07,0x00
0.133228125000000,78,0xFA,0x00
0.133231625000000,78,0x09,0x00
0.133235250000000,78,0x9A,0x00
0.133238750000000,78,0xD0,0x00
0.133242375000000,78,0xD0,0x00
0.135791625000000,79,0x21,0x2E
0.135795125000000,79,0x00,0x00
0.135813000000000,80,0x24,0x2E
0.135816625000000,80,0x00,0x00
0.135834500000000,81,0x20,0x2E
0.135838000000000,81,0x5E,0x00
0.135856000000000,82,0x26,0x2E
0.135859500000000,82,0x22,0x00
0.135881375000000,83,0x30,0x2E
0.135885000000000,83,0x41,0x00
0.135888500000000,83,0x01,0x00
0.135892125000000,83,0x9A,0x00
0.135895625000000,83,0xAA,0x00
0.135914875000000,84,0x26,0x2E
0.135918375000000,84,0x22,0x00
0.135936000000000,85,0xE1,0x2E
0.135957875000000,86,0x25,0x2E
0.135961500000000,86,0x03,0x00
0.137528750000000,87,0x27,0x2E
0.137532375000000,87,0x70,0x00
0.137553250000000,88,0xA0,0x0E
0.137556750000000,88,0x01,0x00
0.137560375000000,88,0x07,0x00
0.137563875000000,88,0xFA,0x00
0.137567500000000,88,0x09,0x00
0.137571000000000,88,0x9A,0x00
0.137574625000000,88,0xD0,0x00
0.139162875000000,89,0x27,0x2E
0.139166375000000,89,0x70,0x00
0.139187375000000,90,0xA0,0x0E
0.139191000000000,90,0x01,0x00
0.139194500000000,90,0x07,0x00
0.139198125000000,90,0xFA,0x00
0.139201625000000,90,0x09,0x00
0.139205125000000,90,0x9A,0x00
0.139208750000000,90,0xD0,0x00
0.141760125000000,91,0x21,0x2E
0.141763625000000,91,0x00,0x00
0.141781500000000,92,0x24,0x2E
0.141785000000000,92,0x00,0x00
0.141803000000000,93,0x20,0x2E
0.141806500000000,93,0x5E,0x00
0.141824500000000,94,0x26,0x2E
0.141828000000000,94,0x22,0x00
0.141849875000000,95,0x30,0x2E
0.141853375000000,95,0x4E,0x00
0.141857000000000,95,0x01,0x00
0.141860500000000,95,0x9A,0x00
0.141864125000000,95,0xAA,0x00
0.141883250000000,96,0x26,0x2E
0.141886875000000,96,0x22,0x00
0.141904500000000,97,0xE1,0x2E
0.141926375000000,98,0x25,0x2E
0.141929875000000,98,0x2A,0x00
0.143497250000000,99,0x27,0x2E
0.143500750000000,99,0x70,0x00
0.143521625000000,100,0xA0,0x0E
0.143525125000000,100,0x01,0x00
0.143528625000000,100,0x07,0x00
0.143532250000000,100,0xFA,0x00
0.143535750000000,100,0x09,0x00
0.143539375000000,100,0x9A,0x00
0.145180750000000,101,0x27,0x2E
0.145184375000000,101,0x70,0x00
0.145205250000000,102,0xA0,0x0E
0.145208750000000,102,0x01,0x00
0.145212375000000,102,0x07,0x00
0.145215875000000,102,0xFA,0x00
0.145219500000000,102,0x09,0x00
0.145223000000000,102,0x9A,0x00
0.147779625000000,103,0x21,0x2E
0.147783250000000,103,0x00,0x00
0.147801125000000,104,0x24,0x2E
0.147804625000000,104,0x00,0x00
0.147822500000000,105,0x20,0x2E
0.147826125000000,105,0x5E,0x00
0.147844000000000,106,0x26,0x2E
0.147847625000000,106,0x22,0x00
0.147869500000000,107,0x30,0x2E
0.147873000000000,107,0x47,0x00
0.147876625000000,107,0x01,0x00
0.147880125000000,107,0x9A,0x00
0.147883625000000,107,0xAA,0x00
0.147902875000000,108,0x26,0x2E
0.147906500000000,108,0x22,0x00
0.147924125000000,109,0xE1,0x2E
0.147946125000000,110,0x25,0x2E
0.147949625000000,110,0x08,0x00
0.149516750000000,111,0x27,0x2E
0.149520250000000,111,0x70,0x00
0.149541375000000,112,0xA0,0x0E
0.149545000000000,112,0x01,0x00
0.149548500000000,112,0x07,0x00
0.149552125000000,112,0xFA,0x00
0.149555625000000,112,0x09,0x00
0.149559125000000,112,0x9A,0x00
0.149562750000000,112,0xD0,0x00
0.149566250000000,112,0xD0,0x00
0.151150750000000,113,0x27,0x2E
0.151154375000000,113,0x70,0x00
0.151175500000000,114,0xA0,0x0E
0.151179000000000,114,0x01,0x00
0.151182500000000,114,0x07,0x00
0.151186125000000,114,0xFA,0x00
0.151189625000000,114,0x09,0x00
0.151193250000000,114,0x9A,0x00
0.151196750000000,114,0xD0,0x00
0.151200375000000,114,0xD0,0x00
0.153748000000000,115,0x21,0x2E
0.153751625000000,115,0x00,0x00
0.153769500000000,116,0x24,0x2E
0.153773000000000,116,0x00,0x00
0.153790875000000,117,0x20,0x2E
0.153794500000000,117,0x5E,0x00
0.153812500000000,118,0x26,0x2E
0.153816000000000,118,0x22,0x00
0.153837750000000,119,0x30,0x2E
0.153841250000000,119,0x41,0x00
0.153844875000000,119,0x01,0x00
0.153848375000000,119,0x9A,0x00
0.153852000000000,119,0xAA,0x00
0.153871125000000,120,0x26,0x2E
0.153874750000000,120,0x22,0x00
0.153892375000000,121,0xE1,0x2E
0.153914250000000,122,0x25,0x2E
0.153917750000000,122,0x23,0x00
0.155536250000000,123,0x27,0x2E
0.155539750000000,123,0x70,0x00
0.155560625000000,124,0xA0,0x0E
0.155564250000000,124,0x01,0x00
0.155567750000000,124,0x07,0x00
0.155571375000000,124,0xFA,0x00
0.155574875000000,124,0x09,0x00
0.155578500000000,124,0x9A,0x00
0.155582000000000,124,0xD0,0x00
0.157168625000000,125,0x27,0x2E
0.157172250000000,125,0x70,0x00
0.157193250000000,126,0xA0,0x0E
0.157196875000000,126,0x01,0x00
0.157200375000000,126,0x07,0x00
0.157203875000000,126,0xFA,0x00
0.157207500000000,126,0x09,0x00
0.157211000000000,126,0x9A,0x00
0.157214625000000,126,0xD0,0x00
0.159767500000000,127,0x21,0x2E
0.159771125000000,127,0x00,0x00
0.159789000000000,128,0x24,0x2E
0.159792500000000,128,0x00,0x00
0.159810375000000,129,0x20,0x2E
0.159814000000000,129,0x5E,0x00
0.159832000000000,130,0x26,0x2E
0.159835500000000,130,0x22,0x00
0.159857250000000,131,0x30,0x2E
0.159860750000000,131,0x4E,0x00
0.159864375000000,131,0x01,0x00
0.159867875000000,131,0x9A,0x00
0.159871500000000,131,0xAA,0x00
0.159890625000000,132,0x26,0x2E
0.159894250000000,132,0x22,0x00
0.159911875000000,133,0xE1,0x2E
0.159933750000000,134,0x25,0x2E
0.159937250000000,134,0x36,0x00
0.161504750000000,135,0x27,0x2E
0.161508250000000,135,0x70,0x00
0.161529000000000,136,0xA0,0x0E
0.161532625000000,136,0x01,0x00
0.161536125000000,136,0x07,0x00
0.161539750000000,136,0xFA,0x00
0.161543250000000,136,0x09,0x00
0.161546750000000,136,0x9A,0x00
0.163138125000000,137,0x27,0x2E
0.163141625000000,137,0x70,0x00
0.163162500000000,138,0xA0,0x0E
0.163166125000000,138,0x01,0x00
0.163169625000000,138,0x07,0x00
0.163173250000000,138,0xFA,0x00
0.163176750000000,138,0x09,0x00
0.163180375000000,138,0x9A,0x00
0.165787125000000,139,0x21,0x2E
0.165790625000000,139,0x00,0x00
0.165808625000000,140,0x24,0x2E
0.165812250000000,140,0x00,0x00
0.165830125000000,141,0x20,0x2E
0.165833625000000,141,0x5E,0x00
0.165851625000000,142,0x26,0x2E
0.165855125000000,142,0x22,0x00
0.165877000000000,143,0x30,0x2E
0.165880625000000,143,0x47,0x00
0.165884125000000,143,0x01,0x00
0.165887750000000,143,0x9A,0x00
0.165891250000000,143,0xAA,0x00
0.165910500000000,144,0x26,0x2E
0.165914000000000,144,0x22,0x00
0.165931625000000,145,0xE1,0x2E
0.165953625000000,146,0x25,0x2E
0.165957250000000,146,0x04,0x00
0.167524125000000,147,0x27,0x2E
0.167527750000000,147,0x70,0x00
0.167548750000000,148,0xA0,0x0E
0.167552250000000,148,0x01,0x00
0.167555875000000,148,0x07,0x00
0.167559375000000,148,0xFA,0x00
0.167563000000000,148,0x09,0x00
0.167566500000000,148,0x9A,0x00
0.167570125000000,148,0xD0,0x00
0.167573625000000,148,0xD0,0x00
0.169156625000000,149,0x27,0x2E
0.169160125000000,149,0x70,0x00
0.169181125000000,150,0xA0,0x0E
0.169184750000000,150,0x01,0x00
0.169188250000000,150,0x07,0x00
0.169191875000000,150,0xFA,0x00
0.169195375000000,150,0x09,0x00
0.169199000000000,150,0x9A,0x00
0.169202500000000,150,0xD0,0x00
0.169206000000000,150,0xD0,0x00
0.171755500000000,151,0x21,0x2E
0.171759000000000,151,0x00,0x00
0.171776875000000,152,0x24,0x2E
0.171780500000000,152,0x00,0x00
0.171798375000000,153,0x20,0x2E
0.171801875000000,153,0x5E,0x00
0.171819875000000,154,0x26,0x2E
0.171823375000000,154,0x22,0x00
0.171845250000000,155,0x30,0x2E
0.171848875000000,155,0x41,0x00
0.171852375000000,155,0x01,0x00
0.171856000000000,155,0x9A,0x00
0.171859500000000,155,0xAA,0x00
0.171878750000000,156,0x26,0x2E
0.171882250000000,156,0x22,0x00
0.171899875000000,157,0xE1,0x2E
0.171921750000000,158,0x25,0x2E
0.171925375000000,158,0x2B,0x00
0.173492625000000,159,0x27,0x2E
0.173496250000000,159,0x70,0x00
0.173517250000000,160,0xA0,0x0E
0.173520750000000,160,0x01,0x00
0.173524375000000,160,0x07,0x00
0.173527875000000,160,0xFA,0x00
0.173531375000000,160,0x09,0x00
0.173535000000000,160,0x9A,0x00
0.173538500000000,160,0xD0,0x00
0.175125250000000,161,0x27,0x2E
0.175128750000000,161,0x70,0x00
0.175149625000000,162,0xA0,0x0E
0.175153250000000,162,0x01,0x00
0.175156750000000,162,0x07,0x00
0.175160250000000,162,0xFA,0x00
0.175163875000000,162,0x09,0x00
0.175167375000000,162,0x9A,0x00
0.175171000000000,162,0xD0,0x00
0.177775000000000,163,0x21,0x2E
0.177778500000000,163,0x00,0x00
0.177796375000000,164,0x24,0x2E
0.177800000000000,164,0x00,0x00
0.177817875000000,165,0x20,0x2E
0.177821375000000,165,0x5E,0x00
0.177839375000000,166,0x26,0x2E
0.177842875000000,166,0x22,0x00
0.177864750000000,167,0x30,0x2E
0.177868375000000,167,0x4E,0x00
0.177871875000000,167,0x01,0x00
0.177875500000000,167,0x9A,0x00
0.177879000000000,167,0xAA,0x00
0.177898250000000,168,0x26,0x2E
0.177901750000000,168,0x22,0x00
0.177919375000000,169,0xE1,0x2E
0.177941250000000,170,0x25,0x2E
0.177944750000000,170,0x39,0x00
0.179512125000000,171,0x27,0x2E
0.179515750000000,171,0x70,0x00
0.179536500000000,172,0xA0,0x0E
0.179540000000000,172,0x01,0x00
0.179543625000000,172,0x07,0x00
0.179547125000000,172,0xFA,0x00
0.179550750000000,172,0x09,0x00
0.179554250000000,172,0x9A,0x00
0.181144625000000,173,0x27,0x2E
0.181148250000000,173,0x70,0x00
0.181169125000000,174,0xA0,0x0E
0.181172625000000,174,0x01,0x00
0.181176250000000,174,0x07,0x00
0.181179750000000,174,0xFA,0x00
0.181183375000000,174,0x09,0x00
0.181186875000000,174,0x9A,0x00
0.183743500000000,175,0x21,0x2E
0.183747125000000,175,0x00,0x00
0.183765000000000,176,0x24,0x2E
0.183768500000000,176,0x00,0x00
0.183786375000000,177,0x20,0x2E
0.183790000000000,177,0x5E,0x00
0.183807875000000,178,0x26,0x2E
0.183811500000000,178,0x22,0x00
0.183833375000000,179,0x30,0x2E
0.183836875000000,179,0x47,0x00
0.183840500000000,179,0x01,0x00
0.183844000000000,179,0x9A,0x00
0.183847625000000,179,0xAA,0x00
0.183866750000000,180,0x26,0x2E
0.183870375000000,180,0x22,0x00
0.183888000000000,181,0xE1,0x2E
0.183910000000000,182,0x25,0x2E
0.183913500000000,182,0x03,0x00
0.185480625000000,183,0x27,0x2E
0.185484125000000,183,0x70,0x00
0.185505250000000,184,0xA0,0x0E
0.185508875000000,184,0x01,0x00
0.185512375000000,184,0x07,0x00
0.185516000000000,184,0xFA,0x00
0.185519500000000,184,0x09,0x00
0.185523000000000,184,0x9A,0x00
0.185526625000000,184,0xD0,0x00
0.185530125000000,184,0xD0,0x00
0.187164000000000,185,0x27,0x2E
0.187167625000000,185,0x70,0x00
0.187188625000000,186,0xA0,0x0E
0.187192125000000,186,0x01,0x00
0.187195750000000,186,0x07,0x00
0.187199250000000,186,0xFA,0x00
0.187202875000000,186,0x09,0x00
0.187206375000000,186,0x9A,0x00
0.187210000000000,186,0xD0,0x00
0.187213500000000,186,0xD0,0x00
0.189763000000000,187,0x21,0x2E
0.189766500000000,187,0x00,0x00
0.189784375000000,188,0x24,0x2E
0.189787875000000,188,0x00,0x00
0.189805875000000,189,0x20,0x2E
0.189809375000000,189,0x5E,0x00
0.189827375000000,190,0x26,0x2E
0.189830875000000,190,0x22,0x00
0.189852625000000,191,0x30,0x2E
0.189856125000000,191,0x41,0x00
0.189859750000000,191,0x01,0x00
0.189863250000000,191,0x9A,0x00
0.189866875000000,191,0xAA,0x00
0.189886000000000,192,0x26,0x2E
0.189889625000000,192,0x22,0x00
0.189907250000000,193,0xE1,0x2E
0.189929125000000,194,0x25,0x2E
0.189932625000000,194,0x2A,0x00
0.191500000000000,195,0x27,0x2E
0.191503625000000,195,0x70,0x00
0.191524625000000,196,0xA0,0x0E
0.191528125000000,196,0x01,0x00
0.191531750000000,196,0x07,0x00
0.191535250000000,196,0xFA,0x00
0.191538875000000,196,0x09,0x00
0.191542375000000,196,0x9A,0x00
0.191546000000000,196,0xD0,0x00
0.193132625000000,197,0x27,0x2E
0.193136125000000,197,0x70,0x00
0.193157125000000,198,0xA0,0x0E
0.193160750000000,198,0x01,0x00
0.193164250000000,198,0x07,0x00
0.193167750000000,198,0xFA,0x00
0.193171375000000,198,0x09,0x00
0.193174875000000,198,0x9A,0x00
0.193178500000000,198,0xD0,0x00
0.195731375000000,199,0x21,0x2E
0.195735000000000,199,0x00,0x00
0.195752875000000,200,0x24,0x2E
0.195756375000000,200,0x00,0x00
0.195774250000000,201,0x20,0x2E
0.195777875000000,201,0x5E,0x00
0.195795750000000,202,0x26,0x2E
0.195799375000000,202,0x22,0x00
0.195821250000000,203,0x30,0x2E
0.195824750000000,203,0x4E,0x00
0.195828375000000,203,0x01,0x00
0.195831875000000,203,0x9A,0x00
0.195835375000000,203,0xAA,0x00
0.195854625000000,204,0x26,0x2E
0.195858125000000,204,0x22,0x00
0.195875875000000,205,0xE1,0x2E
0.195897625000000,206,0x25,0x2E
0.195901250000000,206,0x3A,0x00
0.197519625000000,207,0x27,0x2E
0.197523125000000,207,0x70,0x00
0.197543875000000,208,0xA0,0x0E
0.197547500000000,208,0x01,0x00
0.197551000000000,208,0x07,0x00
0.197554625000000,208,0xFA,0x00
0.197558125000000,208,0x09,0x00
