Time [s],Packet ID,MOSI,MISO
0.056520500000000,0,0x23,0x0E
0.056524000000000,0,0x03,0x00
0.056555125000000,1,0x2A,0x0E
0.056558750000000,1,0x12,0x00
0.056562250000000,1,0x34,0x00
0.056565875000000,1,0x56,0x00
0.056569375000000,1,0x78,0x00
0.056573000000000,1,0x9A,0x00
0.056606750000000,2,0x0A,0x0E
0.056610250000000,2,0xFF,0x12
0.056613875000000,2,0xFF,0x34
0.056617375000000,2,0xFF,0x56
0.056621000000000,2,0xFF,0x78
0.056624500000000,2,0xFF,0x9A
0.060234875000000,3,0x22,0x0E
0.060238500000000,3,0x00,0x00
0.060256375000000,4,0x27,0x0E
0.060260000000000,4,0x70,0x00
0.060287375000000,5,0x2A,0x0E
0.060291000000000,5,0xE7,0x00
0.060294500000000,5,0xE7,0x00
0.060298125000000,5,0xE7,0x00
0.060301625000000,5,0xE7,0x00
0.060305250000000,5,0xE7,0x00
0.060337500000000,6,0x2B,0x0E
0.060341125000000,6,0xC2,0x00
0.060344625000000,6,0xC2,0x00
0.060348125000000,6,0xC2,0x00
0.060351750000000,6,0xC2,0x00
0.060355250000000,6,0xC2,0x00
0.060383625000000,7,0x2B,0x0E
0.060387250000000,7,0xC3,0x00
0.060405250000000,8,0x2D,0x0E
0.060408750000000,8,0xC4,0x00
0.060436125000000,9,0x2E,0x0E
0.060439750000000,9,0xC5,0x00
0.060457750000000,10,0x2F,0x0E
0.060461250000000,10,0xC6,0x00
0.060488125000000,11,0x31,0x0E
0.060491750000000,11,0x00,0x00
0.060509625000000,12,0x32,0x0E
0.060513125000000,12,0x00,0x00
0.060539000000000,13,0x33,0x0E
0.060542625000000,13,0x00,0x00
0.060560625000000,14,0x34,0x0E
0.060564125000000,14,0x00,0x00
0.060590125000000,15,0x35,0x0E
0.060593625000000,15,0x00,0x00
0.060611625000000,16,0x36,0x0E
0.060615250000000,16,0x00,0x00
0.060641125000000,17,0x3C,0x0E
0.060644625000000,17,0x00,0x00
0.060662625000000,18,0x3D,0x0E
0.060666250000000,18,0x01,0x00
0.060692125000000,19,0x20,0x0E
0.060695625000000,19,0x5E,0x00
0.060713625000000,20,0x21,0x0E
0.060717250000000,20,0x00,0x00
0.060743000000000,21,0x23,0x0E
0.060746625000000,21,0x02,0x00
0.060764500000000,22,0x24,0x0E
0.060768125000000,22,0x00,0x00
0.060794000000000,23,0x26,0x0E
0.060797625000000,23,0x20,0x00
0.111398000000000,24,0x30,0x0E
0.111401500000000,24,0x7E,0x00
0.111405000000000,24,0xB8,0x00
0.111408625000000,24,0x63,0x00
0.111412125000000,24,0xA9,0x00
0.111431375000000,25,0x26,0x0E
0.111435000000000,25,0x20,0x00
0.111461875000000,26,0x25,0x0E
0.111465375000000,26,0x50,0x00
0.111483500000000,27,0xE1,0x0E
0.111513750000000,28,0x27,0x0E
0.111517375000000,28,0x70,0x00
0.111550500000000,29,0x27,0x0E
0.111554000000000,29,0x70,0x00
0.111574625000000,30,0xA0,0x0E
0.111578250000000,30,0x47,0x00
0.111581750000000,30,0x01,0x00
0.111585375000000,30,0x9A,0x00
0.111588875000000,30,0xAA,0x00
0.111661875000000,31,0x21,0x0E
0.111665500000000,31,0x00,0x00
0.111683500000000,32,0x24,0x0E
0.111687000000000,32,0x00,0x00
0.111704875000000,33,0x20,0x0E
0.111708500000000,33,0x5E,0x00
0.111726500000000,34,0x26,0x0E
0.111730000000000,34,0x22,0x00
0.111751875000000,35,0x30,0x0E
0.111755375000000,35,0x47,0x00
0.111759000000000,35,0x01,0x00
0.111762500000000,35,0x9A,0x00
0.111766125000000,35,0xAA,0x00
0.111785250000000,36,0x26,0x0E
0.111788875000000,36,0x22,0x00
0.111806500000000,37,0xE1,0x0E
0.111828500000000,38,0x25,0x0E
0.111832000000000,38,0x14,0x00
0.113554375000000,39,0x27,0x0E
0.113558000000000,39,0x70,0x00
0.113579000000000,40,0xA0,0x0E
0.113582500000000,40,0x00,0x00
0.113586000000000,40,0x00,0x00
0.113589625000000,40,0x00,0x00
0.113593125000000,40,0x00,0x00
0.113596750000000,40,0x00,0x00
0.113600250000000,40,0x00,0x00
0.113603875000000,40,0x00,0x00
0.115185500000000,41,0x27,0x2E
0.115189125000000,41,0x70,0x00
0.115210250000000,42,0xA0,0x0E
0.115213750000000,42,0x00,0x00
0.115217375000000,42,0x00,0x00
0.115220875000000,42,0x00,0x00
0.115224375000000,42,0x00,0x00
0.115228000000000,42,0x00,0x00
0.115231500000000,42,0x00,0x00
0.115235125000000,42,0x00,0x00
0.117784375000000,43,0x21,0x2E
0.117787875000000,43,0x00,0x00
0.117805750000000,44,0x24,0x2E
0.117809250000000,44,0x00,0x00
0.117827375000000,45,0x20,0x2E
0.117830875000000,45,0x5E,0x00
0.117848875000000,46,0x26,0x2E
0.117852375000000,46,0x22,0x00
0.117874250000000,47,0x30,0x2E
0.117877875000000,47,0x41,0x00
0.117881375000000,47,0x01,0x00
0.117884875000000,47,0x9A,0x00
0.117888500000000,47,0xAA,0x00
0.117907750000000,48,0x26,0x2E
0.117911250000000,48,0x22,0x00
0.117928875000000,49,0xE1,0x2E
0.117950750000000,50,0x25,0x2E
0.117954250000000,50,0x04,0x00
0.119521500000000,51,0x27,0x2E
0.119525125000000,51,0x70,0x00
0.119546000000000,52,0xA0,0x0E
0.119549500000000,52,0x01,0x00
0.119553125000000,52,0x10,0x00
0.119556625000000,52,0xB4,0x00
0.119560250000000,52,0x09,0x00
0.119563750000000,52,0x8A,0x00
0.119567250000000,52,0xD0,0x00
0.121154000000000,53,0x27,0x2E
0.121157500000000,53,0x70,0x00
0.121178625000000,54,0xA0,0x0E
0.121182125000000,54,0x01,0x00
0.121185625000000,54,0x10,0x00
0.121189250000000,54,0xB4,0x00
0.121192750000000,54,0x09,0x00
0.121196375000000,54,0x8A,0x00
0.121199875000000,54,0xD0,0x00
0.123803875000000,55,0x21,0x2E
0.123807375000000,55,0x00,0x00
0.123825250000000,56,0x24,0x2E
0.123828875000000,56,0x00,0x00
0.123846750000000,57,0x20,0x2E
0.123850250000000,57,0x5E,0x00
0.123868250000000,58,0x26,0x2E
0.123871875000000,58,0x22,0x00
0.123893500000000,59,0x30,0x2E
0.123897125000000,59,0x4E,0x00
0.123900625000000,59,0x01,0x00
0.123904250000000,59,0x9A,0x00
0.123907750000000,59,0xAA,0x00
0.123927000000000,60,0x26,0x2E
0.123930500000000,60,0x22,0x00
0.123948125000000,61,0xE1,0x2E
0.123970000000000,62,0x25,0x2E
0.123973625000000,62,0x2B,0x00
0.125541000000000,63,0x27,0x2E
0.125544625000000,63,0x70,0x00
0.125565375000000,64,0xA0,0x0E
0.125568875000000,64,0x01,0x00
0.125572500000000,64,0x10,0x00
0.125576000000000,64,0xB4,0x00
0.125579625000000,64,0x09,0x00
0.125583125000000,64,0x8A,0x00
0.127173500000000,65,0x27,0x2E
0.127177000000000,65,0x70,0x00
0.127197750000000,66,0xA0,0x0E
0.127201375000000,66,0x01,0x00
0.127204875000000,66,0x10,0x00
0.127208500000000,66,0xB4,0x00
0.127212000000000,66,0x09,0x00
0.127215500000000,66,0x8A,0x00
0.129772375000000,67,0x21,0x2E
0.129776000000000,67,0x00,0x00
0.129793875000000,68,0x24,0x2E
0.129797375000000,68,0x00,0x00
0.129815250000000,69,0x20,0x2E
0.129818875000000,69,0x5E,0x00
0.129836875000000,70,0x26,0x2E
0.129840375000000,70,0x22,0x00
0.129862250000000,71,0x30,0x2E
0.129865750000000,71,0x47,0x00
0.129869375000000,71,0x01,0x00
0.129872875000000,71,0x9A,0x00
0.129876500000000,71,0xAA,0x00
0.129895625000000,72,0x26,0x2E
0.129899250000000,72,0x22,0x00
0.129916875000000,73,0xE1,0x2E
0.129938750000000,74,0x25,0x2E
0.129942250000000,74,0x17,0x00
0.131509500000000,75,0x27,0x2E
0.131513000000000,75,0x70,0x00
0.131534125000000,76,0xA0,0x0E
0.131537750000000,76,0x01,0x00
0.131541250000000,76,0x10,0x00
0.131544875000000,76,0xB4,0x00
0.131548375000000,76,0x09,0x00
0.131551875000000,76,0x8A,0x00
0.131555500000000,76,0xD0,0x00
0.131559000000000,76,0xD0,0x00
0.133193000000000,77,0x27,0x2E
0.133196500000000,77,0x70,0x00
0.133217625000000,78,0xA0,0x0E
0.133221250000000,78,0x01,0x00
0.133224750000000,78,0x10,0x00
0.133228375000000,78,0xB4,0x00
0.133231875000000,78,0x09,0x00
0.133235375000000,78,0x8A,0x00
0.133239000000000,78,0xD0,0x00
0.133242500000000,78,0xD0,0x00
0.135791750000000,79,0x21,0x2E
0.135795375000000,79,0x00,0x00
0.135813250000000,80,0x24,0x2E
0.135816750000000,80,0x00,0x00
0.135834625000000,81,0x20,0x2E
0.135838250000000,81,0x5E,0x00
0.135856250000000,82,0x26,0x2E
0.135859750000000,82,0x22,0x00
0.135881625000000,83,0x30,0x2E
0.135885125000000,83,0x41,0x00
0.135888750000000,83,0x01,0x00
0.135892250000000,83,0x9A,0x00
0.135895875000000,83,0xAA,0x00
0.135915000000000,84,0x26,0x2E
0.135918625000000,84,0x22,0x00
0.135936250000000,85,0xE1,0x2E
0.135958125000000,86,0x25,0x2E
0.135961625000000,86,0x03,0x00
0.137529000000000,87,0x27,0x2E
0.137532500000000,87,0x70,0x00
0.137553500000000,88,0xA0,0x0E
0.137557125000000,88,0x01,0x00
0.137560625000000,88,0x10,0x00
0.137564250000000,88,0xB4,0x00
0.137567750000000,88,0x09,0x00
0.137571250000000,88,0x8A,0x00
0.137574875000000,88,0xD0,0x00
0.139162750000000,89,0x27,0x2E
0.139166375000000,89,0x70,0x00
0.139187375000000,90,0xA0,0x0E
0.139190875000000,90,0x01,0x00
0.139194500000000,90,0x10,0x00
0.139198000000000,90,0xB4,0x00
0.139201625000000,90,0x09,0x00
0.139205125000000,90,0x8A,0x00
0.139208750000000,90,0xD0,0x00
0.141760250000000,91,0x21,0x2E
0.141763875000000,91,0x00,0x00
0.141781750000000,92,0x24,0x2E
0.141785250000000,92,0x00,0x00
0.141803125000000,93,0x20,0x2E
0.141806750000000,93,0x5E,0x00
0.141824750000000,94,0x26,0x2E
0.141828250000000,94,0x22,0x00
0.141850000000000,95,0x30,0x2E
0.141853500000000,95,0x4E,0x00
0.141857125000000,95,0x01,0x00
0.141860625000000,95,0x9A,0x00
0.141864125000000,95,0xAA,0x00
0.141883375000000,96,0x26,0x2E
0.141887000000000,96,0x22,0x00
0.141904625000000,97,0xE1,0x2E
0.141926375000000,98,0x25,0x2E
0.141930000000000,98,0x2A,0x00
0.143497500000000,99,0x27,0x2E
0.143501000000000,99,0x70,0x00
0.143521750000000,100,0xA0,0x0E
0.143525375000000,100,0x01,0x00
0.143528875000000,100,0x10,0x00
0.143532500000000,100,0xB4,0x00
0.143536000000000,100,0x09,0x00
0.143539500000000,100,0x8A,0x00
0.145180875000000,101,0x27,0x2E
0.145184500000000,101,0x70,0x00
0.145205375000000,102,0xA0,0x0E
0.145209000000000,102,0x01,0x00
0.145212500000000,102,0x10,0x00
0.145216000000000,102,0xB4,0x00
0.145219625000000,102,0x09,0x00
0.145223125000000,102,0x8A,0x00
0.147779875000000,103,0x21,0x2E
0.147783375000000,103,0x00,0x00
0.147801250000000,104,0x24,0x2E
0.147804875000000,104,0x00,0x00
0.147822750000000,105,0x20,0x2E
0.147826250000000,105,0x5E,0x00
0.147844250000000,106,0x26,0x2E
0.147847750000000,106,0x22,0x00
0.147869625000000,107,0x30,0x2E
0.147873250000000,107,0x47,0x00
0.147876750000000,107,0x01,0x00
0.147880375000000,107,0x9A,0x00
0.147883875000000,107,0xAA,0x00
0.147903125000000,108,0x26,0x2E
0.147906625000000,108,0x22,0x00
0.147924250000000,109,0xE1,0x2E
0.147946250000000,110,0x25,0x2E
0.147949875000000,110,0x08,0x00
0.149516875000000,111,0x27,0x2E
0.149520500000000,111,0x70,0x00
0.149541625000000,112,0xA0,0x0E
0.149545125000000,112,0x01,0x00
0.149548750000000,112,0x10,0x00
0.149552250000000,112,0xB4,0x00
0.149555875000000,112,0x09,0x00
0.149559375000000,112,0x8A,0x00
0.149562875000000,112,0xD0,0x00
0.149566500000000,112,0xD0,0x00
0.151150750000000,113,0x27,0x2E
0.151154250000000,113,0x70,0x00
0.151175500000000,114,0xA0,0x0E
0.151179000000000,114,0x01,0x00
0.151182500000000,114,0x10,0x00
0.151186125000000,114,0xB4,0x00
0.151189625000000,114,0x09,0x00
0.151193250000000,114,0x8A,0x00
0.151196750000000,114,0xD0,0x00
0.151200375000000,114,0xD0,0x00
0.153748125000000,115,0x21,0x2E
0.153751750000000,115,0x00,0x00
0.153769625000000,116,0x24,0x2E
0.153773125000000,116,0x00,0x00
0.153791250000000,117,0x20,0x2E
0.153794750000000,117,0x5E,0x00
0.153812750000000,118,0x26,0x2E
0.153816250000000,118,0x22,0x00
0.153838125000000,119,0x30,0x2E
0.153841750000000,119,0x41,0x00
0.153845250000000,119,0x01,0x00
0.153848750000000,119,0x9A,0x00
0.153852375000000,119,0xAA,0x00
0.153871625000000,120,0x26,0x2E
0.153875125000000,120,0x22,0x00
0.153892750000000,121,0xE1,0x2E
0.153914625000000,122,0x25,0x2E
0.153918125000000,122,0x23,0x00
0.155536375000000,123,0x27,0x2E
0.155539875000000,123,0x70,0x00
0.155561000000000,124,0xA0,0x0E
0.155564500000000,124,0x01,0x00
0.155568000000000,124,0x10,0x00
0.155571625000000,124,0xB4,0x00
0.155575125000000,124,0x09,0x00
0.155578750000000,124,0x8A,0x00
0.155582250000000,124,0xD0,0x00
0.157168875000000,125,0x27,0x2E
0.157172375000000,125,0x70,0x00
0.157193500000000,126,0xA0,0x0E
0.157197000000000,126,0x01,0x00
0.157200625000000,126,0x10,0x00
0.157204125000000,126,0xB4,0x00
0.157207625000000,126,0x09,0x00
0.157211250000000,126,0x8A,0x00
0.157214750000000,126,0xD0,0x00
0.159767750000000,127,0x21,0x2E
0.159771250000000,127,0x00,0x00
0.159789125000000,128,0x24,0x2E
0.159792750000000,128,0x00,0x00
0.159810625000000,129,0x20,0x2E
0.159814125000000,129,0x5E,0x00
0.159832125000000,130,0x26,0x2E
0.159835750000000,130,0x22,0x00
0.159857375000000,131,0x30,0x2E
0.159861000000000,131,0x4E,0x00
0.159864500000000,131,0x01,0x00
0.159868125000000,131,0x9A,0x00
0.159871625000000,131,0xAA,0x00
0.159890875000000,132,0x26,0x2E
0.159894375000000,132,0x22,0x00
0.159912000000000,133,0xE1,0x2E
0.159933875000000,134,0x25,0x2E
0.159937375000000,134,0x36,0x00
0.161504875000000,135,0x27,0x2E
0.161508375000000,135,0x70,0x00
0.161529250000000,136,0xA0,0x0E
0.161532875000000,136,0x01,0x00
0.161536375000000,136,0x10,0x00
0.161540000000000,136,0xB4,0x00
0.161543500000000,136,0x09,0x00
0.161547125000000,136,0x8A,0x00
0.163137750000000,137,0x27,0x2E
0.163141375000000,137,0x70,0x00
0.163162125000000,138,0xA0,0x0E
0.163165625000000,138,0x01,0x00
0.163169250000000,138,0x10,0x00
0.163172750000000,138,0xB4,0x00
0.163176375000000,138,0x09,0x00
0.163179875000000,138,0x8A,0x00
0.165787250000000,139,0x21,0x2E
0.165790875000000,139,0x00,0x00
0.165808750000000,140,0x24,0x2E
0.165812250000000,140,0x00,0x00
0.165830125000000,141,0x20,0x2E
0.165833750000000,141,0x5E,0x00
0.165851625000000,142,0x26,0x2E
0.165855250000000,142,0x22,0x00
0.165877125000000,143,0x30,0x2E
0.165880625000000,143,0x47,0x00
0.165884250000000,143,0x01,0x00
0.165887750000000,143,0x9A,0x00
0.165891375000000,143,0xAA,0x00
0.165910500000000,144,0x26,0x2E
0.165914125000000,144,0x22,0x00
0.165931750000000,145,0xE1,0x2E
0.165953750000000,146,0x25,0x2E
0.165957250000000,146,0x04,0x00
0.167524375000000,147,0x27,0x2E
0.167527875000000,147,0x70,0x00
0.167549000000000,148,0xA0,0x0E
0.167552625000000,148,0x01,0x00
0.167556125000000,148,0x10,0x00
0.167559750000000,148,0xB4,0x00
0.167563250000000,148,0x09,0x00
0.167566875000000,148,0x8A,0x00
0.167570375000000,148,0xD0,0x00
0.167573875000000,148,0xD0,0x00
0.169156750000000,149,0x27,0x2E
0.169160375000000,149,0x70,0x00
0.169181375000000,150,0xA0,0x0E
0.169184875000000,150,0x01,0x00
0.169188500000000,150,0x10,0x00
0.169192000000000,150,0xB4,0x00
0.169195625000000,150,0x09,0x00
0.169199125000000,150,0x8A,0x00
0.169202750000000,150,0xD0,0x00
0.169206250000000,150,0xD0,0x00
0.171755625000000,151,0x21,0x2E
0.171759250000000,151,0x00,0x00
0.171777125000000,152,0x24,0x2E
0.171780625000000,152,0x00,0x00
0.171798500000000,153,0x20,0x2E
0.171802125000000,153,0x5E,0x00
0.171820000000000,154,0x26,0x2E
0.171823625000000,154,0x22,0x00
0.171845500000000,155,0x30,0x2E
0.171849000000000,155,0x41,0x00
0.171852625000000,155,0x01,0x00
0.171856125000000,155,0x9A,0x00
0.171859750000000,155,0xAA,0x00
0.171878875000000,156,0x26,0x2E
0.171882500000000,156,0x22,0x00
0.171900125000000,157,0xE1,0x2E
0.171922000000000,158,0x25,0x2E
0.171925500000000,158,0x2B,0x00
0.173492875000000,159,0x27,0x2E
0.173496375000000,159,0x70,0x00
0.173517375000000,160,0xA0,0x0E
0.173521000000000,160,0x01,0x00
0.173524500000000,160,0x10,0x00
0.173528125000000,160,0xB4,0x00
0.173531625000000,160,0x09,0x00
0.173535125000000,160,0x8A,0x00
0.173538750000000,160,0xD0,0x00
0.175125375000000,161,0x27,0x2E
0.175128875000000,161,0x70,0x00
0.175149875000000,162,0xA0,0x0E
0.175153500000000,162,0x01,0x00
0.175157000000000,162,0x10,0x00
0.175160625000000,162,0xB4,0x00
0.175164125000000,162,0x09,0x00
0.175167750000000,162,0x8A,0x00
0.175171250000000,162,0xD0,0x00
0.177775125000000,163,0x21,0x2E
0.177778625000000,163,0x00,0x00
0.177796500000000,164,0x24,0x2E
0.177800125000000,164,0x00,0x00
0.177818125000000,165,0x20,0x2E
0.177821750000000,165,0x5E,0x00
0.177839625000000,166,0x26,0x2E
0.177843250000000,166,0x22,0x00
0.177865125000000,167,0x30,0x2E
0.177868625000000,167,0x4E,0x00
0.177872125000000,167,0x01,0x00
0.177875750000000,167,0x9A,0x00
0.177879250000000,167,0xAA,0x00
0.177898500000000,168,0x26,0x2E
0.177902000000000,168,0x22,0x00
0.177919750000000,169,0xE1,0x2E
0.177941500000000,170,0x25,0x2E
0.177945125000000,170,0x39,0x00
0.179512375000000,171,0x27,0x2E
0.179515875000000,171,0x70,0x00
0.179536625000000,172,0xA0,0x0E
0.179540250000000,172,0x01,0x00
0.179543750000000,172,0x10,0x00
0.179547375000000,172,0xB4,0x00
0.179550875000000,172,0x09,0x00
0.179554500000000,172,0x8A,0x00
0.181144875000000,173,0x27,0x2E
0.181148375000000,173,0x70,0x00
0.181169250000000,174,0xA0,0x0E
0.181172875000000,174,0x01,0x00
0.181176375000000,174,0x10,0x00
0.181180000000000,174,0xB4,0x00
0.181183500000000,174,0x09,0x00
0.181187125000000,174,0x8A,0x00
0.183743625000000,175,0x21,0x2E
0.183747250000000,175,0x00,0x00
0.183765250000000,176,0x24,0x2E
0.183768875000000,176,0x00,0x00
0.183786750000000,177,0x20,0x2E
0.183790250000000,177,0x5E,0x00
0.183808250000000,178,0x26,0x2E
0.183811750000000,178,0x22,0x00
0.183833625000000,179,0x30,0x2E
0.183837250000000,179,0x47,0x00
0.183840750000000,179,0x01,0x00
0.183844250000000,179,0x9A,0x00
0.183847875000000,179,0xAA,0x00
0.183867000000000,180,0x26,0x2E
0.183870625000000,180,0x22,0x00
0.183888250000000,181,0xE1,0x2E
0.183910250000000,182,0x25,0x2E
0.183913750000000,182,0x03,0x00
0.185480750000000,183,0x27,0x2E
0.185484375000000,183,0x70,0x00
0.185505375000000,184,0xA0,0x0E
0.185508875000000,184,0x01,0x00
0.185512500000000,184,0x10,0x00
0.185516000000000,184,0xB4,0x00
0.185519625000000,184,0x09,0x00
0.185523125000000,184,0x8A,0x00
0.185526750000000,184,0xD0,0x00
0.185530250000000,184,0xD0,0x00
0.187164250000000,185,0x27,0x2E
0.187167750000000,185,0x70,0x00
0.187188750000000,186,0xA0,0x0E
0.187192375000000,186,0x01,0x00
0.187195875000000,186,0x10,0x00
0.187199500000000,186,0xB4,0x00
0.187203000000000,186,0x09,0x00
0.187206625000000,186,0x8A,0x00
0.187210125000000,186,0xD0,0x00
0.187213750000000,186,0xD0,0x00
0.189763125000000,187,0x21,0x2E
0.189766625000000,187,0x00,0x00
0.189784625000000,188,0x24,0x2E
0.189788125000000,188,0x00,0x00
0.189806000000000,189,0x20,0x2E
0.189809625000000,189,0x5E,0x00
0.189827500000000,190,0x26,0x2E
0.189831125000000,190,0x22,0x00
0.189852750000000,191,0x30,0x2E
0.189856375000000,191,0x41,0x00
0.189859875000000,191,0x01,0x00
0.189863500000000,191,0x9A,0x00
0.189867000000000,191,0xAA,0x00
0.189886250000000,192,0x26,0x2E
0.189889750000000,192,0x22,0x00
0.189907500000000,193,0xE1,0x2E
0.189929250000000,194,0x25,0x2E
0.189932875000000,194,0x2A,0x00
0.191500250000000,195,0x27,0x2E
0.191503875000000,195,0x70,0x00
0.191524875000000,196,0xA0,0x0E
0.191528375000000,196,0x01,0x00
0.191532000000000,196,0x10,0x00
0.191535500000000,196,0xB4,0x00
0.191539125000000,196,0x09,0x00
0.191542625000000,196,0x8A,0x00
0.191546125000000,196,0xD0,0x00
0.193132750000000,197,0x27,0x2E
0.193136250000000,197,0x70,0x00
0.193157375000000,198,0xA0,0x0E
0.193160875000000,198,0x01,0x00
0.193164500000000,198,0x10,0x00
0.193168000000000,198,0xB4,0x00
0.193171500000000,198,0x09,0x00
0.193175125000000,198,0x8A,0x00
0.193178625000000,198,0xD0,0x00
0.195731625000000,199,0x21,0x2E
0.195735125000000,199,0x00,0x00
0.195753000000000,200,0x24,0x2E
0.195756625000000,200,0x00,0x00
0.195774500000000,201,0x20,0x2E
0.195778000000000,201,0x5E,0x00
0.195796000000000,202,0x26,0x2E
0.195799500000000,202,0x22,0x00
0.195821375000000,203,0x30,0x2E
0.195825000000000,203,0x4E,0x00
0.195828500000000,203,0x01,0x00
0.195832000000000,203,0x9A,0x00
0.195835625000000,203,0xAA,0x00
0.195854750000000,204,0x26,0x2E
0.195858375000000,204,0x22,0x00
0.195876000000000,205,0xE1,0x2E
0.195897875000000,206,0x25,0x2E
0.195901375000000,206,0x3A,0x00
0.197519750000000,207,0x27,0x2E
0.197523250000000,207,0x70,0x00
0.197544250000000,208,0xA0,0x0E
0.197547750000000,208,0x01,0x00
0.197551375000000,208,0x10,0x00
0.197554875000000,208,0xB4,0x00
0.197558500000000,208,0x09,0x00
