Time [s],Packet ID,MOSI,MISO
0.056555125000000,0,0x23,0x0E
0.056558625000000,0,0x03,0x00
0.056580625000000,1,0x2A,0x0E
0.056584125000000,1,0x12,0x00
0.056587750000000,1,0x34,0x00
0.056591250000000,1,0x56,0x00
0.056594875000000,1,0x78,0x00
0.056598375000000,1,0x9A,0x00
0.056630250000000,2,0x0A,0x0E
0.056633750000000,2,0xFF,0x12
0.056637375000000,2,0xFF,0x34
0.056640875000000,2,0xFF,0x56
0.056644500000000,2,0xFF,0x78
0.056648000000000,2,0xFF,0x9A
0.060234875000000,3,0x22,0x0E
0.060238375000000,3,0x00,0x00
0.060256500000000,4,0x27,0x0E
0.060260125000000,4,0x70,0x00
0.060287375000000,5,0x2A,0x0E
0.060290875000000,5,0xE7,0x00
0.060294500000000,5,0xE7,0x00
0.060298000000000,5,0xE7,0x00
0.060301625000000,5,0xE7,0x00
0.060305125000000,5,0xE7,0x00
0.060337375000000,6,0x2B,0x0E
0.060340875000000,6,0xC2,0x00
0.060344500000000,6,0xC2,0x00
0.060348000000000,6,0xC2,0x00
0.060351625000000,6,0xC2,0x00
0.060355125000000,6,0xC2,0x00
0.060383375000000,7,0x2B,0x0E
0.060387000000000,7,0xC3,0x00
0.060404875000000,8,0x2D,0x0E
0.060408375000000,8,0xC4,0x00
0.060435750000000,9,0x2E,0x0E
0.060439250000000,9,0xC5,0x00
0.060457125000000,10,0x2F,0x0E
0.060460750000000,10,0xC6,0x00
0.060488125000000,11,0x31,0x0E
0.060491750000000,11,0x00,0x00
0.060509625000000,12,0x32,0x0E
0.060513125000000,12,0x00,0x00
0.060539250000000,13,0x33,0x0E
0.060542875000000,13,0x00,0x00
0.060560750000000,14,0x34,0x0E
0.060564250000000,14,0x00,0x00
0.060590125000000,15,0x35,0x0E
0.060593625000000,15,0x00,0x00
0.060611625000000,16,0x36,0x0E
0.060615125000000,16,0x00,0x00
0.060641125000000,17,0x3C,0x0E
0.060644750000000,17,0x00,0x00
0.060662625000000,18,0x3D,0x0E
0.060666125000000,18,0x01,0x00
0.060692125000000,19,0x20,0x0E
0.060695750000000,19,0x5E,0x00
0.060713625000000,20,0x21,0x0E
0.060717125000000,20,0x00,0x00
0.060743125000000,21,0x23,0x0E
0.060746625000000,21,0x02,0x00
0.060764750000000,22,0x24,0x0E
0.060768250000000,22,0x00,0x00
0.060794125000000,23,0x26,0x0E
0.060797625000000,23,0x20,0x00
0.111441625000000,24,0x30,0x0E
0.111445250000000,24,0x7E,0x00
0.111448750000000,24,0xB8,0x00
0.111452375000000,24,0x63,0x00
0.111455875000000,24,0xA9,0x00
0.111475125000000,25,0x26,0x0E
0.111478750000000,25,0x20,0x00
0.111500500000000,26,0x25,0x0E
0.111504000000000,26,0x50,0x00
0.111522125000000,27,0xE1,0x0E
0.111551375000000,28,0x27,0x0E
0.111554875000000,28,0x70,0x00
0.111575000000000,29,0x27,0x0E
0.111578625000000,29,0x70,0x00
0.111605125000000,30,0xA0,0x0E
0.111608625000000,30,0x47,0x00
0.111612250000000,30,0x01,0x00
0.111615750000000,30,0x9A,0x00
0.111619375000000,30,0xAA,0x00
0.111683625000000,31,0x21,0x0E
0.111687250000000,31,0x00,0x00
0.111705125000000,32,0x24,0x0E
0.111708625000000,32,0x00,0x00
0.111726500000000,33,0x20,0x0E
0.111730125000000,33,0x5E,0x00
0.111748000000000,34,0x26,0x0E
0.111751625000000,34,0x22,0x00
0.111773500000000,35,0x30,0x0E
0.111777000000000,35,0x47,0x00
0.111780625000000,35,0x01,0x00
0.111784125000000,35,0x9A,0x00
0.111787625000000,35,0xAA,0x00
0.111806875000000,36,0x26,0x0E
0.111810500000000,36,0x22,0x00
0.111828125000000,37,0xE1,0x0E
0.111850125000000,38,0x25,0x0E
0.111853625000000,38,0x14,0x00
0.113578875000000,39,0x27,0x0E
0.113582375000000,39,0x70,0x00
0.113603500000000,40,0xA0,0x0E
0.113607125000000,40,0x00,0x00
0.113610625000000,40,0x00,0x00
0.113614250000000,40,0x00,0x00
0.113617750000000,40,0x00,0x00
0.113621375000000,40,0x00,0x00
0.113624875000000,40,0x00,0x00
0.113628500000000,40,0x00,0x00
0.115211375000000,41,0x27,0x2E
0.115214875000000,41,0x70,0x00
0.115236000000000,42,0xA0,0x0E
0.115239625000000,42,0x00,0x00
0.115243125000000,42,0x00,0x00
0.115246750000000,42,0x00,0x00
0.115250250000000,42,0x00,0x00
0.115253875000000,42,0x00,0x00
0.115257375000000,42,0x00,0x00
0.115261000000000,42,0x00,0x00
0.117810125000000,43,0x21,0x2E
0.117813750000000,43,0x00,0x00
0.117831625000000,44,0x24,0x2E
0.117835125000000,44,0x00,0x00
0.117853000000000,45,0x20,0x2E
0.117856625000000,45,0x5E,0x00
0.117874625000000,46,0x26,0x2E
0.117878125000000,46,0x22,0x00
0.117900000000000,47,0x30,0x2E
0.117903500000000,47,0x41,0x00
0.117907125000000,47,0x01,0x00
0.117910625000000,47,0x9A,0x00
0.117914250000000,47,0xAA,0x00
0.117933375000000,48,0x26,0x2E
0.117937000000000,48,0x22,0x00
0.117954625000000,49,0xE1,0x2E
0.117976500000000,50,0x25,0x2E
0.117980000000000,50,0x04,0x00
0.119547375000000,51,0x27,0x2E
0.119550875000000,51,0x70,0x00
0.119571750000000,52,0xA0,0x0E
0.119575375000000,52,0x00,0x00
0.119578875000000,52,0x07,0x00
0.119582500000000,52,0xB4,0x00
0.119586000000000,52,0x09,0x00
0.119589625000000,52,0x8A,0x00
0.119593125000000,52,0xD0,0x00
0.121179875000000,53,0x27,0x2E
0.121183375000000,53,0x70,0x00
0.121204375000000,54,0xA0,0x0E
0.121207875000000,54,0x00,0x00
0.121211375000000,54,0x07,0x00
0.121215000000000,54,0xB4,0x00
0.121218500000000,54,0x09,0x00
0.121222125000000,54,0x8A,0x00
0.121225625000000,54,0xD0,0x00
0.123829625000000,55,0x21,0x2E
0.123833250000000,55,0x00,0x00
0.123851125000000,56,0x24,0x2E
0.123854625000000,56,0x00,0x00
0.123872625000000,57,0x20,0x2E
0.123876125000000,57,0x5E,0x00
0.123894125000000,58,0x26,0x2E
0.123897625000000,58,0x22,0x00
0.123919375000000,59,0x30,0x2E
0.123922875000000,59,0x4E,0x00
0.123926500000000,59,0x01,0x00
0.123930000000000,59,0x9A,0x00
0.123933625000000,59,0xAA,0x00
0.123952750000000,60,0x26,0x2E
0.123956375000000,60,0x22,0x00
0.123974000000000,61,0xE1,0x2E
0.123995875000000,62,0x25,0x2E
0.123999375000000,62,0x2B,0x00
0.125566875000000,63,0x27,0x2E
0.125570375000000,63,0x70,0x00
0.125591125000000,64,0xA0,0x0E
0.125594750000000,64,0x00,0x00
0.125598250000000,64,0x07,0x00
0.125601875000000,64,0xB4,0x00
0.125605375000000,64,0x09,0x00
0.125609000000000,64,0x8A,0x00
0.127199375000000,65,0x27,0x2E
0.127202875000000,65,0x70,0x00
0.127223750000000,66,0xA0,0x0E
0.127227375000000,66,0x00,0x00
0.127230875000000,66,0x07,0x00
0.127234500000000,66,0xB4,0x00
0.127238000000000,66,0x09,0x00
0.127241500000000,66,0x8A,0x00
0.129798250000000,67,0x21,0x2E
0.129801875000000,67,0x00,0x00
0.129819750000000,68,0x24,0x2E
0.129823250000000,68,0x00,0x00
0.129841125000000,69,0x20,0x2E
0.129844750000000,69,0x5E,0x00
0.129862625000000,70,0x26,0x2E
0.129866250000000,70,0x22,0x00
0.129888125000000,71,0x30,0x2E
0.129891625000000,71,0x47,0x00
0.129895250000000,71,0x01,0x00
0.129898750000000,71,0x9A,0x00
0.129902250000000,71,0xAA,0x00
0.129921500000000,72,0x26,0x2E
0.129925000000000,72,0x22,0x00
0.129942750000000,73,0xE1,0x2E
0.129964500000000,74,0x25,0x2E
0.129968125000000,74,0x17,0x00
0.131535375000000,75,0x27,0x2E
0.131538875000000,75,0x70,0x00
0.131559875000000,76,0xA0,0x0E
0.131563500000000,76,0x00,0x00
0.131567000000000,76,0x07,0x00
0.131570625000000,76,0xB4,0x00
0.131574125000000,76,0x09,0x00
0.131577750000000,76,0x8A,0x00
0.131581250000000,76,0xD0,0x00
0.131584750000000,76,0xD0,0x00
0.133218875000000,77,0x27,0x2E
0.133222375000000,77,0x70,0x00
0.133243500000000,78,0xA0,0x0E
0.133247125000000,78,0x00,0x00
0.133250625000000,78,0x07,0x00
0.133254125000000,78,0xB4,0x00
0.133257750000000,78,0x09,0x00
0.133261250000000,78,0x8A,0x00
0.133264875000000,78,0xD0,0x00
0.133268375000000,78,0xD0,0x00
0.135868625000000,79,0x21,0x2E
0.135872250000000,79,0x00,0x00
0.135890125000000,80,0x24,0x2E
0.135893625000000,80,0x00,0x00
0.135911500000000,81,0x20,0x2E
0.135915125000000,81,0x5E,0x00
0.135933125000000,82,0x26,0x2E
0.135936625000000,82,0x22,0x00
0.135958375000000,83,0x30,0x2E
0.135961875000000,83,0x41,0x00
0.135965500000000,83,0x01,0x00
0.135969000000000,83,0x9A,0x00
0.135972625000000,83,0xAA,0x00
0.135991750000000,84,0x26,0x2E
0.135995375000000,84,0x22,0x00
0.136013000000000,85,0xE1,0x2E
0.136034875000000,86,0x25,0x2E
0.136038375000000,86,0x03,0x00
0.137605875000000,87,0x27,0x2E
0.137609375000000,87,0x70,0x00
0.137630250000000,88,0xA0,0x0E
0.137633875000000,88,0x00,0x00
0.137637375000000,88,0x07,0x00
0.137641000000000,88,0xB4,0x00
0.137644500000000,88,0x09,0x00
0.137648125000000,88,0x8A,0x00
0.137651625000000,88,0xD0,0x00
0.139238250000000,89,0x27,0x2E
0.139241875000000,89,0x70,0x00
0.139262875000000,90,0xA0,0x0E
0.139266375000000,90,0x00,0x00
0.139270000000000,90,0x07,0x00
0.139273500000000,90,0xB4,0x00
0.139277125000000,90,0x09,0x00
0.139280625000000,90,0x8A,0x00
0.139284250000000,90,0xD0,0x00
0.141837125000000,91,0x21,0x2E
0.141840750000000,91,0x00,0x00
0.141858625000000,92,0x24,0x2E
0.141862125000000,92,0x00,0x00
0.141880000000000,93,0x20,0x2E
0.141883625000000,93,0x5E,0x00
0.141901500000000,94,0x26,0x2E
0.141905125000000,94,0x22,0x00
0.141926875000000,95,0x30,0x2E
0.141930375000000,95,0x4E,0x00
0.141933875000000,95,0x01,0x00
0.141937500000000,95,0x9A,0x00
0.141941000000000,95,0xAA,0x00
0.141960250000000,96,0x26,0x2E
0.141963750000000,96,0x22,0x00
0.141981500000000,97,0xE1,0x2E
0.142003250000000,98,0x25,0x2E
0.142006875000000,98,0x2A,0x00
0.143574250000000,99,0x27,0x2E
0.143577875000000,99,0x70,0x00
0.143598625000000,100,0xA0,0x0E
0.143602250000000,100,0x00,0x00
0.143605750000000,100,0x07,0x00
0.143609250000000,100,0xB4,0x00
0.143612875000000,100,0x09,0x00
0.143616375000000,100,0x8A,0x00
0.145257750000000,101,0x27,0x2E
0.145261375000000,101,0x70,0x00
0.145282250000000,102,0xA0,0x0E
0.145285875000000,102,0x00,0x00
0.145289375000000,102,0x07,0x00
0.145293000000000,102,0xB4,0x00
0.145296500000000,102,0x09,0x00
0.145300000000000,102,0x8A,0x00
0.147856750000000,103,0x21,0x2E
0.147860250000000,103,0x00,0x00
0.147878125000000,104,0x24,0x2E
0.147881750000000,104,0x00,0x00
0.147899625000000,105,0x20,0x2E
0.147903125000000,105,0x5E,0x00
0.147921125000000,106,0x26,0x2E
0.147924750000000,106,0x22,0x00
0.147946500000000,107,0x30,0x2E
0.147950125000000,107,0x47,0x00
0.147953625000000,107,0x01,0x00
0.147957250000000,107,0x9A,0x00
0.147960750000000,107,0xAA,0x00
0.147980000000000,108,0x26,0x2E
0.147983500000000,108,0x22,0x00
0.148001125000000,109,0xE1,0x2E
0.148023000000000,110,0x25,0x2E
0.148026625000000,110,0x08,0x00
0.149593750000000,111,0x27,0x2E
0.149597375000000,111,0x70,0x00
0.149618500000000,112,0xA0,0x0E
0.149622000000000,112,0x00,0x00
0.149625625000000,112,0x07,0x00
0.149629125000000,112,0xB4,0x00
0.149632625000000,112,0x09,0x00
0.149636250000000,112,0x8A,0x00
0.149639750000000,112,0xD0,0x00
0.149643375000000,112,0xD0,0x00
0.151226250000000,113,0x27,0x2E
0.151229875000000,113,0x70,0x00
0.151250875000000,114,0xA0,0x0E
0.151254375000000,114,0x00,0x00
0.151258000000000,114,0x07,0x00
0.151261500000000,114,0xB4,0x00
0.151265125000000,114,0x09,0x00
0.151268625000000,114,0x8A,0x00
0.151272250000000,114,0xD0,0x00
0.151275750000000,114,0xD0,0x00
0.153825125000000,115,0x21,0x2E
0.153828625000000,115,0x00,0x00
0.153846500000000,116,0x24,0x2E
0.153850125000000,116,0x00,0x00
0.153868000000000,117,0x20,0x2E
0.153871500000000,117,0x5E,0x00
0.153889500000000,118,0x26,0x2E
0.153893125000000,118,0x22,0x00
0.153914750000000,119,0x30,0x2E
0.153918375000000,119,0x41,0x00
0.153921875000000,119,0x01,0x00
0.153925500000000,119,0x9A,0x00
0.153929000000000,119,0xAA,0x00
0.153948250000000,120,0x26,0x2E
0.153951750000000,120,0x22,0x00
0.153969375000000,121,0xE1,0x2E
0.153991250000000,122,0x25,0x2E
0.153994875000000,122,0x23,0x00
0.155613250000000,123,0x27,0x2E
0.155616875000000,123,0x70,0x00
0.155637750000000,124,0xA0,0x0E
0.155641250000000,124,0x00,0x00
0.155644875000000,124,0x07,0x00
0.155648375000000,124,0xB4,0x00
0.155652000000000,124,0x09,0x00
0.155655500000000,124,0x8A,0x00
0.155659000000000,124,0xD0,0x00
0.157245750000000,125,0x27,0x2E
0.157249375000000,125,0x70,0x00
0.157270375000000,126,0xA0,0x0E
0.157273875000000,126,0x00,0x00
0.157277500000000,126,0x07,0x00
0.157281000000000,126,0xB4,0x00
0.157284625000000,126,0x09,0x00
0.157288125000000,126,0x8A,0x00
0.157291750000000,126,0xD0,0x00
0.159844625000000,127,0x21,0x2E
0.159848125000000,127,0x00,0x00
0.159866250000000,128,0x24,0x2E
0.159869750000000,128,0x00,0x00
0.159887750000000,129,0x20,0x2E
0.159891375000000,129,0x5E,0x00
0.159909250000000,130,0x26,0x2E
0.159912875000000,130,0x22,0x00
0.159934750000000,131,0x30,0x2E
0.159938250000000,131,0x4E,0x00
0.159941875000000,131,0x01,0x00
0.159945375000000,131,0x9A,0x00
0.159949000000000,131,0xAA,0x00
0.159968125000000,132,0x26,0x2E
0.159971750000000,132,0x22,0x00
0.159989375000000,133,0xE1,0x2E
0.160011250000000,134,0x25,0x2E
0.160014750000000,134,0x36,0x00
0.161581750000000,135,0x27,0x2E
0.161585375000000,135,0x70,0x00
0.161606125000000,136,0xA0,0x0E
0.161609625000000,136,0x00,0x00
0.161613250000000,136,0x07,0x00
0.161616750000000,136,0xB4,0x00
0.161620375000000,136,0x09,0x00
0.161623875000000,136,0x8A,0x00
0.163214250000000,137,0x27,0x2E
0.163217750000000,137,0x70,0x00
0.163238750000000,138,0xA0,0x0E
0.163242250000000,138,0x00,0x00
0.163245875000000,138,0x07,0x00
0.163249375000000,138,0xB4,0x00
0.163253000000000,138,0x09,0x00
0.163256500000000,138,0x8A,0x00
0.165864125000000,139,0x21,0x2E
0.165867750000000,139,0x00,0x00
0.165885625000000,140,0x24,0x2E
0.165889125000000,140,0x00,0x00
0.165907125000000,141,0x20,0x2E
0.165910625000000,141,0x5E,0x00
0.165928625000000,142,0x26,0x2E
0.165932125000000,142,0x22,0x00
0.165954000000000,143,0x30,0x2E
0.165957500000000,143,0x47,0x00
0.165961125000000,143,0x01,0x00
0.165964625000000,143,0x9A,0x00
0.165968250000000,143,0xAA,0x00
0.165987375000000,144,0x26,0x2E
0.165991000000000,144,0x22,0x00
0.166008625000000,145,0xE1,0x2E
0.166030500000000,146,0x25,0x2E
0.166034000000000,146,0x04,0x00
0.167601250000000,147,0x27,0x2E
0.167604750000000,147,0x70,0x00
0.167625875000000,148,0xA0,0x0E
0.167629500000000,148,0x00,0x00
0.167633000000000,148,0x07,0x00
0.167636625000000,148,0xB4,0x00
0.167640125000000,148,0x09,0x00
0.167643750000000,148,0x8A,0x00
0.167647250000000,148,0xD0,0x00
0.167650750000000,148,0xD0,0x00
0.169233750000000,149,0x27,0x2E
0.169237250000000,149,0x70,0x00
0.169258375000000,150,0xA0,0x0E
0.169262000000000,150,0x00,0x00
0.169265500000000,150,0x07,0x00
0.169269125000000,150,0xB4,0x00
0.169272625000000,150,0x09,0x00
0.169276250000000,150,0x8A,0x00
0.169279750000000,150,0xD0,0x00
0.169283375000000,150,0xD0,0x00
0.171832500000000,151,0x21,0x2E
0.171836125000000,151,0x00,0x00
0.171854000000000,152,0x24,0x2E
0.171857500000000,152,0x00,0x00
0.171875500000000,153,0x20,0x2E
0.171879000000000,153,0x5E,0x00
0.171897000000000,154,0x26,0x2E
0.171900500000000,154,0x22,0x00
0.171922250000000,155,0x30,0x2E
0.171925750000000,155,0x41,0x00
0.171929375000000,155,0x01,0x00
0.171932875000000,155,0x9A,0x00
0.171936500000000,155,0xAA,0x00
0.171955625000000,156,0x26,0x2E
0.171959250000000,156,0x22,0x00
0.171976875000000,157,0xE1,0x2E
0.171998750000000,158,0x25,0x2E
0.172002250000000,158,0x2B,0x00
0.173569750000000,159,0x27,0x2E
0.173573250000000,159,0x70,0x00
0.173594250000000,160,0xA0,0x0E
0.173597875000000,160,0x00,0x00
0.173601375000000,160,0x07,0x00
0.173605000000000,160,0xB4,0x00
0.173608500000000,160,0x09,0x00
0.173612000000000,160,0x8A,0x00
0.173615625000000,160,0xD0,0x00
0.175202125000000,161,0x27,0x2E
0.175205750000000,161,0x70,0x00
0.175226750000000,162,0xA0,0x0E
0.175230375000000,162,0x00,0x00
0.175233875000000,162,0x07,0x00
0.175237375000000,162,0xB4,0x00
0.175241000000000,162,0x09,0x00
0.175244500000000,162,0x8A,0x00
0.175248125000000,162,0xD0,0x00
0.177852125000000,163,0x21,0x2E
0.177855625000000,163,0x00,0x00
0.177873625000000,164,0x24,0x2E
0.177877250000000,164,0x00,0x00
0.177895250000000,165,0x20,0x2E
0.177898750000000,165,0x5E,0x00
0.177916750000000,166,0x26,0x2E
0.177920375000000,166,0x22,0x00
0.177942125000000,167,0x30,0x2E
0.177945750000000,167,0x4E,0x00
0.177949250000000,167,0x01,0x00
0.177952875000000,167,0x9A,0x00
0.177956375000000,167,0xAA,0x00
0.177975625000000,168,0x26,0x2E
0.177979125000000,168,0x22,0x00
0.177996750000000,169,0xE1,0x2E
0.178018625000000,170,0x25,0x2E
0.178022250000000,170,0x39,0x00
0.179589250000000,171,0x27,0x2E
0.179592750000000,171,0x70,0x00
0.179613625000000,172,0xA0,0x0E
0.179617250000000,172,0x00,0x00
0.179620750000000,172,0x07,0x00
0.179624375000000,172,0xB4,0x00
0.179627875000000,172,0x09,0x00
0.179631375000000,172,0x8A,0x00
0.181221750000000,173,0x27,0x2E
0.181225250000000,173,0x70,0x00
0.181246125000000,174,0xA0,0x0E
0.181249750000000,174,0x00,0x00
0.181253250000000,174,0x07,0x00
0.181256875000000,174,0xB4,0x00
0.181260375000000,174,0x09,0x00
0.181264000000000,174,0x8A,0x00
0.183820625000000,175,0x21,0x2E
0.183824250000000,175,0x00,0x00
0.183842250000000,176,0x24,0x2E
0.183845750000000,176,0x00,0x00
0.183863750000000,177,0x20,0x2E
0.183867250000000,177,0x5E,0x00
0.183885250000000,178,0x26,0x2E
0.183888750000000,178,0x22,0x00
0.183910625000000,179,0x30,0x2E
0.183914250000000,179,0x47,0x00
0.183917750000000,179,0x01,0x00
0.183921250000000,179,0x9A,0x00
0.183924875000000,179,0xAA,0x00
0.183944000000000,180,0x26,0x2E
0.183947625000000,180,0x22,0x00
0.183965250000000,181,0xE1,0x2E
0.183987250000000,182,0x25,0x2E
0.183990750000000,182,0x03,0x00
0.185557625000000,183,0x27,0x2E
0.185561250000000,183,0x70,0x00
0.185582375000000,184,0xA0,0x0E
0.185585875000000,184,0x00,0x00
0.185589500000000,184,0x06,0x00
0.185593000000000,184,0xB4,0x00
0.185596625000000,184,0x09,0x00
0.185600125000000,184,0x8A,0x00
0.185603750000000,184,0xD0,0x00
0.185607250000000,184,0xD0,0x00
0.187241250000000,185,0x27,0x2E
0.187244750000000,185,0x70,0x00
0.187265750000000,186,0xA0,0x0E
0.187269375000000,186,0x00,0x00
0.187272875000000,186,0x06,0x00
0.187276500000000,186,0xB4,0x00
0.187280000000000,186,0x09,0x00
0.187283500000000,186,0x8A,0x00
0.187287125000000,186,0xD0,0x00
0.187290625000000,186,0xD0,0x00
0.189840000000000,187,0x21,0x2E
0.189843625000000,187,0x00,0x00
0.189861625000000,188,0x24,0x2E
0.189865125000000,188,0x00,0x00
0.189883250000000,189,0x20,0x2E
0.189886750000000,189,0x5E,0x00
0.189904750000000,190,0x26,0x2E
0.189908250000000,190,0x22,0x00
0.189930125000000,191,0x30,0x2E
0.189933750000000,191,0x41,0x00
0.189937250000000,191,0x01,0x00
0.189940750000000,191,0x9A,0x00
0.189944375000000,191,0xAA,0x00
0.189963500000000,192,0x26,0x2E
0.189967125000000,192,0x22,0x00
0.189984750000000,193,0xE1,0x2E
0.190006625000000,194,0x25,0x2E
0.190010125000000,194,0x2A,0x00
0.191577250000000,195,0x27,0x2E
0.191580750000000,195,0x70,0x00
0.191601625000000,196,0xA0,0x0E
0.191605250000000,196,0x00,0x00
0.191608750000000,196,0x06,0x00
0.191612375000000,196,0xB4,0x00
0.191615875000000,196,0x09,0x00
0.191619375000000,196,0x8A,0x00
0.191623000000000,196,0xD0,0x00
0.193209625000000,197,0x27,0x2E
0.193213250000000,197,0x70,0x00
0.193234250000000,198,0xA0,0x0E
0.193237750000000,198,0x00,0x00
0.193241375000000,198,0x06,0x00
0.193244875000000,198,0xB4,0x00
0.193248500000000,198,0x09,0x00
0.193252000000000,198,0x8A,0x00
0.193255625000000,198,0xD0,0x00
0.195808500000000,199,0x21,0x2E
0.195812000000000,199,0x00,0x00
0.195829875000000,200,0x24,0x2E
0.195833500000000,200,0x00,0x00
0.195851375000000,201,0x20,0x2E
0.195854875000000,201,0x5E,0x00
0.195872875000000,202,0x26,0x2E
0.195876500000000,202,0x22,0x00
0.195898125000000,203,0x30,0x2E
0.195901750000000,203,0x4E,0x00
0.195905250000000,203,0x01,0x00
0.195908875000000,203,0x9A,0x00
0.195912375000000,203,0xAA,0x00
0.195931625000000,204,0x26,0x2E
0.195935125000000,204,0x22,0x00
0.195952750000000,205,0xE1,0x2E
0.195974625000000,206,0x25,0x2E
0.195978250000000,206,0x3A,0x00
0.197545625000000,207,0x27,0x2E
0.197549250000000,207,0x70,0x00
0.197570000000000,208,0xA0,0x0E
0.197573625000000,208,0x00,0x00
0.197577125000000,208,0x06,0x00
0.197580625000000,208,0xB4,0x00
0.197584250000000,208,0x09,0x00
