Time [s],Packet ID,MOSI,MISO
0.056461500000000,0,0x23,0x0E
0.056465000000000,0,0x03,0x00
0.056487000000000,1,0x2A,0x0E
0.056490500000000,1,0x12,0x00
0.056494125000000,1,0x34,0x00
0.056497625000000,1,0x56,0x00
0.056501125000000,1,0x78,0x00
0.056504750000000,1,0x9A,0x00
0.056528625000000,2,0x0A,0x0E
0.056532125000000,2,0xFF,0x12
0.056535750000000,2,0xFF,0x34
0.056539250000000,2,0xFF,0x56
0.056542875000000,2,0xFF,0x78
0.056546375000000,2,0xFF,0x9A
0.060135375000000,3,0x22,0x0E
0.060139000000000,3,0x00,0x00
0.060157000000000,4,0x27,0x0E
0.060160625000000,4,0x70,0x00
0.060185625000000,5,0x2A,0x0E
0.060189125000000,5,0xE7,0x00
0.060192750000000,5,0xE7,0x00
0.060196250000000,5,0xE7,0x00
0.060199875000000,5,0xE7,0x00
0.060203375000000,5,0xE7,0x00
0.060235750000000,6,0x2B,0x0E
0.060239375000000,6,0xC2,0x00
0.060242875000000,6,0xC2,0x00
0.060246500000000,6,0xC2,0x00
0.060250000000000,6,0xC2,0x00
0.060253500000000,6,0xC2,0x00
0.060282000000000,7,0x2B,0x0E
0.060285500000000,7,0xC3,0x00
0.060303375000000,8,0x2D,0x0E
0.060307000000000,8,0xC4,0x00
0.060334125000000,9,0x2E,0x0E
0.060337750000000,9,0xC5,0x00
0.060355750000000,10,0x2F,0x0E
0.060359250000000,10,0xC6,0x00
0.060386000000000,11,0x31,0x0E
0.060389625000000,11,0x00,0x00
0.060407500000000,12,0x32,0x0E
0.060411000000000,12,0x00,0x00
0.060437000000000,13,0x33,0x0E
0.060440625000000,13,0x00,0x00
0.060458500000000,14,0x34,0x0E
0.060462000000000,14,0x00,0x00
0.060488000000000,15,0x35,0x0E
0.060491625000000,15,0x00,0x00
0.060509500000000,16,0x36,0x0E
0.060513000000000,16,0x00,0x00
0.060539125000000,17,0x3C,0x0E
0.060542625000000,17,0x00,0x00
0.060560500000000,18,0x3D,0x0E
0.060564125000000,18,0x01,0x00
0.060590125000000,19,0x20,0x0E
0.060593625000000,19,0x5E,0x00
0.060611500000000,20,0x21,0x0E
0.060615125000000,20,0x00,0x00
0.060641000000000,21,0x23,0x0E
0.060644625000000,21,0x02,0x00
0.060662500000000,22,0x24,0x0E
0.060666000000000,22,0x00,0x00
0.060692000000000,23,0x26,0x0E
0.060695625000000,23,0x20,0x00
0.111303000000000,24,0x30,0x0E
0.111306500000000,24,0x7E,0x00
0.111310000000000,24,0xB8,0x00
0.111313625000000,24,0x63,0x00
0.111317125000000,24,0xA9,0x00
0.111345125000000,25,0x26,0x0E
0.111348625000000,25,0x20,0x00
0.111367000000000,26,0x25,0x0E
0.111370500000000,26,0x50,0x00
0.111397250000000,27,0xE1,0x0E
0.111418875000000,28,0x27,0x0E
0.111422375000000,28,0x70,0x00
0.111451375000000,29,0x27,0x0E
0.111454875000000,29,0x70,0x00
0.111475625000000,30,0xA0,0x0E
0.111479250000000,30,0x47,0x00
0.111482750000000,30,0x01,0x00
0.111486375000000,30,0x9A,0x00
0.111489875000000,30,0xAA,0x00
0.111565500000000,31,0x21,0x0E
0.111569125000000,31,0x00,0x00
0.111587000000000,32,0x24,0x0E
0.111590500000000,32,0x00,0x00
0.111608375000000,33,0x20,0x0E
0.111612000000000,33,0x5E,0x00
0.111629875000000,34,0x26,0x0E
0.111633500000000,34,0x22,0x00
0.111655375000000,35,0x30,0x0E
0.111658875000000,35,0x47,0x00
0.111662375000000,35,0x01,0x00
0.111666000000000,35,0x9A,0x00
0.111669500000000,35,0xAA,0x00
0.111688750000000,36,0x26,0x0E
0.111692250000000,36,0x22,0x00
0.111710000000000,37,0xE1,0x0E
0.111732000000000,38,0x25,0x0E
0.111735500000000,38,0x14,0x00
0.113456500000000,39,0x27,0x0E
0.113460000000000,39,0x70,0x00
0.113481250000000,40,0xA0,0x0E
0.113484750000000,40,0x00,0x00
0.113488250000000,40,0x00,0x00
0.113491875000000,40,0x00,0x00
0.113495375000000,40,0x00,0x00
0.113499000000000,40,0x00,0x00
0.113502500000000,40,0x00,0x00
0.113506125000000,40,0x00,0x00
0.115089000000000,41,0x27,0x2E
0.115092500000000,41,0x70,0x00
0.115113625000000,42,0xA0,0x0E
0.115117250000000,42,0x00,0x00
0.115120750000000,42,0x00,0x00
0.115124375000000,42,0x00,0x00
0.115127875000000,42,0x00,0x00
0.115131500000000,42,0x00,0x00
0.115135000000000,42,0x00,0x00
0.115138625000000,42,0x00,0x00
0.117687750000000,43,0x21,0x2E
0.117691375000000,43,0x00,0x00
0.117709250000000,44,0x24,0x2E
0.117712750000000,44,0x00,0x00
0.117730750000000,45,0x20,0x2E
0.117734375000000,45,0x5E,0x00
0.117752375000000,46,0x26,0x2E
0.117755875000000,46,0x22,0x00
0.117777750000000,47,0x30,0x2E
0.117781250000000,47,0x41,0x00
0.117784875000000,47,0x01,0x00
0.117788375000000,47,0x9A,0x00
0.117792000000000,47,0xAA,0x00
0.117811125000000,48,0x26,0x2E
0.117814750000000,48,0x22,0x00
0.117832375000000,49,0xE1,0x2E
0.117854250000000,50,0x25,0x2E
0.117857750000000,50,0x04,0x00
0.119425000000000,51,0x27,0x2E
0.119428625000000,51,0x70,0x00
0.119449500000000,52,0xA0,0x0E
0.119453000000000,52,0x00,0x00
0.119456625000000,52,0x0B,0x00
0.119460125000000,52,0xB9,0x00
0.119463750000000,52,0x09,0x00
0.119467250000000,52,0x8A,0x00
0.119470750000000,52,0x30,0x00
0.121057500000000,53,0x27,0x2E
0.121061000000000,53,0x70,0x00
0.121082000000000,54,0xA0,0x0E
0.121085625000000,54,0x00,0x00
0.121089125000000,54,0x0B,0x00
0.121092750000000,54,0xB9,0x00
0.121096250000000,54,0x09,0x00
0.121099875000000,54,0x8A,0x00
0.121103375000000,54,0x30,0x00
0.123707250000000,55,0x21,0x2E
0.123710875000000,55,0x00,0x00
0.123728750000000,56,0x24,0x2E
0.123732250000000,56,0x00,0x00
0.123750250000000,57,0x20,0x2E
0.123753875000000,57,0x5E,0x00
0.123771750000000,58,0x26,0x2E
0.123775375000000,58,0x22,0x00
0.123797250000000,59,0x30,0x2E
0.123800750000000,59,0x4E,0x00
0.123804375000000,59,0x01,0x00
0.123807875000000,59,0x9A,0x00
0.123811500000000,59,0xAA,0x00
0.123830625000000,60,0x26,0x2E
0.123834250000000,60,0x22,0x00
0.123851875000000,61,0xE1,0x2E
0.123873750000000,62,0x25,0x2E
0.123877250000000,62,0x2B,0x00
0.125444500000000,63,0x27,0x2E
0.125448000000000,63,0x70,0x00
0.125468875000000,64,0xA0,0x0E
0.125472375000000,64,0x00,0x00
0.125475875000000,64,0x0B,0x00
0.125479500000000,64,0xB9,0x00
0.125483000000000,64,0x09,0x00
0.125486625000000,64,0x8A,0x00
0.127077000000000,65,0x27,0x2E
0.127080500000000,65,0x70,0x00
0.127101375000000,66,0xA0,0x0E
0.127105000000000,66,0x00,0x00
0.127108500000000,66,0x0B,0x00
0.127112125000000,66,0xB9,0x00
0.127115625000000,66,0x09,0x00
0.127119250000000,66,0x8A,0x00
0.129675875000000,67,0x21,0x2E
0.129679375000000,67,0x00,0x00
0.129697250000000,68,0x24,0x2E
0.129700875000000,68,0x00,0x00
0.129718750000000,69,0x20,0x2E
0.129722250000000,69,0x5E,0x00
0.129740250000000,70,0x26,0x2E
0.129743875000000,70,0x22,0x00
0.129765625000000,71,0x30,0x2E
0.129769250000000,71,0x47,0x00
0.129772750000000,71,0x01,0x00
0.129776375000000,71,0x9A,0x00
0.129779875000000,71,0xAA,0x00
0.129799125000000,72,0x26,0x2E
0.129802625000000,72,0x22,0x00
0.129820375000000,73,0xE1,0x2E
0.129842250000000,74,0x25,0x2E
0.129845875000000,74,0x17,0x00
0.131412875000000,75,0x27,0x2E
0.131416500000000,75,0x70,0x00
0.131437625000000,76,0xA0,0x0E
0.131441125000000,76,0x00,0x00
0.131444750000000,76,0x0B,0x00
0.131448250000000,76,0xB9,0x00
0.131451875000000,76,0x09,0x00
0.131455375000000,76,0x8A,0x00
0.131459000000000,76,0x30,0x00
0.131462500000000,76,0xD0,0x00
0.133045375000000,77,0x27,0x2E
0.133049000000000,77,0x70,0x00
0.133070125000000,78,0xA0,0x0E
0.133073625000000,78,0x00,0x00
0.133077250000000,78,0x0B,0x00
0.133080750000000,78,0xB9,0x00
0.133084375000000,78,0x09,0x00
0.133087875000000,78,0x8A,0x00
0.133091500000000,78,0x30,0x00
0.133095000000000,78,0xD0,0x00
0.135695250000000,79,0x21,0x2E
0.135698750000000,79,0x00,0x00
0.135716750000000,80,0x24,0x2E
0.135720250000000,80,0x00,0x00
0.135738125000000,81,0x20,0x2E
0.135741750000000,81,0x5E,0x00
0.135759625000000,82,0x26,0x2E
0.135763250000000,82,0x22,0x00
0.135785125000000,83,0x30,0x2E
0.135788625000000,83,0x41,0x00
0.135792125000000,83,0x01,0x00
0.135795750000000,83,0x9A,0x00
0.135799250000000,83,0xAA,0x00
0.135818500000000,84,0x26,0x2E
0.135822000000000,84,0x22,0x00
0.135839750000000,85,0xE1,0x2E
0.135861500000000,86,0x25,0x2E
0.135865125000000,86,0x03,0x00
0.137432375000000,87,0x27,0x2E
0.137436000000000,87,0x70,0x00
0.137457000000000,88,0xA0,0x0E
0.137460500000000,88,0x00,0x00
0.137464125000000,88,0x0B,0x00
0.137467625000000,88,0xB9,0x00
0.137471250000000,88,0x09,0x00
0.137474750000000,88,0x8A,0x00
0.137478250000000,88,0x30,0x00
0.139064875000000,89,0x27,0x2E
0.139068500000000,89,0x70,0x00
0.139089500000000,90,0xA0,0x0E
0.139093000000000,90,0x00,0x00
0.139096625000000,90,0x0B,0x00
0.139100125000000,90,0xB9,0x00
0.139103750000000,90,0x09,0x00
0.139107250000000,90,0x8A,0x00
0.139110875000000,90,0x30,0x00
0.141663750000000,91,0x21,0x2E
0.141667250000000,91,0x00,0x00
0.141685125000000,92,0x24,0x2E
0.141688750000000,92,0x00,0x00
0.141706750000000,93,0x20,0x2E
0.141710250000000,93,0x5E,0x00
0.141728250000000,94,0x26,0x2E
0.141731750000000,94,0x22,0x00
0.141753625000000,95,0x30,0x2E
0.141757250000000,95,0x4E,0x00
0.141760750000000,95,0x01,0x00
0.141764375000000,95,0x9A,0x00
0.141767875000000,95,0xAA,0x00
0.141787125000000,96,0x26,0x2E
0.141790625000000,96,0x22,0x00
0.141808250000000,97,0xE1,0x2E
0.141830125000000,98,0x25,0x2E
0.141833625000000,98,0x2A,0x00
0.143400875000000,99,0x27,0x2E
0.143404500000000,99,0x70,0x00
0.143425375000000,100,0xA0,0x0E
0.143428875000000,100,0x00,0x00
0.143432500000000,100,0x0B,0x00
0.143436000000000,100,0xB9,0x00
0.143439625000000,100,0x09,0x00
0.143443125000000,100,0x8A,0x00
0.145084375000000,101,0x27,0x2E
0.145088000000000,101,0x70,0x00
0.145108875000000,102,0xA0,0x0E
0.145112375000000,102,0x00,0x00
0.145116000000000,102,0x0B,0x00
0.145119500000000,102,0xB9,0x00
0.145123125000000,102,0x09,0x00
0.145126625000000,102,0x8A,0x00
0.147683250000000,103,0x21,0x2E
0.147686875000000,103,0x00,0x00
0.147704750000000,104,0x24,0x2E
0.147708250000000,104,0x00,0x00
0.147726250000000,105,0x20,0x2E
0.147729750000000,105,0x5E,0x00
0.147747750000000,106,0x26,0x2E
0.147751250000000,106,0x22,0x00
0.147773125000000,107,0x30,0x2E
0.147776625000000,107,0x47,0x00
0.147780250000000,107,0x01,0x00
0.147783750000000,107,0x9A,0x00
0.147787375000000,107,0xAA,0x00
0.147806500000000,108,0x26,0x2E
0.147810125000000,108,0x22,0x00
0.147827750000000,109,0xE1,0x2E
0.147849750000000,110,0x25,0x2E
0.147853250000000,110,0x08,0x00
0.149420375000000,111,0x27,0x2E
0.149423875000000,111,0x70,0x00
0.149445125000000,112,0xA0,0x0E
0.149448625000000,112,0x00,0x00
0.149452125000000,112,0x0B,0x00
0.149455750000000,112,0xB9,0x00
0.149459250000000,112,0x09,0x00
0.149462875000000,112,0x8A,0x00
0.149466375000000,112,0x30,0x00
0.149470000000000,112,0xD0,0x00
0.151052875000000,113,0x27,0x2E
0.151056500000000,113,0x70,0x00
0.151077625000000,114,0xA0,0x0E
0.151081125000000,114,0x00,0x00
0.151084750000000,114,0x0B,0x00
0.151088250000000,114,0xB9,0x00
0.151091750000000,114,0x09,0x00
0.151095375000000,114,0x8A,0x00
0.151098875000000,114,0x30,0x00
0.151102500000000,114,0xD0,0x00
0.153651625000000,115,0x21,0x2E
0.153655250000000,115,0x00,0x00
0.153673125000000,116,0x24,0x2E
0.153676625000000,116,0x00,0x00
0.153694625000000,117,0x20,0x2E
0.153698250000000,117,0x5E,0x00
0.153716250000000,118,0x26,0x2E
0.153719750000000,118,0x22,0x00
0.153741625000000,119,0x30,0x2E
0.153745125000000,119,0x41,0x00
0.153748750000000,119,0x01,0x00
0.153752250000000,119,0x9A,0x00
0.153755875000000,119,0xAA,0x00
0.153775000000000,120,0x26,0x2E
0.153778625000000,120,0x22,0x00
0.153796250000000,121,0xE1,0x2E
0.153818125000000,122,0x25,0x2E
0.153821625000000,122,0x23,0x00
0.155439875000000,123,0x27,0x2E
0.155443500000000,123,0x70,0x00
0.155464375000000,124,0xA0,0x0E
0.155467875000000,124,0x00,0x00
0.155471500000000,124,0x0B,0x00
0.155475000000000,124,0xB9,0x00
0.155478500000000,124,0x09,0x00
0.155482125000000,124,0x8A,0x00
0.155485625000000,124,0x30,0x00
0.157072375000000,125,0x27,0x2E
0.157075875000000,125,0x70,0x00
0.157096750000000,126,0xA0,0x0E
0.157100375000000,126,0x00,0x00
0.157103875000000,126,0x0B,0x00
0.157107375000000,126,0xB9,0x00
0.157111000000000,126,0x09,0x00
0.157114500000000,126,0x8A,0x00
0.157118125000000,126,0x30,0x00
0.159671125000000,127,0x21,0x2E
0.159674750000000,127,0x00,0x00
0.159692625000000,128,0x24,0x2E
0.159696125000000,128,0x00,0x00
0.159714000000000,129,0x20,0x2E
0.159717625000000,129,0x5E,0x00
0.159735625000000,130,0x26,0x2E
0.159739125000000,130,0x22,0x00
0.159761000000000,131,0x30,0x2E
0.159764500000000,131,0x4E,0x00
0.159768125000000,131,0x01,0x00
0.159771625000000,131,0x9A,0x00
0.159775250000000,131,0xAA,0x00
0.159794375000000,132,0x26,0x2E
0.159798000000000,132,0x22,0x00
0.159815625000000,133,0xE1,0x2E
0.159837500000000,134,0x25,0x2E
0.159841000000000,134,0x36,0x00
0.161408375000000,135,0x27,0x2E
0.161412000000000,135,0x70,0x00
0.161432750000000,136,0xA0,0x0E
0.161436250000000,136,0x00,0x00
0.161439875000000,136,0x0B,0x00
0.161443375000000,136,0xB8,0x00
0.161447000000000,136,0x09,0x00
0.161450500000000,136,0x8A,0x00
0.163040875000000,137,0x27,0x2E
0.163044375000000,137,0x70,0x00
0.163065250000000,138,0xA0,0x0E
0.163068875000000,138,0x00,0x00
0.163072375000000,138,0x0B,0x00
0.163076000000000,138,0xB8,0x00
0.163079500000000,138,0x09,0x00
0.163083125000000,138,0x8A,0x00
0.165692750000000,139,0x21,0x2E
0.165696375000000,139,0x00,0x00
0.165714375000000,140,0x24,0x2E
0.165718000000000,140,0x00,0x00
0.165736000000000,141,0x20,0x2E
0.165739500000000,141,0x5E,0x00
0.165757500000000,142,0x26,0x2E
0.165761000000000,142,0x22,0x00
0.165782875000000,143,0x30,0x2E
0.165786500000000,143,0x47,0x00
0.165790000000000,143,0x01,0x00
0.165793625000000,143,0x9A,0x00
0.165797125000000,143,0xAA,0x00
0.165816375000000,144,0x26,0x2E
0.165819875000000,144,0x22,0x00
0.165837500000000,145,0xE1,0x2E
0.165859500000000,146,0x25,0x2E
0.165863125000000,146,0x04,0x00
0.167427875000000,147,0x27,0x2E
0.167431375000000,147,0x70,0x00
0.167452375000000,148,0xA0,0x0E
0.167456000000000,148,0x00,0x00
0.167459500000000,148,0x0B,0x00
0.167463125000000,148,0xB8,0x00
0.167466625000000,148,0x09,0x00
0.167470125000000,148,0x8A,0x00
0.167473750000000,148,0x30,0x00
0.167477250000000,148,0xD0,0x00
0.169060250000000,149,0x27,0x2E
0.169063875000000,149,0x70,0x00
0.169085000000000,150,0xA0,0x0E
0.169088500000000,150,0x00,0x00
0.169092125000000,150,0x0B,0x00
0.169095625000000,150,0xB8,0x00
0.169099250000000,150,0x09,0x00
0.169102750000000,150,0x8A,0x00
0.169106375000000,150,0x30,0x00
0.169109875000000,150,0xD0,0x00
0.171659125000000,151,0x21,0x2E
0.171662625000000,151,0x00,0x00
0.171680500000000,152,0x24,0x2E
0.171684125000000,152,0x00,0x00
0.171702000000000,153,0x20,0x2E
0.171705625000000,153,0x5E,0x00
0.171723500000000,154,0x26,0x2E
0.171727125000000,154,0x22,0x00
0.171749000000000,155,0x30,0x2E
0.171752500000000,155,0x41,0x00
0.171756000000000,155,0x01,0x00
0.171759625000000,155,0x9A,0x00
0.171763125000000,155,0xAA,0x00
0.171782375000000,156,0x26,0x2E
0.171785875000000,156,0x22,0x00
0.171803625000000,157,0xE1,0x2E
0.171825375000000,158,0x25,0x2E
0.171829000000000,158,0x2B,0x00
0.173396375000000,159,0x27,0x2E
0.173399875000000,159,0x70,0x00
0.173420750000000,160,0xA0,0x0E
0.173424375000000,160,0x00,0x00
0.173427875000000,160,0x0B,0x00
0.173431375000000,160,0xB8,0x00
0.173435000000000,160,0x08,0x00
0.173438500000000,160,0x8A,0x00
0.173442125000000,160,0x30,0x00
0.175028750000000,161,0x27,0x2E
0.175032375000000,161,0x70,0x00
0.175053375000000,162,0xA0,0x0E
0.175056875000000,162,0x00,0x00
0.175060500000000,162,0x0B,0x00
0.175064000000000,162,0xB8,0x00
0.175067625000000,162,0x08,0x00
0.175071125000000,162,0x8A,0x00
0.175074750000000,162,0x30,0x00
0.177679625000000,163,0x21,0x2E
0.177683250000000,163,0x00,0x00
0.177701250000000,164,0x24,0x2E
0.177704750000000,164,0x00,0x00
0.177722875000000,165,0x20,0x2E
0.177726375000000,165,0x5E,0x00
0.177744375000000,166,0x26,0x2E
0.177747875000000,166,0x22,0x00
0.177769750000000,167,0x30,0x2E
0.177773375000000,167,0x4E,0x00
0.177776875000000,167,0x01,0x00
0.177780375000000,167,0x9A,0x00
0.177784000000000,167,0xAA,0x00
0.177803125000000,168,0x26,0x2E
0.177806750000000,168,0x22,0x00
0.177824375000000,169,0xE1,0x2E
0.177846250000000,170,0x25,0x2E
0.177849750000000,170,0x39,0x00
0.179415750000000,171,0x27,0x2E
0.179419375000000,171,0x70,0x00
0.179440250000000,172,0xA0,0x0E
0.179443750000000,172,0x00,0x00
0.179447375000000,172,0x0B,0x00
0.179450875000000,172,0xB8,0x00
0.179454500000000,172,0x08,0x00
0.179458000000000,172,0x8A,0x00
0.181048250000000,173,0x27,0x2E
0.181051875000000,173,0x70,0x00
0.181072750000000,174,0xA0,0x0E
0.181076250000000,174,0x00,0x00
0.181079875000000,174,0x0B,0x00
0.181083375000000,174,0xB8,0x00
0.181087000000000,174,0x08,0x00
0.181090500000000,174,0x8A,0x00
0.183647125000000,175,0x21,0x2E
0.183650750000000,175,0x00,0x00
0.183668750000000,176,0x24,0x2E
0.183672250000000,176,0x00,0x00
0.183690125000000,177,0x20,0x2E
0.183693750000000,177,0x5E,0x00
0.183711750000000,178,0x26,0x2E
0.183715250000000,178,0x22,0x00
0.183737125000000,179,0x30,0x2E
0.183740625000000,179,0x47,0x00
0.183744250000000,179,0x01,0x00
0.183747750000000,179,0x9A,0x00
0.183751375000000,179,0xAA,0x00
0.183770500000000,180,0x26,0x2E
0.183774125000000,180,0x22,0x00
0.183791750000000,181,0xE1,0x2E
0.183813750000000,182,0x25,0x2E
0.183817250000000,182,0x03,0x00
0.185388375000000,183,0x27,0x2E
0.185391875000000,183,0x70,0x00
0.185413000000000,184,0xA0,0x0E
0.185416625000000,184,0x00,0x00
0.185420125000000,184,0x0B,0x00
0.185423750000000,184,0xB8,0x00
0.185427250000000,184,0x08,0x00
0.185430750000000,184,0x8A,0x00
0.185434375000000,184,0x30,0x00
0.185437875000000,184,0xD0,0x00
0.187067750000000,185,0x27,0x2E
0.187071375000000,185,0x70,0x00
0.187092500000000,186,0xA0,0x0E
0.187096000000000,186,0x00,0x00
0.187099625000000,186,0x0B,0x00
0.187103125000000,186,0xB8,0x00
0.187106750000000,186,0x08,0x00
0.187110250000000,186,0x8A,0x00
0.187113750000000,186,0x30,0x00
0.187117375000000,186,0xD0,0x00
0.189666625000000,187,0x21,0x2E
0.189670125000000,187,0x00,0x00
0.189688250000000,188,0x24,0x2E
0.189691750000000,188,0x00,0x00
0.189709750000000,189,0x20,0x2E
0.189713375000000,189,0x5E,0x00
0.189731250000000,190,0x26,0x2E
0.189734875000000,190,0x22,0x00
0.189756750000000,191,0x30,0x2E
0.189760250000000,191,0x41,0x00
0.189763875000000,191,0x01,0x00
0.189767375000000,191,0x9A,0x00
0.189771000000000,191,0xAA,0x00
0.189790125000000,192,0x26,0x2E
0.189793750000000,192,0x22,0x00
0.189811375000000,193,0xE1,0x2E
0.189833250000000,194,0x25,0x2E
0.189836750000000,194,0x2A,0x00
0.191403750000000,195,0x27,0x2E
0.191407375000000,195,0x70,0x00
0.191428250000000,196,0xA0,0x0E
0.191431750000000,196,0x00,0x00
0.191435250000000,196,0x0B,0x00
0.191438875000000,196,0xB8,0x00
0.191442375000000,196,0x08,0x00
0.191446000000000,196,0x8A,0x00
0.191449500000000,196,0x30,0x00
0.193036250000000,197,0x27,0x2E
0.193039750000000,197,0x70,0x00
0.193060875000000,198,0xA0,0x0E
0.193064375000000,198,0x00,0x00
0.193067875000000,198,0x0B,0x00
0.193071500000000,198,0xB8,0x00
0.193075000000000,198,0x08,0x00
0.193078625000000,198,0x8A,0x00
0.193082125000000,198,0x30,0x00
0.195635000000000,199,0x21,0x2E
0.195638625000000,199,0x00,0x00
0.195656500000000,200,0x24,0x2E
0.195660000000000,200,0x00,0x00
0.195677875000000,201,0x20,0x2E
0.195681500000000,201,0x5E,0x00
0.195699500000000,202,0x26,0x2E
0.195703000000000,202,0x22,0x00
0.195724875000000,203,0x30,0x2E
0.195728375000000,203,0x4E,0x00
0.195732000000000,203,0x01,0x00
0.195735500000000,203,0x9A,0x00
0.195739125000000,203,0xAA,0x00
0.195758250000000,204,0x26,0x2E
0.195761875000000,204,0x22,0x00
0.195779500000000,205,0xE1,0x2E
0.195801375000000,206,0x25,0x2E
0.195804875000000,206,0x3A,0x00
0.197423250000000,207,0x27,0x2E
0.197426750000000,207,0x70,0x00
0.197447625000000,208,0xA0,0x0E
0.197451250000000,208,0x00,0x00
0.197454750000000,208,0x0B,0x00
0.197458375000000,208,0xB8,0x00
0.197461875000000,208,0x08,0x00
