Time [s],Packet ID,MOSI,MISO
0.056555125000000,0,0x23,0x0E
0.056558625000000,0,0x03,0x00
0.056580750000000,1,0x2A,0x0E
0.056584250000000,1,0x12,0x00
0.056587875000000,1,0x34,0x00
0.056591375000000,1,0x56,0x00
0.056595000000000,1,0x78,0x00
0.056598500000000,1,0x9A,0x00
0.056630250000000,2,0x0A,0x0E
0.056633875000000,2,0xFF,0x12
0.056637375000000,2,0xFF,0x34
0.056641000000000,2,0xFF,0x56
0.056644500000000,2,0xFF,0x78
0.056648125000000,2,0xFF,0x9A
0.060234875000000,3,0x22,0x0E
0.060238375000000,3,0x00,0x00
0.060256375000000,4,0x27,0x0E
0.060259875000000,4,0x70,0x00
0.060287375000000,5,0x2A,0x0E
0.060290875000000,5,0xE7,0x00
0.060294500000000,5,0xE7,0x00
0.060298000000000,5,0xE7,0x00
0.060301625000000,5,0xE7,0x00
0.060305125000000,5,0xE7,0x00
0.060337500000000,6,0x2B,0x0E
0.060341125000000,6,0xC2,0x00
0.060344625000000,6,0xC2,0x00
0.060348250000000,6,0xC2,0x00
0.060351750000000,6,0xC2,0x00
0.060355375000000,6,0xC2,0x00
0.060383750000000,7,0x2B,0x0E
0.060387250000000,7,0xC3,0x00
0.060405250000000,8,0x2D,0x0E
0.060408875000000,8,0xC4,0x00
0.060436125000000,9,0x2E,0x0E
0.060439750000000,9,0xC5,0x00
0.060457625000000,10,0x2F,0x0E
0.060461125000000,10,0xC6,0x00
0.060488250000000,11,0x31,0x0E
0.060491750000000,11,0x00,0x00
0.060509750000000,12,0x32,0x0E
0.060513375000000,12,0x00,0x00
0.060539125000000,13,0x33,0x0E
0.060542625000000,13,0x00,0x00
0.060560625000000,14,0x34,0x0E
0.060564250000000,14,0x00,0x00
0.060590125000000,15,0x35,0x0E
0.060593625000000,15,0x00,0x00
0.060611625000000,16,0x36,0x0E
0.060615250000000,16,0x00,0x00
0.060641125000000,17,0x3C,0x0E
0.060644625000000,17,0x00,0x00
0.060662750000000,18,0x3D,0x0E
0.060666250000000,18,0x01,0x00
0.060692125000000,19,0x20,0x0E
0.060695750000000,19,0x5E,0x00
0.060713750000000,20,0x21,0x0E
0.060717250000000,20,0x00,0x00
0.060743125000000,21,0x23,0x0E
0.060746625000000,21,0x02,0x00
0.060764500000000,22,0x24,0x0E
0.060768125000000,22,0x00,0x00
0.060794125000000,23,0x26,0x0E
0.060797625000000,23,0x20,0x00
0.111441625000000,24,0x30,0x0E
0.111445250000000,24,0x7E,0x00
0.111448750000000,24,0xB8,0x00
0.111452375000000,24,0x63,0x00
0.111455875000000,24,0xA9,0x00
0.111475000000000,25,0x26,0x0E
0.111478500000000,25,0x20,0x00
0.111500500000000,26,0x25,0x0E
0.111504000000000,26,0x50,0x00
0.111521875000000,27,0xE1,0x0E
0.111551375000000,28,0x27,0x0E
0.111554875000000,28,0x70,0x00
0.111575000000000,29,0x27,0x0E
0.111578625000000,29,0x70,0x00
0.111605125000000,30,0xA0,0x0E
0.111608625000000,30,0x47,0x00
0.111612250000000,30,0x01,0x00
0.111615750000000,30,0x9A,0x00
0.111619375000000,30,0xAA,0x00
0.111683750000000,31,0x21,0x0E
0.111687250000000,31,0x00,0x00
0.111705375000000,32,0x24,0x0E
0.111708875000000,32,0x00,0x00
0.111726875000000,33,0x20,0x0E
0.111730500000000,33,0x5E,0x00
0.111748375000000,34,0x26,0x0E
0.111752000000000,34,0x22,0x00
0.111773875000000,35,0x30,0x0E
0.111777375000000,35,0x47,0x00
0.111781000000000,35,0x01,0x00
0.111784500000000,35,0x9A,0x00
0.111788125000000,35,0xAA,0x00
0.111807250000000,36,0x26,0x0E
0.111810875000000,36,0x22,0x00
0.111828500000000,37,0xE1,0x0E
0.111850500000000,38,0x25,0x0E
0.111854000000000,38,0x14,0x00
0.113579250000000,39,0x27,0x0E
0.113582875000000,39,0x70,0x00
0.113603875000000,40,0xA0,0x0E
0.113607375000000,40,0x00,0x00
0.113610875000000,40,0x00,0x00
0.113614500000000,40,0x00,0x00
0.113618000000000,40,0x00,0x00
0.113621625000000,40,0x00,0x00
0.113625125000000,40,0x00,0x00
0.113628750000000,40,0x00,0x00
0.115211750000000,41,0x27,0x2E
0.115215375000000,41,0x70,0x00
0.115236500000000,42,0xA0,0x0E
0.115240000000000,42,0x00,0x00
0.115243500000000,42,0x00,0x00
0.115247125000000,42,0x00,0x00
0.115250625000000,42,0x00,0x00
0.115254250000000,42,0x00,0x00
0.115257750000000,42,0x00,0x00
0.115261375000000,42,0x00,0x00
0.117810500000000,43,0x21,0x2E
0.117814125000000,43,0x00,0x00
0.117832000000000,44,0x24,0x2E
0.117835500000000,44,0x00,0x00
0.117853500000000,45,0x20,0x2E
0.117857000000000,45,0x5E,0x00
0.117875000000000,46,0x26,0x2E
0.117878500000000,46,0x22,0x00
0.117900375000000,47,0x30,0x2E
0.117903875000000,47,0x41,0x00
0.117907500000000,47,0x01,0x00
0.117911000000000,47,0x9A,0x00
0.117914625000000,47,0xAA,0x00
0.117933750000000,48,0x26,0x2E
0.117937375000000,48,0x22,0x00
0.117955000000000,49,0xE1,0x2E
0.117976875000000,50,0x25,0x2E
0.117980375000000,50,0x04,0x00
0.119547750000000,51,0x27,0x2E
0.119551375000000,51,0x70,0x00
0.119572250000000,52,0xA0,0x0E
0.119575750000000,52,0x00,0x00
0.119579375000000,52,0x06,0x00
0.119582875000000,52,0xB4,0x00
0.119586500000000,52,0x09,0x00
0.119590000000000,52,0x8A,0x00
0.119593500000000,52,0xD0,0x00
0.121180250000000,53,0x27,0x2E
0.121183750000000,53,0x70,0x00
0.121204750000000,54,0xA0,0x0E
0.121208375000000,54,0x00,0x00
0.121211875000000,54,0x06,0x00
0.121215500000000,54,0xB4,0x00
0.121219000000000,54,0x09,0x00
0.121222625000000,54,0x8A,0x00
0.121226125000000,54,0xD0,0x00
0.123830000000000,55,0x21,0x2E
0.123833625000000,55,0x00,0x00
0.123851500000000,56,0x24,0x2E
0.123855000000000,56,0x00,0x00
0.123872875000000,57,0x20,0x2E
0.123876500000000,57,0x5E,0x00
0.123894500000000,58,0x26,0x2E
0.123898000000000,58,0x22,0x00
0.123919875000000,59,0x30,0x2E
0.123923375000000,59,0x4E,0x00
0.123927000000000,59,0x01,0x00
0.123930500000000,59,0x9A,0x00
0.123934125000000,59,0xAA,0x00
0.123953250000000,60,0x26,0x2E
0.123956875000000,60,0x22,0x00
0.123974500000000,61,0xE1,0x2E
0.123996375000000,62,0x25,0x2E
0.123999875000000,62,0x2B,0x00
0.125567250000000,63,0x27,0x2E
0.125570875000000,63,0x70,0x00
0.125591625000000,64,0xA0,0x0E
0.125595125000000,64,0x00,0x00
0.125598750000000,64,0x06,0x00
0.125602250000000,64,0xB4,0x00
0.125605875000000,64,0x09,0x00
0.125609375000000,64,0x8A,0x00
0.127199750000000,65,0x27,0x2E
0.127203250000000,65,0x70,0x00
0.127224250000000,66,0xA0,0x0E
0.127227750000000,66,0x00,0x00
0.127231250000000,66,0x06,0x00
0.127234875000000,66,0xB4,0x00
0.127238375000000,66,0x09,0x00
0.127242000000000,66,0x8A,0x00
0.129798625000000,67,0x21,0x2E
0.129802250000000,67,0x00,0x00
0.129820250000000,68,0x24,0x2E
0.129823750000000,68,0x00,0x00
0.129841875000000,69,0x20,0x2E
0.129845375000000,69,0x5E,0x00
0.129863375000000,70,0x26,0x2E
0.129866875000000,70,0x22,0x00
0.129888750000000,71,0x30,0x2E
0.129892375000000,71,0x47,0x00
0.129895875000000,71,0x01,0x00
0.129899375000000,71,0x9A,0x00
0.129903000000000,71,0xAA,0x00
0.129922250000000,72,0x26,0x2E
0.129925750000000,72,0x22,0x00
0.129943375000000,73,0xE1,0x2E
0.129965375000000,74,0x25,0x2E
0.129969000000000,74,0x17,0x00
0.131535750000000,75,0x27,0x2E
0.131539250000000,75,0x70,0x00
0.131560250000000,76,0xA0,0x0E
0.131563875000000,76,0x00,0x00
0.131567375000000,76,0x06,0x00
0.131570875000000,76,0xB4,0x00
0.131574500000000,76,0x09,0x00
0.131578000000000,76,0x8A,0x00
0.131581625000000,76,0xD0,0x00
0.131585125000000,76,0xD0,0x00
0.133219250000000,77,0x27,0x2E
0.133222750000000,77,0x70,0x00
0.133243875000000,78,0xA0,0x0E
0.133247500000000,78,0x00,0x00
0.133251000000000,78,0x06,0x00
0.133254625000000,78,0xB4,0x00
0.133258125000000,78,0x09,0x00
0.133261625000000,78,0x8A,0x00
0.133265250000000,78,0xD0,0x00
0.133268750000000,78,0xD0,0x00
0.135869000000000,79,0x21,0x2E
0.135872625000000,79,0x00,0x00
0.135890500000000,80,0x24,0x2E
0.135894000000000,80,0x00,0x00
0.135911875000000,81,0x20,0x2E
0.135915500000000,81,0x5E,0x00
0.135933500000000,82,0x26,0x2E
0.135937000000000,82,0x22,0x00
0.135958750000000,83,0x30,0x2E
0.135962250000000,83,0x41,0x00
0.135965875000000,83,0x01,0x00
0.135969375000000,83,0x9A,0x00
0.135973000000000,83,0xAA,0x00
0.135992125000000,84,0x26,0x2E
0.135995750000000,84,0x22,0x00
0.136013375000000,85,0xE1,0x2E
0.136035250000000,86,0x25,0x2E
0.136038750000000,86,0x03,0x00
0.137606250000000,87,0x27,0x2E
0.137609875000000,87,0x70,0x00
0.137630875000000,88,0xA0,0x0E
0.137634375000000,88,0x00,0x00
0.137638000000000,88,0x06,0x00
0.137641500000000,88,0xB4,0x00
0.137645125000000,88,0x09,0x00
0.137648625000000,88,0x8A,0x00
0.137652125000000,88,0xD0,0x00
0.139238750000000,89,0x27,0x2E
0.139242250000000,89,0x70,0x00
0.139263250000000,90,0xA0,0x0E
0.139266875000000,90,0x00,0x00
0.139270375000000,90,0x06,0x00
0.139274000000000,90,0xB4,0x00
0.139277500000000,90,0x09,0x00
0.139281000000000,90,0x8A,0x00
0.139284625000000,90,0xD0,0x00
0.141837500000000,91,0x21,0x2E
0.141841125000000,91,0x00,0x00
0.141859125000000,92,0x24,0x2E
0.141862625000000,92,0x00,0x00
0.141880750000000,93,0x20,0x2E
0.141884250000000,93,0x5E,0x00
0.141902250000000,94,0x26,0x2E
0.141905750000000,94,0x22,0x00
0.141927625000000,95,0x30,0x2E
0.141931250000000,95,0x4E,0x00
0.141934750000000,95,0x01,0x00
0.141938375000000,95,0x9A,0x00
0.141941875000000,95,0xAA,0x00
0.141961125000000,96,0x26,0x2E
0.141964625000000,96,0x22,0x00
0.141982250000000,97,0xE1,0x2E
0.142004125000000,98,0x25,0x2E
0.142007625000000,98,0x2A,0x00
0.143574750000000,99,0x27,0x2E
0.143578250000000,99,0x70,0x00
0.143599000000000,100,0xA0,0x0E
0.143602625000000,100,0x00,0x00
0.143606125000000,100,0x06,0x00
0.143609750000000,100,0xB4,0x00
0.143613250000000,100,0x09,0x00
0.143616875000000,100,0x8A,0x00
0.145258125000000,101,0x27,0x2E
0.145261750000000,101,0x70,0x00
0.145282625000000,102,0xA0,0x0E
0.145286125000000,102,0x00,0x00
0.145289750000000,102,0x06,0x00
0.145293250000000,102,0xB4,0x00
0.145296875000000,102,0x09,0x00
0.145300375000000,102,0x8A,0x00
0.147857125000000,103,0x21,0x2E
0.147860625000000,103,0x00,0x00
0.147878500000000,104,0x24,0x2E
0.147882125000000,104,0x00,0x00
0.147900000000000,105,0x20,0x2E
0.147903500000000,105,0x5E,0x00
0.147921500000000,106,0x26,0x2E
0.147925000000000,106,0x22,0x00
0.147946875000000,107,0x30,0x2E
0.147950500000000,107,0x47,0x00
0.147954000000000,107,0x01,0x00
0.147957625000000,107,0x9A,0x00
0.147961125000000,107,0xAA,0x00
0.147980375000000,108,0x26,0x2E
0.147983875000000,108,0x22,0x00
0.148001500000000,109,0xE1,0x2E
0.148023500000000,110,0x25,0x2E
0.148027125000000,110,0x08,0x00
0.149594125000000,111,0x27,0x2E
0.149597750000000,111,0x70,0x00
0.149618750000000,112,0xA0,0x0E
0.149622250000000,112,0x00,0x00
0.149625875000000,112,0x06,0x00
0.149629375000000,112,0xB4,0x00
0.149633000000000,112,0x09,0x00
0.149636500000000,112,0x8A,0x00
0.149640125000000,112,0xD0,0x00
0.149643625000000,112,0xD0,0x00
0.151226625000000,113,0x27,0x2E
0.151230250000000,113,0x70,0x00
0.151251375000000,114,0xA0,0x0E
0.151254875000000,114,0x00,0x00
0.151258500000000,114,0x06,0x00
0.151262000000000,114,0xB4,0x00
0.151265625000000,114,0x09,0x00
0.151269125000000,114,0x8A,0x00
0.151272750000000,114,0xD0,0x00
0.151276250000000,114,0xD0,0x00
0.153825500000000,115,0x21,0x2E
0.153829125000000,115,0x00,0x00
0.153847125000000,116,0x24,0x2E
0.153850625000000,116,0x00,0x00
0.153868625000000,117,0x20,0x2E
0.153872250000000,117,0x5E,0x00
0.153890250000000,118,0x26,0x2E
0.153893750000000,118,0x22,0x00
0.153915625000000,119,0x30,0x2E
0.153919125000000,119,0x41,0x00
0.153922750000000,119,0x01,0x00
0.153926250000000,119,0x9A,0x00
0.153929875000000,119,0xAA,0x00
0.153949000000000,120,0x26,0x2E
0.153952625000000,120,0x22,0x00
0.153970250000000,121,0xE1,0x2E
0.153992125000000,122,0x25,0x2E
0.153995625000000,122,0x23,0x00
0.155613750000000,123,0x27,0x2E
0.155617250000000,123,0x70,0x00
0.155638125000000,124,0xA0,0x0E
0.155641750000000,124,0x00,0x00
0.155645250000000,124,0x06,0x00
0.155648750000000,124,0xB4,0x00
0.155652375000000,124,0x09,0x00
0.155655875000000,124,0x8A,0x00
0.155659500000000,124,0xD0,0x00
0.157246125000000,125,0x27,0x2E
0.157249750000000,125,0x70,0x00
0.157270750000000,126,0xA0,0x0E
0.157274250000000,126,0x00,0x00
0.157277875000000,126,0x06,0x00
0.157281375000000,126,0xB4,0x00
0.157285000000000,126,0x09,0x00
0.157288500000000,126,0x8A,0x00
0.157292125000000,126,0xD0,0x00
0.159845000000000,127,0x21,0x2E
0.159848625000000,127,0x00,0x00
0.159866625000000,128,0x24,0x2E
0.159870125000000,128,0x00,0x00
0.159888125000000,129,0x20,0x2E
0.159891750000000,129,0x5E,0x00
0.159909750000000,130,0x26,0x2E
0.159913250000000,130,0x22,0x00
0.159935125000000,131,0x30,0x2E
0.159938625000000,131,0x4E,0x00
0.159942250000000,131,0x01,0x00
0.159945750000000,131,0x9A,0x00
0.159949375000000,131,0xAA,0x00
0.159968500000000,132,0x26,0x2E
0.159972125000000,132,0x22,0x00
0.159989750000000,133,0xE1,0x2E
0.160011625000000,134,0x25,0x2E
0.160015125000000,134,0x36,0x00
0.161582125000000,135,0x27,0x2E
0.161585750000000,135,0x70,0x00
0.161606500000000,136,0xA0,0x0E
0.161610000000000,136,0x00,0x00
0.161613625000000,136,0x06,0x00
0.161617125000000,136,0xB4,0x00
0.161620750000000,136,0x09,0x00
0.161624250000000,136,0x8A,0x00
0.163214625000000,137,0x27,0x2E
0.163218250000000,137,0x70,0x00
0.163239125000000,138,0xA0,0x0E
0.163242625000000,138,0x00,0x00
0.163246250000000,138,0x06,0x00
0.163249750000000,138,0xB4,0x00
0.163253375000000,138,0x09,0x00
0.163256875000000,138,0x8A,0x00
0.165864625000000,139,0x21,0x2E
0.165868125000000,139,0x00,0x00
0.165886000000000,140,0x24,0x2E
0.165889500000000,140,0x00,0x00
0.165907500000000,141,0x20,0x2E
0.165911000000000,141,0x5E,0x00
0.165929000000000,142,0x26,0x2E
0.165932500000000,142,0x22,0x00
0.165954375000000,143,0x30,0x2E
0.165958000000000,143,0x47,0x00
0.165961500000000,143,0x01,0x00
0.165965000000000,143,0x9A,0x00
0.165968625000000,143,0xAA,0x00
0.165987750000000,144,0x26,0x2E
0.165991375000000,144,0x22,0x00
0.166009000000000,145,0xE1,0x2E
0.166030875000000,146,0x25,0x2E
0.166034375000000,146,0x04,0x00
0.167601750000000,147,0x27,0x2E
0.167605250000000,147,0x70,0x00
0.167626375000000,148,0xA0,0x0E
0.167629875000000,148,0x00,0x00
0.167633500000000,148,0x06,0x00
0.167637000000000,148,0xB4,0x00
0.167640625000000,148,0x09,0x00
0.167644125000000,148,0x8A,0x00
0.167647750000000,148,0xD0,0x00
0.167651250000000,148,0xD0,0x00
0.169234125000000,149,0x27,0x2E
0.169237625000000,149,0x70,0x00
0.169258750000000,150,0xA0,0x0E
0.169262375000000,150,0x00,0x00
0.169265875000000,150,0x06,0x00
0.169269500000000,150,0xB4,0x00
0.169273000000000,150,0x09,0x00
0.169276625000000,150,0x8A,0x00
0.169280125000000,150,0xD0,0x00
0.169283750000000,150,0xD0,0x00
0.171833000000000,151,0x21,0x2E
0.171836500000000,151,0x00,0x00
0.171854375000000,152,0x24,0x2E
0.171858000000000,152,0x00,0x00
0.171875875000000,153,0x20,0x2E
0.171879375000000,153,0x5E,0x00
0.171897375000000,154,0x26,0x2E
0.171900875000000,154,0x22,0x00
0.171922625000000,155,0x30,0x2E
0.171926125000000,155,0x41,0x00
0.171929750000000,155,0x01,0x00
0.171933250000000,155,0x9A,0x00
0.171936875000000,155,0xAA,0x00
0.171956000000000,156,0x26,0x2E
0.171959625000000,156,0x22,0x00
0.171977250000000,157,0xE1,0x2E
0.171999125000000,158,0x25,0x2E
0.172002625000000,158,0x2B,0x00
0.173570125000000,159,0x27,0x2E
0.173573625000000,159,0x70,0x00
0.173594500000000,160,0xA0,0x0E
0.173598125000000,160,0x00,0x00
0.173601625000000,160,0x06,0x00
0.173605250000000,160,0xB4,0x00
0.173608750000000,160,0x09,0x00
0.173612375000000,160,0x8A,0x00
0.173615875000000,160,0xD0,0x00
0.175202625000000,161,0x27,0x2E
0.175206125000000,161,0x70,0x00
0.175227125000000,162,0xA0,0x0E
0.175230750000000,162,0x00,0x00
0.175234250000000,162,0x06,0x00
0.175237875000000,162,0xB4,0x00
0.175241375000000,162,0x09,0x00
0.175245000000000,162,0x8A,0x00
0.175248500000000,162,0xD0,0x00
0.177852375000000,163,0x21,0x2E
0.177856000000000,163,0x00,0x00
0.177873875000000,164,0x24,0x2E
0.177877375000000,164,0x00,0x00
0.177895375000000,165,0x20,0x2E
0.177898875000000,165,0x5E,0x00
0.177916875000000,166,0x26,0x2E
0.177920375000000,166,0x22,0x00
0.177942125000000,167,0x30,0x2E
0.177945625000000,167,0x4E,0x00
0.177949250000000,167,0x01,0x00
0.177952750000000,167,0x9A,0x00
0.177956375000000,167,0xAA,0x00
0.177975500000000,168,0x26,0x2E
0.177979125000000,168,0x22,0x00
0.177996750000000,169,0xE1,0x2E
0.178018625000000,170,0x25,0x2E
0.178022125000000,170,0x39,0x00
0.179589625000000,171,0x27,0x2E
0.179593125000000,171,0x70,0x00
0.179613875000000,172,0xA0,0x0E
0.179617500000000,172,0x00,0x00
0.179621000000000,172,0x06,0x00
0.179624625000000,172,0xB4,0x00
0.179628125000000,172,0x09,0x00
0.179631750000000,172,0x8A,0x00
0.181222125000000,173,0x27,0x2E
0.181225625000000,173,0x70,0x00
0.181246500000000,174,0xA0,0x0E
0.181250000000000,174,0x00,0x00
0.181253500000000,174,0x06,0x00
0.181257125000000,174,0xB4,0x00
0.181260625000000,174,0x09,0x00
0.181264250000000,174,0x8A,0x00
0.183821000000000,175,0x21,0x2E
0.183824625000000,175,0x00,0x00
0.183842625000000,176,0x24,0x2E
0.183846125000000,176,0x00,0x00
0.183864250000000,177,0x20,0x2E
0.183867750000000,177,0x5E,0x00
0.183885750000000,178,0x26,0x2E
0.183889250000000,178,0x22,0x00
0.183911125000000,179,0x30,0x2E
0.183914625000000,179,0x47,0x00
0.183918250000000,179,0x01,0x00
0.183921750000000,179,0x9A,0x00
0.183925375000000,179,0xAA,0x00
0.183944500000000,180,0x26,0x2E
0.183948125000000,180,0x22,0x00
0.183965750000000,181,0xE1,0x2E
0.183987750000000,182,0x25,0x2E
0.183991250000000,182,0x03,0x00
0.185558125000000,183,0x27,0x2E
0.185561625000000,183,0x70,0x00
0.185582625000000,184,0xA0,0x0E
0.185586250000000,184,0x00,0x00
0.185589750000000,184,0x06,0x00
0.185593375000000,184,0xB4,0x00
0.185596875000000,184,0x09,0x00
0.185600375000000,184,0x8A,0x00
0.185604000000000,184,0xD0,0x00
0.185607500000000,184,0xD0,0x00
0.187241625000000,185,0x27,0x2E
0.187245125000000,185,0x70,0x00
0.187266250000000,186,0xA0,0x0E
0.187269875000000,186,0x00,0x00
0.187273375000000,186,0x06,0x00
0.187276875000000,186,0xB4,0x00
0.187280500000000,186,0x09,0x00
0.187284000000000,186,0x8A,0x00
0.187287625000000,186,0xD0,0x00
0.187291125000000,186,0xD0,0x00
0.189840375000000,187,0x21,0x2E
0.189844000000000,187,0x00,0x00
0.189862000000000,188,0x24,0x2E
0.189865500000000,188,0x00,0x00
0.189883625000000,189,0x20,0x2E
0.189887125000000,189,0x5E,0x00
0.189905125000000,190,0x26,0x2E
0.189908625000000,190,0x22,0x00
0.189930500000000,191,0x30,0x2E
0.189934125000000,191,0x41,0x00
0.189937625000000,191,0x01,0x00
0.189941250000000,191,0x9A,0x00
0.189944750000000,191,0xAA,0x00
0.189964000000000,192,0x26,0x2E
0.189967500000000,192,0x22,0x00
0.189985125000000,193,0xE1,0x2E
0.190007000000000,194,0x25,0x2E
0.190010500000000,194,0x2A,0x00
0.191577625000000,195,0x27,0x2E
0.191581125000000,195,0x70,0x00
0.191602000000000,196,0xA0,0x0E
0.191605500000000,196,0x00,0x00
0.191609125000000,196,0x06,0x00
0.191612625000000,196,0xB4,0x00
0.191616250000000,196,0x09,0x00
0.191619750000000,196,0x8A,0x00
0.191623375000000,196,0xD0,0x00
0.193210125000000,197,0x27,0x2E
0.193213625000000,197,0x70,0x00
0.193234500000000,198,0xA0,0x0E
0.193238125000000,198,0x00,0x00
0.193241625000000,198,0x06,0x00
0.193245250000000,198,0xB4,0x00
0.193248750000000,198,0x09,0x00
0.193252250000000,198,0x8A,0x00
0.193255875000000,198,0xD0,0x00
0.195808875000000,199,0x21,0x2E
0.195812375000000,199,0x00,0x00
0.195830250000000,200,0x24,0x2E
0.195833875000000,200,0x00,0x00
0.195851750000000,201,0x20,0x2E
0.195855250000000,201,0x5E,0x00
0.195873250000000,202,0x26,0x2E
0.195876750000000,202,0x22,0x00
0.195898625000000,203,0x30,0x2E
0.195902250000000,203,0x4E,0x00
0.195905750000000,203,0x01,0x00
0.195909375000000,203,0x9A,0x00
0.195912875000000,203,0xAA,0x00
0.195932125000000,204,0x26,0x2E
0.195935625000000,204,0x22,0x00
0.195953250000000,205,0xE1,0x2E
0.195975125000000,206,0x25,0x2E
0.195978750000000,206,0x3A,0x00
0.197546000000000,207,0x27,0x2E
0.197549625000000,207,0x70,0x00
0.197570375000000,208,0xA0,0x0E
0.197573875000000,208,0x00,0x00
0.197577500000000,208,0x06,0x00
0.197581000000000,208,0xB4,0x00
0.197584625000000,208,0x09,0x00
